! TOUCHSTONE file generated by CST DESIGN STUDIO
! Date and time: Tue Feb  4 14:11:50 2025
! Project name: C:\Work\MatlabApps\UnitCellOptimizationMatlab\CST\unitcell.cst
! Tree item: Tasks\Sweep1\SPara1\S-Parameters
! Header version: 2024
! Port assignment regex: !\s*Touchstone port\s*([0-9]+)\s*=\s*(CST MWS port|CST DES external port|CST DES block port)\s*(.+)\s* \(\"(.*)\"\)(\s*mode\s*([0-9]+))?.*
! Touchstone port assignment:
! Touchstone port 1 = CST DES external port 1 ("")
# GHz S MA R 50
9                    0.953855456     -64.0235235
9.001                0.953745852     -64.1158876
9.002                0.953635881     -64.2084759
9.003                0.953525542     -64.3012893
9.004                0.953414834     -64.3943284
9.005                0.953303756      -64.487594
9.006                0.953192306     -64.5810869
9.007                0.953080483     -64.6748077
9.008                0.952968286     -64.7687572
9.009                0.952855714     -64.8629362
9.01                 0.952742766     -64.9573454
9.011                0.952629441     -65.0519856
9.012                0.952515737     -65.1468574
9.013                0.952401653     -65.2419617
9.014                0.952287187     -65.3372993
9.015                 0.95217234     -65.4328708
9.016                0.952057109      -65.528677
9.017                0.951941494     -65.6247188
9.018                0.951825493     -65.7209968
9.019                0.951709104     -65.8175118
9.02                 0.951592328     -65.9142647
9.021                0.951475162     -66.0112562
9.022                0.951357605      -66.108487
9.023                0.951239656      -66.205958
9.024                0.951121315     -66.3036699
9.025                0.951002579     -66.4016235
9.026                0.950883447     -66.4998196
9.027                0.950763919     -66.5982591
9.028                0.950643993     -66.6969426
9.029                0.950523668      -66.795871
9.03                 0.950402942     -66.8950451
9.031                0.950281815     -66.9944657
9.032                0.950160285     -67.0941336
9.033                 0.95003835     -67.1940495
9.034                0.949916011     -67.2942144
9.035                0.949793265     -67.3946291
9.036                0.949670111     -67.4952942
9.037                0.949546548     -67.5962108
9.038                0.949422575     -67.6973795
9.039                0.949298191     -67.7988012
9.04                 0.949173394     -67.9004768
9.041                0.949048183      -68.002407
9.042                0.948922556     -68.1045927
9.043                0.948796514     -68.2070347
9.044                0.948670053     -68.3097339
9.045                0.948543174     -68.4126912
9.046                0.948415875     -68.5159072
9.047                0.948288154      -68.619383
9.048                0.948160011     -68.7231193
9.049                0.948031444      -68.827117
9.05                 0.947902452      -68.931377
9.051                0.947773033     -69.0359001
9.052                0.947643187     -69.1406871
9.053                0.947512912      -69.245739
9.054                0.947382207     -69.3510566
9.055                0.947251071     -69.4566408
9.056                0.947119502     -69.5624924
9.057                0.946987499     -69.6686123
9.058                0.946855061     -69.7750014
9.059                0.946722187     -69.8816606
9.06                 0.946588875     -69.9885907
9.061                0.946455125     -70.0957926
9.062                0.946320934     -70.2032673
9.063                0.946186302     -70.3110156
9.064                0.946051228     -70.4190385
9.065                 0.94591571     -70.5273367
9.066                0.945779746     -70.6359112
9.067                0.945643337      -70.744763
9.068                0.945506479     -70.8538929
9.069                0.945369173     -70.9633017
9.07                 0.945231417     -71.0729906
9.071                 0.94509321     -71.1829603
9.072                 0.94495455     -71.2932117
9.073                0.944815436     -71.4037458
9.074                0.944675868     -71.5145636
9.075                0.944535843     -71.6256658
9.076                 0.94439536     -71.7370536
9.077                0.944254419     -71.8487277
9.078                0.944113018     -71.9606892
9.079                0.943971155     -72.0729389
9.08                  0.94382883     -72.1854778
9.081                0.943686042     -72.2983069
9.082                0.943542788      -72.411427
9.083                0.943399068     -72.5248392
9.084                0.943254881     -72.6385444
9.085                0.943110226     -72.7525436
9.086                  0.9429651     -72.8668376
9.087                0.942819503     -72.9814275
9.088                0.942673434     -73.0963142
9.089                0.942526891     -73.2114988
9.09                 0.942379874      -73.326982
9.091                0.942232381      -73.442765
9.092                 0.94208441     -73.5588487
9.093                0.941935961     -73.6752341
9.094                0.941787033     -73.7919222
9.095                0.941637623     -73.9089138
9.096                0.941487732     -74.0262102
9.097                0.941337357     -74.1438121
9.098                0.941186498     -74.2617206
9.099                0.941035153     -74.3799368
9.1                  0.940883322     -74.4984615
9.101                0.940731002     -74.6172958
9.102                0.940578193     -74.7364408
9.103                0.940424894     -74.8558973
9.104                0.940271103     -74.9756665
9.105                0.940116819     -75.0957492
9.106                0.939962042     -75.2161466
9.107                0.939806769     -75.3368597
9.108                0.939651001     -75.4578895
9.109                0.939494734     -75.5792369
9.11                 0.939337969     -75.7009031
9.111                0.939180705      -75.822889
9.112                0.939022939     -75.9451957
9.113                0.938864672     -76.0678242
9.114                0.938705901     -76.1907755
9.115                0.938546626     -76.3140508
9.116                0.938386846      -76.437651
9.117                0.938226559     -76.5615771
9.118                0.938065764     -76.6858303
9.119                 0.93790446     -76.8104115
9.12                 0.937742647     -76.9353219
9.121                0.937580323     -77.0605625
9.122                0.937417486     -77.1861343
9.123                0.937254136     -77.3120384
9.124                0.937090272     -77.4382758
9.125                0.936925893     -77.5648477
9.126                0.936760997     -77.6917551
9.127                0.936595584     -77.8189991
9.128                0.936429652     -77.9465807
9.129                0.936263201     -78.0745011
9.13                 0.936096228     -78.2027612
9.131                0.935928735     -78.3313622
9.132                0.935760718     -78.4603052
9.133                0.935592178     -78.5895913
9.134                0.935423112     -78.7192215
9.135                0.935253522      -78.849197
9.136                0.935083404     -78.9795187
9.137                0.934912758      -79.110188
9.138                0.934741584     -79.2412057
9.139                 0.93456988     -79.3725731
9.14                 0.934397645     -79.5042913
9.141                0.934224879     -79.6363613
9.142                 0.93405158     -79.7687843
9.143                0.933877747     -79.9015613
9.144                 0.93370338     -80.0346936
9.145                0.933528477     -80.1681822
9.146                0.933353038     -80.3020282
9.147                0.933177062     -80.4362327
9.148                0.933000548      -80.570797
9.149                0.932823494      -80.705722
9.15                 0.932645901      -80.841009
9.151                0.932467767     -80.9766591
9.152                0.932289091     -81.1126734
9.153                0.932109873      -81.249053
9.154                0.931930111     -81.3857991
9.155                0.931749806     -81.5229129
9.156                0.931568955     -81.6603954
9.157                0.931387559     -81.7982479
9.158                0.931205616     -81.9364714
9.159                0.931023126     -82.0750671
9.16                 0.930840088     -82.2140362
9.161                0.930656501     -82.3533799
9.162                0.930472365     -82.4930992
9.163                0.930287678     -82.6331954
9.164                 0.93010244     -82.7736696
9.165                0.929916651      -82.914523
9.166                0.929730309     -83.0557567
9.167                0.929543414      -83.197372
9.168                0.929355966     -83.3393699
9.169                0.929167963     -83.4817517
9.17                 0.928979406     -83.6245185
9.171                0.928790293     -83.7676715
9.172                0.928600624     -83.9112119
9.173                0.928410398     -84.0551408
9.174                0.928219614     -84.1994595
9.175                0.928028273     -84.3441691
9.176                0.927836374     -84.4892709
9.177                0.927643915     -84.6347659
9.178                0.927450898     -84.7806555
9.179                 0.92725732     -84.9269407
9.18                 0.927063182     -85.0736228
9.181                0.926868483      -85.220703
9.182                0.926673223     -85.3681824
9.183                0.926477402     -85.5160623
9.184                0.926281018     -85.6643438
9.185                0.926084072     -85.8130283
9.186                0.925886564     -85.9621168
9.187                0.925688492     -86.1116105
9.188                0.925489856     -86.2615108
9.189                0.925290657     -86.4118187
9.19                 0.925090894     -86.5625355
9.191                0.924890567     -86.7136624
9.192                0.924689675     -86.8652006
9.193                0.924488218     -87.0171513
9.194                0.924286197     -87.1695158
9.195                 0.92408361     -87.3222952
9.196                0.923880458     -87.4754908
9.197                0.923676741     -87.6291038
9.198                0.923472458     -87.7831354
9.199                 0.92326761     -87.9375867
9.2                  0.923062195     -88.0924592
9.201                0.922856215     -88.2477538
9.202                 0.92264967      -88.403472
9.203                0.922442558     -88.5596148
9.204                0.922234881     -88.7161836
9.205                0.922026638     -88.8731795
9.206                 0.92181783     -89.0306038
9.207                0.921608456     -89.1884577
9.208                0.921398516     -89.3467425
9.209                0.921188011     -89.5054592
9.21                 0.920976942     -89.6646093
9.211                0.920765307     -89.8241938
9.212                0.920553108     -89.9842141
9.213                0.920340344     -90.1446713
9.214                0.920127016     -90.3055667
9.215                0.919913125     -90.4669016
9.216                0.919698669     -90.6286771
9.217                0.919483651     -90.7908944
9.218                 0.91926807     -90.9535549
9.219                0.919051927     -91.1166597
9.22                 0.918835222       -91.28021
9.221                0.918617956     -91.4442072
9.222                0.918400128     -91.6086523
9.223                0.918181741     -91.7735468
9.224                0.917962793     -91.9388916
9.225                0.917743287     -92.1046882
9.226                0.917523222     -92.2709378
9.227                0.917302599     -92.4376415
9.228                0.917081419     -92.6048005
9.229                0.916859683     -92.7724162
9.23                 0.916637391     -92.9404897
9.231                0.916414544     -93.1090223
9.232                0.916191143     -93.2780152
9.233                0.915967189     -93.4474696
9.234                0.915742683     -93.6173867
9.235                0.915517626     -93.7877678
9.236                0.915292018      -93.958614
9.237                0.915065861     -94.1299267
9.238                0.914839155      -94.301707
9.239                0.914611902      -94.473956
9.24                 0.914384103     -94.6466752
9.241                 0.91415576     -94.8198656
9.242                0.913926872     -94.9935284
9.243                0.913697442      -95.167665
9.244                 0.91346747     -95.3422764
9.245                0.913236959      -95.517364
9.246                0.913005909     -95.6929288
9.247                0.912774322     -95.8689722
9.248                0.912542199     -96.0454953
9.249                0.912309541     -96.2224993
9.25                 0.912076351     -96.3999854
9.251                 0.91184263     -96.5779548
9.252                0.911608378     -96.7564087
9.253                0.911373599     -96.9353483
9.254                0.911138293     -97.1147748
9.255                0.910902463     -97.2946893
9.256                 0.91066611     -97.4750931
9.257                0.910429235     -97.6559874
9.258                0.910191842     -97.8373732
9.259                 0.90995393     -98.0192518
9.26                 0.909715504     -98.2016244
9.261                0.909476564     -98.3844921
9.262                0.909237113     -98.5678561
9.263                0.908997152     -98.7517175
9.264                0.908756684     -98.9360776
9.265                0.908515711     -99.1209374
9.266                0.908274235     -99.3062982
9.267                0.908032259      -99.492161
9.268                0.907789784      -99.678527
9.269                0.907546814     -99.8653973
9.27                  0.90730335     -100.052773
9.271                0.907059395     -100.240656
9.272                0.906814951     -100.429046
9.273                0.906570022     -100.617945
9.274                 0.90632461     -100.807354
9.275                0.906078716     -100.997274
9.276                0.905832345     -101.187707
9.277                0.905585499     -101.378652
9.278                0.905338181     -101.570112
9.279                0.905090393     -101.762088
9.28                 0.904842139      -101.95458
9.281                0.904593421      -102.14759
9.282                0.904344243     -102.341119
9.283                0.904094607     -102.535168
9.284                0.903844517     -102.729737
9.285                0.903593977     -102.924829
9.286                0.903342988     -103.120443
9.287                0.903091556     -103.316582
9.288                0.902839682     -103.513245
9.289                0.902587371     -103.710435
9.29                 0.902334626     -103.908152
9.291                0.902081451     -104.106397
9.292                0.901827848     -104.305172
9.293                0.901573823     -104.504477
9.294                0.901319378     -104.704313
9.295                0.901064518     -104.904681
9.296                0.900809246     -105.105582
9.297                0.900553566     -105.307018
9.298                0.900297482     -105.508989
9.299                0.900040998     -105.711496
9.3                  0.899784119     -105.914541
9.301                0.899526849     -106.118123
9.302                0.899269191     -106.322244
9.303                 0.89901115     -106.526906
9.304                0.898752731     -106.732108
9.305                0.898493938     -106.937852
9.306                0.898234775     -107.144139
9.307                0.897975247     -107.350969
9.308                0.897715359     -107.558344
9.309                0.897455115     -107.766265
9.31                  0.89719452     -107.974731
9.311                0.896933579     -108.183745
9.312                0.896672297     -108.393307
9.313                0.896410678     -108.603418
9.314                0.896148729     -108.814078
9.315                0.895886453     -109.025289
9.316                0.895623856     -109.237052
9.317                0.895360944     -109.449366
9.318                0.895097722     -109.662234
9.319                0.894834194     -109.875655
9.32                 0.894570368     -110.089631
9.321                0.894306247     -110.304162
9.322                0.894041838     -110.519249
9.323                0.893777146     -110.734892
9.324                0.893512177     -110.951094
9.325                0.893246938     -111.167853
9.326                0.892981433     -111.385172
9.327                0.892715669      -111.60305
9.328                0.892449652     -111.821488
9.329                0.892183387     -112.040487
9.33                 0.891916882     -112.260048
9.331                0.891650142     -112.480172
9.332                0.891383174     -112.700858
9.333                0.891115985     -112.922108
9.334                0.890848579     -113.143922
9.335                0.890580965       -113.3663
9.336                0.890313149     -113.589244
9.337                0.890045138     -113.812754
9.338                0.889776937     -114.036831
9.339                0.889508555     -114.261474
9.34                 0.889239999     -114.486685
9.341                0.888971274     -114.712464
9.342                0.888702389     -114.938811
9.343                 0.88843335     -115.165727
9.344                0.888164165     -115.393213
9.345                0.887894841     -115.621269
9.346                0.887625386     -115.849895
9.347                0.887355806     -116.079092
9.348                 0.88708611      -116.30886
9.349                0.886816306     -116.539199
9.35                   0.8865464     -116.770111
9.351                0.886276401     -117.001595
9.352                0.886006317     -117.233651
9.353                0.885736155      -117.46628
9.354                0.885465924     -117.699483
9.355                0.885195632     -117.933259
9.356                0.884925286     -118.167609
9.357                0.884654896     -118.402533
9.358                 0.88438447     -118.638032
9.359                0.884114016     -118.874104
9.36                 0.883843542     -119.110752
9.361                0.883573057     -119.347974
9.362                 0.88330257     -119.585772
9.363                 0.88303209     -119.824145
9.364                0.882761626     -120.063093
9.365                0.882491185     -120.302616
9.366                0.882220778     -120.542715
9.367                0.881950414      -120.78339
9.368                0.881680101      -121.02464
9.369                0.881409849     -121.266466
9.37                 0.881139667     -121.508868
9.371                0.880869565     -121.751845
9.372                0.880599552     -121.995398
9.373                0.880329637     -122.239527
9.374                0.880059831     -122.484231
9.375                0.879790143      -122.72951
9.376                0.879520582     -122.975365
9.377                0.879251159     -123.221795
9.378                0.878981883       -123.4688
9.379                0.878712765     -123.716379
9.38                 0.878443814     -123.964534
9.381                0.878175041     -124.213262
9.382                0.877906457     -124.462565
9.383                0.877638071     -124.712442
9.384                0.877369893     -124.962892
9.385                0.877101935     -125.213916
9.386                0.876834206     -125.465512
9.387                0.876566718     -125.717681
9.388                0.876299481     -125.970423
9.389                0.876032506     -126.223736
9.39                 0.875765804      -126.47762
9.391                0.875499386     -126.732075
9.392                0.875233262     -126.987101
9.393                0.874967444     -127.242696
9.394                0.874701943     -127.498861
9.395                 0.87443677     -127.755594
9.396                0.874171936     -128.012896
