! TOUCHSTONE file generated by CST DESIGN STUDIO
! Date and time: Tue Feb  4 14:11:57 2025
! Project name: C:\Work\MatlabApps\UnitCellOptimizationMatlab\CST\unitcell.cst
! Tree item: Tasks\Sweep1\SPara1\S-Parameters
! Header version: 2024
! Port assignment regex: !\s*Touchstone port\s*([0-9]+)\s*=\s*(CST MWS port|CST DES external port|CST DES block port)\s*(.+)\s* \(\"(.*)\"\)(\s*mode\s*([0-9]+))?.*
! Touchstone port assignment:
! Touchstone port 1 = CST DES external port 1 ("")
# GHz S MA R 50
9                    0.962746079     -51.4148441
9.001                0.962672891     -51.4809929
9.002                0.962599469     -51.5472831
9.003                0.962525815     -51.6137149
9.004                0.962451926      -51.680289
9.005                0.962377802     -51.7470057
9.006                0.962303443     -51.8138654
9.007                0.962228847     -51.8808687
9.008                0.962154013     -51.9480159
9.009                0.962078942     -52.0153076
9.01                 0.962003632      -52.082744
9.011                0.961928083     -52.1503258
9.012                0.961852293     -52.2180533
9.013                0.961776262     -52.2859271
9.014                0.961699989     -52.3539475
9.015                0.961623474      -52.422115
9.016                0.961546715       -52.49043
9.017                0.961469712     -52.5588932
9.018                0.961392464     -52.6275048
9.019                 0.96131497     -52.6962653
9.02                 0.961237229     -52.7651753
9.021                0.961159241     -52.8342352
9.022                0.961081004     -52.9034455
9.023                0.961002519     -52.9728065
9.024                0.960923783     -53.0423189
9.025                0.960844797      -53.111983
9.026                 0.96076556     -53.1817994
9.027                 0.96068607     -53.2517686
9.028                0.960606327     -53.3218909
9.029                 0.96052633     -53.3921669
9.03                 0.960446078     -53.4625971
9.031                 0.96036557     -53.5331819
9.032                0.960284806     -53.6039219
9.033                0.960203785     -53.6748175
9.034                0.960122505     -53.7458692
9.035                0.960040967     -53.8170775
9.036                0.959959168      -53.888443
9.037                0.959877109      -53.959966
9.038                0.959794788     -54.0316471
9.039                0.959712205     -54.1034868
9.04                 0.959629359     -54.1754856
9.041                0.959546248      -54.247644
9.042                0.959462873     -54.3199625
9.043                0.959379231     -54.3924416
9.044                0.959295323     -54.4650818
9.045                0.959211147     -54.5378836
9.046                0.959126703     -54.6108476
9.047                0.959041989     -54.6839742
9.048                0.958957006      -54.757264
9.049                 0.95887175     -54.8307174
9.05                 0.958786223     -54.9043351
9.051                0.958700423     -54.9781175
9.052                0.958614349     -55.0520651
9.053                0.958528001     -55.1261785
9.054                0.958441377     -55.2004582
9.055                0.958354476     -55.2749047
9.056                0.958267298     -55.3495186
9.057                0.958179842     -55.4243004
9.058                0.958092106     -55.4992506
9.059                 0.95800409     -55.5743697
9.06                 0.957915793     -55.6496584
9.061                0.957827214     -55.7251171
9.062                0.957738352     -55.8007464
9.063                0.957649206     -55.8765468
9.064                0.957559776     -55.9525189
9.065                 0.95747006     -56.0286632
9.066                0.957380057     -56.1049803
9.067                0.957289766     -56.1814707
9.068                0.957199187     -56.2581351
9.069                0.957108319     -56.3349738
9.07                  0.95701716     -56.4119876
9.071                 0.95692571     -56.4891769
9.072                0.956833967     -56.5665424
9.073                0.956741931     -56.6440845
9.074                0.956649601     -56.7218039
9.075                0.956556976     -56.7997012
9.076                0.956464054     -56.8777768
9.077                0.956370835     -56.9560314
9.078                0.956277318     -57.0344656
9.079                0.956183502     -57.1130799
9.08                 0.956089386     -57.1918749
9.081                0.955994969     -57.2708512
9.082                 0.95590025     -57.3500094
9.083                0.955805228       -57.42935
9.084                0.955709902     -57.5088737
9.085                0.955614271      -57.588581
9.086                0.955518333     -57.6684726
9.087                0.955422089      -57.748549
9.088                0.955325537     -57.8288108
9.089                0.955228676     -57.9092586
9.09                 0.955131505     -57.9898931
9.091                0.955034022     -58.0707149
9.092                0.954936228     -58.1517244
9.093                 0.95483812     -58.2329224
9.094                0.954739699     -58.3143095
9.095                0.954640962     -58.3958862
9.096                 0.95454191     -58.4776533
9.097                 0.95444254     -58.5596112
9.098                0.954342852     -58.6417607
9.099                0.954242844     -58.7241023
9.1                  0.954142517     -58.8066367
9.101                0.954041868     -58.8893645
9.102                0.953940897     -58.9722863
9.103                0.953839602     -59.0554028
9.104                0.953737983     -59.1387146
9.105                0.953636038     -59.2222223
9.106                0.953533767     -59.3059266
9.107                0.953431169     -59.3898281
9.108                0.953328241     -59.4739274
9.109                0.953224984     -59.5582253
9.11                 0.953121396     -59.6427223
9.111                0.953017476      -59.727419
9.112                0.952913224     -59.8123163
9.113                0.952808637     -59.8974146
9.114                0.952703715     -59.9827147
9.115                0.952598457     -60.0682172
9.116                0.952492862     -60.1539228
9.117                0.952386928     -60.2398322
9.118                0.952280655      -60.325946
9.119                0.952174041     -60.4122648
9.12                 0.952067086     -60.4987894
9.121                0.951959788     -60.5855205
9.122                0.951852147     -60.6724586
9.123                 0.95174416     -60.7596045
9.124                0.951635827     -60.8469589
9.125                0.951527148     -60.9345225
9.126                 0.95141812     -61.0222959
9.127                0.951308742     -61.1102798
9.128                0.951199014     -61.1984749
9.129                0.951088935      -61.286882
9.13                 0.950978503     -61.3755016
9.131                0.950867717     -61.4643346
9.132                0.950756576     -61.5533815
9.133                0.950645079     -61.6426432
9.134                0.950533225     -61.7321204
9.135                0.950421012     -61.8218136
9.136                 0.95030844     -61.9117237
9.137                0.950195507     -62.0018513
9.138                0.950082213     -62.0921972
9.139                0.949968555     -62.1827622
9.14                 0.949854534     -62.2735468
9.141                0.949740147     -62.3645518
9.142                0.949625394     -62.4557781
9.143                0.949510274     -62.5472262
9.144                0.949394784      -62.638897
9.145                0.949278925     -62.7307911
9.146                0.949162695     -62.8229094
9.147                0.949046093     -62.9152524
9.148                0.948929118     -63.0078211
9.149                0.948811768     -63.1006161
9.15                 0.948694042     -63.1936382
9.151                0.948575939     -63.2868881
9.152                0.948457459     -63.3803666
9.153                0.948338599     -63.4740745
9.154                0.948219359     -63.5680124
9.155                0.948099738     -63.6621812
9.156                0.947979733     -63.7565817
9.157                0.947859345     -63.8512145
9.158                0.947738572     -63.9460805
9.159                0.947617412     -64.0411805
9.16                 0.947495865     -64.1365152
9.161                 0.94737393     -64.2320853
9.162                0.947251604     -64.3278917
9.163                0.947128888     -64.4239352
9.164                0.947005779     -64.5202166
9.165                0.946882277     -64.6167365
9.166                 0.94675838     -64.7134959
9.167                0.946634087     -64.8104956
9.168                0.946509397     -64.9077362
9.169                0.946384309     -65.0052186
9.17                 0.946258821     -65.1029437
9.171                0.946132933     -65.2009122
9.172                0.946006643      -65.299125
9.173                0.945879949     -65.3975828
9.174                0.945752852     -65.4962864
9.175                0.945625348     -65.5952368
9.176                0.945497438     -65.6944346
9.177                 0.94536912     -65.7938807
9.178                0.945240393     -65.8935761
9.179                0.945111256     -65.9935213
9.18                 0.944981707     -66.0937174
9.181                0.944851744     -66.1941652
9.182                0.944721368     -66.2948654
9.183                0.944590577      -66.395819
9.184                0.944459369     -66.4970267
9.185                0.944327743     -66.5984894
9.186                0.944195698      -66.700208
9.187                0.944063233     -66.8021833
9.188                0.943930346     -66.9044161
9.189                0.943797037     -67.0069074
9.19                 0.943663303      -67.109658
9.191                0.943529145     -67.2126687
9.192                 0.94339456     -67.3159404
9.193                0.943259548     -67.4194741
9.194                0.943124106     -67.5232704
9.195                0.942988235     -67.6273304
9.196                0.942851932     -67.7316549
9.197                0.942715196     -67.8362448
9.198                0.942578027      -67.941101
9.199                0.942440423     -68.0462244
9.2                  0.942302382     -68.1516158
9.201                0.942163904     -68.2572761
9.202                0.942024987     -68.3632063
9.203                 0.94188563     -68.4694072
9.204                0.941745832     -68.5758798
9.205                0.941605591     -68.6826249
9.206                0.941464906     -68.7896434
9.207                0.941323777     -68.8969364
9.208                0.941182201     -69.0045046
9.209                0.941040178      -69.112349
9.21                 0.940897706     -69.2204705
9.211                0.940754784     -69.3288701
9.212                0.940611411     -69.4375486
9.213                0.940467585      -69.546507
9.214                0.940323306     -69.6557463
9.215                0.940178572     -69.7652673
9.216                0.940033382      -69.875071
9.217                0.939887735     -69.9851583
9.218                0.939741629     -70.0955303
9.219                0.939595063     -70.2061877
9.22                 0.939448036     -70.3171317
9.221                0.939300547     -70.4283631
9.222                0.939152594     -70.5398829
9.223                0.939004176      -70.651692
9.224                0.938855293     -70.7637914
9.225                0.938705942     -70.8761822
9.226                0.938556123     -70.9888651
9.227                0.938405835     -71.1018413
9.228                0.938255075     -71.2151117
9.229                0.938103844     -71.3286773
9.23                 0.937952139      -71.442539
9.231                 0.93779996     -71.5566978
9.232                0.937647305     -71.6711548
9.233                0.937494173     -71.7859109
9.234                0.937340563     -71.9009671
9.235                0.937186473     -72.0163244
9.236                0.937031903     -72.1319838
9.237                0.936876852     -72.2479463
9.238                0.936721317     -72.3642129
9.239                0.936565298     -72.4807846
9.24                 0.936408794     -72.5976625
9.241                0.936251804     -72.7148475
9.242                0.936094326     -72.8323406
9.243                0.935936358      -72.950143
9.244                0.935777901     -73.0682555
9.245                0.935618953     -73.1866793
9.246                0.935459512     -73.3054153
9.247                0.935299578     -73.4244647
9.248                0.935139149     -73.5438283
9.249                0.934978224     -73.6635074
9.25                 0.934816802     -73.7835028
9.251                0.934654882     -73.9038157
9.252                0.934492463     -74.0244471
9.253                0.934329543     -74.1453981
9.254                0.934166121     -74.2666697
9.255                0.934002197     -74.3882629
9.256                0.933837768     -74.5101789
9.257                0.933672835     -74.6324186
9.258                0.933507396     -74.7549832
9.259                0.933341449     -74.8778738
9.26                 0.933174994     -75.0010913
9.261                0.933008029     -75.1246369
9.262                0.932840554     -75.2485117
9.263                0.932672568     -75.3727167
9.264                0.932504068      -75.497253
9.265                0.932335055     -75.6221217
9.266                0.932165527     -75.7473239
9.267                0.931995482     -75.8728607
9.268                0.931824921     -75.9987331
9.269                0.931653842     -76.1249424
9.27                 0.931482243     -76.2514895
9.271                0.931310125     -76.3783757
9.272                0.931137485     -76.5056019
9.273                0.930964323     -76.6331693
9.274                0.930790637     -76.7610791
9.275                0.930616427     -76.8893323
9.276                0.930441692       -77.01793
9.277                0.930266431     -77.1468734
9.278                0.930090642     -77.2761637
9.279                0.929914325     -77.4058018
9.28                 0.929737479     -77.5357891
9.281                0.929560103     -77.6661265
9.282                0.929382195     -77.7968153
9.283                0.929203756     -77.9278565
9.284                0.929024783     -78.0592514
9.285                0.928845276      -78.191001
9.286                0.928665234     -78.3231065
9.287                0.928484657     -78.4555691
9.288                0.928303543     -78.5883899
9.289                0.928121891     -78.7215701
9.29                 0.927939701     -78.8551108
9.291                0.927756971     -78.9890132
9.292                0.927573701     -79.1232784
9.293                 0.92738989     -79.2579077
9.294                0.927205537     -79.3929022
9.295                0.927020641      -79.528263
9.296                0.926835202     -79.6639914
9.297                0.926649218     -79.8000885
9.298                0.926462689     -79.9365555
9.299                0.926275614     -80.0733936
9.3                  0.926087992     -80.2106039
9.301                0.925899823     -80.3481877
9.302                0.925711106     -80.4861462
9.303                0.925521839     -80.6244804
9.304                0.925332023     -80.7631918
9.305                0.925141657     -80.9022813
9.306                0.924950739     -81.0417503
9.307                 0.92475927     -81.1815999
9.308                0.924567248     -81.3218314
9.309                0.924374673     -81.4624459
9.31                 0.924181544     -81.6034447
9.311                0.923987861      -81.744829
9.312                0.923793623     -81.8865999
9.313                 0.92359883     -82.0287588
9.314                 0.92340348     -82.1713068
9.315                0.923207573     -82.3142451
9.316                 0.92301111      -82.457575
9.317                0.922814088     -82.6012977
9.318                0.922616508     -82.7454144
9.319                0.922418369     -82.8899264
9.32                 0.922219671     -83.0348349
9.321                0.922020414     -83.1801411
9.322                0.921820596     -83.3258463
9.323                0.921620217     -83.4719517
9.324                0.921419277     -83.6184585
9.325                0.921217776      -83.765368
9.326                0.921015713     -83.9126814
9.327                0.920813088     -84.0604001
9.328                  0.9206099     -84.2085251
9.329                 0.92040615     -84.3570579
9.33                 0.920201836     -84.5059995
9.331                0.919996959     -84.6553514
9.332                0.919791518     -84.8051147
9.333                0.919585514     -84.9552907
9.334                0.919378945     -85.1058806
9.335                0.919171812     -85.2568858
9.336                0.918964114     -85.4083075
9.337                0.918755851     -85.5601469
9.338                0.918547024     -85.7124054
9.339                0.918337632     -85.8650841
9.34                 0.918127675     -86.0181844
9.341                0.917917153     -86.1717075
9.342                0.917706065     -86.3256547
9.343                0.917494413     -86.4800272
9.344                0.917282195     -86.6348265
9.345                0.917069412     -86.7900536
9.346                0.916856064     -86.9457099
9.347                0.916642151     -87.1017968
9.348                0.916427674     -87.2583153
9.349                0.916212631     -87.4152669
9.35                 0.915997024     -87.5726529
9.351                0.915780852     -87.7304744
9.352                0.915564117     -87.8887328
9.353                0.915346817     -88.0474294
9.354                0.915128953     -88.2065655
9.355                0.914910526     -88.3661423
9.356                0.914691536     -88.5261611
9.357                0.914471983     -88.6866232
9.358                0.914251868       -88.84753
9.359                0.914031191     -89.0088826
9.36                 0.913809952     -89.1706825
9.361                0.913588152     -89.3329308
9.362                0.913365791     -89.4956288
9.363                 0.91314287      -89.658778
9.364                 0.91291939     -89.8223795
9.365                 0.91269535     -89.9864346
9.366                0.912470752     -90.1509446
9.367                0.912245597     -90.3159109
9.368                0.912019884     -90.4813347
9.369                0.911793615     -90.6472173
9.37                  0.91156679       -90.81356
9.371                0.911339411     -90.9803641
9.372                0.911111477     -91.1476309
9.373                0.910882991     -91.3153617
9.374                0.910653952     -91.4835577
9.375                0.910424361     -91.6522203
9.376                 0.91019422     -91.8213508
9.377                 0.90996353     -91.9909504
9.378                0.909732291     -92.1610204
9.379                0.909500504     -92.3315622
9.38                 0.909268172     -92.5025769
9.381                0.909035294      -92.674066
9.382                0.908801872     -92.8460306
9.383                0.908567908     -93.0184721
9.384                0.908333401     -93.1913918
9.385                0.908098355     -93.3647909
9.386                 0.90786277     -93.5386707
9.387                0.907626647     -93.7130325
9.388                0.907389987     -93.8878777
9.389                0.907152794     -94.0632073
9.39                 0.906915066     -94.2390228
9.391                0.906676807     -94.4153255
9.392                0.906438018     -94.5921165
9.393                0.906198701     -94.7693972
9.394                0.905958856     -94.9471688
9.395                0.905718487     -95.1254326
9.396                0.905477594     -95.3041899
