! TOUCHSTONE file generated by CST DESIGN STUDIO
! Date and time: Tue Feb  4 13:10:23 2025
! Project name: C:\Work\MatlabApps\UnitCellOptimizationMatlab\CST\unitcell.cst
! Tree item: Tasks\Sweep1\SPara1\S-Parameters
! Header version: 2024
! Port assignment regex: !\s*Touchstone port\s*([0-9]+)\s*=\s*(CST MWS port|CST DES external port|CST DES block port)\s*(.+)\s* \(\"(.*)\"\)(\s*mode\s*([0-9]+))?.*
! Touchstone port assignment:
! Touchstone port 1 = CST DES external port 1 ("")
# GHz S MA R 50
9                    0.976014523     -78.7781142
9.001                0.975953565     -78.9016882
9.002                0.975892425     -79.0255753
9.003                0.975831101     -79.1497763
9.004                0.975769594     -79.2742923
9.005                0.975707902     -79.3991241
9.006                0.975646026     -79.5242727
9.007                0.975583965      -79.649739
9.008                0.975521719      -79.775524
9.009                0.975459287     -79.9016286
9.01                 0.975396669     -80.0280538
9.011                0.975333865     -80.1548005
9.012                0.975270874     -80.2818696
9.013                0.975207697     -80.4092622
9.014                0.975144331     -80.5369791
9.015                0.975080778     -80.6650214
9.016                0.975017037     -80.7933899
9.017                0.974953108     -80.9220856
9.018                 0.97488899     -81.0511095
9.019                0.974824682     -81.1804626
9.02                 0.974760186     -81.3101458
9.021                0.974695499     -81.4401601
9.022                0.974630623     -81.5705065
9.023                0.974565556     -81.7011858
9.024                0.974500298     -81.8321992
9.025                0.974434849     -81.9635475
9.026                0.974369209     -82.0952318
9.027                0.974303377     -82.2272529
9.028                0.974237354      -82.359612
9.029                0.974171138     -82.4923099
9.03                 0.974104729     -82.6253476
9.031                0.974038128     -82.7587262
9.032                0.973971333     -82.8924466
9.033                0.973904345     -83.0265098
9.034                0.973837163     -83.1609168
9.035                0.973769787     -83.2956686
9.036                0.973702217     -83.4307661
9.037                0.973634452     -83.5662103
9.038                0.973566493     -83.7020023
9.039                0.973498338      -83.838143
9.04                 0.973429988     -83.9746335
9.041                0.973361443     -84.1114747
9.042                0.973292701     -84.2486676
9.043                0.973223764     -84.3862132
9.044                 0.97315463     -84.5241126
9.045                  0.9730853     -84.6623667
9.046                0.973015773     -84.8009765
9.047                0.972946048      -84.939943
9.048                0.972876127     -85.0792672
9.049                0.972806008     -85.2189502
9.05                 0.972735691      -85.358993
9.051                0.972665177     -85.4993965
9.052                0.972594464     -85.6401617
9.053                0.972523553     -85.7812897
9.054                0.972452444     -85.9227815
9.055                0.972381136     -86.0646382
9.056                0.972309629     -86.2068606
9.057                0.972237923     -86.3494498
9.058                0.972166018     -86.4924069
9.059                0.972093914     -86.6357328
9.06                  0.97202161     -86.7794286
9.061                0.971949107     -86.9234953
9.062                0.971876404     -87.0679339
9.063                0.971803501     -87.2127454
9.064                0.971730398     -87.3579308
9.065                0.971657094     -87.5034913
9.066                0.971583591     -87.6494277
9.067                0.971509887     -87.7957411
9.068                0.971435982     -87.9424325
9.069                0.971361877      -88.089503
9.07                 0.971287571     -88.2369536
9.071                0.971213065     -88.3847852
9.072                0.971138358      -88.532999
9.073                0.971063449      -88.681596
9.074                 0.97098834     -88.8305771
9.075                 0.97091303     -88.9799434
9.076                0.970837519     -89.1296959
9.077                0.970761806     -89.2798356
9.078                0.970685892     -89.4303637
9.079                0.970609778      -89.581281
9.08                 0.970533462     -89.7325887
9.081                0.970456945     -89.8842877
9.082                0.970380226     -90.0363791
9.083                0.970303307     -90.1888639
9.084                0.970226186     -90.3417431
9.085                0.970148864     -90.4950178
9.086                0.970071341     -90.6486889
9.087                0.969993617     -90.8027576
9.088                0.969915692     -90.9572248
9.089                0.969837566     -91.1120916
9.09                 0.969759239     -91.2673589
9.091                0.969680711     -91.4230279
9.092                0.969601983     -91.5790995
9.093                0.969523054     -91.7355747
9.094                0.969443924     -91.8924546
9.095                0.969364594     -92.0497403
9.096                0.969285064     -92.2074326
9.097                0.969205333     -92.3655327
9.098                0.969125402     -92.5240416
9.099                0.969045272     -92.6829602
9.1                  0.968964942     -92.8422897
9.101                0.968884412      -93.002031
9.102                0.968803683     -93.1621851
9.103                0.968722755     -93.3227531
9.104                0.968641628      -93.483736
9.105                0.968560302     -93.6451347
9.106                0.968478778     -93.8069504
9.107                0.968397055     -93.9691839
9.108                0.968315135     -94.1318364
9.109                0.968233016     -94.2949089
9.11                 0.968150701     -94.4584023
9.111                0.968068187     -94.6223176
9.112                0.967985477     -94.7866559
9.113                0.967902571     -94.9514181
9.114                0.967819468     -95.1166053
9.115                0.967736169     -95.2822185
9.116                0.967652675     -95.4482586
9.117                0.967568985     -95.6147267
9.118                  0.9674851     -95.7816238
9.119                0.967401021     -95.9489508
9.12                 0.967316748     -96.1167087
9.121                0.967232281     -96.2848986
9.122                0.967147621     -96.4535214
9.123                0.967062767     -96.6225781
9.124                0.966977722     -96.7920696
9.125                0.966892484     -96.9619971
9.126                0.966807055     -97.1323614
9.127                0.966721435     -97.3031635
9.128                0.966635624     -97.4744044
9.129                0.966549623      -97.646085
9.13                 0.966463433     -97.8182064
9.131                0.966377054     -97.9907695
9.132                0.966290486     -98.1637752
9.133                 0.96620373     -98.3372246
9.134                0.966116788     -98.5111185
9.135                0.966029658      -98.685458
9.136                0.965942343      -98.860244
9.137                0.965854842     -99.0354773
9.138                0.965767156     -99.2111591
9.139                0.965679286     -99.3872901
9.14                 0.965591232     -99.5638715
9.141                0.965502996     -99.7409039
9.142                0.965414578     -99.9183886
9.143                0.965325978     -100.096326
9.144                0.965237198     -100.274718
9.145                0.965148237     -100.453564
9.146                0.965059098     -100.632867
9.147                 0.96496978     -100.812626
9.148                0.964880285     -100.992842
9.149                0.964790613     -101.173517
9.15                 0.964700765     -101.354652
9.151                0.964610742     -101.536247
9.152                0.964520545     -101.718303
9.153                0.964430175     -101.900821
9.154                0.964339632     -102.083802
9.155                0.964248918     -102.267247
9.156                0.964158033     -102.451157
9.157                0.964066978     -102.635532
9.158                0.963975755     -102.820373
9.159                0.963884364     -103.005682
9.16                 0.963792807     -103.191459
9.161                0.963701084     -103.377706
9.162                0.963609197     -103.564422
9.163                0.963517146     -103.751608
9.164                0.963424932     -103.939266
9.165                0.963332557     -104.127397
9.166                0.963240022        -104.316
9.167                0.963147328     -104.505078
9.168                0.963054476      -104.69463
9.169                0.962961468     -104.884658
9.17                 0.962868304     -105.075162
9.171                0.962774985     -105.266143
9.172                0.962681514     -105.457602
9.173                 0.96258789      -105.64954
9.174                0.962494116     -105.841957
9.175                0.962400193     -106.034855
9.176                0.962306122     -106.228234
9.177                0.962211904     -106.422094
9.178                0.962117542     -106.616437
9.179                0.962023035     -106.811262
9.18                 0.961928386     -107.006572
9.181                0.961833596     -107.202367
9.182                0.961738666     -107.398646
9.183                0.961643598     -107.595412
9.184                0.961548394     -107.792665
9.185                0.961453054     -107.990405
9.186                0.961357581     -108.188633
9.187                0.961261976      -108.38735
9.188                0.961166241     -108.586556
9.189                0.961070376     -108.786253
9.19                 0.960974385      -108.98644
9.191                0.960878267     -109.187119
9.192                0.960782026     -109.388289
9.193                0.960685663     -109.589953
9.194                0.960589179     -109.792109
9.195                0.960492577      -109.99476
9.196                0.960395857     -110.197905
9.197                0.960299022     -110.401544
9.198                0.960202074      -110.60568
9.199                0.960105014     -110.810312
9.2                  0.960007844      -111.01544
9.201                0.959910567     -111.221066
9.202                0.959813183     -111.427189
9.203                0.959715696     -111.633811
9.204                0.959618106     -111.840932
9.205                0.959520417     -112.048552
9.206                0.959422629     -112.256672
9.207                0.959324745     -112.465292
9.208                0.959226767     -112.674413
9.209                0.959128697     -112.884036
9.21                 0.959030537      -113.09416
9.211                0.958932289     -113.304786
9.212                0.958833956     -113.515915
9.213                0.958735539     -113.727547
9.214                0.958637041     -113.939682
9.215                0.958538464     -114.152321
9.216                 0.95843981     -114.365465
9.217                0.958341081     -114.579113
9.218                0.958242281     -114.793266
9.219                 0.95814341     -115.007924
9.22                 0.958044472     -115.223088
9.221                0.957945469     -115.438758
9.222                0.957846403     -115.654934
9.223                0.957747276     -115.871617
9.224                0.957648092     -116.088806
9.225                0.957548852     -116.306503
9.226                0.957449559     -116.524707
9.227                0.957350216     -116.743418
9.228                0.957250825     -116.962638
9.229                0.957151389     -117.182366
9.23                 0.957051911     -117.402601
9.231                0.956952392     -117.623346
9.232                0.956852836     -117.844599
9.233                0.956753245     -118.066361
9.234                0.956653622     -118.288632
9.235                 0.95655397     -118.511411
9.236                0.956454292     -118.734701
9.237                 0.95635459     -118.958499
9.238                0.956254867     -119.182807
9.239                0.956155126     -119.407624
9.24                  0.95605537     -119.632951
9.241                0.955955602     -119.858788
9.242                0.955855825     -120.085134
9.243                0.955756041      -120.31199
9.244                0.955656254     -120.539356
9.245                0.955556467     -120.767231
9.246                0.955456682     -120.995616
9.247                0.955356903      -121.22451
9.248                0.955257133     -121.453914
9.249                0.955157375     -121.683827
9.25                 0.955057632      -121.91425
9.251                0.954957908     -122.145182
9.252                0.954858205     -122.376622
9.253                0.954758526     -122.608572
9.254                0.954658876     -122.841031
9.255                0.954559257     -123.073998
9.256                0.954459672     -123.307473
9.257                0.954360125     -123.541457
9.258                0.954260619     -123.775948
9.259                0.954161158     -124.010948
9.26                 0.954061745     -124.246454
9.261                0.953962383     -124.482468
9.262                0.953863076     -124.718989
9.263                0.953763827     -124.956016
9.264                0.953664641     -125.193549
9.265                0.953565519     -125.431588
9.266                0.953466467     -125.670132
9.267                0.953367487     -125.909181
9.268                0.953268583     -126.148735
9.269                0.953169759     -126.388793
9.27                 0.953071019     -126.629355
9.271                0.952972365      -126.87042
9.272                0.952873802     -127.111988
9.273                0.952775334     -127.354058
9.274                0.952676964     -127.596629
9.275                0.952578697     -127.839702
9.276                0.952480535     -128.083275
9.277                0.952382483     -128.327348
9.278                0.952284544      -128.57192
9.279                0.952186723     -128.816991
9.28                 0.952089023      -129.06256
9.281                0.951991449     -129.308627
9.282                0.951894003      -129.55519
9.283                0.951796691     -129.802249
9.284                0.951699517     -130.049803
9.285                0.951602483     -130.297851
9.286                0.951505594     -130.546393
9.287                0.951408855     -130.795428
9.288                 0.95131227     -131.044955
9.289                0.951215841     -131.294974
9.29                 0.951119575     -131.545482
9.291                0.951023474      -131.79648
9.292                0.950927543     -132.047966
9.293                0.950831786      -132.29994
9.294                0.950736208       -132.5524
9.295                0.950640812     -132.805346
9.296                0.950545602     -133.058777
9.297                0.950450584     -133.312691
9.298                0.950355762     -133.567088
9.299                0.950261138     -133.821966
9.3                  0.950166719     -134.077324
9.301                0.950072508     -134.333162
9.302                 0.94997851     -134.589477
9.303                0.949884729      -134.84627
9.304                0.949791169     -135.103538
9.305                0.949697835     -135.361281
9.306                0.949604732     -135.619498
9.307                0.949511863     -135.878186
9.308                0.949419233     -136.137345
9.309                0.949326847     -136.396973
9.31                 0.949234709      -136.65707
9.311                0.949142824     -136.917633
9.312                0.949051196     -137.178662
9.313                0.948959829     -137.440154
9.314                0.948868729      -137.70211
9.315                  0.9487779     -137.964526
9.316                0.948687345     -138.227402
9.317                0.948597071     -138.490736
9.318                0.948507082     -138.754527
9.319                0.948417381     -139.018772
9.32                 0.948327974     -139.283472
9.321                0.948238866     -139.548623
9.322                0.948150061     -139.814224
9.323                0.948061563     -140.080274
9.324                0.947973378     -140.346771
9.325                0.947885509     -140.613713
9.326                0.947797963     -140.881099
9.327                0.947710742     -141.148927
9.328                0.947623853     -141.417194
9.329                0.947537299       -141.6859
9.33                 0.947451086     -141.955043
9.331                0.947365218     -142.224619
9.332                  0.9472797     -142.494629
9.333                0.947194536     -142.765069
9.334                0.947109731     -143.035938
9.335                0.947025291     -143.307234
9.336                0.946941219     -143.578956
9.337                0.946857521       -143.8511
9.338                  0.9467742     -144.123665
9.339                0.946691263     -144.396649
9.34                 0.946608713     -144.670049
9.341                0.946526556     -144.943865
9.342                0.946444796     -145.218093
9.343                0.946363437     -145.492731
9.344                0.946282485     -145.767778
9.345                0.946201945     -146.043231
9.346                 0.94612182     -146.319088
9.347                0.946042116     -146.595346
9.348                0.945962837     -146.872004
9.349                0.945883989     -147.149059
9.35                 0.945805575     -147.426508
9.351                0.945727601      -147.70435
9.352                0.945650072     -147.982582
9.353                0.945572991     -148.261202
9.354                0.945496364     -148.540207
9.355                0.945420195     -148.819594
9.356                0.945344489     -149.099362
9.357                 0.94526925     -149.379507
9.358                0.945194484     -149.660028
9.359                0.945120194     -149.940922
9.36                 0.945046387     -150.222185
9.361                0.944973065     -150.503816
9.362                0.944900234     -150.785813
9.363                0.944827898     -151.068171
9.364                0.944756062     -151.350889
9.365                 0.94468473     -151.633964
9.366                0.944613907     -151.917393
9.367                0.944543598     -152.201173
9.368                0.944473807     -152.485303
9.369                0.944404538     -152.769778
9.37                 0.944335796     -153.054596
9.371                0.944267585     -153.339755
9.372                 0.94419991      -153.62525
9.373                0.944132776     -153.911081
9.374                0.944066186     -154.197243
9.375                0.944000144     -154.483734
9.376                0.943934657      -154.77055
9.377                0.943869726     -155.057689
9.378                0.943805358     -155.345148
9.379                0.943741556     -155.632924
9.38                 0.943678324     -155.921013
9.381                0.943615667     -156.209413
9.382                0.943553589      -156.49812
9.383                0.943492094     -156.787132
9.384                0.943431186     -157.076445
9.385                 0.94337087     -157.366056
9.386                0.943311149     -157.655962
9.387                0.943252027      -157.94616
9.388                0.943193509     -158.236647
9.389                0.943135598     -158.527419
9.39                 0.943078299     -158.818472
9.391                0.943021615     -159.109805
9.392                 0.94296555     -159.401413
9.393                0.942910109     -159.693293
9.394                0.942855295     -159.985442
9.395                0.942801111     -160.277856
9.396                0.942747562     -160.570533
