! TOUCHSTONE file generated by CST DESIGN STUDIO
! Date and time: Tue Feb  4 13:10:20 2025
! Project name: C:\Work\MatlabApps\UnitCellOptimizationMatlab\CST\unitcell.cst
! Tree item: Tasks\Sweep1\SPara1\S-Parameters
! Header version: 2024
! Port assignment regex: !\s*Touchstone port\s*([0-9]+)\s*=\s*(CST MWS port|CST DES external port|CST DES block port)\s*(.+)\s* \(\"(.*)\"\)(\s*mode\s*([0-9]+))?.*
! Touchstone port assignment:
! Touchstone port 1 = CST DES external port 1 ("")
# GHz S MA R 50
9                    0.975401748     -82.4321373
9.001                0.975337293     -82.5648739
9.002                0.975272648     -82.6979504
9.003                0.975207812     -82.8313678
9.004                0.975142786      -82.965127
9.005                0.975077568     -83.0992291
9.006                0.975012158     -83.2336751
9.007                0.974946557     -83.3684658
9.008                0.974880763     -83.5036024
9.009                0.974814777     -83.6390858
9.01                 0.974748599      -83.774917
9.011                0.974682227     -83.9110969
9.012                0.974615662     -84.0476267
9.013                0.974548904     -84.1845072
9.014                0.974481951     -84.3217395
9.015                0.974414805     -84.4593246
9.016                0.974347464     -84.5972634
9.017                0.974279929      -84.735557
9.018                0.974212199     -84.8742064
9.019                0.974144274     -85.0132126
9.02                 0.974076153     -85.1525765
9.021                0.974007838     -85.2922993
9.022                0.973939326     -85.4323818
9.023                0.973870618     -85.5728251
9.024                0.973801714     -85.7136302
9.025                0.973732614     -85.8547982
9.026                0.973663317     -85.9963299
9.027                0.973593824     -86.1382265
9.028                0.973524133      -86.280489
9.029                0.973454245     -86.4231183
9.03                  0.97338416     -86.5661155
9.031                0.973313877     -86.7094816
9.032                0.973243396     -86.8532176
9.033                0.973172718     -86.9973246
9.034                0.973101841     -87.1418034
9.035                0.973030766     -87.2866553
9.036                0.972959493     -87.4318811
9.037                0.972888021     -87.5774819
9.038                0.972816351     -87.7234587
9.039                0.972744482     -87.8698126
9.04                 0.972672414     -88.0165446
9.041                0.972600146     -88.1636556
9.042                 0.97252768     -88.3111467
9.043                0.972455015      -88.459019
9.044                 0.97238215     -88.6072734
9.045                0.972309085     -88.7559109
9.046                0.972235821     -88.9049327
9.047                0.972162358     -89.0543397
9.048                0.972088695      -89.204133
9.049                0.972014832     -89.3543135
9.05                 0.971940769     -89.5048823
9.051                0.971866506     -89.6558405
9.052                0.971792044      -89.807189
9.053                0.971717381     -89.9589288
9.054                0.971642519     -90.1110611
9.055                0.971567456     -90.2635868
9.056                0.971492194     -90.4165069
9.057                0.971416732     -90.5698225
9.058                0.971341069     -90.7235346
9.059                0.971265207     -90.8776443
9.06                 0.971189145     -91.0321524
9.061                0.971112882     -91.1870602
9.062                 0.97103642     -91.3423685
9.063                0.970959758     -91.4980785
9.064                0.970882897     -91.6541911
9.065                0.970805835     -91.8107074
9.066                0.970728574     -91.9676284
9.067                0.970651114      -92.124955
9.068                0.970573454     -92.2826884
9.069                0.970495594     -92.4408296
9.07                 0.970417536     -92.5993795
9.071                0.970339278     -92.7583392
9.072                0.970260821     -92.9177098
9.073                0.970182166     -93.0774921
9.074                0.970103311     -93.2376873
9.075                0.970024259     -93.3982964
9.076                0.969945007     -93.5593203
9.077                0.969865558     -93.7207601
9.078                0.969785911     -93.8826168
9.079                0.969706066     -94.0448914
9.08                 0.969626023      -94.207585
9.081                0.969545783     -94.3706984
9.082                0.969465346     -94.5342328
9.083                0.969384712     -94.6981892
9.084                0.969303881     -94.8625684
9.085                0.969222854     -95.0273717
9.086                0.969141631     -95.1925998
9.087                0.969060212     -95.3582539
9.088                0.968978598      -95.524335
9.089                0.968896788      -95.690844
9.09                 0.968814784     -95.8577819
9.091                0.968732585     -96.0251498
9.092                0.968650192     -96.1929486
9.093                0.968567606     -96.3611792
9.094                0.968484826     -96.5298428
9.095                0.968401853     -96.6989402
9.096                0.968318687     -96.8684725
9.097                0.968235329     -97.0384407
9.098                0.968151779     -97.2088456
9.099                0.968068038     -97.3796883
9.1                  0.967984106     -97.5509698
9.101                0.967899984      -97.722691
9.102                0.967815672     -97.8948529
9.103                 0.96773117     -98.0674565
9.104                0.967646479     -98.2405027
9.105                  0.9675616     -98.4139924
9.106                0.967476533     -98.5879267
9.107                0.967391279     -98.7623064
9.108                0.967305838     -98.9371326
9.109                0.967220211     -99.1124062
9.11                 0.967134398     -99.2881281
9.111                  0.9670484     -99.4642992
9.112                0.966962218     -99.6409206
9.113                0.966875852      -99.817993
9.114                0.966789303     -99.9955175
9.115                0.966702572     -100.173495
9.116                0.966615659     -100.351926
9.117                0.966528565     -100.530813
9.118                 0.96644129     -100.710155
9.119                0.966353836     -100.889953
9.12                 0.966266204     -101.070209
9.121                0.966178393     -101.250924
9.122                0.966090404     -101.432098
9.123                 0.96600224     -101.613732
9.124                0.965913899     -101.795827
9.125                0.965825384     -101.978384
9.126                0.965736695     -102.161405
9.127                0.965647832     -102.344889
9.128                0.965558798     -102.528837
9.129                0.965469592     -102.713251
9.13                 0.965380215     -102.898131
9.131                0.965290669     -103.083479
9.132                0.965200954     -103.269295
9.133                0.965111072     -103.455579
9.134                0.965021023     -103.642334
9.135                0.964930809     -103.829558
9.136                 0.96484043     -104.017255
9.137                0.964749887     -104.205423
9.138                0.964659182     -104.394065
9.139                0.964568315      -104.58318
9.14                 0.964477288      -104.77277
9.141                0.964386102     -104.962835
9.142                0.964294758     -105.153377
9.143                0.964203257     -105.344396
9.144                  0.9641116     -105.535892
9.145                0.964019789     -105.727867
9.146                0.963927824     -105.920321
9.147                0.963835707     -106.113256
9.148                 0.96374344     -106.306671
9.149                0.963651022     -106.500568
9.15                 0.963558457     -106.694947
9.151                0.963465744      -106.88981
9.152                0.963372886     -107.085156
9.153                0.963279884     -107.280986
9.154                0.963186738     -107.477302
9.155                0.963093452     -107.674104
9.156                0.963000025     -107.871392
9.157                0.962906459     -108.069167
9.158                0.962812756     -108.267431
9.159                0.962718918     -108.466183
9.16                 0.962624945     -108.665425
9.161                 0.96253084     -108.865156
9.162                0.962436604     -109.065378
9.163                0.962342238     -109.266091
9.164                0.962247744     -109.467296
9.165                0.962153123     -109.668994
9.166                0.962058378     -109.871185
9.167                 0.96196351     -110.073869
9.168                0.961868521     -110.277048
9.169                0.961773412     -110.480721
9.17                 0.961678185      -110.68489
9.171                0.961582842     -110.889555
9.172                0.961487384     -111.094716
9.173                0.961391814     -111.300375
9.174                0.961296133     -111.506531
9.175                0.961200344     -111.713185
9.176                0.961104447     -111.920338
9.177                0.961008445     -112.127991
9.178                0.960912339     -112.336142
9.179                0.960816133     -112.544794
9.18                 0.960719827     -112.753947
9.181                0.960623423     -112.963601
9.182                0.960526924     -113.173756
9.183                0.960430332     -113.384413
9.184                0.960333649     -113.595572
9.185                0.960236877     -113.807235
9.186                0.960140017       -114.0194
9.187                0.960043073     -114.232069
9.188                0.959946046     -114.445243
9.189                0.959848938      -114.65892
9.19                 0.959751752     -114.873102
9.191                 0.95965449      -115.08779
9.192                0.959557154     -115.302982
9.193                0.959459746     -115.518681
9.194                 0.95936227     -115.734885
9.195                0.959264726     -115.951596
9.196                0.959167118     -116.168813
9.197                0.959069447     -116.386538
9.198                0.958971717     -116.604769
9.199                0.958873929     -116.823508
9.2                  0.958776087     -117.042754
9.201                0.958678192     -117.262508
9.202                0.958580248      -117.48277
9.203                0.958482256     -117.703541
9.204                 0.95838422     -117.924819
9.205                0.958286141     -118.146607
9.206                0.958188023     -118.368903
9.207                0.958089868     -118.591708
9.208                0.957991679     -118.815021
9.209                0.957893458     -119.038844
9.21                 0.957795208     -119.263176
9.211                0.957696933     -119.488017
9.212                0.957598634     -119.713368
9.213                0.957500315     -119.939228
9.214                0.957401979     -120.165597
9.215                0.957303627     -120.392475
9.216                0.957205264     -120.619863
9.217                0.957106892      -120.84776
9.218                0.957008514     -121.076166
9.219                0.956910133     -121.305082
9.22                 0.956811752     -121.534507
9.221                0.956713374     -121.764441
9.222                0.956615001     -121.994884
9.223                0.956516638     -122.225835
9.224                0.956418287     -122.457296
9.225                0.956319952     -122.689265
9.226                0.956221635     -122.921743
9.227                0.956123339     -123.154728
9.228                0.956025068     -123.388222
9.229                0.955926826     -123.622224
9.23                 0.955828614     -123.856733
9.231                0.955730437     -124.091749
9.232                0.955632298     -124.327273
9.233                0.955534201     -124.563303
9.234                0.955436147      -124.79984
9.235                0.955338142     -125.036883
9.236                0.955240188     -125.274431
9.237                0.955142289     -125.512485
9.238                0.955044448     -125.751044
9.239                0.954946669     -125.990108
9.24                 0.954848954     -126.229676
9.241                0.954751309     -126.469748
9.242                0.954653736     -126.710322
9.243                0.954556239       -126.9514
9.244                0.954458821      -127.19298
9.245                0.954361487     -127.435062
9.246                0.954264239     -127.677645
9.247                0.954167081     -127.920729
9.248                0.954070018     -128.164313
9.249                0.953973052     -128.408396
9.25                 0.953876189     -128.652978
9.251                 0.95377943     -128.898059
9.252                0.953682781     -129.143637
9.253                0.953586245     -129.389712
9.254                0.953489825     -129.636284
9.255                0.953393526      -129.88335
9.256                0.953297352     -130.130912
9.257                0.953201307     -130.378968
9.258                0.953105393     -130.627516
9.259                0.953009617     -130.876557
9.26                  0.95291398      -131.12609
9.261                0.952818488     -131.376114
9.262                0.952723144     -131.626627
9.263                0.952627953     -131.877629
9.264                0.952532918     -132.129119
9.265                0.952438044     -132.381096
9.266                0.952343334      -132.63356
9.267                0.952248793     -132.886508
9.268                0.952154426     -133.139941
9.269                0.952060235     -133.393857
9.27                 0.951966225     -133.648254
9.271                0.951872401     -133.903133
9.272                0.951778767     -134.158492
9.273                0.951685326     -134.414329
9.274                0.951592084     -134.670644
9.275                0.951499044     -134.927435
9.276                0.951406211     -135.184702
9.277                0.951313589     -135.442443
9.278                0.951221182     -135.700656
9.279                0.951128995     -135.959341
9.28                 0.951037032     -136.218496
9.281                0.950945298     -136.478121
9.282                0.950853796     -136.738213
9.283                0.950762532     -136.998771
9.284                0.950671509     -137.259794
9.285                0.950580732      -137.52128
9.286                0.950490206     -137.783228
9.287                0.950399934     -138.045637
9.288                0.950309922     -138.308506
9.289                0.950220174     -138.571831
9.29                 0.950130695     -138.835613
9.291                0.950041488      -139.09985
9.292                0.949952559     -139.364539
9.293                0.949863912      -139.62968
9.294                0.949775551      -139.89527
9.295                0.949687481     -140.161309
9.296                0.949599707     -140.427794
9.297                0.949512233     -140.694724
9.298                0.949425064     -140.962096
9.299                0.949338204      -141.22991
9.3                  0.949251658     -141.498164
9.301                0.949165431     -141.766855
9.302                0.949079527     -142.035982
9.303                 0.94899395     -142.305543
9.304                0.948908706     -142.575536
9.305                0.948823799     -142.845959
9.306                0.948739233     -143.116811
9.307                0.948655014     -143.388089
9.308                0.948571145     -143.659792
9.309                0.948487632     -143.931917
9.31                  0.94840448     -144.204462
9.311                0.948321692     -144.477426
9.312                0.948239273     -144.750805
9.313                0.948157228       -145.0246
9.314                0.948075563     -145.298806
9.315                 0.94799428     -145.573422
9.316                0.947913386     -145.848445
9.317                0.947832884     -146.123875
9.318                 0.94775278     -146.399707
9.319                0.947673077     -146.675941
9.32                 0.947593781     -146.952573
9.321                0.947514897     -147.229602
9.322                0.947436428     -147.507025
9.323                0.947358379      -147.78484
9.324                0.947280756     -148.063044
9.325                0.947203562     -148.341635
9.326                0.947126803     -148.620611
9.327                0.947050482     -148.899969
9.328                0.946974605     -149.179706
9.329                0.946899176     -149.459821
9.33                   0.9468242     -149.740311
9.331                0.946749681     -150.021172
9.332                0.946675624     -150.302404
9.333                0.946602032     -150.584002
9.334                0.946528912     -150.865964
9.335                0.946456267     -151.148288
9.336                0.946384102     -151.430971
9.337                0.946312421     -151.714011
9.338                0.946241229     -151.997404
9.339                 0.94617053     -152.281148
9.34                 0.946100329      -152.56524
9.341                0.946030629     -152.849677
9.342                0.945961437     -153.134457
9.343                0.945892755     -153.419577
9.344                0.945824589     -153.705033
9.345                0.945756942     -153.990823
9.346                 0.94568982     -154.276944
9.347                0.945623225     -154.563393
9.348                0.945557163     -154.850168
9.349                0.945491638     -155.137264
9.35                 0.945426655      -155.42468
9.351                0.945362216     -155.712412
9.352                0.945298327     -156.000457
9.353                0.945234992     -156.288811
9.354                0.945172215     -156.577473
9.355                    0.94511     -156.866439
9.356                0.945048351     -157.155705
9.357                0.944987272     -157.445269
9.358                0.944926767     -157.735127
9.359                0.944866841     -158.025276
9.36                 0.944807497     -158.315714
9.361                0.944748739     -158.606436
9.362                0.944690572     -158.897439
9.363                0.944632998     -159.188721
9.364                0.944576023     -159.480277
9.365                0.944519649     -159.772105
9.366                0.944463881     -160.064201
9.367                0.944408722     -160.356562
9.368                0.944354177     -160.649184
9.369                0.944300248     -160.942065
9.37                  0.94424694       -161.2352
9.371                0.944194256     -161.528586
9.372                  0.9441422      -161.82222
9.373                0.944090775     -162.116098
9.374                0.944039984     -162.410217
9.375                0.943989833     -162.704573
9.376                0.943940323     -162.999162
9.377                0.943891458     -163.293982
9.378                0.943843241     -163.589029
9.379                0.943795677     -163.884298
9.38                 0.943748767     -164.179787
9.381                0.943702516     -164.475491
9.382                0.943656927     -164.771408
9.383                0.943612002     -165.067533
9.384                0.943567746     -165.363863
9.385                 0.94352416     -165.660394
9.386                0.943481248     -165.957122
9.387                0.943439013     -166.254044
9.388                0.943397458     -166.551156
9.389                0.943356586     -166.848455
9.39                   0.9433164     -167.145935
9.391                0.943276901     -167.443594
9.392                0.943238094     -167.741429
9.393                0.943199981     -168.039434
9.394                0.943162565     -168.337606
9.395                0.943125847     -168.635942
9.396                0.943089831     -168.934437
