! TOUCHSTONE file generated by CST DESIGN STUDIO
! Date and time: Tue Feb  4 13:10:28 2025
! Project name: C:\Work\MatlabApps\UnitCellOptimizationMatlab\CST\unitcell.cst
! Tree item: Tasks\Sweep1\SPara1\S-Parameters
! Header version: 2024
! Port assignment regex: !\s*Touchstone port\s*([0-9]+)\s*=\s*(CST MWS port|CST DES external port|CST DES block port)\s*(.+)\s* \(\"(.*)\"\)(\s*mode\s*([0-9]+))?.*
! Touchstone port assignment:
! Touchstone port 1 = CST DES external port 1 ("")
# GHz S MA R 50
9                    0.977085322     -72.6820034
9.001                0.977030548     -72.7910381
9.002                0.976975608     -72.9003425
9.003                  0.9769205     -73.0099173
9.004                0.976865225     -73.1197634
9.005                0.976809782     -73.2298817
9.006                0.976754171     -73.3402729
9.007                0.976698392      -73.450938
9.008                0.976642443     -73.5618777
9.009                0.976586324     -73.6730928
9.01                 0.976530036     -73.7845844
9.011                0.976473577     -73.8963531
9.012                0.976416947     -74.0083999
9.013                0.976360146     -74.1207255
9.014                0.976303174      -74.233331
9.015                0.976246029      -74.346217
9.016                0.976188712     -74.4593845
9.017                0.976131221     -74.5728343
9.018                0.976073557     -74.6865674
9.019                 0.97601572     -74.8005845
9.02                 0.975957708     -74.9148865
9.021                0.975899521     -75.0294743
9.022                0.975841159     -75.1443489
9.023                0.975782622     -75.2595109
9.024                0.975723909     -75.3749614
9.025                0.975665019     -75.4907013
9.026                0.975605953     -75.6067313
9.027                0.975546709     -75.7230524
9.028                0.975487288     -75.8396654
9.029                0.975427689     -75.9565714
9.03                 0.975367911      -76.073771
9.031                0.975307955     -76.1912653
9.032                0.975247819     -76.3090552
9.033                0.975187503     -76.4271415
9.034                0.975127008     -76.5455251
9.035                0.975066332     -76.6642069
9.036                0.975005475     -76.7831879
9.037                0.974944437      -76.902469
9.038                0.974883217      -77.022051
9.039                0.974821815     -77.1419348
9.04                 0.974760231     -77.2621215
9.041                0.974698464     -77.3826118
9.042                0.974636513     -77.5034067
9.043                0.974574379     -77.6245072
9.044                0.974512061     -77.7459142
9.045                0.974449558     -77.8676285
9.046                0.974386871     -77.9896511
9.047                0.974323999     -78.1119829
9.048                 0.97426094     -78.2346249
9.049                0.974197696      -78.357578
9.05                 0.974134266     -78.4808431
9.051                0.974070649     -78.6044212
9.052                0.974006845     -78.7283131
9.053                0.973942854     -78.8525199
9.054                0.973878674     -78.9770425
9.055                0.973814307     -79.1018818
9.056                0.973749751     -79.2270388
9.057                0.973685006     -79.3525143
9.058                0.973620072     -79.4783095
9.059                0.973554949     -79.6044252
9.06                 0.973489635     -79.7308623
9.061                0.973424132     -79.8576218
9.062                0.973358437     -79.9847048
9.063                0.973292552     -80.1121121
9.064                0.973226475     -80.2398446
9.065                0.973160207     -80.3679035
9.066                0.973093747     -80.4962895
9.067                0.973027094     -80.6250038
9.068                0.972960249     -80.7540472
9.069                0.972893211     -80.8834208
9.07                  0.97282598     -81.0131255
9.071                0.972758555     -81.1431622
9.072                0.972690937     -81.2735321
9.073                0.972623124     -81.4042359
9.074                0.972555117     -81.5352748
9.075                0.972486915     -81.6666496
9.076                0.972418517     -81.7983614
9.077                0.972349925     -81.9304112
9.078                0.972281137     -82.0627999
9.079                0.972212152     -82.1955286
9.08                 0.972142972     -82.3285981
9.081                0.972073595     -82.4620096
9.082                0.972004022      -82.595764
9.083                0.971934251     -82.7298623
9.084                0.971864283     -82.8643055
9.085                0.971794117     -82.9990945
9.086                0.971723754     -83.1342305
9.087                0.971653192     -83.2697143
9.088                0.971582433     -83.4055471
9.089                0.971511474     -83.5417297
9.09                 0.971440317     -83.6782632
9.091                0.971368961     -83.8151486
9.092                0.971297405     -83.9523869
9.093                0.971225651     -84.0899791
9.094                0.971153696     -84.2279263
9.095                0.971081541     -84.3662293
9.096                0.971009187     -84.5048894
9.097                0.970936632     -84.6439073
9.098                0.970863876     -84.7832843
9.099                 0.97079092     -84.9230213
9.1                  0.970717763     -85.0631192
9.101                0.970644405     -85.2035792
9.102                0.970570846     -85.3444022
9.103                0.970497085     -85.4855893
9.104                0.970423122     -85.6271414
9.105                0.970348958     -85.7690597
9.106                0.970274592     -85.9113451
9.107                0.970200024     -86.0539987
9.108                0.970125254     -86.1970214
9.109                0.970050282     -86.3404143
9.11                 0.969975107     -86.4841785
9.111                 0.96989973     -86.6283149
9.112                 0.96982415     -86.7728246
9.113                0.969748367     -86.9177087
9.114                0.969672381      -87.062968
9.115                0.969596193     -87.2086038
9.116                0.969519801      -87.354617
9.117                0.969443206     -87.5010086
9.118                0.969366408     -87.6477796
9.119                0.969289407     -87.7949312
9.12                 0.969212203     -87.9424644
9.121                0.969134795     -88.0903801
9.122                0.969057184     -88.2386794
9.123                 0.96897937     -88.3873634
9.124                0.968901352      -88.536433
9.125                 0.96882313     -88.6858894
9.126                0.968744705     -88.8357336
9.127                0.968666077     -88.9859665
9.128                0.968587245     -89.1365892
9.129                 0.96850821     -89.2876029
9.13                 0.968428971     -89.4390084
9.131                0.968349529     -89.5908069
9.132                0.968269883     -89.7429993
9.133                0.968190035     -89.8955868
9.134                0.968109983     -90.0485703
9.135                0.968029727      -90.201951
9.136                0.967949269     -90.3557297
9.137                0.967868608     -90.5099077
9.138                0.967787743     -90.6644858
9.139                0.967706676     -90.8194652
9.14                 0.967625407     -90.9748469
9.141                0.967543934     -91.1306319
9.142                0.967462259     -91.2868212
9.143                0.967380382      -91.443416
9.144                0.967298303     -91.6004171
9.145                0.967216022     -91.7578257
9.146                0.967133539     -91.9156429
9.147                0.967050854     -92.0738695
9.148                0.966967968     -92.2325068
9.149                 0.96688488     -92.3915556
9.15                 0.966801592      -92.551017
9.151                0.966718102     -92.7108921
9.152                0.966634413     -92.8711819
9.153                0.966550522     -93.0318874
9.154                0.966466432     -93.1930097
9.155                0.966382142     -93.3545497
9.156                0.966297653     -93.5165086
9.157                0.966212964     -93.6788872
9.158                0.966128076     -93.8416868
9.159                 0.96604299     -94.0049082
9.16                 0.965957705     -94.1685524
9.161                0.965872223     -94.3326206
9.162                0.965786543     -94.4971138
9.163                0.965700666     -94.6620329
9.164                0.965614591     -94.8273789
9.165                0.965528321     -94.9931529
9.166                0.965441854      -95.159356
9.167                0.965355192      -95.325989
9.168                0.965268335      -95.493053
9.169                0.965181283     -95.6605491
9.17                 0.965094036     -95.8284781
9.171                0.965006596     -95.9968413
9.172                0.964918962     -96.1656394
9.173                0.964831136     -96.3348735
9.174                0.964743117     -96.5045447
9.175                0.964654906     -96.6746539
9.176                0.964566504     -96.8452021
9.177                0.964477911     -97.0161903
9.178                0.964389128     -97.1876195
9.179                0.964300156     -97.3594907
9.18                 0.964210994     -97.5318048
9.181                0.964121645     -97.7045629
9.182                0.964032107     -97.8777658
9.183                0.963942382     -98.0514147
9.184                0.963852471     -98.2255103
9.185                0.963762374     -98.4000539
9.186                0.963672092     -98.5750462
9.187                0.963581626     -98.7504882
9.188                0.963490976      -98.926381
9.189                0.963400142     -99.1027254
9.19                 0.963309127     -99.2795224
9.191                 0.96321793      -99.456773
9.192                0.963126553     -99.6344781
9.193                0.963034996     -99.8126386
9.194                 0.96294326     -99.9912555
9.195                0.962851345      -100.17033
9.196                0.962759253     -100.349862
9.197                0.962666985     -100.529854
9.198                0.962574541     -100.710306
9.199                0.962481923     -100.891218
9.2                   0.96238913     -101.072593
9.201                0.962296165     -101.254431
9.202                0.962203028     -101.436732
9.203                 0.96210972     -101.619498
9.204                0.962016242     -101.802729
9.205                0.961922596     -101.986427
9.206                0.961828781     -102.170592
9.207                  0.9617348     -102.355225
9.208                0.961640652     -102.540328
9.209                 0.96154634       -102.7259
9.21                 0.961451865     -102.911943
9.211                0.961357227     -103.098458
9.212                0.961262428     -103.285445
9.213                0.961167469     -103.472906
9.214                 0.96107235     -103.660841
9.215                0.960977074     -103.849251
9.216                0.960881642     -104.038137
9.217                0.960786054     -104.227499
9.218                0.960690312     -104.417339
9.219                0.960594417     -104.607657
9.22                 0.960498371     -104.798455
9.221                0.960402175     -104.989732
9.222                 0.96030583     -105.181491
9.223                0.960209338      -105.37373
9.224                0.960112699     -105.566453
9.225                0.960015916     -105.759658
9.226                 0.95991899     -105.953347
9.227                0.959821922      -106.14752
9.228                0.959724714     -106.342179
9.229                0.959627367     -106.537325
9.23                 0.959529883     -106.732957
9.231                0.959432263     -106.929076
9.232                0.959334509     -107.125684
9.233                0.959236623     -107.322781
9.234                0.959138606     -107.520368
9.235                0.959040459     -107.718446
9.236                0.958942185     -107.917014
9.237                0.958843784     -108.116074
9.238                 0.95874526     -108.315627
9.239                0.958646613     -108.515673
9.24                 0.958547845     -108.716213
9.241                0.958448958     -108.917247
9.242                0.958349953     -109.118777
9.243                0.958250834     -109.320802
9.244                0.958151601     -109.523324
9.245                0.958052256     -109.726342
9.246                0.957952801     -109.929859
9.247                0.957853238     -110.133873
9.248                 0.95775357     -110.338387
9.249                0.957653797       -110.5434
9.25                 0.957553923     -110.748912
9.251                0.957453948     -110.954926
9.252                0.957353876      -111.16144
9.253                0.957253707     -111.368456
9.254                0.957153445     -111.575975
9.255                0.957053091     -111.783995
9.256                0.956952647      -111.99252
9.257                0.956852116     -112.201547
9.258                  0.9567515     -112.411079
9.259                0.956650801     -112.621116
9.26                 0.956550021     -112.831658
9.261                0.956449163     -113.042705
9.262                0.956348228     -113.254259
9.263                 0.95624722     -113.466318
9.264                 0.95614614     -113.678885
9.265                0.956044991     -113.891959
9.266                0.955943775     -114.105541
9.267                0.955842495      -114.31963
9.268                0.955741153     -114.534229
9.269                0.955639752     -114.749336
9.27                 0.955538293     -114.964952
9.271                0.955436781     -115.181078
9.272                0.955335216     -115.397713
9.273                0.955233602     -115.614859
9.274                0.955131942     -115.832515
9.275                0.955030238     -116.050681
9.276                0.954928492     -116.269359
9.277                0.954826708     -116.488548
9.278                0.954724888     -116.708248
9.279                0.954623035     -116.928461
9.28                 0.954521151     -117.149185
9.281                 0.95441924     -117.370421
9.282                0.954317304      -117.59217
9.283                0.954215346     -117.814431
9.284                 0.95411337     -118.037204
9.285                0.954011377     -118.260491
9.286                0.953909371      -118.48429
9.287                0.953807355     -118.708603
9.288                0.953705331     -118.933429
9.289                0.953603304     -119.158768
9.29                 0.953501275      -119.38462
9.291                0.953399249     -119.610986
9.292                0.953297227     -119.837865
9.293                0.953195214     -120.065258
9.294                0.953093211     -120.293164
9.295                0.952991224     -120.521583
9.296                0.952889254     -120.750516
9.297                0.952787305     -120.979962
9.298                0.952685381     -121.209922
9.299                0.952583484     -121.440395
9.3                  0.952481618     -121.671381
9.301                0.952379786      -121.90288
9.302                0.952277992     -122.134892
9.303                0.952176239     -122.367417
9.304                 0.95207453     -122.600455
9.305                0.951972869     -122.834005
9.306                0.951871259     -123.068067
9.307                0.951769705     -123.302642
9.308                0.951668209     -123.537728
9.309                0.951566775     -123.773326
9.31                 0.951465406     -124.009436
9.311                0.951364107     -124.246056
9.312                 0.95126288     -124.483187
9.313                 0.95116173     -124.720829
9.314                0.951060661      -124.95898
9.315                0.950959675     -125.197642
9.316                0.950858777     -125.436813
9.317                0.950757971     -125.676493
9.318                0.950657259     -125.916681
9.319                0.950556647     -126.157378
9.32                 0.950456138     -126.398582
9.321                0.950355736     -126.640293
9.322                0.950255445     -126.882512
9.323                0.950155268     -127.125236
9.324                 0.95005521     -127.368466
9.325                0.949955274     -127.612201
9.326                0.949855466     -127.856441
9.327                0.949755788     -128.101185
9.328                0.949656244     -128.346432
9.329                 0.94955684     -128.592182
9.33                 0.949457578     -128.838434
9.331                0.949358463     -129.085188
9.332                  0.9492595     -129.332442
9.333                0.949160691     -129.580196
9.334                0.949062043     -129.828449
9.335                0.948963558     -130.077201
9.336                0.948865241      -130.32645
9.337                0.948767096     -130.576197
9.338                0.948669128     -130.826439
9.339                0.948571341     -131.077177
9.34                 0.948473739     -131.328409
9.341                0.948376326     -131.580135
9.342                0.948279107     -131.832353
9.343                0.948182087     -132.085062
9.344                0.948085269     -132.338263
9.345                0.947988658     -132.591953
9.346                0.947892259     -132.846131
9.347                0.947796076     -133.100798
9.348                0.947700114      -133.35595
9.349                0.947604376     -133.611589
9.35                 0.947508868     -133.867712
9.351                0.947413594     -134.124318
9.352                0.947318559     -134.381406
9.353                0.947223767     -134.638975
9.354                0.947129223     -134.897024
9.355                0.947034931     -135.155552
9.356                0.946940896     -135.414556
9.357                0.946847123     -135.674037
9.358                0.946753616     -135.933993
9.359                0.946660381     -136.194422
9.36                 0.946567421     -136.455324
9.361                0.946474741     -136.716696
9.362                0.946382347     -136.978537
9.363                0.946290242     -137.240847
9.364                0.946198432     -137.503623
9.365                0.946106922     -137.766864
9.366                0.946015715     -138.030569
9.367                0.945924818     -138.294735
9.368                0.945834234     -138.559363
9.369                0.945743969     -138.824449
9.37                 0.945654027     -139.089993
9.371                0.945564413     -139.355993
9.372                0.945475132     -139.622447
9.373                0.945386189     -139.889353
9.374                0.945297588      -140.15671
9.375                0.945209335     -140.424517
9.376                0.945121434     -140.692771
9.377                0.945033891      -140.96147
9.378                 0.94494671     -141.230614
9.379                0.944859895     -141.500199
9.38                 0.944773453     -141.770225
9.381                0.944687387     -142.040689
9.382                0.944601703      -142.31159
9.383                0.944516405     -142.582925
9.384                0.944431499     -142.854693
9.385                0.944346989     -143.126891
9.386                0.944262881     -143.399518
9.387                0.944179178     -143.672572
9.388                0.944095887     -143.946051
9.389                0.944013012     -144.219952
9.39                 0.943930557     -144.494274
9.391                0.943848528     -144.769014
9.392                 0.94376693     -145.044171
9.393                0.943685768     -145.319741
9.394                0.943605046     -145.595724
9.395                0.943524769     -145.872116
9.396                0.943444942     -146.148915
