! TOUCHSTONE file generated by CST DESIGN STUDIO
! Date and time: Tue Feb  4 13:10:29 2025
! Project name: C:\Work\MatlabApps\UnitCellOptimizationMatlab\CST\unitcell.cst
! Tree item: Tasks\Sweep1\SPara1\S-Parameters
! Header version: 2024
! Port assignment regex: !\s*Touchstone port\s*([0-9]+)\s*=\s*(CST MWS port|CST DES external port|CST DES block port)\s*(.+)\s* \(\"(.*)\"\)(\s*mode\s*([0-9]+))?.*
! Touchstone port assignment:
! Touchstone port 1 = CST DES external port 1 ("")
# GHz S MA R 50
9                    0.977468408     -70.5712977
9.001                0.977416117      -70.675521
9.002                0.977363667     -70.7799994
9.003                0.977311055     -70.8847338
9.004                0.977258282      -70.989725
9.005                0.977205348     -71.0949738
9.006                0.977152252      -71.200481
9.007                0.977098992     -71.3062474
9.008                 0.97704557     -71.4122738
9.009                0.976991985     -71.5185609
9.01                 0.976938235     -71.6251097
9.011                0.976884321     -71.7319209
9.012                0.976830243     -71.8389953
9.013                0.976775999     -71.9463337
9.014                0.976721589      -72.053937
9.015                0.976667014      -72.161806
9.016                0.976612272     -72.2699414
9.017                0.976557363     -72.3783442
9.018                0.976502286     -72.4870152
9.019                0.976447041     -72.5959551
9.02                 0.976391629     -72.7051648
9.021                0.976336047     -72.8146452
9.022                0.976280297     -72.9243971
9.023                0.976224376     -73.0344212
9.024                0.976168286     -73.1447186
9.025                0.976112025     -73.2552899
9.026                0.976055593     -73.3661361
9.027                 0.97599899      -73.477258
9.028                0.975942216     -73.5886564
9.029                0.975885268     -73.7003322
9.03                 0.975828149     -73.8122862
9.031                0.975770856     -73.9245194
9.032                 0.97571339     -74.0370325
9.033                0.975655749     -74.1498265
9.034                0.975597935     -74.2629021
9.035                0.975539945     -74.3762603
9.036                0.975481781     -74.4899019
9.037                 0.97542344     -74.6038278
9.038                0.975364924     -74.7180389
9.039                0.975306231      -74.832536
9.04                 0.975247361       -74.94732
9.041                0.975188314     -75.0623919
9.042                0.975129089     -75.1777524
9.043                0.975069686     -75.2934024
9.044                0.975010105     -75.4093429
9.045                0.974950344     -75.5255748
9.046                0.974890404     -75.6420988
9.047                0.974830284      -75.758916
9.048                0.974769984     -75.8760272
9.049                0.974709503     -75.9934333
9.05                 0.974648841     -76.1111352
9.051                0.974587998     -76.2291339
9.052                0.974526973     -76.3474301
9.053                0.974465765     -76.4660249
9.054                0.974404375      -76.584919
9.055                0.974342802     -76.7041136
9.056                0.974281045     -76.8236093
9.057                0.974219105     -76.9434073
9.058                 0.97415698     -77.0635083
9.059                 0.97409467     -77.1839133
9.06                 0.974032175     -77.3046233
9.061                0.973969495     -77.4256391
9.062                0.973906629     -77.5469616
9.063                0.973843577     -77.6685919
9.064                0.973780339     -77.7905308
9.065                0.973716913     -77.9127792
9.066                  0.9736533     -78.0353381
9.067                0.973589499     -78.1582085
9.068                 0.97352551     -78.2813912
9.069                0.973461333     -78.4048873
9.07                 0.973396966     -78.5286975
9.071                0.973332411      -78.652823
9.072                0.973267666     -78.7772646
9.073                0.973202731     -78.9020233
9.074                0.973137606     -79.0271001
9.075                 0.97307229     -79.1524958
9.076                0.973006783     -79.2782114
9.077                0.972941084      -79.404248
9.078                0.972875194     -79.5306064
9.079                0.972809112     -79.6572876
9.08                 0.972742837     -79.7842926
9.081                 0.97267637     -79.9116224
9.082                 0.97260971     -80.0392779
9.083                0.972542856       -80.16726
9.084                0.972475808     -80.2955698
9.085                0.972408567     -80.4242081
9.086                0.972341131     -80.5531761
9.087                  0.9722735     -80.6824747
9.088                0.972205674     -80.8121047
9.089                0.972137653     -80.9420673
9.09                 0.972069437     -81.0723634
9.091                0.972001024      -81.202994
9.092                0.971932415       -81.33396
9.093                 0.97186361     -81.4652625
9.094                0.971794607     -81.5969025
9.095                0.971725408     -81.7288808
9.096                0.971656011     -81.8611986
9.097                0.971586416     -81.9938568
9.098                0.971516624     -82.1268564
9.099                0.971446633     -82.2601983
9.1                  0.971376443     -82.3938837
9.101                0.971306055     -82.5279135
9.102                0.971235468     -82.6622887
9.103                0.971164681     -82.7970103
9.104                0.971093695     -82.9320792
9.105                0.971022509     -83.0674966
9.106                0.970951123     -83.2032634
9.107                0.970879537     -83.3393806
9.108                 0.97080775     -83.4758493
9.109                0.970735762     -83.6126704
9.11                 0.970663574     -83.7498449
9.111                0.970591184      -83.887374
9.112                0.970518593     -84.0252585
9.113                  0.9704458     -84.1634995
9.114                0.970372805      -84.302098
9.115                0.970299608     -84.4410551
9.116                0.970226209     -84.5803717
9.117                0.970152608     -84.7200489
9.118                0.970078804     -84.8600877
9.119                0.970004798     -85.0004891
9.12                 0.969930588     -85.1412542
9.121                0.969856175     -85.2823839
9.122                0.969781559     -85.4238794
9.123                 0.96970674     -85.5657416
9.124                0.969631717     -85.7079715
9.125                 0.96955649     -85.8505703
9.126                 0.96948106     -85.9935388
9.127                0.969405426     -86.1368783
9.128                0.969329587     -86.2805896
9.129                0.969253545     -86.4246738
9.13                 0.969177298      -86.569132
9.131                0.969100846     -86.7139652
9.132                0.969024191     -86.8591745
9.133                 0.96894733     -87.0047608
9.134                0.968870265     -87.1507252
9.135                0.968792996     -87.2970687
9.136                0.968715521     -87.4437925
9.137                0.968637842     -87.5908974
9.138                0.968559958     -87.7383847
9.139                0.968481869     -87.8862552
9.14                 0.968403575     -88.0345101
9.141                0.968325075     -88.1831504
9.142                0.968246371     -88.3321771
9.143                0.968167462     -88.4815913
9.144                0.968088348     -88.6313941
9.145                0.968009029     -88.7815864
9.146                0.967929505     -88.9321693
9.147                0.967849776     -89.0831439
9.148                0.967769842     -89.2345111
9.149                0.967689703     -89.3862722
9.15                 0.967609359      -89.538428
9.151                 0.96752881     -89.6909796
9.152                0.967448057     -89.8439282
9.153                0.967367099     -89.9972746
9.154                0.967285936     -90.1510201
9.155                0.967204569     -90.3051655
9.156                0.967122998     -90.4597121
9.157                0.967041222     -90.6146607
9.158                0.966959242     -90.7700125
9.159                0.966877058     -90.9257685
9.16                  0.96679467     -91.0819297
9.161                0.966712079     -91.2384972
9.162                0.966629284      -91.395472
9.163                0.966546285     -91.5528553
9.164                0.966463084     -91.7106479
9.165                0.966379679      -91.868851
9.166                0.966296071     -92.0274656
9.167                0.966212261     -92.1864927
9.168                0.966128249     -92.3459334
9.169                0.966044034     -92.5057888
9.17                 0.965959618     -92.6660597
9.171                   0.965875     -92.8267474
9.172                 0.96579018     -92.9878528
9.173                 0.96570516      -93.149377
9.174                0.965619938      -93.311321
9.175                0.965534517     -93.4736858
9.176                0.965448895     -93.6364725
9.177                0.965363073     -93.7996821
9.178                0.965277051     -93.9633156
9.179                0.965190831     -94.1273741
9.18                 0.965104412     -94.2918586
9.181                0.965017794     -94.4567701
9.182                0.964930979     -94.6221096
9.183                0.964843965     -94.7878782
9.184                0.964756755     -94.9540768
9.185                0.964669348     -95.1207066
9.186                0.964581744     -95.2877684
9.187                0.964493945     -95.4552635
9.188                 0.96440595     -95.6231926
9.189                0.964317761     -95.7915569
9.19                 0.964229377     -95.9603574
9.191                0.964140799     -96.1295951
9.192                0.964052028     -96.2992709
9.193                0.963963063      -96.469386
9.194                0.963873907     -96.6399412
9.195                0.963784559     -96.8109376
9.196                 0.96369502     -96.9823762
9.197                 0.96360529      -97.154258
9.198                 0.96351537     -97.3265839
9.199                0.963425261      -97.499355
9.2                  0.963334963     -97.6725723
9.201                0.963244478     -97.8462366
9.202                0.963153805     -98.0203491
9.203                0.963062945     -98.1949107
9.204                  0.9629719     -98.3699223
9.205                0.962880669      -98.545385
9.206                0.962789254     -98.7212997
9.207                0.962697655     -98.8976673
9.208                0.962605873     -99.0744889
9.209                0.962513909     -99.2517653
9.21                 0.962421764     -99.4294976
9.211                0.962329438     -99.6076867
9.212                0.962236932     -99.7863335
9.213                0.962144248      -99.965439
9.214                0.962051385     -100.145004
9.215                0.961958346      -100.32503
9.216                 0.96186513     -100.505517
9.217                0.961771739     -100.686466
9.218                0.961678174     -100.867879
9.219                0.961584436     -101.049757
9.22                 0.961490525     -101.232099
9.221                0.961396442     -101.414907
9.222                0.961302189     -101.598183
9.223                0.961207767     -101.781926
9.224                0.961113177     -101.966138
9.225                 0.96101842      -102.15082
9.226                0.960923496     -102.335972
9.227                0.960828407     -102.521596
9.228                0.960733155     -102.707692
9.229                0.960637739     -102.894261
9.23                 0.960542163     -103.081305
9.231                0.960446425     -103.268823
9.232                0.960350529     -103.456817
9.233                0.960254475     -103.645288
9.234                0.960158264     -103.834236
9.235                0.960061897     -104.023662
9.236                0.959965377     -104.213568
9.237                0.959868704     -104.403953
9.238                0.959771879      -104.59482
9.239                0.959674904     -104.786168
9.24                  0.95957778     -104.977998
9.241                0.959480509     -105.170311
9.242                0.959383092     -105.363109
9.243                0.959285531     -105.556391
9.244                0.959187826     -105.750159
9.245                 0.95908998     -105.944413
9.246                0.958991994     -106.139154
9.247                0.958893869     -106.334383
9.248                0.958795607     -106.530101
9.249                 0.95869721     -106.726308
9.25                 0.958598679     -106.923006
9.251                0.958500016     -107.120194
9.252                0.958401223     -107.317873
9.253                  0.9583023     -107.516045
9.254                 0.95820325      -107.71471
9.255                0.958104075     -107.913868
9.256                0.958004776     -108.113521
9.257                0.957905355     -108.313669
9.258                0.957805814     -108.514312
9.259                0.957706154     -108.715452
9.26                 0.957606378     -108.917089
9.261                0.957506487     -109.119224
9.262                0.957406483     -109.321857
9.263                0.957306369     -109.524989
9.264                0.957206145      -109.72862
9.265                0.957105814     -109.932752
9.266                0.957005378     -110.137384
9.267                0.956904839     -110.342518
9.268                0.956804199     -110.548153
9.269                 0.95670346     -110.754292
9.27                 0.956602624     -110.960933
9.271                0.956501693     -111.168078
9.272                0.956400669     -111.375727
9.273                0.956299555     -111.583881
9.274                0.956198353      -111.79254
9.275                0.956097064     -112.001705
9.276                0.955995691     -112.211376
9.277                0.955894237     -112.421553
9.278                0.955792703     -112.632238
9.279                0.955691092     -112.843431
9.28                 0.955589407     -113.055132
9.281                0.955487649     -113.267341
9.282                0.955385821     -113.480059
9.283                0.955283925     -113.693287
9.284                0.955181965     -113.907024
9.285                0.955079941     -114.121272
9.286                0.954977858     -114.336031
9.287                0.954875717       -114.5513
9.288                0.954773521     -114.767081
9.289                0.954671272     -114.983373
9.29                 0.954568973     -115.200178
9.291                0.954466627     -115.417495
9.292                0.954364236     -115.635324
9.293                0.954261804     -115.853667
9.294                0.954159332     -116.072522
9.295                0.954056824     -116.291892
9.296                0.953954282     -116.511775
9.297                0.953851709     -116.732172
9.298                0.953749108     -116.953083
9.299                0.953646482     -117.174509
9.3                  0.953543833     -117.396449
9.301                0.953441165     -117.618904
9.302                0.953338481     -117.841875
9.303                0.953235783      -118.06536
9.304                0.953133074     -118.289361
9.305                0.953030358     -118.513877
9.306                0.952927637     -118.738909
9.307                0.952824915     -118.964456
9.308                0.952722194     -119.190519
9.309                0.952619479     -119.417098
9.31                 0.952516771     -119.644193
9.311                0.952414075     -119.871804
9.312                0.952311392     -120.099931
9.313                0.952208728     -120.328573
9.314                0.952106084     -120.557732
9.315                0.952003465     -120.787406
9.316                0.951900873     -121.017596
9.317                0.951798312     -121.248302
9.318                0.951695785     -121.479524
9.319                0.951593296     -121.711261
9.32                 0.951490848     -121.943514
9.321                0.951388444     -122.176282
9.322                0.951286089     -122.409565
9.323                0.951183785     -122.643363
9.324                0.951081536     -122.877677
9.325                0.950979346     -123.112504
9.326                0.950877218     -123.347847
9.327                0.950775156     -123.583703
9.328                0.950673164     -123.820074
9.329                0.950571244     -124.056958
9.33                 0.950469402     -124.294356
9.331                0.950367641     -124.532266
9.332                0.950265964      -124.77069
9.333                0.950164375     -125.009626
9.334                0.950062878     -125.249074
9.335                0.949961477     -125.489033
9.336                0.949860176     -125.729504
9.337                0.949758979     -125.970486
9.338                0.949657889     -126.211978
9.339                0.949556911      -126.45398
9.34                 0.949456048     -126.696491
9.341                0.949355305     -126.939512
9.342                0.949254685      -127.18304
9.343                0.949154193     -127.427077
9.344                0.949053833     -127.671621
9.345                0.948953608     -127.916672
9.346                0.948853523     -128.162229
9.347                0.948753582     -128.408291
9.348                0.948653789     -128.654858
9.349                0.948554149     -128.901929
9.35                 0.948454665     -129.149504
9.351                0.948355342     -129.397582
9.352                0.948256185     -129.646162
9.353                0.948157196     -129.895242
9.354                0.948058381     -130.144824
9.355                0.947959745     -130.394905
9.356                 0.94786129     -130.645485
9.357                0.947763023     -130.896563
9.358                0.947664946     -131.148139
9.359                0.947567065      -131.40021
9.36                 0.947469384     -131.652777
9.361                0.947371908     -131.905839
9.362                 0.94727464     -132.159394
9.363                0.947177586     -132.413441
9.364                 0.94708075      -132.66798
9.365                0.946984137     -132.923009
9.366                 0.94688775     -133.178528
9.367                0.946791595     -133.434536
9.368                0.946695677      -133.69103
9.369                0.946599999     -133.948011
9.37                 0.946504567     -134.205477
9.371                0.946409385     -134.463427
9.372                0.946314458     -134.721859
9.373                 0.94621979     -134.980773
9.374                0.946125387     -135.240167
9.375                0.946031252      -135.50004
9.376                0.945937391     -135.760391
9.377                0.945843809     -136.021218
9.378                0.945750509      -136.28252
9.379                0.945657498     -136.544296
9.38                 0.945564779     -136.806544
9.381                0.945472358     -137.069263
9.382                 0.94538024     -137.332451
9.383                0.945288428     -137.596108
9.384                0.945196929     -137.860231
9.385                0.945105746     -138.124819
9.386                0.945014885      -138.38987
9.387                0.944924351     -138.655384
9.388                0.944834148     -138.921357
9.389                0.944744282      -139.18779
9.39                 0.944654757      -139.45468
9.391                0.944565578     -139.722025
9.392                0.944476751     -139.989824
9.393                0.944388279     -140.258075
9.394                0.944300168     -140.526776
9.395                0.944212424     -140.795926
9.396                 0.94412505     -141.065522
