! TOUCHSTONE file generated by CST DESIGN STUDIO
! Date and time: Tue Feb  4 16:43:50 2025
! Project name: C:\Work\MatlabApps\UnitCellOptimizationMatlab\CST\unitcell.cst
! Tree item: Tasks\Sweep1\SPara1\S-Parameters
! Header version: 2024
! Port assignment regex: !\s*Touchstone port\s*([0-9]+)\s*=\s*(CST MWS port|CST DES external port|CST DES block port)\s*(.+)\s* \(\"(.*)\"\)(\s*mode\s*([0-9]+))?.*
! Touchstone port assignment:
! Touchstone port 1 = CST DES external port 1 ("")
# GHz S MA R 50
9                    0.975667274     -76.2780672
9.001                0.975596305     -76.4029538
9.002                0.975524843     -76.5281666
9.003                0.975452888     -76.6537065
9.004                0.975380437     -76.7795746
9.005                 0.97530749     -76.9057719
9.006                0.975234046     -77.0322992
9.007                0.975160105     -77.1591577
9.008                0.975085664     -77.2863483
9.009                0.975010724      -77.413872
9.01                 0.974935284     -77.5417298
9.011                0.974859342     -77.6699227
9.012                0.974782897     -77.7984517
9.013                0.974705949     -77.9273179
9.014                0.974628497     -78.0565222
9.015                 0.97455054     -78.1860656
9.016                0.974472076     -78.3159492
9.017                0.974393106     -78.4461739
9.018                0.974313627     -78.5767409
9.019                 0.97423364      -78.707651
9.02                 0.974153144     -78.8389054
9.021                0.974072137     -78.9705051
9.022                0.973990618     -79.1024511
9.023                0.973908588     -79.2347443
9.024                0.973826044      -79.367386
9.025                0.973742986      -79.500377
9.026                0.973659414     -79.6337185
9.027                0.973575325     -79.7674114
9.028                0.973490721     -79.9014568
9.029                0.973405599     -80.0358558
9.03                 0.973319959     -80.1706094
9.031                  0.9732338     -80.3057187
9.032                0.973147121     -80.4411846
9.033                0.973059921     -80.5770084
9.034                  0.9729722     -80.7131909
9.035                0.972883957     -80.8497333
9.036                0.972795191     -80.9866367
9.037                0.972705902      -81.123902
9.038                0.972616087     -81.2615304
9.039                0.972525748     -81.3995229
9.04                 0.972434882     -81.5378807
9.041                0.972343489     -81.6766047
9.042                0.972251569      -81.815696
9.043                 0.97215912     -81.9551557
9.044                0.972066143      -82.094985
9.045                0.971972635     -82.2351848
9.046                0.971878597     -82.3757562
9.047                0.971784028     -82.5167004
9.048                0.971688926     -82.6580184
9.049                0.971593293     -82.7997113
9.05                 0.971497125     -82.9417802
9.051                0.971400424     -83.0842262
9.052                0.971303188     -83.2270503
9.053                0.971205417     -83.3702537
9.054                0.971107109     -83.5138375
9.055                0.971008265     -83.6578027
9.056                0.970908884     -83.8021505
9.057                0.970808964     -83.9468819
9.058                0.970708506     -84.0919981
9.059                0.970607509     -84.2375002
9.06                 0.970505972     -84.3833892
9.061                0.970403895     -84.5296663
9.062                0.970301277     -84.6763326
9.063                0.970198117     -84.8233891
9.064                0.970094415     -84.9708371
9.065                0.969990171     -85.1186775
9.066                0.969885383     -85.2669116
9.067                0.969780052     -85.4155405
9.068                0.969674176     -85.5645652
9.069                0.969567756     -85.7139868
9.07                  0.96946079     -85.8638066
9.071                0.969353279     -86.0140256
9.072                0.969245222     -86.1646449
9.073                0.969136618     -86.3156657
9.074                0.969027466      -86.467089
9.075                0.968917768     -86.6189161
9.076                0.968807521     -86.7711479
9.077                0.968696726     -86.9237858
9.078                0.968585382     -87.0768307
9.079                0.968473489     -87.2302839
9.08                 0.968361047     -87.3841463
9.081                0.968248054     -87.5384193
9.082                0.968134512     -87.6931039
9.083                0.968020418     -87.8482011
9.084                0.967905774     -88.0037123
9.085                0.967790579     -88.1596385
9.086                0.967674832     -88.3159808
9.087                0.967558534     -88.4727403
9.088                0.967441683     -88.6299183
9.089                 0.96732428     -88.7875158
9.09                 0.967206325      -88.945534
9.091                0.967087817      -89.103974
9.092                0.966968756     -89.2628369
9.093                0.966849142     -89.4221239
9.094                0.966728975     -89.5818361
9.095                0.966608254     -89.7419747
9.096                 0.96648698     -89.9025408
9.097                0.966365152     -90.0635355
9.098                0.966242771       -90.22496
9.099                0.966119835     -90.3868154
9.1                  0.965996346     -90.5491028
9.101                0.965872302     -90.7118234
9.102                0.965747705     -90.8749783
9.103                0.965622554     -91.0385687
9.104                0.965496848     -91.2025957
9.105                0.965370589     -91.3670604
9.106                0.965243776     -91.5319639
9.107                0.965116409     -91.6973075
9.108                0.964988488     -91.8630922
9.109                0.964860014     -92.0293191
9.11                 0.964730986     -92.1959895
9.111                0.964601404     -92.3631043
9.112                0.964471269     -92.5306649
9.113                0.964340582     -92.6986722
9.114                0.964209341     -92.8671275
9.115                0.964077548     -93.0360318
9.116                0.963945202     -93.2053863
9.117                0.963812304     -93.3751921
9.118                0.963678855     -93.5454503
9.119                0.963544854     -93.7161621
9.12                 0.963410302     -93.8873286
9.121                0.963275199     -94.0589509
9.122                0.963139545     -94.2310301
9.123                0.963003342     -94.4035674
9.124                0.962866589     -94.5765638
9.125                0.962729287     -94.7500205
9.126                0.962591436     -94.9239386
9.127                0.962453037     -95.0983192
9.128                 0.96231409     -95.2731635
9.129                0.962174596     -95.4484724
9.13                 0.962034556     -95.6242472
9.131                 0.96189397     -95.8004889
9.132                0.961752839     -95.9771986
9.133                0.961611163     -96.1543775
9.134                0.961468943     -96.3320267
9.135                 0.96132618     -96.5101471
9.136                0.961182875       -96.68874
9.137                0.961039027     -96.8678064
9.138                0.960894639     -97.0473474
9.139                0.960749711     -97.2273641
9.14                 0.960604244     -97.4078575
9.141                0.960458238     -97.5888288
9.142                0.960311694     -97.7702791
9.143                0.960164615     -97.9522093
9.144                0.960016999     -98.1346206
9.145                0.959868849      -98.317514
9.146                0.959720166     -98.5008906
9.147                 0.95957095     -98.6847515
9.148                0.959421203     -98.8690976
9.149                0.959270925     -99.0539302
9.15                 0.959120119     -99.2392501
9.151                0.958968784     -99.4250585
9.152                0.958816923     -99.6113564
9.153                0.958664536     -99.7981449
9.154                0.958511626     -99.9854249
9.155                0.958358192     -100.173197
9.156                0.958204237     -100.361464
9.157                0.958049761     -100.550224
9.158                0.957894767     -100.739481
9.159                0.957739256     -100.929234
9.16                 0.957583229     -101.119485
9.161                0.957426688     -101.310234
9.162                0.957269634     -101.501484
9.163                0.957112069     -101.693233
9.164                0.956953994     -101.885485
9.165                0.956795412     -102.078239
9.166                0.956636324     -102.271496
9.167                0.956476731     -102.465259
9.168                0.956316636     -102.659526
9.169                 0.95615604     -102.854301
9.17                 0.955994945     -103.049582
9.171                0.955833353     -103.245372
9.172                0.955671266     -103.441672
9.173                0.955508686     -103.638481
9.174                0.955345615     -103.835802
9.175                0.955182055     -104.033635
9.176                0.955018008     -104.231981
9.177                0.954853476      -104.43084
9.178                0.954688462     -104.630215
9.179                0.954522967     -104.830105
9.18                 0.954356994     -105.030512
9.181                0.954190545     -105.231437
9.182                0.954023623     -105.432879
9.183                0.953856229     -105.634841
9.184                0.953688367     -105.837323
9.185                0.953520039     -106.040326
9.186                0.953351247     -106.243851
9.187                0.953181993     -106.447898
9.188                0.953012282     -106.652469
9.189                0.952842114     -106.857563
9.19                 0.952671493     -107.063183
9.191                0.952500422     -107.269329
9.192                0.952328903     -107.476001
9.193                 0.95215694     -107.683201
9.194                0.951984534     -107.890929
9.195                 0.95181169     -108.099186
9.196                0.951638409     -108.307973
9.197                0.951464695      -108.51729
9.198                0.951290552     -108.727138
9.199                0.951115981     -108.937518
9.2                  0.950940987     -109.148431
9.201                0.950765572     -109.359877
9.202                0.950589741     -109.571857
9.203                0.950413495     -109.784372
9.204                0.950236839     -109.997422
9.205                0.950059775     -110.211008
9.206                0.949882308     -110.425131
9.207                0.949704441     -110.639791
9.208                0.949526178      -110.85499
9.209                0.949347521     -111.070726
9.21                 0.949168475     -111.287002
9.211                0.948989043     -111.503818
9.212                 0.94880923     -111.721174
9.213                0.948629039     -111.939072
9.214                0.948448473      -112.15751
9.215                0.948267538     -112.376491
9.216                0.948086236     -112.596014
9.217                0.947904572     -112.816081
9.218                 0.94772255     -113.036691
9.219                0.947540174     -113.257845
9.22                 0.947357448     -113.479544
9.221                0.947174377     -113.701788
9.222                0.946990965     -113.924578
9.223                0.946807216     -114.147914
9.224                0.946623134     -114.371796
9.225                0.946438724     -114.596225
9.226                0.946253992     -114.821201
9.227                 0.94606894     -115.046725
9.228                0.945883574     -115.272797
9.229                0.945697898     -115.499417
9.23                 0.945511918     -115.726587
9.231                0.945325638     -115.954305
9.232                0.945139063     -116.182572
9.233                0.944952197      -116.41139
9.234                0.944765047     -116.640757
9.235                0.944577616     -116.870675
9.236                 0.94438991     -117.101143
9.237                0.944201935     -117.332162
9.238                0.944013694     -117.563732
9.239                0.943825194     -117.795853
9.24                 0.943636441     -118.028526
9.241                0.943447438      -118.26175
9.242                0.943258192     -118.495526
9.243                0.943068709     -118.729854
9.244                0.942878993     -118.964734
9.245                 0.94268905     -119.200166
9.246                0.942498887      -119.43615
9.247                0.942308509     -119.672686
9.248                0.942117921     -119.909775
9.249                0.941927129     -120.147416
9.25                  0.94173614      -120.38561
9.251                 0.94154496     -120.624356
9.252                0.941353594     -120.863654
9.253                0.941162048     -121.103505
9.254                0.940970329     -121.343908
9.255                0.940778442     -121.584864
9.256                0.940586395     -121.826371
9.257                0.940394193      -122.06843
9.258                0.940201844     -122.311042
9.259                0.940009352     -122.554205
9.26                 0.939816725      -122.79792
9.261                 0.93962397     -123.042186
9.262                0.939431092     -123.287003
9.263                0.939238099     -123.532371
9.264                0.939044998      -123.77829
9.265                0.938851794     -124.024759
9.266                0.938658496     -124.271779
9.267                 0.93846511     -124.519348
9.268                0.938271643     -124.767467
9.269                0.938078102     -125.016135
9.27                 0.937884493     -125.265351
9.271                0.937690825     -125.515116
9.272                0.937497105     -125.765429
9.273                0.937303339     -126.016289
9.274                0.937109536     -126.267697
9.275                0.936915701     -126.519651
9.276                0.936721844      -126.77215
9.277                0.936527971     -127.025196
9.278                 0.93633409     -127.278786
9.279                0.936140209     -127.532921
9.28                 0.935946334     -127.787599
9.281                0.935752475     -128.042821
9.282                0.935558638     -128.298585
9.283                0.935364832      -128.55489
9.284                0.935171065     -128.811737
9.285                0.934977344     -129.069124
9.286                0.934783677     -129.327051
9.287                0.934590073     -129.585517
9.288                0.934396539     -129.844521
9.289                0.934203084     -130.104062
9.29                 0.934009716     -130.364139
9.291                0.933816443     -130.624752
9.292                0.933623274     -130.885899
9.293                0.933430217     -131.147581
9.294                 0.93323728     -131.409795
9.295                0.933044471      -131.67254
9.296                  0.9328518     -131.935817
9.297                0.932659275     -132.199623
9.298                0.932466905     -132.463958
9.299                0.932274698     -132.728821
9.3                  0.932082662      -132.99421
9.301                0.931890808     -133.260125
9.302                0.931699142     -133.526564
9.303                0.931507676     -133.793526
9.304                0.931316416     -134.061009
9.305                0.931125373     -134.329014
9.306                0.930934555     -134.597537
9.307                0.930743971     -134.866579
9.308                 0.93055363     -135.136138
9.309                0.930363542     -135.406212
9.31                 0.930173716       -135.6768
9.311                0.929984161     -135.947901
9.312                0.929794885     -136.219513
9.313                0.929605899     -136.491634
9.314                0.929417212     -136.764264
9.315                0.929228833     -137.037401
9.316                0.929040771     -137.311043
9.317                0.928853037     -137.585188
9.318                0.928665638     -137.859836
9.319                0.928478586     -138.134984
9.32                 0.928291889     -138.410631
9.321                0.928105557     -138.686774
9.322                  0.9279196     -138.963414
9.323                0.927734028     -139.240547
9.324                0.927548849     -139.518171
9.325                0.927364074     -139.796286
9.326                0.927179713     -140.074889
9.327                0.926995774     -140.353979
9.328                0.926812269     -140.633552
9.329                0.926629206     -140.913609
9.33                 0.926446597     -141.194146
9.331                0.926264449     -141.475162
9.332                0.926082774     -141.756654
9.333                0.925901582     -142.038621
9.334                0.925720882     -142.321061
9.335                0.925540684     -142.603971
9.336                0.925360998     -142.887349
9.337                0.925181834     -143.171194
9.338                0.925003202     -143.455502
9.339                0.924825113     -143.740272
9.34                 0.924647576     -144.025502
9.341                0.924470601     -144.311189
9.342                0.924294198     -144.597332
9.343                0.924118378     -144.883926
9.344                 0.92394315     -145.170971
9.345                0.923768525     -145.458464
9.346                0.923594512     -145.746403
9.347                0.923421122     -146.034784
9.348                0.923248365     -146.323606
9.349                0.923076251     -146.612866
9.35                  0.92290479     -146.902562
9.351                0.922733992      -147.19269
9.352                0.922563867     -147.483249
9.353                0.922394425     -147.774235
9.354                0.922225678     -148.065646
9.355                0.922057633      -148.35748
9.356                0.921890303     -148.649734
9.357                0.921723696     -148.942404
9.358                0.921557823     -149.235488
9.359                0.921392693     -149.528984
9.36                 0.921228318     -149.822888
9.361                0.921064707     -150.117197
9.362                0.920901869      -150.41191
9.363                0.920739816     -150.707022
9.364                0.920578557     -151.002531
9.365                0.920418102     -151.298434
9.366                 0.92025846     -151.594727
9.367                0.920099643     -151.891409
9.368                 0.91994166     -152.188475
9.369                 0.91978452     -152.485922
9.37                 0.919628233     -152.783748
9.371                0.919472811      -153.08195
9.372                0.919318261     -153.380524
9.373                0.919164594     -153.679466
9.374                0.919011821     -153.978774
9.375                0.918859949     -154.278445
9.376                 0.91870899     -154.578475
9.377                0.918558953      -154.87886
9.378                0.918409847     -155.179599
9.379                0.918261682     -155.480686
9.38                 0.918114467     -155.782119
9.381                0.917968213     -156.083894
9.382                0.917822928     -156.386008
9.383                0.917678622     -156.688457
9.384                0.917535304     -156.991238
9.385                0.917392983     -157.294347
9.386                 0.91725167     -157.597781
9.387                0.917111372     -157.901536
9.388                  0.9169721     -158.205608
9.389                0.916833862     -158.509995
9.39                 0.916696667     -158.814691
9.391                0.916560524     -159.119694
9.392                0.916425443        -159.425
9.393                0.916291432     -159.730605
9.394                  0.9161585     -160.036505
9.395                0.916026656     -160.342696
9.396                0.915895907     -160.649175
