! TOUCHSTONE file generated by CST DESIGN STUDIO
! Date and time: Tue Feb  4 16:43:45 2025
! Project name: C:\Work\MatlabApps\UnitCellOptimizationMatlab\CST\unitcell.cst
! Tree item: Tasks\Sweep1\SPara1\S-Parameters
! Header version: 2024
! Port assignment regex: !\s*Touchstone port\s*([0-9]+)\s*=\s*(CST MWS port|CST DES external port|CST DES block port)\s*(.+)\s* \(\"(.*)\"\)(\s*mode\s*([0-9]+))?.*
! Touchstone port assignment:
! Touchstone port 1 = CST DES external port 1 ("")
# GHz S MA R 50
9                    0.973748088     -85.3076995
9.001                0.973672511     -85.4573382
9.002                0.973596417     -85.6073847
9.003                0.973519806     -85.7578401
9.004                0.973442675     -85.9087055
9.005                0.973365023     -86.0599821
9.006                0.973286849     -86.2116711
9.007                 0.97320815     -86.3637736
9.008                0.973128926     -86.5162908
9.009                0.973049175     -86.6692238
9.01                 0.972968895     -86.8225737
9.011                0.972888086     -86.9763417
9.012                0.972806745      -87.130529
9.013                0.972724871     -87.2851368
9.014                0.972642463     -87.4401661
9.015                0.972559519     -87.5956181
9.016                0.972476038     -87.7514941
9.017                0.972392018      -87.907795
9.018                0.972307459     -88.0645222
9.019                0.972222358     -88.2216768
9.02                 0.972136714     -88.3792598
9.021                0.972050527     -88.5372725
9.022                0.971963794     -88.6957161
9.023                0.971876514     -88.8545917
9.024                0.971788687     -89.0139004
9.025                0.971700309     -89.1736434
9.026                0.971611382     -89.3338218
9.027                0.971521902     -89.4944369
9.028                0.971431869     -89.6554898
9.029                0.971341282     -89.8169816
9.03                 0.971250138     -89.9789135
9.031                0.971158438     -90.1412866
9.032                 0.97106618     -90.3041022
9.033                0.970973362     -90.4673613
9.034                0.970879984     -90.6310651
9.035                0.970786044     -90.7952148
9.036                0.970691541     -90.9598115
9.037                0.970596474     -91.1248564
9.038                0.970500842     -91.2903507
9.039                0.970404643     -91.4562954
9.04                 0.970307877     -91.6226918
9.041                0.970210543     -91.7895409
9.042                0.970112639      -91.956844
9.043                0.970014164     -92.1246022
9.044                0.969915118     -92.2928166
9.045                0.969815499     -92.4614884
9.046                0.969715306     -92.6306187
9.047                0.969614539     -92.8002087
9.048                0.969513196     -92.9702595
9.049                0.969411277     -93.1407723
9.05                  0.96930878     -93.3117481
9.051                0.969205705     -93.4831882
9.052                 0.96910205     -93.6550936
9.053                0.968997816     -93.8274656
9.054                   0.968893     -94.0003052
9.055                0.968787603     -94.1736135
9.056                0.968681623     -94.3473918
9.057                 0.96857506     -94.5216411
9.058                0.968467912     -94.6963625
9.059                 0.96836018     -94.8715572
9.06                 0.968251862     -95.0472263
9.061                0.968142958     -95.2233709
9.062                0.968033467     -95.3999921
9.063                0.967923388     -95.5770911
9.064                0.967812721     -95.7546689
9.065                0.967701466     -95.9327267
9.066                 0.96758962     -96.1112655
9.067                0.967477185     -96.2902866
9.068                 0.96736416     -96.4697908
9.069                0.967250543     -96.6497795
9.07                 0.967136335     -96.8302536
9.071                0.967021535     -97.0112143
9.072                0.966906142     -97.1926626
9.073                0.966790157     -97.3745996
9.074                0.966673578     -97.5570265
9.075                0.966556406     -97.7399442
9.076                 0.96643864     -97.9233539
9.077                 0.96632028     -98.1072565
9.078                0.966201326     -98.2916533
9.079                0.966081777     -98.4765453
9.08                 0.965961633     -98.6619334
9.081                0.965840894     -98.8478189
9.082                 0.96571956     -99.0342026
9.083                 0.96559763     -99.2210857
9.084                0.965475105     -99.4084692
9.085                0.965351985     -99.5963541
9.086                0.965228269     -99.7847416
9.087                0.965103958     -99.9736325
9.088                0.964979051     -100.163028
9.089                0.964853548     -100.352929
9.09                 0.964727451     -100.543336
9.091                0.964600758     -100.734252
9.092                 0.96447347     -100.925675
9.093                0.964345588     -101.117608
9.094                0.964217111     -101.310052
9.095                0.964088039     -101.503008
9.096                0.963958373     -101.696475
9.097                0.963828114     -101.890457
9.098                0.963697261     -102.084952
9.099                0.963565816     -102.279964
9.1                  0.963433778     -102.475491
9.101                0.963301148     -102.671536
9.102                0.963167926     -102.868099
9.103                0.963034114     -103.065182
9.104                0.962899711     -103.262784
9.105                0.962764718     -103.460908
9.106                0.962629137     -103.659554
9.107                0.962492967     -103.858722
9.108                0.962356209     -104.058415
9.109                0.962218864     -104.258632
9.11                 0.962080934     -104.459374
9.111                0.961942418     -104.660643
9.112                0.961803319      -104.86244
9.113                0.961663636     -105.064764
9.114                 0.96152337     -105.267618
9.115                0.961382524     -105.471002
9.116                0.961241097     -105.674916
9.117                0.961099091     -105.879362
9.118                0.960956507      -106.08434
9.119                0.960813347     -106.289852
9.12                 0.960669611     -106.495897
9.121                0.960525301     -106.702478
9.122                0.960380418     -106.909594
9.123                0.960234964     -107.117246
9.124                 0.96008894     -107.325436
9.125                0.959942347     -107.534163
9.126                0.959795188      -107.74343
9.127                0.959647462     -107.953235
9.128                0.959499174     -108.163581
9.129                0.959350323     -108.374468
9.13                 0.959200911     -108.585896
9.131                0.959050942     -108.797867
9.132                0.958900415      -109.01038
9.133                0.958749333     -109.223438
9.134                0.958597698     -109.437039
9.135                0.958445513     -109.651186
9.136                0.958292778     -109.865878
9.137                0.958139496     -110.081117
9.138                 0.95798567     -110.296902
9.139                  0.9578313     -110.513235
9.14                 0.957676391     -110.730117
9.141                0.957520943     -110.947546
9.142                0.957364959     -111.165526
9.143                0.957208442     -111.384055
9.144                0.957051393     -111.603134
9.145                0.956893817     -111.822765
9.146                0.956735714     -112.042946
9.147                0.956577088      -112.26368
9.148                0.956417941     -112.484967
9.149                0.956258276     -112.706806
9.15                 0.956098096     -112.929199
9.151                0.955937404     -113.152146
9.152                0.955776202     -113.375648
9.153                0.955614494     -113.599704
9.154                0.955452282     -113.824315
9.155                0.955289569     -114.049482
9.156                0.955126359     -114.275205
9.157                0.954962655     -114.501485
9.158                 0.95479846     -114.728321
9.159                0.954633777     -114.955715
9.16                  0.95446861     -115.183666
9.161                0.954302962     -115.412175
9.162                0.954136837     -115.641242
9.163                0.953970238     -115.870867
9.164                0.953803168     -116.101051
9.165                0.953635632     -116.331794
9.166                0.953467633     -116.563096
9.167                0.953299175     -116.794958
9.168                0.953130261     -117.027379
9.169                0.952960896      -117.26036
9.17                 0.952791084     -117.493901
9.171                0.952620828     -117.728003
9.172                0.952450134     -117.962664
9.173                0.952279004     -118.197886
9.174                0.952107443     -118.433668
9.175                0.951935455     -118.670011
9.176                0.951763046     -118.906915
9.177                0.951590218     -119.144379
9.178                0.951416977     -119.382405
9.179                0.951243328     -119.620991
9.18                 0.951069274     -119.860137
9.181                0.950894821     -120.099845
9.182                0.950719973     -120.340113
9.183                0.950544735     -120.580942
9.184                0.950369112     -120.822332
9.185                0.950193109     -121.064282
9.186                0.950016731     -121.306793
9.187                0.949839983     -121.549864
9.188                0.949662871     -121.793494
9.189                0.949485398     -122.037685
9.19                 0.949307571     -122.282436
9.191                0.949129396     -122.527746
9.192                0.948950876     -122.773615
9.193                0.948772019     -123.020044
9.194                0.948592829     -123.267031
9.195                0.948413312     -123.514577
9.196                0.948233474      -123.76268
9.197                 0.94805332     -124.011342
9.198                0.947872857     -124.260561
9.199                 0.94769209     -124.510337
9.2                  0.947511025      -124.76067
9.201                0.947329668     -125.011559
9.202                0.947148026     -125.263004
9.203                0.946966104     -125.515004
9.204                0.946783908     -125.767558
9.205                0.946601446     -126.020667
9.206                0.946418723      -126.27433
9.207                0.946235746     -126.528546
9.208                0.946052522     -126.783315
9.209                0.945869056     -127.038635
9.21                 0.945685355     -127.294507
9.211                0.945501427     -127.550929
9.212                0.945317278     -127.807902
9.213                0.945132915     -128.065424
9.214                0.944948344     -128.323494
9.215                0.944763573     -128.582112
9.216                0.944578609     -128.841277
9.217                0.944393459     -129.100989
9.218                0.944208129     -129.361245
9.219                0.944022628     -129.622046
9.22                 0.943836963     -129.883391
9.221                0.943651141     -130.145279
9.222                0.943465169     -130.407708
9.223                0.943279054     -130.670678
9.224                0.943092806     -130.934188
9.225                 0.94290643     -131.198237
9.226                0.942719935     -131.462824
9.227                0.942533329     -131.727947
9.228                0.942346619     -131.993606
9.229                0.942159813       -132.2598
9.23                  0.94197292     -132.526527
9.231                0.941785947     -132.793786
9.232                0.941598902     -133.061576
9.233                0.941411794     -133.329896
9.234                 0.94122463     -133.598745
9.235                0.941037419     -133.868121
9.236                 0.94085017     -134.138022
9.237                 0.94066289     -134.408449
9.238                0.940475588     -134.679398
9.239                0.940288272      -134.95087
9.24                 0.940100952     -135.222862
9.241                0.939913636     -135.495373
9.242                0.939726332     -135.768402
9.243                0.939539049     -136.041946
9.244                0.939351796     -136.316005
9.245                0.939164582     -136.590577
9.246                0.938977415     -136.865661
9.247                0.938790305     -137.141254
9.248                0.938603261     -137.417355
9.249                0.938416292     -137.693963
9.25                 0.938229406     -137.971075
9.251                0.938042613     -138.248691
9.252                0.937855922     -138.526808
9.253                0.937669343     -138.805424
9.254                0.937482885     -139.084537
9.255                0.937296557     -139.364147
9.256                0.937110368      -139.64425
9.257                0.936924328     -139.924845
9.258                0.936738447     -140.205931
9.259                0.936552734     -140.487504
9.26                 0.936367198     -140.769564
9.261                 0.93618185     -141.052107
9.262                0.935996698     -141.335133
9.263                0.935811754     -141.618638
9.264                0.935627025     -141.902621
9.265                0.935442523      -142.18708
9.266                0.935258257     -142.472013
9.267                0.935074237     -142.757416
9.268                0.934890473     -143.043289
9.269                0.934706975     -143.329628
9.27                 0.934523752     -143.616432
9.271                0.934340815     -143.903698
9.272                0.934158174     -144.191423
9.273                0.933975839     -144.479607
9.274                 0.93379382     -144.768245
9.275                0.933612128     -145.057335
9.276                0.933430771     -145.346876
9.277                0.933249761     -145.636864
9.278                0.933069108     -145.927297
9.279                0.932888823     -146.218172
9.28                 0.932708914     -146.509487
9.281                0.932529393      -146.80124
9.282                 0.93235027     -147.093427
9.283                0.932171555     -147.386046
9.284                0.931993259     -147.679094
9.285                0.931815391     -147.972568
9.286                0.931637964     -148.266466
9.287                0.931460985     -148.560784
9.288                0.931284468     -148.855521
9.289                 0.93110842     -149.150673
9.29                 0.930932854     -149.446236
9.291                0.930757779     -149.742209
9.292                0.930583207     -150.038589
9.293                0.930409147     -150.335371
9.294                0.930235609     -150.632554
9.295                0.930062605     -150.930135
9.296                0.929890145     -151.228109
9.297                0.929718239     -151.526474
9.298                0.929546898     -151.825228
9.299                0.929376133     -152.124366
9.3                  0.929205953     -152.423885
9.301                0.929036369     -152.723783
9.302                0.928867392     -153.024057
9.303                0.928699032     -153.324701
9.304                  0.9285313     -153.625715
9.305                0.928364206     -153.927094
9.306                 0.92819776     -154.228834
9.307                0.928031973     -154.530933
9.308                0.927866856     -154.833387
9.309                0.927702418     -155.136193
9.31                  0.92753867     -155.439346
9.311                0.927375622     -155.742845
9.312                0.927213285     -156.046684
9.313                 0.92705167     -156.350861
9.314                0.926890785     -156.655372
9.315                0.926730642     -156.960213
9.316                0.926571251     -157.265381
9.317                0.926412621     -157.570872
9.318                0.926254764     -157.876682
9.319                0.926097689     -158.182808
9.32                 0.925941406     -158.489246
9.321                0.925785925     -158.795993
9.322                0.925631257     -159.103043
9.323                0.925477412     -159.410394
9.324                0.925324399     -159.718042
9.325                0.925172228     -160.025983
9.326                0.925020909     -160.334213
9.327                0.924870452     -160.642728
9.328                0.924720867     -160.951524
9.329                0.924572164     -161.260597
9.33                 0.924424351     -161.569944
9.331                0.924277439     -161.879559
9.332                0.924131438      -162.18944
9.333                0.923986357     -162.499583
9.334                0.923842205     -162.809982
9.335                0.923698992     -163.120634
9.336                0.923556726     -163.431535
9.337                0.923415419     -163.742681
9.338                0.923275078     -164.054068
9.339                0.923135713     -164.365691
9.34                 0.922997332     -164.677546
9.341                0.922859946      -164.98963
9.342                0.922723563     -165.301937
9.343                0.922588191     -165.614463
9.344                0.922453841     -165.927205
9.345                0.922320519     -166.240158
9.346                0.922188236     -166.553318
9.347                   0.922057      -166.86668
9.348                0.921926819      -167.18024
9.349                0.921797702     -167.493994
9.35                 0.921669657     -167.807937
9.351                0.921542692     -168.122065
9.352                0.921416816     -168.436373
9.353                0.921292037     -168.750858
9.354                0.921168363     -169.065514
9.355                0.921045802     -169.380337
9.356                0.920924361     -169.695323
9.357                0.920804049     -170.010467
9.358                0.920684874     -170.325765
9.359                0.920566842     -170.641212
9.36                 0.920449961     -170.956803
9.361                0.920334239     -171.272535
9.362                0.920219684     -171.588402
9.363                0.920106302       -171.9044
9.364                  0.9199941     -172.220525
9.365                0.919883086     -172.536771
9.366                0.919773266     -172.853135
9.367                0.919664648     -173.169611
9.368                0.919557238     -173.486195
9.369                0.919451043     -173.802883
9.37                 0.919346069     -174.119669
9.371                0.919242322     -174.436549
9.372                 0.91913981     -174.753519
9.373                0.919038538     -175.070573
9.374                0.918938512     -175.387708
9.375                0.918839738     -175.704918
9.376                0.918742223     -176.022198
9.377                0.918645972     -176.339545
9.378                 0.91855099     -176.656953
9.379                0.918457284     -176.974417
9.38                 0.918364859     -177.291933
9.381                0.918273719     -177.609497
9.382                0.918183871     -177.927103
9.383                0.918095319     -178.244746
9.384                0.918008068     -178.562423
9.385                0.917922123     -178.880128
9.386                 0.91783749     -179.197856
9.387                0.917754172     -179.515603
9.388                0.917672174     -179.833364
9.389                  0.9175915      179.848866
9.39                 0.917512155      179.531091
9.391                0.917434143      179.213316
9.392                0.917357468      178.895546
9.393                0.917282133      178.577786
9.394                0.917208143      178.260041
9.395                0.917135502      177.942314
9.396                0.917064212      177.624612
