! TOUCHSTONE file generated by CST DESIGN STUDIO
! Date and time: Tue Feb  4 16:43:55 2025
! Project name: C:\Work\MatlabApps\UnitCellOptimizationMatlab\CST\unitcell.cst
! Tree item: Tasks\Sweep1\SPara1\S-Parameters
! Header version: 2024
! Port assignment regex: !\s*Touchstone port\s*([0-9]+)\s*=\s*(CST MWS port|CST DES external port|CST DES block port)\s*(.+)\s* \(\"(.*)\"\)(\s*mode\s*([0-9]+))?.*
! Touchstone port assignment:
! Touchstone port 1 = CST DES external port 1 ("")
# GHz S MA R 50
9                    0.977553619     -67.4934429
9.001                0.977480484     -67.5959123
9.002                0.977407032     -67.6986344
9.003                0.977333261     -67.8016098
9.004                 0.97725917     -67.9048394
9.005                0.977184759     -68.0083241
9.006                0.977110027     -68.1120646
9.007                0.977034972     -68.2160618
9.008                0.976959595     -68.3203165
9.009                0.976883893     -68.4248295
9.01                 0.976807867     -68.5296016
9.011                0.976731515     -68.6346337
9.012                0.976654837     -68.7399267
9.013                0.976577831     -68.8454812
9.014                0.976500497     -68.9512983
9.015                0.976422833     -69.0573786
9.016                0.976344839     -69.1637231
9.017                0.976266514     -69.2703327
9.018                0.976187858     -69.3772081
9.019                0.976108868     -69.4843502
9.02                 0.976029545     -69.5917599
9.021                0.975949887      -69.699438
9.022                0.975869894     -69.8073854
9.023                0.975789564     -69.9156029
9.024                0.975708897     -70.0240915
9.025                0.975627892     -70.1328519
9.026                0.975546548     -70.2418851
9.027                0.975464864     -70.3511919
9.028                0.975382839     -70.4607732
9.029                0.975300472     -70.5706298
9.03                 0.975217762     -70.6807628
9.031                 0.97513471     -70.7911728
9.032                0.975051312      -70.901861
9.033                 0.97496757      -71.012828
9.034                0.974883481     -71.1240748
9.035                0.974799046     -71.2356024
9.036                0.974714262     -71.3474115
9.037                 0.97462913     -71.4595032
9.038                0.974543648     -71.5718783
9.039                0.974457815     -71.6845376
9.04                 0.974371631     -71.7974822
9.041                0.974285094      -71.910713
9.042                0.974198204     -72.0242308
9.043                0.974110961     -72.1380365
9.044                0.974023362     -72.2521311
9.045                0.973935407     -72.3665156
9.046                0.973847096     -72.4811907
9.047                0.973758427     -72.5961575
9.048                0.973669399     -72.7114169
9.049                0.973580013     -72.8269698
9.05                 0.973490266     -72.9428172
9.051                0.973400157       -73.05896
9.052                0.973309687     -73.1753991
9.053                0.973218855     -73.2921355
9.054                0.973127658     -73.4091701
9.055                0.973036097     -73.5265038
9.056                 0.97294417     -73.6441377
9.057                0.972851878     -73.7620727
9.058                0.972759218     -73.8803097
9.059                 0.97266619     -73.9988497
9.06                 0.972572793     -74.1176936
9.061                0.972479027     -74.2368425
9.062                 0.97238489     -74.3562973
9.063                0.972290382     -74.4760589
9.064                0.972195502     -74.5961284
9.065                0.972100248     -74.7165066
9.066                0.972004621     -74.8371947
9.067                0.971908619     -74.9581935
9.068                0.971812241      -75.079504
9.069                0.971715487     -75.2011273
9.07                 0.971618356     -75.3230643
9.071                0.971520847     -75.4453161
9.072                0.971422959     -75.5678835
9.073                0.971324691     -75.6907677
9.074                0.971226043     -75.8139695
9.075                0.971127014     -75.9374901
9.076                0.971027602     -76.0613304
9.077                0.970927808     -76.1854914
9.078                 0.97082763     -76.3099741
9.079                0.970727067     -76.4347795
9.08                 0.970626119     -76.5599088
9.081                0.970524785     -76.6853628
9.082                0.970423064     -76.8111425
9.083                0.970320956     -76.9372491
9.084                0.970218459     -77.0636836
9.085                0.970115572     -77.1904469
9.086                0.970012296     -77.3175401
9.087                 0.96990863     -77.4449642
9.088                0.969804571     -77.5727203
9.089                0.969700121     -77.7008094
9.09                 0.969595277     -77.8292325
9.091                 0.96949004     -77.9579907
9.092                0.969384408      -78.087085
9.093                0.969278381     -78.2165166
9.094                0.969171958     -78.3462863
9.095                0.969065138     -78.4763953
9.096                0.968957921     -78.6068447
9.097                0.968850306     -78.7376354
9.098                0.968742292     -78.8687686
9.099                0.968633879     -79.0002453
9.1                  0.968525065     -79.1320665
9.101                 0.96841585     -79.2642334
9.102                0.968306234     -79.3967471
9.103                0.968196215     -79.5296084
9.104                0.968085794     -79.6628187
9.105                0.967974969     -79.7963789
9.106                0.967863739       -79.93029
9.107                0.967752105     -80.0645533
9.108                0.967640065     -80.1991697
9.109                0.967527619     -80.3341404
9.11                 0.967414766     -80.4694664
9.111                0.967301505     -80.6051488
9.112                0.967187836     -80.7411888
9.113                0.967073759     -80.8775874
9.114                0.966959272     -81.0143456
9.115                0.966844375     -81.1514647
9.116                0.966729068     -81.2889457
9.117                 0.96661335     -81.4267897
9.118                 0.96649722     -81.5649978
9.119                0.966380677     -81.7035711
9.12                 0.966263722     -81.8425107
9.121                0.966146354     -81.9818178
9.122                0.966028571     -82.1214934
9.123                0.965910374     -82.2615387
9.124                0.965791763     -82.4019547
9.125                0.965672735     -82.5427427
9.126                0.965553292     -82.6839036
9.127                0.965433432     -82.8254387
9.128                0.965313156      -82.967349
9.129                0.965192462     -83.1096357
9.13                  0.96507135     -83.2522999
9.131                0.964949819     -83.3953427
9.132                 0.96482787     -83.5387653
9.133                0.964705502     -83.6825688
9.134                0.964582714     -83.8267544
9.135                0.964459505      -83.971323
9.136                0.964335877      -84.116276
9.137                0.964211827     -84.2616145
9.138                0.964087356     -84.4073395
9.139                0.963962464     -84.5534522
9.14                 0.963837149     -84.6999538
9.141                0.963711412     -84.8468454
9.142                0.963585253     -84.9941282
9.143                 0.96345867     -85.1418032
9.144                0.963331664     -85.2898717
9.145                0.963204235     -85.4383348
9.146                0.963076381     -85.5871937
9.147                0.962948104     -85.7364494
9.148                0.962819401     -85.8861032
9.149                0.962690275     -86.0361563
9.15                 0.962560723     -86.1866097
9.151                0.962430746     -86.3374646
9.152                0.962300343     -86.4887222
9.153                0.962169515     -86.6403837
9.154                0.962038262     -86.7924501
9.155                0.961906582     -86.9449227
9.156                0.961774476     -87.0978027
9.157                0.961641944     -87.2510911
9.158                0.961508986     -87.4047893
9.159                0.961375601     -87.5588982
9.16                  0.96124179     -87.7134191
9.161                0.961107552     -87.8683532
9.162                0.960972887     -88.0237016
9.163                0.960837796     -88.1794655
9.164                0.960702278      -88.335646
9.165                0.960566333     -88.4922444
9.166                0.960429961     -88.6492618
9.167                0.960293162     -88.8066993
9.168                0.960155937     -88.9645582
9.169                0.960018285     -89.1228396
9.17                 0.959880207     -89.2815447
9.171                0.959741701     -89.4406746
9.172                 0.95960277     -89.6002306
9.173                0.959463412     -89.7602138
9.174                0.959323628     -89.9206253
9.175                0.959183418     -90.0814664
9.176                0.959042782     -90.2427382
9.177                0.958901721     -90.4044419
9.178                0.958760234     -90.5665787
9.179                0.958618322     -90.7291497
9.18                 0.958475985     -90.8921561
9.181                0.958333223     -91.0555991
9.182                0.958190037     -91.2194798
9.183                0.958046427     -91.3837995
9.184                0.957902393     -91.5485592
9.185                0.957757936     -91.7137603
9.186                0.957613056     -91.8794037
9.187                0.957467753     -92.0454908
9.188                0.957322028     -92.2120226
9.189                0.957175882     -92.3790004
9.19                 0.957029314     -92.5464253
9.191                0.956882326     -92.7142985
9.192                0.956734917     -92.8826211
9.193                0.956587088     -93.0513943
9.194                0.956438841     -93.2206193
9.195                0.956290175     -93.3902973
9.196                 0.95614109     -93.5604293
9.197                0.955991589     -93.7310166
9.198                0.955841671     -93.9020603
9.199                0.955691336     -94.0735616
9.2                  0.955540587     -94.2455216
9.201                0.955389422     -94.4179415
9.202                0.955237844     -94.5908224
9.203                0.955085853     -94.7641655
9.204                 0.95493345      -94.937972
9.205                0.954780635     -95.1122429
9.206                 0.95462741     -95.2869795
9.207                0.954473774     -95.4621829
9.208                0.954319731     -95.6378542
9.209                0.954165279     -95.8139945
9.21                  0.95401042      -95.990605
9.211                0.953855155     -96.1676869
9.212                0.953699486     -96.3452413
9.213                0.953543413     -96.5232692
9.214                0.953386937     -96.7017719
9.215                0.953230059     -96.8807504
9.216                0.953072781     -97.0602059
9.217                0.952915103     -97.2401395
9.218                0.952757027     -97.4205523
9.219                0.952598554     -97.6014455
9.22                 0.952439686     -97.7828201
9.221                0.952280423     -97.9646772
9.222                0.952120767      -98.147018
9.223                0.951960719     -98.3298436
9.224                0.951800281      -98.513155
9.225                0.951639454     -98.6969533
9.226                 0.95147824     -98.8812397
9.227                0.951316639     -99.0660153
9.228                0.951154654      -99.251281
9.229                0.950992286      -99.437038
9.23                 0.950829537     -99.6232875
9.231                0.950666407     -99.8100303
9.232                  0.9505029     -99.9972677
9.233                0.950339016     -100.185001
9.234                0.950174758      -100.37323
9.235                0.950010126     -100.561957
9.236                0.949845123     -100.751183
9.237                0.949679751     -100.940909
9.238                0.949514011     -101.131136
9.239                0.949347905     -101.321864
9.24                 0.949181436     -101.513096
9.241                0.949014605     -101.704831
9.242                0.948847414     -101.897071
9.243                0.948679866     -102.089817
9.244                0.948511961      -102.28307
9.245                0.948343704     -102.476831
9.246                0.948175094     -102.671101
9.247                0.948006136     -102.865881
9.248                0.947836831     -103.061172
9.249                0.947667181     -103.256975
9.25                 0.947497188     -103.453291
9.251                0.947326856     -103.650121
9.252                0.947156185     -103.847465
9.253                 0.94698518     -104.045325
9.254                0.946813842     -104.243702
9.255                0.946642174     -104.442597
9.256                0.946470177      -104.64201
9.257                0.946297856     -104.841943
9.258                0.946125213     -105.042396
9.259                0.945952249     -105.243371
9.26                 0.945778969     -105.444867
9.261                0.945605374     -105.646887
9.262                0.945431468     -105.849431
9.263                0.945257253       -106.0525
9.264                0.945082732     -106.256095
9.265                0.944907909     -106.460217
9.266                0.944732785     -106.664866
9.267                0.944557365     -106.870043
9.268                0.944381652      -107.07575
9.269                0.944205647     -107.281986
9.27                 0.944029355     -107.488754
9.271                0.943852779     -107.696053
9.272                0.943675922     -107.903885
9.273                0.943498788      -108.11225
9.274                0.943321379     -108.321149
9.275                0.943143699     -108.530583
9.276                0.942965752     -108.740553
9.277                 0.94278754     -108.951059
9.278                0.942609069     -109.162102
9.279                 0.94243034     -109.373684
9.28                 0.942251358     -109.585803
9.281                0.942072127     -109.798462
9.282                 0.94189265     -110.011661
9.283                 0.94171293     -110.225401
9.284                0.941532973     -110.439682
9.285                0.941352781     -110.654506
9.286                0.941172359     -110.869872
9.287                0.940991711     -111.085781
9.288                 0.94081084     -111.302234
9.289                0.940629751     -111.519233
9.29                 0.940448447     -111.736776
9.291                0.940266934     -111.954865
9.292                0.940085215     -112.173501
9.293                0.939903294     -112.392684
9.294                0.939721177     -112.612414
9.295                0.939538866     -112.832693
9.296                0.939356367      -113.05352
9.297                0.939173685     -113.274897
9.298                0.938990823     -113.496823
9.299                0.938807786       -113.7193
9.3                   0.93862458     -113.942327
9.301                0.938441208     -114.165906
9.302                0.938257675     -114.390036
9.303                0.938073987     -114.614719
9.304                0.937890148     -114.839954
9.305                0.937706163     -115.065742
9.306                0.937522036     -115.292084
9.307                0.937337774     -115.518979
9.308                0.937153381     -115.746428
9.309                0.936968862     -115.974432
9.31                 0.936784222     -116.202991
9.311                0.936599467     -116.432105
9.312                0.936414602     -116.661775
9.313                0.936229632        -116.892
9.314                0.936044563     -117.122782
9.315                  0.9358594     -117.354119
9.316                0.935674148     -117.586014
9.317                0.935488814     -117.818465
9.318                0.935303402     -118.051473
9.319                0.935117919     -118.285039
9.32                  0.93493237     -118.519162
9.321                0.934746761     -118.753843
9.322                0.934561098     -118.989081
9.323                0.934375386     -119.224878
9.324                0.934189632     -119.461232
9.325                0.934003842     -119.698144
9.326                0.933818021     -119.935615
9.327                0.933632176     -120.173644
9.328                0.933446314     -120.412231
9.329                0.933260439     -120.651376
9.33                 0.933074559      -120.89108
9.331                0.932888679     -121.131342
9.332                0.932702807     -121.372162
9.333                0.932516948     -121.613541
9.334                 0.93233111     -121.855477
9.335                0.932145298     -122.097972
9.336                0.931959519     -122.341024
9.337                0.931773781     -122.584635
9.338                0.931588089     -122.828803
9.339                 0.93140245     -123.073528
9.34                 0.931216871     -123.318811
9.341                 0.93103136      -123.56465
9.342                0.930845923     -123.811047
9.343                0.930660566        -124.058
9.344                0.930475298     -124.305509
9.345                0.930290124     -124.553575
9.346                0.930105053     -124.802195
9.347                0.929920091     -125.051372
9.348                0.929735246     -125.301103
9.349                0.929550525     -125.551389
9.35                 0.929365935     -125.802229
9.351                0.929181484     -126.053622
9.352                0.928997179     -126.305569
9.353                0.928813028     -126.558069
9.354                0.928629038      -126.81112
9.355                0.928445216     -127.064724
9.356                0.928261571     -127.318879
9.357                 0.92807811     -127.573584
9.358                0.927894841      -127.82884
9.359                0.927711772     -128.084644
9.36                  0.92752891     -128.340998
9.361                0.927346263       -128.5979
9.362                 0.92716384     -128.855349
9.363                0.926981648     -129.113345
9.364                0.926799696     -129.371886
9.365                0.926617991     -129.630973
9.366                0.926436541     -129.890604
9.367                0.926255356     -130.150779
9.368                0.926074442     -130.411497
9.369                0.925893808     -130.672756
9.37                 0.925713463     -130.934556
9.371                0.925533415     -131.196897
9.372                0.925353672     -131.459776
9.373                0.925174242     -131.723194
9.374                0.924995135     -131.987148
9.375                0.924816358     -132.251639
9.376                0.924637921     -132.516665
9.377                0.924459831     -132.782224
9.378                0.924282098     -133.048317
9.379                 0.92410473     -133.314941
9.38                 0.923927735     -133.582096
9.381                0.923751123      -133.84978
9.382                0.923574903     -134.117992
9.383                0.923399083     -134.386731
9.384                0.923223671     -134.655996
9.385                0.923048678     -134.925785
9.386                0.922874111     -135.196097
9.387                 0.92269998     -135.466931
9.388                0.922526293     -135.738285
9.389                0.922353061     -136.010158
9.39                 0.922180291     -136.282548
9.391                0.922007993     -136.555454
9.392                0.921836176     -136.828875
9.393                0.921664849     -137.102808
9.394                0.921494022     -137.377253
9.395                0.921323702     -137.652208
9.396                0.921153901     -137.927671
