! TOUCHSTONE file generated by CST DESIGN STUDIO
! Date and time: Tue Feb  4 16:43:49 2025
! Project name: C:\Work\MatlabApps\UnitCellOptimizationMatlab\CST\unitcell.cst
! Tree item: Tasks\Sweep1\SPara1\S-Parameters
! Header version: 2024
! Port assignment regex: !\s*Touchstone port\s*([0-9]+)\s*=\s*(CST MWS port|CST DES external port|CST DES block port)\s*(.+)\s* \(\"(.*)\"\)(\s*mode\s*([0-9]+))?.*
! Touchstone port assignment:
! Touchstone port 1 = CST DES external port 1 ("")
# GHz S MA R 50
9                    0.975022606     -79.2898011
9.001                0.974946984     -79.4226718
9.002                0.974870886     -79.5558949
9.003                 0.97479431     -79.6894714
9.004                0.974717255     -79.8234023
9.005                 0.97463972     -79.9576887
9.006                0.974561702     -80.0923317
9.007                0.974483202     -80.2273324
9.008                0.974404218     -80.3626917
9.009                0.974324749     -80.4984109
9.01                 0.974244794     -80.6344909
9.011                0.974164351     -80.7709328
9.012                0.974083419     -80.9077378
9.013                0.974001997     -81.0449068
9.014                0.973920084      -81.182441
9.015                0.973837678     -81.3203414
9.016                 0.97375478     -81.4586092
9.017                0.973671386     -81.5972454
9.018                0.973587497     -81.7362512
9.019                0.973503111     -81.8756275
9.02                 0.973418227     -82.0153755
9.021                0.973332843     -82.1554963
9.022                0.973246959      -82.295991
9.023                0.973160574     -82.4368607
9.024                0.973073687     -82.5781064
9.025                0.972986295     -82.7197293
9.026                0.972898399     -82.8617305
9.027                0.972809997     -83.0041111
9.028                0.972721088     -83.1468722
9.029                0.972631671     -83.2900149
9.03                 0.972541744     -83.4335403
9.031                0.972451308     -83.5774496
9.032                 0.97236036     -83.7217437
9.033                  0.9722689     -83.8664239
9.034                0.972176927     -84.0114913
9.035                0.972084439     -84.1569469
9.036                0.971991436      -84.302792
9.037                0.971897916     -84.4490275
9.038                0.971803879     -84.5956548
9.039                0.971709323     -84.7426747
9.04                 0.971614248     -84.8900886
9.041                0.971518653     -85.0378974
9.042                0.971422536     -85.1861024
9.043                0.971325896     -85.3347047
9.044                0.971228734     -85.4837053
9.045                0.971131047     -85.6331055
9.046                0.971032835     -85.7829063
9.047                0.970934096     -85.9331089
9.048                0.970834831     -86.0837145
9.049                0.970735038      -86.234724
9.05                 0.970634716     -86.3861388
9.051                0.970533864     -86.5379599
9.052                0.970432481     -86.6901884
9.053                0.970330567     -86.8428256
9.054                0.970228121     -86.9958724
9.055                0.970125141     -87.1493302
9.056                0.970021628     -87.3031999
9.057                0.969917579     -87.4574828
9.058                0.969812995       -87.61218
9.059                0.969707875     -87.7672927
9.06                 0.969602217     -87.9228219
9.061                0.969496022     -88.0787688
9.062                0.969389288     -88.2351346
9.063                0.969282014     -88.3919204
9.064                  0.9691742     -88.5491274
9.065                0.969065845     -88.7067567
9.066                0.968956949     -88.8648094
9.067                0.968847511     -89.0232867
9.068                0.968737529     -89.1821897
9.069                0.968627004     -89.3415196
9.07                 0.968515935     -89.5012775
9.071                0.968404321     -89.6614646
9.072                0.968292162      -89.822082
9.073                0.968179456     -89.9831308
9.074                0.968066204     -90.1446123
9.075                0.967952405     -90.3065275
9.076                0.967838058     -90.4688776
9.077                0.967723163     -90.6316637
9.078                0.967607719      -90.794887
9.079                0.967491726     -90.9585487
9.08                 0.967375183     -91.1226498
9.081                0.967258091     -91.2871915
9.082                0.967140447      -91.452175
9.083                0.967022252     -91.6176014
9.084                0.966903507     -91.7834718
9.085                0.966784209     -91.9497874
9.086                0.966664359     -92.1165493
9.087                0.966543956     -92.2837587
9.088                0.966423001     -92.4514166
9.089                0.966301493     -92.6195243
9.09                 0.966179431     -92.7880829
9.091                0.966056815     -92.9570935
9.092                0.965933646     -93.1265572
9.093                0.965809922     -93.2964751
9.094                0.965685644     -93.4668485
9.095                0.965560812     -93.6376784
9.096                0.965435425     -93.8089659
9.097                0.965309483     -93.9807123
9.098                0.965182986     -94.1529185
9.099                0.965055933     -94.3255858
9.1                  0.964928326     -94.4987152
9.101                0.964800164     -94.6723079
9.102                0.964671446     -94.8463649
9.103                0.964542173     -95.0208875
9.104                0.964412346     -95.1958767
9.105                0.964281962     -95.3713337
9.106                0.964151024     -95.5472595
9.107                0.964019531     -95.7236552
9.108                0.963887483      -95.900522
9.109                0.963754881     -96.0778609
9.11                 0.963621724     -96.2556731
9.111                0.963488013     -96.4339597
9.112                0.963353747     -96.6127217
9.113                0.963218928     -96.7919602
9.114                0.963083555     -96.9716764
9.115                0.962947629     -97.1518712
9.116                0.962811151     -97.3325459
9.117                0.962674119     -97.5137015
9.118                0.962536536      -97.695339
9.119                0.962398401     -97.8774596
9.12                 0.962259714     -98.0600642
9.121                0.962120477      -98.243154
9.122                 0.96198069     -98.4267301
9.123                0.961840353     -98.6107934
9.124                0.961699467     -98.7953451
9.125                0.961558032     -98.9803862
9.126                0.961416049     -99.1659177
9.127                 0.96127352     -99.3519407
9.128                0.961130443     -99.5384563
9.129                0.960986821     -99.7254654
9.13                 0.960842654     -99.9129691
9.131                0.960697943     -100.100968
9.132                0.960552688     -100.289464
9.133                0.960406891     -100.478458
9.134                0.960260552      -100.66795
9.135                0.960113672     -100.857942
9.136                0.959966253     -101.048435
9.137                0.959818295      -101.23943
9.138                0.959669799     -101.430927
9.139                0.959520766     -101.622927
9.14                 0.959371199     -101.815433
9.141                0.959221096     -102.008444
9.142                0.959070461     -102.201961
9.143                0.958919293     -102.395987
9.144                0.958767595      -102.59052
9.145                0.958615368     -102.785563
9.146                0.958462612     -102.981117
9.147                 0.95830933     -103.177182
9.148                0.958155522     -103.373759
9.149                0.958001191      -103.57085
9.15                 0.957846337     -103.768454
9.151                0.957690962     -103.966574
9.152                0.957535069      -104.16521
9.153                0.957378657     -104.364363
9.154                 0.95722173     -104.564033
9.155                0.957064288     -104.764222
9.156                0.956906334      -104.96493
9.157                0.956747869     -105.166159
9.158                0.956588895      -105.36791
9.159                0.956429414     -105.570182
9.16                 0.956269428     -105.772977
9.161                0.956108938     -105.976297
9.162                0.955947948     -106.180141
9.163                0.955786458      -106.38451
9.164                0.955624471     -106.589406
9.165                0.955461989     -106.794828
9.166                0.955299015     -107.000779
9.167                 0.95513555     -107.207258
9.168                0.954971596     -107.414267
9.169                0.954807157     -107.621807
9.17                 0.954642234     -107.829877
9.171                 0.95447683     -108.038479
9.172                0.954310947     -108.247613
9.173                0.954144588     -108.457281
9.174                0.953977756     -108.667483
9.175                0.953810452     -108.878219
9.176                 0.95364268     -109.089491
9.177                0.953474442     -109.301299
9.178                0.953305741     -109.513644
9.179                 0.95313658     -109.726526
9.18                 0.952966962     -109.939946
9.181                0.952796889     -110.153906
9.182                0.952626366     -110.368404
9.183                0.952455393     -110.583443
9.184                0.952283975     -110.799022
9.185                0.952112115     -111.015143
9.186                0.951939816     -111.231805
9.187                0.951767082      -111.44901
9.188                0.951593914     -111.666758
9.189                0.951420317      -111.88505
9.19                 0.951246295     -112.103886
9.191                 0.95107185     -112.323266
9.192                0.950896986     -112.543192
9.193                0.950721706     -112.763664
9.194                0.950546015     -112.984681
9.195                0.950369916     -113.206246
9.196                0.950193412     -113.428358
9.197                0.950016508     -113.651017
9.198                0.949839206     -113.874224
9.199                0.949661512      -114.09798
9.2                  0.949483429     -114.322285
9.201                 0.94930496      -114.54714
9.202                0.949126111     -114.772544
9.203                0.948946885     -114.998498
9.204                0.948767286     -115.225003
9.205                0.948587318     -115.452058
9.206                0.948406986     -115.679665
9.207                0.948226295     -115.907823
9.208                0.948045247     -116.136533
9.209                0.947863849     -116.365796
9.21                 0.947682105      -116.59561
9.211                0.947500018     -116.825977
9.212                0.947317594     -117.056897
9.213                0.947134838      -117.28837
9.214                0.946951753     -117.520397
9.215                0.946768346     -117.752976
9.216                 0.94658462      -117.98611
9.217                0.946400582     -118.219797
9.218                0.946216235     -118.454039
9.219                0.946031585     -118.688834
9.22                 0.945846637     -118.924183
9.221                0.945661396     -119.160087
9.222                0.945475868     -119.396546
9.223                0.945290057     -119.633558
9.224                0.945103969     -119.871125
9.225                 0.94491761     -120.109247
9.226                0.944730985     -120.347923
9.227                  0.9445441     -120.587153
9.228                0.944356959     -120.826938
9.229                 0.94416957     -121.067278
9.23                 0.943981937     -121.308171
9.231                0.943794067     -121.549619
9.232                0.943605964     -121.791621
9.233                0.943417637     -122.034177
9.234                0.943229089     -122.277286
9.235                0.943040327      -122.52095
9.236                0.942851358     -122.765166
9.237                0.942662188     -123.009936
9.238                0.942472822     -123.255259
9.239                0.942283268     -123.501135
9.24                 0.942093531     -123.747563
9.241                0.941903618     -123.994543
9.242                0.941713535     -124.242075
9.243                0.941523289     -124.490159
9.244                0.941332887     -124.738794
9.245                0.941142335      -124.98798
9.246                 0.94095164     -125.237716
9.247                0.940760809     -125.488002
9.248                0.940569849     -125.738837
9.249                0.940378766     -125.990222
9.25                 0.940187568     -126.242155
9.251                0.939996261     -126.494636
9.252                0.939804854     -126.747665
9.253                0.939613352     -127.001241
9.254                0.939421764     -127.255363
9.255                0.939230096     -127.510031
9.256                0.939038355     -127.765244
9.257                 0.93884655     -128.021001
9.258                0.938654688     -128.277302
9.259                0.938462777     -128.534147
9.26                 0.938270823     -128.791534
9.261                0.938078834     -129.049462
9.262                0.937886819     -129.307931
9.263                0.937694785     -129.566941
9.264                 0.93750274     -129.826489
9.265                0.937310692     -130.086576
9.266                0.937118648     -130.347201
9.267                0.936926617     -130.608362
9.268                0.936734607     -130.870059
9.269                0.936542626     -131.132291
9.27                 0.936350682     -131.395056
9.271                0.936158784     -131.658354
9.272                0.935966939     -131.922184
9.273                0.935775156     -132.186545
9.274                0.935583443     -132.451435
9.275                0.935391809     -132.716854
9.276                0.935200263     -132.982801
9.277                0.935008813     -133.249273
9.278                0.934817467     -133.516271
9.279                0.934626234     -133.783792
9.28                 0.934435124     -134.051837
9.281                0.934244144     -134.320402
9.282                0.934053303     -134.589488
9.283                0.933862611     -134.859092
9.284                0.933672077     -135.129214
9.285                0.933481708     -135.399851
9.286                0.933291515     -135.671004
9.287                0.933101507     -135.942669
9.288                0.932911691     -136.214847
9.289                0.932722079     -136.487534
9.29                 0.932532678      -136.76073
9.291                0.932343498     -137.034434
9.292                0.932154549     -137.308643
9.293                0.931965839     -137.583356
9.294                0.931777379     -137.858572
9.295                0.931589177     -138.134288
9.296                0.931401242     -138.410503
9.297                0.931213586     -138.687216
9.298                0.931026216     -138.964424
9.299                0.930839143     -139.242126
9.3                  0.930652376      -139.52032
9.301                0.930465925     -139.799005
9.302                0.930279799     -140.078177
9.303                0.930094008     -140.357836
9.304                0.929908563      -140.63798
9.305                0.929723472     -140.918606
9.306                0.929538746     -141.199713
9.307                0.929354394     -141.481299
9.308                0.929170426     -141.763361
9.309                0.928986852     -142.045897
9.31                 0.928803683     -142.328906
9.311                0.928620927     -142.612386
9.312                0.928438596     -142.896333
9.313                0.928256699     -143.180746
9.314                0.928075245     -143.465624
9.315                0.927894246     -143.750962
9.316                0.927713711      -144.03676
9.317                 0.92753365     -144.323015
9.318                0.927354074     -144.609724
9.319                0.927174992     -144.896886
9.32                 0.926996415     -145.184497
9.321                0.926818352     -145.472556
9.322                0.926640814      -145.76106
9.323                0.926463812     -146.050006
9.324                0.926287355     -146.339392
9.325                0.926111454     -146.629216
9.326                0.925936118     -146.919474
9.327                0.925761358     -147.210165
9.328                0.925587185     -147.501285
9.329                0.925413608     -147.792833
9.33                 0.925240638     -148.084804
9.331                0.925068285     -148.377198
9.332                0.924896559      -148.67001
9.333                 0.92472547     -148.963238
9.334                0.924555029     -149.256879
9.335                0.924385246      -149.55093
9.336                0.924216131     -149.845389
9.337                0.924047695     -150.140253
9.338                0.923879947     -150.435519
9.339                0.923712898     -150.731183
9.34                 0.923546558     -151.027243
9.341                0.923380938     -151.323695
9.342                0.923216046     -151.620537
9.343                0.923051895     -151.917766
9.344                0.922888493     -152.215379
9.345                0.922725851     -152.513372
9.346                0.922563979     -152.811742
9.347                0.922402887     -153.110486
9.348                0.922242585     -153.409601
9.349                0.922083084     -153.709084
9.35                 0.921924392      -154.00893
9.351                0.921766522     -154.309138
9.352                0.921609481     -154.609704
9.353                 0.92145328     -154.910624
9.354                 0.92129793     -155.211895
9.355                0.921143439     -155.513514
9.356                0.920989819     -155.815476
9.357                0.920837078      -156.11778
9.358                0.920685226      -156.42042
9.359                0.920534274     -156.723395
9.36                 0.920384231     -157.026699
9.361                0.920235106      -157.33033
9.362                 0.92008691     -157.634284
9.363                0.919939651     -157.938557
9.364                 0.91979334     -158.243147
9.365                0.919647985     -158.548048
9.366                0.919503597     -158.853257
9.367                0.919360184     -159.158771
9.368                0.919217756     -159.464586
9.369                0.919076323     -159.770698
9.37                 0.918935893     -160.077104
9.371                0.918796475     -160.383799
9.372                 0.91865808     -160.690779
9.373                0.918520715     -160.998042
9.374                 0.91838439     -161.305582
9.375                0.918249114     -161.613396
9.376                0.918114896      -161.92148
9.377                0.917981744     -162.229831
9.378                0.917849668     -162.538444
9.379                0.917718675     -162.847314
9.38                 0.917588775     -163.156439
9.381                0.917459976     -163.465814
9.382                0.917332286     -163.775435
9.383                0.917205714     -164.085298
9.384                0.917080269     -164.395399
9.385                0.916955958     -164.705733
9.386                 0.91683279     -165.016297
9.387                0.916710772     -165.327086
9.388                0.916589913     -165.638096
9.389                0.916470221     -165.949324
9.39                 0.916351703     -166.260764
9.391                0.916234368     -166.572412
9.392                0.916118222     -166.884265
9.393                0.916003274     -167.196318
9.394                0.915889531     -167.508566
9.395                   0.915777     -167.821006
9.396                0.915665689     -168.133633
