! TOUCHSTONE file generated by CST DESIGN STUDIO
! Date and time: Tue Feb  4 16:43:47 2025
! Project name: C:\Work\MatlabApps\UnitCellOptimizationMatlab\CST\unitcell.cst
! Tree item: Tasks\Sweep1\SPara1\S-Parameters
! Header version: 2024
! Port assignment regex: !\s*Touchstone port\s*([0-9]+)\s*=\s*(CST MWS port|CST DES external port|CST DES block port)\s*(.+)\s* \(\"(.*)\"\)(\s*mode\s*([0-9]+))?.*
! Touchstone port assignment:
! Touchstone port 1 = CST DES external port 1 ("")
# GHz S MA R 50
9                    0.974380075     -82.3101529
9.001                0.974303987     -82.4513095
9.002                0.974227409     -82.5928464
9.003                0.974150341     -82.7347646
9.004                0.974072779     -82.8770653
9.005                0.973994724     -83.0197495
9.006                0.973916173     -83.1628185
9.007                0.973837124     -83.3062732
9.008                0.973757578     -83.4501148
9.009                0.973677531     -83.5943445
9.01                 0.973596982     -83.7389634
9.011                0.973515931     -83.8839725
9.012                0.973434376     -84.0293731
9.013                0.973352314     -84.1751661
9.014                0.973269746     -84.3213529
9.015                0.973186669     -84.4679344
9.016                0.973103082     -84.6149119
9.017                0.973018984     -84.7622863
9.018                0.972934373      -84.910059
9.019                0.972849248      -85.058231
9.02                 0.972763608     -85.2068034
9.021                0.972677451     -85.3557774
9.022                0.972590776     -85.5051542
9.023                0.972503581     -85.6549347
9.024                0.972415866     -85.8051203
9.025                0.972327628      -85.955712
9.026                0.972238867      -86.106711
9.027                0.972149581     -86.2581184
9.028                 0.97205977     -86.4099353
9.029                0.971969431      -86.562163
9.03                 0.971878563     -86.7148024
9.031                0.971787166     -86.8678549
9.032                0.971695237     -87.0213215
9.033                0.971602777     -87.1752034
9.034                0.971509783     -87.3295016
9.035                0.971416254     -87.4842175
9.036                0.971322189      -87.639352
9.037                0.971227587     -87.7949064
9.038                0.971132447     -87.9508819
9.039                0.971036767     -88.1072794
9.04                 0.970940547     -88.2641003
9.041                0.970843785     -88.4213456
9.042                 0.97074648     -88.5790166
9.043                0.970648632     -88.7371142
9.044                0.970550238     -88.8956398
9.045                0.970451298     -89.0545944
9.046                 0.97035181     -89.2139793
9.047                0.970251775     -89.3737954
9.048                 0.97015119     -89.5340441
9.049                0.970050055     -89.6947264
9.05                 0.969948368     -89.8558435
9.051                0.969846129     -90.0173966
9.052                0.969743337     -90.1793867
9.053                 0.96963999     -90.3418151
9.054                0.969536088     -90.5046829
9.055                 0.96943163     -90.6679912
9.056                0.969326614     -90.8317412
9.057                0.969221041      -90.995934
9.058                0.969114909     -91.1605708
9.059                0.969008217     -91.3256527
9.06                 0.968900964     -91.4911809
9.061                 0.96879315     -91.6571565
9.062                0.968684773     -91.8235806
9.063                0.968575834     -91.9904545
9.064                 0.96846633     -92.1577792
9.065                0.968356262     -92.3255558
9.066                0.968245629     -92.4937856
9.067                0.968134429     -92.6624696
9.068                0.968022663      -92.831609
9.069                0.967910329     -93.0012049
9.07                 0.967797427     -93.1712585
9.071                0.967683957     -93.3417709
9.072                0.967569917     -93.5127432
9.073                0.967455307     -93.6841766
9.074                0.967340126     -93.8560721
9.075                0.967224374      -94.028431
9.076                0.967108051     -94.2012543
9.077                0.966991155     -94.3745431
9.078                0.966873687     -94.5482986
9.079                0.966755646     -94.7225219
9.08                 0.966637031     -94.8972141
9.081                0.966517842     -95.0723763
9.082                0.966398079     -95.2480097
9.083                0.966277741     -95.4241153
9.084                0.966156828     -95.6006943
9.085                 0.96603534     -95.7777477
9.086                0.965913275     -95.9552767
9.087                0.965790635     -96.1332823
9.088                0.965667419     -96.3117657
9.089                0.965543626      -96.490728
9.09                 0.965419257     -96.6701702
9.091                0.965294311     -96.8500934
9.092                0.965168788     -97.0304988
9.093                0.965042687     -97.2113874
9.094                 0.96491601     -97.3927602
9.095                0.964788756     -97.5746184
9.096                0.964660924      -97.756963
9.097                0.964532515     -97.9397952
9.098                0.964403529     -98.1231159
9.099                0.964273966     -98.3069262
9.1                  0.964143826     -98.4912272
9.101                0.964013109     -98.6760199
9.102                0.963881816     -98.8613055
9.103                0.963749946     -99.0470849
9.104                0.963617499     -99.2333591
9.105                0.963484476     -99.4201293
9.106                0.963350878     -99.6073964
9.107                0.963216704     -99.7951615
9.108                0.963081955     -99.9834256
9.109                0.962946631      -100.17219
9.11                 0.962810733     -100.361455
9.111                0.962674261     -100.551222
9.112                0.962537216     -100.741492
9.113                0.962399598     -100.932267
9.114                0.962261407     -101.123546
9.115                0.962122645     -101.315331
9.116                0.961983311     -101.507624
9.117                0.961843407     -101.700424
9.118                0.961702933     -101.893734
9.119                 0.96156189     -102.087553
9.12                 0.961420279     -102.281883
9.121                0.961278101     -102.476725
9.122                0.961135355      -102.67208
9.123                0.960992044     -102.867949
9.124                0.960848169     -103.064332
9.125                0.960703729     -103.261231
9.126                0.960558726     -103.458647
9.127                0.960413162      -103.65658
9.128                0.960267037     -103.855031
9.129                0.960120352     -104.054002
9.13                 0.959973109     -104.253492
9.131                0.959825308     -104.453504
9.132                0.959676952     -104.654038
9.133                0.959528041     -104.855095
9.134                0.959378576     -105.056675
9.135                 0.95922856      -105.25878
9.136                0.959077992      -105.46141
9.137                0.958926876     -105.664567
9.138                0.958775212      -105.86825
9.139                0.958623002     -106.072462
9.14                 0.958470248     -106.277202
9.141                0.958316951     -106.482472
9.142                0.958163112     -106.688272
9.143                0.958008735     -106.894603
9.144                0.957853819     -107.101466
9.145                0.957698368     -107.308862
9.146                0.957542383     -107.516791
9.147                0.957385866     -107.725254
9.148                0.957228819     -107.934253
9.149                0.957071244     -108.143787
9.15                 0.956913143     -108.353857
9.151                0.956754519     -108.564465
9.152                0.956595372     -108.775611
9.153                0.956435706     -108.987295
9.154                0.956275523     -109.199518
9.155                0.956114826     -109.412281
9.156                0.955953615     -109.625585
9.157                0.955791895      -109.83943
9.158                0.955629667     -110.053817
9.159                0.955466935     -110.268746
9.16                 0.955303699     -110.484219
9.161                0.955139964     -110.700235
9.162                0.954975732     -110.916796
9.163                0.954811006     -111.133902
9.164                0.954645787     -111.351553
9.165                0.954480081      -111.56975
9.166                0.954313888     -111.788494
9.167                0.954147212     -112.007785
9.168                0.953980057     -112.227623
9.169                0.953812425      -112.44801
9.17                 0.953644319     -112.668946
9.171                0.953475742     -112.890431
9.172                0.953306699     -113.112465
9.173                0.953137191      -113.33505
9.174                0.952967223     -113.558185
9.175                0.952796798     -113.781871
9.176                0.952625919     -114.006109
9.177                 0.95245459     -114.230899
9.178                0.952282814      -114.45624
9.179                0.952110595     -114.682135
9.18                 0.951937937     -114.908582
9.181                0.951764844     -115.135583
9.182                0.951591319     -115.363137
9.183                0.951417366     -115.591246
9.184                 0.95124299     -115.819909
9.185                0.951068194     -116.049126
9.186                0.950892982     -116.278898
9.187                0.950717358     -116.509226
9.188                0.950541327     -116.740108
9.189                0.950364893     -116.971547
9.19                  0.95018806     -117.203541
9.191                0.950010833     -117.436091
9.192                0.949833216     -117.669197
9.193                0.949655213      -117.90286
9.194                 0.94947683     -118.137079
9.195                 0.94929807     -118.371855
9.196                0.949118938     -118.607187
9.197                 0.94893944     -118.843076
9.198                0.948759579     -119.079523
9.199                0.948579362     -119.316526
9.2                  0.948398792     -119.554086
9.201                0.948217875     -119.792203
9.202                0.948036617     -120.030877
9.203                0.947855021     -120.270108
9.204                0.947673093     -120.509897
9.205                0.947490839     -120.750242
9.206                0.947308264     -120.991143
9.207                0.947125373     -121.232602
9.208                0.946942173     -121.474617
9.209                0.946758667     -121.717189
9.21                 0.946574862     -121.960317
9.211                0.946390764     -122.204002
9.212                0.946206378     -122.448242
9.213                 0.94602171     -122.693038
9.214                0.945836766      -122.93839
9.215                0.945651553     -123.184297
9.216                0.945466075      -123.43076
9.217                0.945280339     -123.677776
9.218                0.945094351     -123.925348
9.219                0.944908117     -124.173473
9.22                 0.944721644     -124.422153
9.221                0.944534938     -124.671385
9.222                0.944348005     -124.921171
9.223                0.944160851     -125.171509
9.224                0.943973484     -125.422399
9.225                 0.94378591     -125.673841
9.226                0.943598135     -125.925834
9.227                0.943410167     -126.178378
9.228                0.943222011     -126.431472
9.229                0.943033676     -126.685116
9.23                 0.942845167     -126.939308
9.231                0.942656492     -127.194049
9.232                0.942467657     -127.449338
9.233                0.942278671     -127.705173
9.234                0.942089539     -127.961556
9.235                 0.94190027     -128.218484
9.236                0.941710871     -128.475957
9.237                0.941521348     -128.733974
9.238                 0.94133171     -128.992535
9.239                0.941141964     -129.251638
9.24                 0.940952117     -129.511284
9.241                0.940762177      -129.77147
9.242                0.940572152     -130.032197
9.243                 0.94038205     -130.293463
9.244                0.940191878     -130.555267
9.245                0.940001644     -130.817609
9.246                0.939811356     -131.080487
9.247                0.939621022     -131.343901
9.248                0.939430651     -131.607849
9.249                0.939240249      -131.87233
9.25                 0.939049827     -132.137344
9.251                 0.93885939     -132.402889
9.252                0.938668949     -132.668964
9.253                0.938478511     -132.935569
9.254                0.938288085       -133.2027
9.255                0.938097679     -133.470359
9.256                0.937907302     -133.738543
9.257                0.937716962      -134.00725
9.258                0.937526668     -134.276481
9.259                0.937336428     -134.546233
9.26                 0.937146252     -134.816505
9.261                0.936956148     -135.087296
9.262                0.936766125     -135.358604
9.263                0.936576192     -135.630428
9.264                0.936386358     -135.902767
9.265                0.936196632     -136.175619
9.266                0.936007022     -136.448982
9.267                0.935817539     -136.722854
9.268                0.935628191     -136.997236
9.269                0.935438987     -137.272124
9.27                 0.935249937     -137.547517
9.271                 0.93506105     -137.823414
9.272                0.934872335     -138.099812
9.273                0.934683802     -138.376711
9.274                 0.93449546     -138.654108
9.275                0.934307318     -138.932001
9.276                0.934119387      -139.21039
9.277                0.933931676     -139.489271
9.278                0.933744194     -139.768643
9.279                0.933556951     -140.048505
9.28                 0.933369957     -140.328854
9.281                0.933183221     -140.609688
9.282                0.932996753     -140.891006
9.283                0.932810564     -141.172805
9.284                0.932624662     -141.455083
9.285                0.932439058     -141.737839
9.286                0.932253762     -142.021069
9.287                0.932068784     -142.304773
9.288                0.931884133     -142.588948
9.289                 0.93169982     -142.873592
9.29                 0.931515854     -143.158702
9.291                0.931332246     -143.444276
9.292                0.931149006     -143.730312
9.293                0.930966144     -144.016808
9.294                0.930783671     -144.303762
9.295                0.930601595      -144.59117
9.296                0.930419928     -144.879032
9.297                 0.93023868     -145.167343
9.298                0.930057861     -145.456102
9.299                0.929877481     -145.745306
9.3                  0.929697551     -146.034953
9.301                 0.92951808     -146.325041
9.302                 0.92933908     -146.615566
9.303                 0.92916056     -146.906526
9.304                0.928982531     -147.197918
9.305                0.928805004     -147.489741
9.306                0.928627988      -147.78199
9.307                0.928451494     -148.074664
9.308                0.928275532     -148.367759
9.309                0.928100113     -148.661273
9.31                 0.927925248     -148.955203
9.311                0.927750946     -149.249547
9.312                0.927577218       -149.5443
9.313                0.927404074     -149.839461
9.314                0.927231526     -150.135027
9.315                0.927059582     -150.430994
9.316                0.926888254      -150.72736
9.317                0.926717553     -151.024121
9.318                0.926547488     -151.321275
9.319                 0.92637807     -151.618818
9.32                 0.926209309     -151.916748
9.321                0.926041216      -152.21506
9.322                0.925873801     -152.513753
9.323                0.925707075     -152.812823
9.324                0.925541047     -153.112266
9.325                0.925375728      -153.41208
9.326                0.925211129      -153.71226
9.327                 0.92504726     -154.012805
9.328                 0.92488413      -154.31371
9.329                0.924721751     -154.614973
9.33                 0.924560132     -154.916589
9.331                0.924399284     -155.218555
9.332                0.924239218     -155.520868
9.333                0.924079942     -155.823525
9.334                0.923921467     -156.126522
9.335                0.923763804     -156.429855
9.336                0.923606962     -156.733522
9.337                0.923450951     -157.037517
9.338                0.923295782     -157.341839
9.339                0.923141464     -157.646482
9.34                 0.922988008     -157.951444
9.341                0.922835422     -158.256721
9.342                0.922683718     -158.562309
9.343                0.922532905     -158.868204
9.344                0.922382992     -159.174403
9.345                 0.92223399     -159.480901
9.346                0.922085907     -159.787696
9.347                0.921938754     -160.094783
9.348                0.921792541     -160.402159
9.349                0.921647276     -160.709819
9.35                 0.921502969      -161.01776
9.351                 0.92135963     -161.325977
9.352                0.921217268     -161.634467
9.353                0.921075892     -161.943226
9.354                0.920935511      -162.25225
9.355                0.920796135     -162.561535
9.356                0.920657773     -162.871076
9.357                0.920520434      -163.18087
9.358                0.920384126     -163.490913
9.359                0.920248859     -163.801201
9.36                 0.920114642     -164.111729
9.361                0.919981483     -164.422493
9.362                0.919849391     -164.733489
9.363                0.919718375     -165.044714
9.364                0.919588443     -165.356162
9.365                0.919459604      -165.66783
9.366                0.919331866     -165.979713
9.367                0.919205237     -166.291808
9.368                0.919079726     -166.604109
9.369                0.918955341     -166.916613
9.37                  0.91883209     -167.229315
9.371                0.918709981     -167.542211
9.372                0.918589022     -167.855296
9.373                 0.91846922     -168.168567
9.374                0.918350584     -168.482019
9.375                0.918233122     -168.795647
9.376                0.918116839     -169.109447
9.377                0.918001745     -169.423415
9.378                0.917887847     -169.737546
9.379                0.917775151     -170.051835
9.38                 0.917663666      -170.36628
9.381                0.917553397     -170.680873
9.382                0.917444353     -170.995613
9.383                0.917336539     -171.310493
9.384                0.917229963     -171.625509
9.385                0.917124632     -171.940657
9.386                0.917020552     -172.255933
9.387                 0.91691773     -172.571331
9.388                0.916816171     -172.886847
9.389                0.916715882     -173.202476
9.39                  0.91661687     -173.518215
9.391                0.916519141     -173.834058
9.392                  0.9164227     -174.150001
9.393                0.916327553     -174.466039
9.394                0.916233706     -174.782167
9.395                0.916141164     -175.098382
9.396                0.916049934     -175.414677
