! TOUCHSTONE file generated by CST DESIGN STUDIO
! Date and time: Tue Feb  4 16:43:57 2025
! Project name: C:\Work\MatlabApps\UnitCellOptimizationMatlab\CST\unitcell.cst
! Tree item: Tasks\Sweep1\SPara1\S-Parameters
! Header version: 2024
! Port assignment regex: !\s*Touchstone port\s*([0-9]+)\s*=\s*(CST MWS port|CST DES external port|CST DES block port)\s*(.+)\s* \(\"(.*)\"\)(\s*mode\s*([0-9]+))?.*
! Touchstone port assignment:
! Touchstone port 1 = CST DES external port 1 ("")
# GHz S MA R 50
9                    0.978152004     -64.6914291
9.001                0.978080995      -64.787267
9.002                  0.9780097     -64.8833362
9.003                0.977938119     -64.9796376
9.004                0.977866251     -65.0761718
9.005                0.977794095     -65.1729396
9.006                 0.97772165     -65.2699417
9.007                0.977648916      -65.367179
9.008                0.977575891     -65.4646521
9.009                0.977502575     -65.5623619
9.01                 0.977428968      -65.660309
9.011                0.977355068     -65.7584943
9.012                0.977280874     -65.8569185
9.013                0.977206386     -65.9555824
9.014                0.977131603     -66.0544868
9.015                0.977056525     -66.1536324
9.016                 0.97698115       -66.25302
9.017                0.976905477     -66.3526504
9.018                0.976829506     -66.4525244
9.019                0.976753237     -66.5526428
9.02                 0.976676667     -66.6530063
9.021                0.976599797     -66.7536157
9.022                0.976522626     -66.8544719
9.023                0.976445152     -66.9555756
9.024                0.976367376     -67.0569276
9.025                0.976289295     -67.1585288
9.026                0.976210911     -67.2603799
9.027                0.976132221     -67.3624818
9.028                0.976053224     -67.4648352
9.029                0.975973921      -67.567441
9.03                  0.97589431     -67.6702999
9.031                0.975814391     -67.7734128
9.032                0.975734162     -67.8767806
9.033                0.975653623      -67.980404
9.034                0.975572773     -68.0842838
9.035                0.975491612      -68.188421
9.036                0.975410138     -68.2928163
9.037                 0.97532835     -68.3974705
9.038                0.975246249     -68.5023845
9.039                0.975163833     -68.6075591
9.04                   0.9750811     -68.7129953
9.041                0.974998052     -68.8186937
9.042                0.974914686     -68.9246553
9.043                0.974831001     -69.0308809
9.044                0.974746998     -69.1373714
9.045                0.974662676     -69.2441276
9.046                0.974578032     -69.3511504
9.047                0.974493068     -69.4584406
9.048                0.974407781     -69.5659991
9.049                0.974322171     -69.6738268
9.05                 0.974236238     -69.7819245
9.051                 0.97414998     -69.8902931
9.052                0.974063397     -69.9989335
9.053                0.973976487     -70.1078466
9.054                0.973889251     -70.2170332
9.055                0.973801687     -70.3264943
9.056                0.973713795     -70.4362306
9.057                0.973625573     -70.5462431
9.058                0.973537021     -70.6565328
9.059                0.973448139     -70.7671004
9.06                 0.973358924     -70.8779469
9.061                0.973269378     -70.9890731
9.062                0.973179498     -71.1004801
9.063                0.973089284     -71.2121686
9.064                0.972998735     -71.3241396
9.065                 0.97290785      -71.436394
9.066                 0.97281663     -71.5489327
9.067                0.972725072     -71.6617566
9.068                0.972633176     -71.7748667
9.069                0.972540941     -71.8882639
9.07                 0.972448367      -72.001949
9.071                0.972355453     -72.1159231
9.072                0.972262197      -72.230187
9.073                  0.9721686     -72.3447417
9.074                 0.97207466     -72.4595881
9.075                0.971980377     -72.5747272
9.076                0.971885749     -72.6901598
9.077                0.971790777      -72.805887
9.078                0.971695459     -72.9219097
9.079                0.971599795     -73.0382288
9.08                 0.971503783     -73.1548452
9.081                0.971407423     -73.2717601
9.082                0.971310715     -73.3889742
9.083                0.971213657     -73.5064885
9.084                0.971116249     -73.6243041
9.085                 0.97101849     -73.7424219
9.086                 0.97092038     -73.8608428
9.087                0.970821916     -73.9795678
9.088                  0.9707231     -74.0985979
9.089                0.970623929     -74.2179341
9.09                 0.970524404     -74.3375773
9.091                0.970424524     -74.4575285
9.092                0.970324287     -74.5777888
9.093                0.970223694     -74.6983591
9.094                0.970122742     -74.8192403
9.095                0.970021433     -74.9404336
9.096                0.969919764     -75.0619398
9.097                0.969817736       -75.18376
9.098                0.969715347     -75.3058951
9.099                0.969612597     -75.4283463
9.1                  0.969509485     -75.5511144
9.101                 0.96940601     -75.6742005
9.102                0.969302173     -75.7976056
9.103                0.969197971     -75.9213308
9.104                0.969093404     -76.0453769
9.105                0.968988472     -76.1697451
9.106                0.968883174     -76.2944364
9.107                0.968777509     -76.4194518
9.108                0.968671477     -76.5447924
9.109                0.968565076     -76.6704591
9.11                 0.968458307     -76.7964529
9.111                0.968351169      -76.922775
9.112                 0.96824366     -77.0494264
9.113                0.968135781      -77.176408
9.114                 0.96802753      -77.303721
9.115                0.967918907     -77.4313664
9.116                0.967809911     -77.5593452
9.117                0.967700543     -77.6876585
9.118                  0.9675908     -77.8163074
9.119                0.967480682     -77.9452928
9.12                  0.96737019     -78.0746159
9.121                0.967259322     -78.2042777
9.122                0.967148077     -78.3342793
9.123                0.967036455     -78.4646217
9.124                0.966924456      -78.595306
9.125                0.966812078     -78.7263333
9.126                0.966699322     -78.8577047
9.127                0.966586186     -78.9894212
9.128                 0.96647267     -79.1214839
9.129                0.966358774     -79.2538938
9.13                 0.966244497     -79.3866522
9.131                0.966129838       -79.51976
9.132                0.966014797     -79.6532183
9.133                0.965899374     -79.7870282
9.134                0.965783567     -79.9211909
9.135                0.965667376     -80.0557074
9.136                0.965550801     -80.1905788
9.137                0.965433842     -80.3258062
9.138                0.965316497     -80.4613907
9.139                0.965198766     -80.5973334
9.14                 0.965080649     -80.7336355
9.141                0.964962145     -80.8702979
9.142                0.964843254     -81.0073219
9.143                0.964723975     -81.1447086
9.144                0.964604309      -81.282459
9.145                0.964484253     -81.4205743
9.146                0.964363809     -81.5590555
9.147                0.964242975     -81.6979039
9.148                0.964121751     -81.8371206
9.149                0.964000137     -81.9767066
9.15                 0.963878132      -82.116663
9.151                0.963755736     -82.2569911
9.152                0.963632949      -82.397692
9.153                0.963509769     -82.5387667
9.154                0.963386198     -82.6802165
9.155                0.963262234     -82.8220424
9.156                0.963137877     -82.9642455
9.157                0.963013127     -83.1068271
9.158                0.962887983     -83.2497883
9.159                0.962762445     -83.3931302
9.16                 0.962636513      -83.536854
9.161                0.962510186     -83.6809608
9.162                0.962383465     -83.8254517
9.163                0.962256349     -83.9703279
9.164                0.962128837     -84.1155906
9.165                 0.96200093     -84.2612409
9.166                0.961872626       -84.40728
9.167                0.961743927      -84.553709
9.168                0.961614832     -84.7005291
9.169                 0.96148534     -84.8477414
9.17                 0.961355451     -84.9953472
9.171                0.961225166     -85.1433475
9.172                0.961094483     -85.2917436
9.173                0.960963404     -85.4405365
9.174                0.960831927     -85.5897276
9.175                0.960700053     -85.7393178
9.176                0.960567781     -85.8893085
9.177                0.960435111     -86.0397008
9.178                0.960302044     -86.1904958
9.179                0.960168579     -86.3416947
9.18                 0.960034716     -86.4932988
9.181                0.959900456     -86.6453091
9.182                0.959765797     -86.7977269
9.183                 0.95963074     -86.9505533
9.184                0.959495286     -87.1037895
9.185                0.959359433     -87.2574367
9.186                0.959223183     -87.4114961
9.187                0.959086535     -87.5659689
9.188                0.958949489     -87.7208562
9.189                0.958812045     -87.8761592
9.19                 0.958674204     -88.0318791
9.191                0.958535965     -88.1880172
9.192                0.958397328     -88.3445745
9.193                0.958258295     -88.5015522
9.194                0.958118864     -88.6589517
9.195                0.957979037     -88.8167739
9.196                0.957838812     -88.9750202
9.197                0.957698191     -89.1336917
9.198                0.957557174     -89.2927896
9.199                0.957415761     -89.4523151
9.2                  0.957273952     -89.6122694
9.201                0.957131748     -89.7726537
9.202                0.956989148     -89.9334691
9.203                0.956846154     -90.0947169
9.204                0.956702765     -90.2563982
9.205                0.956558982     -90.4185143
9.206                0.956414805     -90.5810663
9.207                0.956270235     -90.7440554
9.208                0.956125272     -90.9074828
9.209                0.955979916     -91.0713497
9.21                 0.955834168     -91.2356572
9.211                0.955688028     -91.4004067
9.212                0.955541498     -91.5655992
9.213                0.955394577      -91.731236
9.214                0.955247266     -91.8973182
9.215                0.955099565      -92.063847
9.216                0.954951476     -92.2308236
9.217                0.954802998     -92.3982493
9.218                0.954654133     -92.5661251
9.219                0.954504881     -92.7344523
9.22                 0.954355242      -92.903232
9.221                0.954205218     -93.0724655
9.222                0.954054809     -93.2421538
9.223                0.953904016     -93.4122983
9.224                0.953752839     -93.5829001
9.225                 0.95360128     -93.7539603
9.226                 0.95344934     -93.9254801
9.227                0.953297018     -94.0974607
9.228                0.953144317     -94.2699034
9.229                0.952991236     -94.4428091
9.23                 0.952837777     -94.6161792
9.231                0.952683941     -94.7900148
9.232                0.952529729      -94.964317
9.233                0.952375141     -95.1390871
9.234                0.952220179     -95.3143261
9.235                0.952064844     -95.4900354
9.236                0.951909137     -95.6662159
9.237                0.951753059     -95.8428689
9.238                0.951596611     -96.0199955
9.239                0.951439795     -96.1975969
9.24                 0.951282611     -96.3756742
9.241                 0.95112506     -96.5542286
9.242                0.950967145     -96.7332612
9.243                0.950808866     -96.9127732
9.244                0.950650225     -97.0927657
9.245                0.950491222     -97.2732399
9.246                 0.95033186     -97.4541968
9.247                0.950172139     -97.6356376
9.248                0.950012062     -97.8175635
9.249                0.949851629     -97.9999756
9.25                 0.949690843     -98.1828749
9.251                0.949529704     -98.3662626
9.252                0.949368214     -98.5501399
9.253                0.949206375     -98.7345078
9.254                0.949044188     -98.9193675
9.255                0.948881655       -99.10472
9.256                0.948718778     -99.2905665
9.257                0.948555559      -99.476908
9.258                0.948391998     -99.6637456
9.259                0.948228099     -99.8510805
9.26                 0.948063863     -100.038914
9.261                0.947899291     -100.227246
9.262                0.947734385     -100.416079
9.263                0.947569149     -100.605414
9.264                0.947403582     -100.795251
9.265                0.947237688     -100.985592
9.266                0.947071469     -101.176438
9.267                0.946904926     -101.367789
9.268                0.946738062     -101.559647
9.269                0.946570879     -101.752013
9.27                 0.946403378     -101.944889
9.271                0.946235563     -102.138273
9.272                0.946067435     -102.332169
9.273                0.945898997     -102.526577
9.274                0.945730251     -102.721498
9.275                  0.9455612     -102.916933
9.276                0.945391845     -103.112883
9.277                 0.94522219     -103.309349
9.278                0.945052237     -103.506332
9.279                0.944881988     -103.703833
9.28                 0.944711445     -103.901852
9.281                0.944540613     -104.100392
9.282                0.944369492     -104.299453
9.283                0.944198086     -104.499035
9.284                0.944026398      -104.69914
9.285                0.943854431     -104.899769
9.286                0.943682186     -105.100923
9.287                0.943509667     -105.302602
9.288                0.943336878     -105.504808
9.289                 0.94316382     -105.707541
9.29                 0.942990497     -105.910802
9.291                0.942816912     -106.114593
9.292                0.942643068     -106.318914
9.293                0.942468968     -106.523766
9.294                0.942294615     -106.729149
9.295                0.942120013     -106.935066
9.296                0.941945164     -107.141516
9.297                0.941770072       -107.3485
9.298                0.941594741      -107.55602
9.299                0.941419173     -107.764075
9.3                  0.941243373     -107.972668
9.301                0.941067343     -108.181798
9.302                0.940891087     -108.391467
9.303                0.940714609     -108.601675
9.304                0.940537912     -108.812424
9.305                   0.940361     -109.023713
9.306                0.940183877     -109.235543
9.307                0.940006546     -109.447916
9.308                0.939829011     -109.660832
9.309                0.939651277     -109.874292
9.31                 0.939473346     -110.088297
9.311                0.939295224     -110.302846
9.312                0.939116913     -110.517942
9.313                0.938938418     -110.733584
9.314                0.938759744     -110.949774
9.315                0.938580893     -111.166511
9.316                0.938401872     -111.383798
9.317                0.938222682     -111.601633
9.318                 0.93804333     -111.820018
9.319                0.937863819     -112.038954
9.32                 0.937684153     -112.258441
9.321                0.937504338     -112.478479
9.322                0.937324377      -112.69907
9.323                0.937144276     -112.920213
9.324                0.936964038      -113.14191
9.325                0.936783668     -113.364161
9.326                0.936603172     -113.586966
9.327                0.936422553     -113.810326
9.328                0.936241818     -114.034241
9.329                0.936060969     -114.258712
9.33                 0.935880013      -114.48374
9.331                0.935698954     -114.709325
9.332                0.935517798     -114.935466
9.333                0.935336549     -115.162166
9.334                0.935155213     -115.389423
9.335                0.934973794     -115.617239
9.336                0.934792298     -115.845614
9.337                0.934610731     -116.074548
9.338                0.934429096     -116.304041
9.339                0.934247401     -116.534095
9.34                  0.93406565     -116.764709
9.341                0.933883849     -116.995883
9.342                0.933702003     -117.227618
9.343                0.933520118     -117.459914
9.344                0.933338199     -117.692771
9.345                0.933156253      -117.92619
9.346                0.932974285     -118.160171
9.347                  0.9327923     -118.394713
9.348                0.932610305     -118.629818
9.349                0.932428306     -118.865485
9.35                 0.932246308     -119.101714
9.351                0.932064317     -119.338506
9.352                 0.93188234     -119.575861
9.353                0.931700383     -119.813779
9.354                0.931518452     -120.052259
9.355                0.931336552     -120.291302
9.356                0.931154691     -120.530909
9.357                0.930972875     -120.771078
9.358                 0.93079111      -121.01181
9.359                0.930609402     -121.253105
9.36                 0.930427758     -121.494963
9.361                0.930246184     -121.737384
9.362                0.930064688     -121.980367
9.363                0.929883275     -122.223914
9.364                0.929701953     -122.468022
9.365                0.929520728     -122.712694
9.366                0.929339607     -122.957927
9.367                0.929158597     -123.203723
9.368                0.928977704      -123.45008
9.369                0.928796936     -123.696999
9.37                   0.9286163     -123.944479
9.371                0.928435803     -124.192521
9.372                0.928255451     -124.441123
9.373                0.928075252     -124.690286
9.374                0.927895214     -124.940009
9.375                0.927715343     -125.190291
9.376                0.927535647     -125.441134
9.377                0.927356133     -125.692535
9.378                0.927176808     -125.944495
9.379                 0.92699768     -126.197012
9.38                 0.926818757     -126.450088
9.381                0.926640046     -126.703721
9.382                0.926461554      -126.95791
9.383                 0.92628329     -127.212656
9.384                 0.92610526     -127.467957
9.385                0.925927474     -127.723814
9.386                0.925749937     -127.980224
9.387                0.925572659     -128.237188
9.388                0.925395647     -128.494706
9.389                0.925218909     -128.752775
9.39                 0.925042453     -129.011397
9.391                0.924866287     -129.270569
9.392                 0.92469042     -129.530291
9.393                0.924514858     -129.790563
9.394                0.924339611     -130.051383
9.395                0.924164686     -130.312751
9.396                0.923990092     -130.574666
