! TOUCHSTONE file generated by CST DESIGN STUDIO
! Date and time: Tue Feb  4 16:12:14 2025
! Project name: C:\Work\MatlabApps\UnitCellOptimizationMatlab\CST\unitcell.cst
! Tree item: Tasks\Sweep1\SPara1\S-Parameters
! Header version: 2024
! Port assignment regex: !\s*Touchstone port\s*([0-9]+)\s*=\s*(CST MWS port|CST DES external port|CST DES block port)\s*(.+)\s* \(\"(.*)\"\)(\s*mode\s*([0-9]+))?.*
! Touchstone port assignment:
! Touchstone port 1 = CST DES external port 1 ("")
# GHz S MA R 50
9                    0.927583069     -93.1763155
9.001                0.927328471     -93.3430623
9.002                0.927073476     -93.5102693
9.003                0.926818086     -93.6779376
9.004                0.926562303     -93.8460688
9.005                0.926306128     -94.0146642
9.006                0.926049563     -94.1837249
9.007                 0.92579261     -94.3532525
9.008                 0.92553527     -94.5232483
9.009                0.925277545     -94.6937135
9.01                 0.925019437     -94.8646494
9.011                0.924760948     -95.0360576
9.012                0.924502079     -95.2079392
9.013                0.924242833     -95.3802955
9.014                0.923983211      -95.553128
9.015                0.923723215      -95.726438
9.016                0.923462848     -95.9002267
9.017                0.923202112     -96.0744956
9.018                0.922941007     -96.2492459
9.019                0.922679538     -96.4244789
9.02                 0.922417705     -96.6001961
9.021                0.922155512     -96.7763986
9.022                 0.92189296     -96.9530879
9.023                0.921630051     -97.1302653
9.024                0.921366788      -97.307932
9.025                0.921103174     -97.4860894
9.026                 0.92083921     -97.6647388
9.027                  0.9205749     -97.8438815
9.028                0.920310245     -98.0235189
9.029                0.920045249     -98.2036522
9.03                 0.919779913     -98.3842827
9.031                0.919514241     -98.5654119
9.032                0.919248235     -98.7470409
9.033                0.918981898      -98.929171
9.034                0.918715233     -99.1118036
9.035                0.918448242       -99.29494
9.036                0.918180928     -99.4785814
9.037                0.917913295     -99.6627292
9.038                0.917645344     -99.8473846
9.039                 0.91737708     -100.032549
9.04                 0.917108506     -100.218223
9.041                0.916839623     -100.404409
9.042                0.916570436     -100.591108
9.043                0.916300948     -100.778321
9.044                0.916031161     -100.966049
9.045                 0.91576108     -101.154294
9.046                0.915490708     -101.343056
9.047                0.915220047     -101.532338
9.048                0.914949102      -101.72214
9.049                0.914677875     -101.912464
9.05                 0.914406371      -102.10331
9.051                0.914134593     -102.294681
9.052                0.913862545     -102.486576
9.053                 0.91359023     -102.678999
9.054                0.913317653     -102.871949
9.055                0.913044816     -103.065428
9.056                0.912771724     -103.259438
9.057                0.912498381     -103.453979
9.058                 0.91222479     -103.649052
9.059                0.911950957     -103.844659
9.06                 0.911676884     -104.040802
9.061                0.911402576     -104.237481
9.062                0.911128037     -104.434697
9.063                0.910853272     -104.632452
9.064                0.910578285     -104.830746
9.065                0.910303079     -105.029582
9.066                0.910027661      -105.22896
9.067                0.909752033     -105.428881
9.068                0.909476201     -105.629346
9.069                0.909200169     -105.830357
9.07                 0.908923942     -106.031915
9.071                0.908647524     -106.234021
9.072                0.908370921     -106.436675
9.073                0.908094137      -106.63988
9.074                0.907817177     -106.843636
9.075                0.907540047     -107.047944
9.076                 0.90726275     -107.252806
9.077                0.906985293     -107.458222
9.078                 0.90670768     -107.664194
9.079                0.906429917     -107.870722
9.08                 0.906152008     -108.077809
9.081                 0.90587396     -108.285454
9.082                0.905595777     -108.493658
9.083                0.905317466     -108.702424
9.084                0.905039031     -108.911751
9.085                0.904760478     -109.121642
9.086                0.904481813     -109.332096
9.087                0.904203042     -109.543115
9.088                0.903924171       -109.7547
9.089                0.903645205     -109.966852
9.09                  0.90336615     -110.179572
9.091                0.903087012     -110.392861
9.092                0.902807797     -110.606719
9.093                0.902528513     -110.821148
9.094                0.902249163     -111.036149
9.095                0.901969756     -111.251722
9.096                0.901690297     -111.467869
9.097                0.901410793      -111.68459
9.098                0.901131249     -111.901887
9.099                0.900851674     -112.119759
9.1                  0.900572073     -112.338209
9.101                0.900292453     -112.557236
9.102                 0.90001282     -112.776842
9.103                0.899733183     -112.997028
9.104                0.899453546     -113.217794
9.105                0.899173918     -113.439141
9.106                0.898894306      -113.66107
9.107                0.898614717     -113.883581
9.108                0.898335157     -114.106676
9.109                0.898055634     -114.330356
9.11                 0.897776155      -114.55462
9.111                0.897496729      -114.77947
9.112                0.897217361     -115.004906
9.113                0.896938061     -115.230929
9.114                0.896658834      -115.45754
9.115                 0.89637969      -115.68474
9.116                0.896100636     -115.912528
9.117                0.895821679     -116.140907
9.118                0.895542828     -116.369875
9.119                 0.89526409     -116.599435
9.12                 0.894985474     -116.829586
9.121                0.894706988     -117.060329
9.122                0.894428639     -117.291664
9.123                0.894150437     -117.523593
9.124                0.893872389     -117.756116
9.125                0.893594504     -117.989233
9.126                0.893316791     -118.222944
9.127                0.893039257     -118.457251
9.128                0.892761912     -118.692154
9.129                0.892484765     -118.927652
9.13                 0.892207823     -119.163747
9.131                0.891931096     -119.400439
9.132                0.891654594     -119.637728
9.133                0.891378324     -119.875615
9.134                0.891102296       -120.1141
9.135                0.890826519     -120.353183
9.136                0.890551002     -120.592865
9.137                0.890275755     -120.833145
9.138                0.890000787     -121.074025
9.139                0.889726108     -121.315505
9.14                 0.889451726     -121.557584
9.141                0.889177651     -121.800263
9.142                0.888903894     -122.043542
9.143                0.888630464     -122.287421
9.144                 0.88835737     -122.531901
9.145                0.888084623     -122.776982
9.146                0.887812232     -123.022663
9.147                0.887540208     -123.268944
9.148                 0.88726856     -123.515827
9.149                0.886997299      -123.76331
9.15                 0.886726435     -124.011395
9.151                0.886455978      -124.26008
9.152                0.886185938     -124.509366
9.153                0.885916326     -124.759253
9.154                0.885647153      -125.00974
9.155                0.885378429     -125.260828
9.156                0.885110165     -125.512517
9.157                 0.88484237     -125.764806
9.158                0.884575057     -126.017695
9.159                0.884308236     -126.271185
9.16                 0.884041918     -126.525274
9.161                0.883776113     -126.779962
9.162                0.883510833      -127.03525
9.163                0.883246089     -127.291137
9.164                0.882981892     -127.547623
9.165                0.882718254     -127.804707
9.166                0.882455185     -128.062389
9.167                0.882192696     -128.320668
9.168                  0.8819308     -128.579545
9.169                0.881669508     -128.839019
9.17                 0.881408831     -129.099088
9.171                0.881148781     -129.359754
9.172                0.880889369     -129.621015
9.173                0.880630607      -129.88287
9.174                0.880372507      -130.14532
9.175                0.880115081     -130.408363
9.176                0.879858341     -130.671999
9.177                0.879602298     -130.936227
9.178                0.879346964     -131.201046
9.179                0.879092352     -131.466457
9.18                 0.878838473     -131.732457
9.181                 0.87858534     -131.999047
9.182                0.878332965     -132.266225
9.183                 0.87808136      -132.53399
9.184                0.877830538     -132.802343
9.185                 0.87758051     -133.071281
9.186                0.877331288     -133.340804
9.187                0.877082887     -133.610911
9.188                0.876835317     -133.881601
9.189                0.876588592     -134.152873
9.19                 0.876342723     -134.424726
9.191                0.876097724     -134.697158
9.192                0.875853607      -134.97017
9.193                0.875610385     -135.243759
9.194                0.875368071     -135.517924
9.195                0.875126676     -135.792664
9.196                0.874886215     -136.067979
9.197                0.874646699     -136.343866
9.198                0.874408141     -136.620324
9.199                0.874170556     -136.897352
9.2                  0.873933954     -137.174949
9.201                 0.87369835     -137.453113
9.202                0.873463756     -137.731843
9.203                0.873230185     -138.011138
9.204                 0.87299765     -138.290995
9.205                0.872766164     -138.571413
9.206                0.872535741     -138.852391
9.207                0.872306393     -139.133927
9.208                0.872078133      -139.41602
9.209                0.871850974     -139.698668
9.21                  0.87162493     -139.981868
9.211                0.871400014      -140.26562
9.212                0.871176238     -140.549922
9.213                0.870953616     -140.834771
9.214                0.870732162     -141.120166
9.215                0.870511887     -141.406106
9.216                0.870292806     -141.692587
9.217                0.870074932     -141.979609
9.218                0.869858277     -142.267169
9.219                0.869642855     -142.555265
9.22                 0.869428679     -142.843895
9.221                0.869215762     -143.133057
9.222                0.869004118     -143.422749
9.223                0.868793759     -143.712969
9.224                0.868584699     -144.003715
9.225                 0.86837695     -144.294984
9.226                0.868170527     -144.586774
9.227                0.867965441     -144.879082
9.228                0.867761707     -145.171907
9.229                0.867559337     -145.465247
9.23                 0.867358344     -145.759097
9.231                0.867158741     -146.053457
9.232                0.866960541     -146.348324
9.233                0.866763758     -146.643695
9.234                0.866568404     -146.939567
9.235                0.866374492     -147.235939
9.236                0.866182036     -147.532806
9.237                0.865991047     -147.830168
9.238                0.865801539     -148.128021
9.239                0.865613524     -148.426362
9.24                 0.865427015     -148.725188
9.241                0.865242026     -149.024497
9.242                0.865058568     -149.324286
9.243                0.864876655     -149.624552
9.244                0.864696298     -149.925292
9.245                 0.86451751     -150.226503
9.246                0.864340305     -150.528183
9.247                0.864164693     -150.830327
9.248                0.863990688     -151.132933
9.249                0.863818302     -151.435999
9.25                 0.863647547      -151.73952
9.251                0.863478436     -152.043493
9.252                 0.86331098     -152.347916
9.253                0.863145191     -152.652785
9.254                0.862981082     -152.958097
9.255                0.862818664     -153.263849
9.256                0.862657949     -153.570037
9.257                0.862498949     -153.876658
9.258                0.862341675     -154.183708
9.259                 0.86218614     -154.491184
9.26                 0.862032355     -154.799082
9.261                 0.86188033     -155.107399
9.262                0.861730079     -155.416132
9.263                 0.86158161     -155.725276
9.264                0.861434937     -156.034829
9.265                 0.86129007     -156.344786
9.266                 0.86114702     -156.655144
9.267                0.861005797     -156.965899
9.268                0.860866413     -157.277047
9.269                0.860728879     -157.588585
9.27                 0.860593204     -157.900508
9.271                  0.8604594     -158.212813
9.272                0.860327476     -158.525496
9.273                0.860197443     -158.838553
9.274                0.860069312      -159.15198
9.275                0.859943091     -159.465772
9.276                0.859818792     -159.779927
9.277                0.859696423      -160.09444
9.278                0.859575995     -160.409306
9.279                0.859457517     -160.724522
9.28                 0.859340998     -161.040084
9.281                0.859226449     -161.355987
9.282                0.859113877     -161.672227
9.283                0.859003292       -161.9888
9.284                0.858894703     -162.305701
9.285                0.858788118     -162.622927
9.286                0.858683547     -162.940472
9.287                0.858580998     -163.258334
9.288                0.858480479     -163.576506
9.289                0.858381998     -163.894985
9.29                 0.858285564     -164.213766
9.291                0.858191184     -164.532846
9.292                0.858098866     -164.852218
9.293                0.858008618     -165.171879
9.294                0.857920447     -165.491825
9.295                0.857834361      -165.81205
9.296                0.857750366      -166.13255
9.297                0.857668471     -166.453321
9.298                0.857588681     -166.774357
9.299                0.857511003     -167.095654
9.3                  0.857435444     -167.417207
9.301                 0.85736201     -167.739012
9.302                0.857290707     -168.061064
9.303                0.857221543     -168.383358
9.304                0.857154521     -168.705889
9.305                0.857089648     -169.028652
9.306                 0.85702693     -169.351643
9.307                0.856966372     -169.674857
9.308                0.856907979     -169.998288
9.309                0.856851756     -170.321932
9.31                 0.856797708     -170.645784
9.311                 0.85674584     -170.969838
9.312                0.856696155     -171.294091
9.313                 0.85664866     -171.618537
9.314                0.856603356      -171.94317
9.315                0.856560249     -172.267986
9.316                0.856519343     -172.592981
9.317                 0.85648064     -172.918148
9.318                0.856444144     -173.243482
9.319                0.856409859     -173.568979
9.32                 0.856377787     -173.894634
9.321                0.856347931      -174.22044
9.322                0.856320294     -174.546394
9.323                0.856294878      -174.87249
9.324                0.856271686     -175.198723
9.325                0.856250719     -175.525087
9.326                 0.85623198     -175.851578
9.327                 0.85621547      -176.17819
9.328                0.856201191     -176.504917
9.329                0.856189143     -176.831756
9.33                 0.856179329     -177.158699
9.331                0.856171748     -177.485744
9.332                0.856166402     -177.812882
9.333                0.856163292     -178.140111
9.334                0.856162416     -178.467424
9.335                0.856163777     -178.794816
9.336                0.856167372     -179.122281
9.337                0.856173203     -179.449815
9.338                0.856181269     -179.777412
9.339                0.856191569      179.894933
9.34                 0.856204102      179.567226
9.341                0.856218867      179.239472
9.342                0.856235863      178.911676
9.343                0.856255088      178.583843
9.344                0.856276541       178.25598
9.345                 0.85630022      177.928091
9.346                0.856326123      177.600182
9.347                0.856354247      177.272257
9.348                0.856384591      176.944323
9.349                0.856417151      176.616385
9.35                 0.856451925      176.288448
9.351                0.856488909      175.960518
9.352                0.856528101      175.632599
9.353                0.856569496      175.304698
9.354                0.856613092      174.976819
9.355                0.856658885      174.648968
9.356                 0.85670687      174.321151
9.357                0.856757043      173.993372
9.358                  0.8568094      173.665637
9.359                0.856863937      173.337951
9.36                 0.856920648       173.01032
9.361                0.856979529      172.682749
9.362                0.857040574      172.355243
9.363                0.857103779      172.027808
9.364                0.857169137      171.700449
9.365                0.857236643      171.373171
9.366                 0.85730629       171.04598
9.367                0.857378074      170.718881
9.368                0.857451988      170.391878
9.369                0.857528024      170.064978
9.37                 0.857606178      169.738186
9.371                0.857686441      169.411506
9.372                0.857768807      169.084944
9.373                0.857853268      168.758506
9.374                0.857939818      168.432197
9.375                0.858028448      168.106021
9.376                0.858119152      167.779983
9.377                0.858211921       167.45409
9.378                0.858306748      167.128347
9.379                0.858403623      166.802757
9.38                 0.858502539      166.477327
9.381                0.858603488      166.152062
9.382                 0.85870646      165.826966
9.383                0.858811446      165.502045
9.384                0.858918439      165.177304
9.385                0.859027428      164.852748
9.386                0.859138404      164.528381
9.387                0.859251358       164.20421
9.388                 0.85936628      163.880238
9.389                 0.85948316      163.556471
9.39                 0.859601989      163.232914
9.391                0.859722757      162.909572
9.392                0.859845452      162.586449
9.393                0.859970066      162.263551
9.394                0.860096586      161.940882
9.395                0.860225004      161.618447
9.396                0.860355307      161.296251
