! TOUCHSTONE file generated by CST DESIGN STUDIO
! Date and time: Tue Feb  4 16:12:15 2025
! Project name: C:\Work\MatlabApps\UnitCellOptimizationMatlab\CST\unitcell.cst
! Tree item: Tasks\Sweep1\SPara1\S-Parameters
! Header version: 2024
! Port assignment regex: !\s*Touchstone port\s*([0-9]+)\s*=\s*(CST MWS port|CST DES external port|CST DES block port)\s*(.+)\s* \(\"(.*)\"\)(\s*mode\s*([0-9]+))?.*
! Touchstone port assignment:
! Touchstone port 1 = CST DES external port 1 ("")
# GHz S MA R 50
9                    0.930695859     -88.3921081
9.001                0.930463254     -88.5455182
9.002                0.930230266     -88.6993476
9.003                0.929996893     -88.8535976
9.004                0.929763137     -89.0082695
9.005                   0.929529     -89.1633645
9.006                0.929294481     -89.3188841
9.007                0.929059582     -89.4748295
9.008                0.928824304     -89.6312021
9.009                0.928588648     -89.7880031
9.01                 0.928352614      -89.945234
9.011                0.928116204      -90.102896
9.012                 0.92787942     -90.2609904
9.013                0.927642261     -90.4195187
9.014                0.927404729     -90.5784821
9.015                0.927166826     -90.7378819
9.016                0.926928552     -90.8977195
9.017                0.926689909     -91.0579963
9.018                0.926450897     -91.2187134
9.019                0.926211519     -91.3798724
9.02                 0.925971774     -91.5414745
9.021                0.925731666     -91.7035211
9.022                0.925491195     -91.8660134
9.023                0.925250361     -92.0289529
9.024                0.925009168     -92.1923409
9.025                0.924767616     -92.3561786
9.026                0.924525706     -92.5204675
9.027                 0.92428344      -92.685209
9.028                 0.92404082     -92.8504042
9.029                0.923797847     -93.0160546
9.03                 0.923554522     -93.1821616
9.031                0.923310848     -93.3487263
9.032                0.923066825     -93.5157503
9.033                0.922822456     -93.6832349
9.034                0.922577742     -93.8511813
9.035                0.922332685     -94.0195909
9.036                0.922087286     -94.1884651
9.037                0.921841548     -94.3578052
9.038                0.921595472     -94.5276125
9.039                 0.92134906     -94.6978885
9.04                 0.921102313     -94.8686343
9.041                0.920855235     -95.0398515
9.042                0.920607826     -95.2115412
9.043                0.920360089     -95.3837049
9.044                0.920112025     -95.5563439
9.045                0.919863638     -95.7294594
9.046                0.919614928      -95.903053
9.047                0.919365898     -96.0771258
9.048                 0.91911655     -96.2516793
9.049                0.918866887     -96.4267147
9.05                  0.91861691     -96.6022335
9.051                0.918366622     -96.7782368
9.052                0.918116024     -96.9547261
9.053                0.917865121     -97.1317027
9.054                0.917613913     -97.3091679
9.055                0.917362403      -97.487123
9.056                0.917110594     -97.6655694
9.057                0.916858488     -97.8445083
9.058                0.916606087     -98.0239412
9.059                0.916353395     -98.2038693
9.06                 0.916100414     -98.3842939
9.061                0.915847146     -98.5652164
9.062                0.915593595      -98.746638
9.063                0.915339762     -98.9285601
9.064                0.915085651     -99.1109839
9.065                0.914831265     -99.2939109
9.066                0.914576606     -99.4773422
9.067                0.914321677     -99.6612792
9.068                0.914066482     -99.8457232
9.069                0.913811023     -100.030675
9.07                 0.913555303     -100.216137
9.071                0.913299326      -100.40211
9.072                0.913043094     -100.588595
9.073                0.912786611     -100.775593
9.074                0.912529879     -100.963106
9.075                0.912272903     -101.151135
9.076                0.912015686     -101.339681
9.077                 0.91175823     -101.528745
9.078                0.911500539      -101.71833
9.079                0.911242618     -101.908435
9.08                 0.910984468     -102.099062
9.081                0.910726094     -102.290214
9.082                  0.9104675      -102.48189
9.083                0.910208688     -102.674091
9.084                0.909949664     -102.866821
9.085                0.909690429     -103.060078
9.086                0.909430989     -103.253865
9.087                0.909171348     -103.448184
9.088                0.908911508     -103.643034
9.089                0.908651474     -103.838418
9.09                  0.90839125     -104.034336
9.091                 0.90813084      -104.23079
9.092                0.907870248     -104.427781
9.093                0.907609479      -104.62531
9.094                0.907348536     -104.823378
9.095                0.907087424     -105.021987
9.096                0.906826147     -105.221138
9.097                0.906564709     -105.420831
9.098                0.906303116     -105.621069
9.099                 0.90604137     -105.821851
9.1                  0.905779478      -106.02318
9.101                0.905517443     -106.225056
9.102                0.905255271     -106.427481
9.103                0.904992965     -106.630455
9.104                0.904730532     -106.833981
9.105                0.904467974     -107.038058
9.106                0.904205298     -107.242688
9.107                0.903942509     -107.447872
9.108                0.903679611     -107.653611
9.109                0.903416609     -107.859907
9.11                 0.903153508      -108.06676
9.111                0.902890315     -108.274171
9.112                0.902627033     -108.482142
9.113                0.902363669     -108.690673
9.114                0.902100227     -108.899766
9.115                0.901836713     -109.109421
9.116                0.901573133      -109.31964
9.117                0.901309492     -109.530423
9.118                0.901045795     -109.741772
9.119                0.900782049     -109.953687
9.12                 0.900518259      -110.16617
9.121                 0.90025443     -110.379221
9.122                0.899990569     -110.592842
9.123                0.899726682     -110.807033
9.124                0.899462774     -111.021796
9.125                0.899198852      -111.23713
9.126                0.898934922     -111.453038
9.127                0.898670989      -111.66952
9.128                0.898407061     -111.886577
9.129                0.898143143     -112.104209
9.13                 0.897879242     -112.322418
9.131                0.897615364     -112.541205
9.132                0.897351515      -112.76057
9.133                0.897087703     -112.980515
9.134                0.896823934     -113.201039
9.135                0.896560214     -113.422144
9.136                 0.89629655     -113.643831
9.137                 0.89603295       -113.8661
9.138                0.895769419     -114.088953
9.139                0.895505966     -114.312389
9.14                 0.895242596      -114.53641
9.141                0.894979318     -114.761016
9.142                0.894716138     -114.986208
9.143                0.894453063     -115.211988
9.144                0.894190101     -115.438354
9.145                0.893927259     -115.665309
9.146                0.893664544     -115.892853
9.147                0.893401965     -116.120986
9.148                0.893139528     -116.349709
9.149                0.892877241     -116.579022
9.15                 0.892615112     -116.808927
9.151                0.892353148     -117.039424
9.152                0.892091358     -117.270513
9.153                 0.89182975     -117.502195
9.154                0.891568331     -117.734471
9.155                0.891307109      -117.96734
9.156                0.891046092     -118.200804
9.157                0.890785289     -118.434863
9.158                0.890524708     -118.669517
9.159                0.890264357     -118.904767
9.16                 0.890004245     -119.140614
9.161                0.889744379     -119.377057
9.162                0.889484769     -119.614097
9.163                0.889225423     -119.851734
9.164                 0.88896635     -120.089969
9.165                0.888707558     -120.328802
9.166                0.888449056     -120.568234
9.167                0.888190853     -120.808264
9.168                0.887932959     -121.048893
9.169                0.887675381     -121.290122
9.17                 0.887418129      -121.53195
9.171                0.887161212     -121.774377
9.172                0.886904639     -122.017405
9.173                 0.88664842     -122.261032
9.174                0.886392564      -122.50526
9.175                 0.88613708     -122.750087
9.176                0.885881977     -122.995516
9.177                0.885627266     -123.241544
9.178                0.885372955     -123.488174
9.179                0.885119055     -123.735403
9.18                 0.884865575     -123.983234
9.181                0.884612525     -124.231665
9.182                0.884359914     -124.480696
9.183                0.884107753     -124.730328
9.184                0.883856051     -124.980561
9.185                0.883604819     -125.231394
9.186                0.883354066     -125.482827
9.187                0.883103804      -125.73486
9.188                0.882854041     -125.987493
9.189                0.882604788     -126.240726
9.19                 0.882356056     -126.494559
9.191                0.882107855      -126.74899
9.192                0.881860196     -127.004021
9.193                0.881613088      -127.25965
9.194                0.881366543     -127.515878
9.195                0.881120571     -127.772704
9.196                0.880875182     -128.030127
9.197                0.880630388     -128.288148
9.198                  0.8803862     -128.546766
9.199                0.880142627      -128.80598
9.2                  0.879899682      -129.06579
9.201                0.879657374     -129.326195
9.202                0.879415716     -129.587195
9.203                0.879174718      -129.84879
9.204                0.878934391     -130.110979
9.205                0.878694746      -130.37376
9.206                0.878455795     -130.637134
9.207                0.878217548       -130.9011
9.208                0.877980018     -131.165657
9.209                0.877743215     -131.430805
9.21                 0.877507151     -131.696542
9.211                0.877271838     -131.962868
9.212                0.877037286     -132.229782
9.213                0.876803508     -132.497284
9.214                0.876570515     -132.765371
9.215                0.876338318     -133.034044
9.216                 0.87610693     -133.303302
9.217                0.875876362     -133.573143
9.218                0.875646625     -133.843567
9.219                0.875417732     -134.114572
9.22                 0.875189694     -134.386158
9.221                0.874962524     -134.658323
9.222                0.874736233     -134.931067
9.223                0.874510833     -135.204387
9.224                0.874286336     -135.478284
9.225                0.874062754     -135.752755
9.226                0.873840099       -136.0278
9.227                0.873618383     -136.303417
9.228                0.873397618     -136.579605
9.229                0.873177816     -136.856362
9.23                  0.87295899     -137.133687
9.231                0.872741152      -137.41158
9.232                0.872524314     -137.690037
9.233                0.872308487     -137.969059
9.234                0.872093685     -138.248643
9.235                0.871879919     -138.528787
9.236                0.871667202     -138.809491
9.237                0.871455546     -139.090752
9.238                0.871244963      -139.37257
9.239                0.871035466     -139.654942
9.24                 0.870827066     -139.937866
9.241                0.870619777     -140.221341
9.242                0.870413611     -140.505365
9.243                0.870208579     -140.789937
9.244                0.870004695     -141.075053
9.245                0.869801971     -141.360714
9.246                0.869600418     -141.646916
9.247                 0.86940005     -141.933657
9.248                0.869200879     -142.220936
9.249                0.869002916     -142.508751
9.25                 0.868806176       -142.7971
9.251                0.868610668     -143.085979
9.252                0.868416408     -143.375389
9.253                0.868223405     -143.665325
9.254                0.868031673     -143.955786
9.255                0.867841225      -144.24677
9.256                0.867652071     -144.538275
9.257                0.867464226     -144.830297
9.258                  0.8672777     -145.122836
9.259                0.867092507     -145.415888
9.26                 0.866908658     -145.709451
9.261                0.866726165     -146.003522
9.262                0.866545041     -146.298099
9.263                0.866365298      -146.59318
9.264                0.866186949     -146.888762
9.265                0.866010004     -147.184843
9.266                0.865834476     -147.481419
9.267                0.865660378     -147.778488
9.268                0.865487721     -148.076047
9.269                0.865316516     -148.374094
9.27                 0.865146777     -148.672626
9.271                0.864978515      -148.97164
9.272                0.864811741     -149.271133
9.273                0.864646468     -149.571102
9.274                0.864482707     -149.871545
9.275                 0.86432047     -150.172458
9.276                0.864159768     -150.473838
9.277                0.864000614     -150.775683
9.278                0.863843018     -151.077989
9.279                0.863686992     -151.380753
9.28                 0.863532547     -151.683973
9.281                0.863379696     -151.987644
9.282                0.863228448     -152.291764
9.283                0.863078815     -152.596329
9.284                0.862930809     -152.901336
9.285                 0.86278444     -153.206782
9.286                 0.86263972     -153.512664
9.287                0.862496659     -153.818977
9.288                0.862355268     -154.125719
9.289                0.862215558     -154.432887
9.29                  0.86207754     -154.740476
9.291                0.861941224     -155.048483
9.292                0.861806621     -155.356904
9.293                0.861673741     -155.665737
9.294                0.861542594     -155.974977
9.295                0.861413192     -156.284621
9.296                0.861285543     -156.594664
9.297                0.861159658     -156.905104
9.298                0.861035547     -157.215936
9.299                 0.86091322     -157.527157
9.3                  0.860792687     -157.838763
9.301                0.860673957      -158.15075
9.302                 0.86055704     -158.463114
9.303                0.860441945     -158.775851
9.304                0.860328681     -159.088957
9.305                0.860217259     -159.402428
9.306                0.860107686      -159.71626
9.307                0.859999973      -160.03045
9.308                0.859894127     -160.344992
9.309                0.859790158     -160.659883
9.31                 0.859688075     -160.975119
9.311                0.859587885     -161.290695
9.312                0.859489597     -161.606608
9.313                0.859393221     -161.922852
9.314                0.859298762     -162.239424
9.315                0.859206231      -162.55632
9.316                0.859115634     -162.873535
9.317                0.859026979     -163.191065
9.318                0.858940275     -163.508904
9.319                0.858855528      -163.82705
9.32                 0.858772745     -164.145497
9.321                0.858691935     -164.464241
9.322                0.858613104     -164.783278
9.323                0.858536259     -165.102603
9.324                0.858461407     -165.422211
9.325                0.858388554     -165.742097
9.326                0.858317707     -166.062258
9.327                0.858248872     -166.382688
9.328                0.858182056     -166.703384
9.329                0.858117264     -167.024339
9.33                 0.858054502      -167.34555
9.331                0.857993777     -167.667011
9.332                0.857935093     -167.988719
9.333                0.857878456     -168.310668
9.334                0.857823871     -168.632853
9.335                0.857771343     -168.955269
9.336                0.857720878     -169.277912
9.337                 0.85767248     -169.600777
9.338                0.857626153     -169.923859
9.339                0.857581902     -170.247153
9.34                 0.857539732     -170.570654
9.341                0.857499645     -170.894357
9.342                0.857461647     -171.218257
9.343                0.857425741     -171.542349
9.344                 0.85739193     -171.866629
9.345                0.857360218      -172.19109
9.346                0.857330608     -172.515729
9.347                0.857303104     -172.840539
9.348                0.857277707     -173.165516
9.349                0.857254421     -173.490655
9.35                 0.857233248     -173.815951
9.351                 0.85721419     -174.141398
9.352                0.857197251     -174.466991
9.353                0.857182431     -174.792726
9.354                0.857169732     -175.118597
9.355                0.857159156     -175.444598
9.356                0.857150704     -175.770726
9.357                0.857144379     -176.096973
9.358                0.857140179     -176.423336
9.359                0.857138108     -176.749809
9.36                 0.857138165     -177.076386
9.361                 0.85714035     -177.403063
9.362                0.857144664     -177.729834
9.363                0.857151108     -178.056694
9.364                 0.85715968     -178.383638
9.365                0.857170382      -178.71066
9.366                0.857183212     -179.037755
9.367                 0.85719817     -179.364917
9.368                0.857215254     -179.692142
9.369                0.857234465      179.980576
9.37                   0.8572558      179.653242
9.371                0.857279259      179.325861
9.372                 0.85730484       178.99844
9.373                 0.85733254      178.670983
9.374                0.857362359      178.343496
9.375                0.857394294      178.015983
9.376                0.857428343      177.688451
9.377                0.857464503      177.360904
9.378                0.857502772      177.033349
9.379                0.857543146       176.70579
9.38                 0.857585623      176.378232
9.381                0.857630199      176.050682
9.382                0.857676871      175.723144
9.383                0.857725636      175.395624
9.384                0.857776489      175.068127
9.385                0.857829427      174.740659
9.386                0.857884445      174.413224
9.387                 0.85794154      174.085829
9.388                0.858000706      173.758478
9.389                0.858061939      173.431176
9.39                 0.858125234       173.10393
9.391                0.858190586      172.776745
9.392                0.858257989      172.449625
9.393                0.858327439      172.122577
9.394                 0.85839893      171.795605
9.395                0.858472456      171.468714
9.396                0.858548011      171.141911
