! TOUCHSTONE file generated by CST DESIGN STUDIO
! Date and time: Tue Feb  4 16:12:29 2025
! Project name: C:\Work\MatlabApps\UnitCellOptimizationMatlab\CST\unitcell.cst
! Tree item: Tasks\Sweep1\SPara1\S-Parameters
! Header version: 2024
! Port assignment regex: !\s*Touchstone port\s*([0-9]+)\s*=\s*(CST MWS port|CST DES external port|CST DES block port)\s*(.+)\s* \(\"(.*)\"\)(\s*mode\s*([0-9]+))?.*
! Touchstone port assignment:
! Touchstone port 1 = CST DES external port 1 ("")
# GHz S MA R 50
9                    0.963719697     -49.6271816
9.001                0.963679054     -49.6899748
9.002                0.963638288     -49.7529083
9.003                0.963597397     -49.8159829
9.004                0.963556382     -49.8791987
9.005                 0.96351524     -49.9425563
9.006                0.963473971     -50.0060561
9.007                0.963432574     -50.0696986
9.008                0.963391048     -50.1334841
9.009                0.963349392     -50.1974132
9.01                 0.963307606     -50.2614863
9.011                0.963265688     -50.3257037
9.012                0.963223637      -50.390066
9.013                0.963181452     -50.4545737
9.014                0.963139133      -50.519227
9.015                0.963096678     -50.5840266
9.016                0.963054087     -50.6489728
9.017                0.963011359     -50.7140661
9.018                0.962968492      -50.779307
9.019                0.962925486     -50.8446959
9.02                 0.962882339     -50.9102333
9.021                0.962839052     -50.9759196
9.022                0.962795622     -51.0417553
9.023                0.962752049     -51.1077409
9.024                0.962708331     -51.1738768
9.025                0.962664469     -51.2401634
9.026                0.962620461     -51.3066014
9.027                0.962576305      -51.373191
9.028                0.962532001     -51.4399328
9.029                0.962487549     -51.5068274
9.03                 0.962442946      -51.573875
9.031                0.962398192     -51.6410763
9.032                0.962353286     -51.7084317
9.033                0.962308227     -51.7759416
9.034                0.962263015     -51.8436066
9.035                0.962217647     -51.9114271
9.036                0.962172123     -51.9794037
9.037                0.962126442     -52.0475368
9.038                0.962080603     -52.1158268
9.039                0.962034605     -52.1842744
9.04                 0.961988447       -52.25288
9.041                0.961942128      -52.321644
9.042                0.961895647      -52.390567
9.043                0.961849003     -52.4596494
9.044                0.961802195     -52.5288918
9.045                0.961755222     -52.5982947
9.046                0.961708082     -52.6678586
9.047                0.961660775     -52.7375839
9.048                  0.9616133     -52.8074712
9.049                0.961565656      -52.877521
9.05                 0.961517842     -52.9477338
9.051                0.961469856       -53.01811
9.052                0.961421698     -53.0886503
9.053                0.961373366     -53.1593552
9.054                 0.96132486     -53.2302251
9.055                0.961276178     -53.3012606
9.056                 0.96122732     -53.3724621
9.057                0.961178284     -53.4438303
9.058                 0.96112907     -53.5153656
9.059                0.961079675     -53.5870686
9.06                   0.9610301     -53.6589398
9.061                0.960980343     -53.7309797
9.062                0.960930403     -53.8031888
9.063                0.960880279     -53.8755678
9.064                 0.96082997     -53.9481171
9.065                0.960779475     -54.0208372
9.066                0.960728793     -54.0937288
9.067                0.960677922     -54.1667923
9.068                0.960626862     -54.2400283
9.069                0.960575611     -54.3134373
9.07                 0.960524169     -54.3870199
9.071                0.960472534     -54.4607767
9.072                0.960420705     -54.5347081
9.073                0.960368681     -54.6088148
9.074                0.960316461     -54.6830973
9.075                0.960264045     -54.7575561
9.076                 0.96021143     -54.8321919
9.077                0.960158615     -54.9070051
9.078                0.960105601     -54.9819964
9.079                0.960052385     -55.0571663
9.08                 0.959998966     -55.1325153
9.081                0.959945343     -55.2080442
9.082                0.959891516     -55.2837533
9.083                0.959837482     -55.3596433
9.084                0.959783242     -55.4357148
9.085                0.959728793     -55.5119684
9.086                0.959674134     -55.5884046
9.087                0.959619266      -55.665024
9.088                0.959564185     -55.7418272
9.089                0.959508892     -55.8188147
9.09                 0.959453384     -55.8959873
9.091                0.959397662     -55.9733454
9.092                0.959341723     -56.0508897
9.093                0.959285567     -56.1286208
9.094                0.959229193     -56.2065392
9.095                0.959172598     -56.2846456
9.096                0.959115783     -56.3629405
9.097                0.959058746     -56.4414246
9.098                0.959001485     -56.5200985
9.099                   0.958944     -56.5989627
9.1                   0.95888629      -56.678018
9.101                0.958828352     -56.7572648
9.102                0.958770187     -56.8367039
9.103                0.958711793     -56.9163358
9.104                0.958653169     -56.9961612
9.105                0.958594313     -57.0761807
9.106                0.958535224     -57.1563949
9.107                0.958475902     -57.2368044
9.108                0.958416344     -57.3174098
9.109                0.958356551     -57.3982119
9.11                  0.95829652     -57.4792112
9.111                 0.95823625     -57.5604084
9.112                 0.95817574     -57.6418041
9.113                 0.95811499      -57.723399
9.114                0.958053997     -57.8051936
9.115                0.957992761     -57.8871887
9.116                 0.95793128     -57.9693849
9.117                0.957869553     -58.0517828
9.118                0.957807579     -58.1343831
9.119                0.957745357     -58.2171864
9.12                 0.957682885     -58.3001935
9.121                0.957620162     -58.3834049
9.122                0.957557188     -58.4668214
9.123                 0.95749396     -58.5504436
9.124                0.957430477     -58.6342721
9.125                0.957366739     -58.7183076
9.126                0.957302744     -58.8025509
9.127                 0.95723849     -58.8870026
9.128                0.957173978     -58.9716633
9.129                0.957109204     -59.0565337
9.13                 0.957044169     -59.1416146
9.131                 0.95697887     -59.2269066
9.132                0.956913307     -59.3124104
9.133                0.956847477     -59.3981267
9.134                0.956781381     -59.4840561
9.135                0.956715017     -59.5701994
9.136                0.956648383     -59.6565573
9.137                0.956581478     -59.7431305
9.138                0.956514302     -59.8299197
9.139                0.956446851     -59.9169255
9.14                 0.956379127     -60.0041487
9.141                0.956311126       -60.09159
9.142                0.956242848     -60.1792502
9.143                0.956174291     -60.2671298
9.144                0.956105455     -60.3552298
9.145                0.956036337     -60.4435507
9.146                0.955966937     -60.5320932
9.147                0.955897253     -60.6208582
9.148                0.955827285     -60.7098464
9.149                 0.95575703     -60.7990584
9.15                 0.955686487     -60.8884951
9.151                0.955615656     -60.9781571
9.152                0.955544534     -61.0680452
9.153                0.955473121     -61.1581601
9.154                0.955401414     -61.2485026
9.155                0.955329414     -61.3390734
9.156                0.955257118     -61.4298733
9.157                0.955184525     -61.5209031
9.158                0.955111634     -61.6121634
9.159                0.955038444     -61.7036551
9.16                 0.954964953     -61.7953789
9.161                0.954891159     -61.8873356
9.162                0.954817062     -61.9795259
9.163                 0.95474266     -62.0719506
9.164                0.954667952     -62.1646105
9.165                0.954592937     -62.2575063
9.166                0.954517612     -62.3506389
9.167                0.954441978      -62.444009
9.168                0.954366031     -62.5376174
9.169                0.954289772     -62.6314649
9.17                 0.954213199     -62.7255523
9.171                0.954136309     -62.8198804
9.172                0.954059103     -62.9144499
9.173                0.953981578     -63.0092617
9.174                0.953903734     -63.1043165
9.175                0.953825569     -63.1996152
9.176                0.953747081     -63.2951586
9.177                0.953668269     -63.3909474
9.178                0.953589131     -63.4869826
9.179                0.953509668     -63.5832649
9.18                 0.953429876     -63.6797951
9.181                0.953349755      -63.776574
9.182                0.953269303     -63.8736026
9.183                0.953188519     -63.9708815
9.184                0.953107401     -64.0684117
9.185                0.953025948     -64.1661939
9.186                0.952944159      -64.264229
9.187                0.952862033     -64.3625179
9.188                0.952779567     -64.4610614
9.189                 0.95269676     -64.5598603
9.19                 0.952613612     -64.6589154
9.191                 0.95253012     -64.7582277
9.192                0.952446284      -64.857798
9.193                0.952362101     -64.9576271
9.194                0.952277571     -65.0577159
9.195                0.952192692     -65.1580652
9.196                0.952107462      -65.258676
9.197                0.952021881     -65.3595491
9.198                0.951935947     -65.4606854
9.199                0.951849657     -65.5620856
9.2                  0.951763012     -65.6637508
9.201                0.951676009     -65.7656819
9.202                0.951588648     -65.8678795
9.203                0.951500926     -65.9703448
9.204                0.951412842     -66.0730785
9.205                0.951324395     -66.1760816
9.206                0.951235583      -66.279355
9.207                0.951146406     -66.3828994
9.208                0.951056861      -66.486716
9.209                0.950966947     -66.5908055
9.21                 0.950876662     -66.6951689
9.211                0.950786006      -66.799807
9.212                0.950694976     -66.9047209
9.213                0.950603572     -67.0099113
9.214                0.950511792     -67.1153793
9.215                0.950419634     -67.2211258
9.216                0.950327097     -67.3271516
9.217                 0.95023418     -67.4334578
9.218                0.950140881     -67.5400452
9.219                0.950047198     -67.6469149
9.22                 0.949953131     -67.7540676
9.221                0.949858677     -67.8615044
9.222                0.949763836     -67.9692263
9.223                0.949668606     -68.0772341
9.224                0.949572985     -68.1855288
9.225                0.949476972     -68.2941114
9.226                0.949380565     -68.4029829
9.227                0.949283763     -68.5121442
9.228                0.949186565     -68.6215962
9.229                 0.94908897       -68.73134
9.23                 0.948990974     -68.8413765
9.231                0.948892578     -68.9517067
9.232                 0.94879378     -69.0623315
9.233                0.948694578      -69.173252
9.234                0.948594971     -69.2844691
9.235                0.948494957     -69.3959839
9.236                0.948394536     -69.5077972
9.237                0.948293704     -69.6199102
9.238                0.948192462     -69.7323237
9.239                0.948090807     -69.8450389
9.24                 0.947988738     -69.9580567
9.241                0.947886254     -70.0713781
9.242                0.947783353     -70.1850042
9.243                0.947680034     -70.2989358
9.244                0.947576295     -70.4131742
9.245                0.947472135     -70.5277202
9.246                0.947367552      -70.642575
9.247                0.947262546     -70.7577394
9.248                0.947157113     -70.8732147
9.249                0.947051254     -70.9890017
9.25                 0.946944966     -71.1051016
9.251                0.946838248     -71.2215154
9.252                0.946731098     -71.3382441
9.253                0.946623516     -71.4552887
9.254                  0.9465155     -71.5726504
9.255                0.946407048     -71.6903301
9.256                0.946298158      -71.808329
9.257                 0.94618883      -71.926648
9.258                0.946079062     -72.0452884
9.259                0.945968852      -72.164251
9.26                   0.9458582      -72.283537
9.261                0.945747103     -72.4031475
9.262                 0.94563556     -72.5230835
9.263                 0.94552357     -72.6433461
9.264                0.945411131     -72.7639365
9.265                0.945298242     -72.8848556
9.266                0.945184901     -73.0061046
9.267                0.945071107     -73.1276845
9.268                0.944956859     -73.2495966
9.269                0.944842155     -73.3718418
9.27                 0.944726994     -73.4944212
9.271                0.944611373      -73.617336
9.272                0.944495293     -73.7405873
9.273                0.944378751     -73.8641762
9.274                0.944261747     -73.9881038
9.275                0.944144278     -74.1123713
9.276                0.944026343     -74.2369796
9.277                 0.94390794     -74.3619301
9.278                 0.94378907     -74.4872237
9.279                0.943669729     -74.6128617
9.28                 0.943549917     -74.7388451
9.281                0.943429632     -74.8651751
9.282                0.943308873     -74.9918529
9.283                0.943187638     -75.1188795
9.284                0.943065927     -75.2462562
9.285                0.942943737     -75.3739841
9.286                0.942821068     -75.5020643
9.287                0.942697917      -75.630498
9.288                0.942574284     -75.7592863
9.289                0.942450168     -75.8884305
9.29                 0.942325566     -76.0179316
9.291                0.942200478     -76.1477909
9.292                0.942074902     -76.2780095
9.293                0.941948837     -76.4085886
9.294                0.941822281     -76.5395294
9.295                0.941695234      -76.670833
9.296                0.941567694     -76.8025007
9.297                0.941439659     -76.9345335
9.298                0.941311128     -77.0669328
9.299                0.941182101     -77.1996997
9.3                  0.941052575     -77.3328355
9.301                0.940922549     -77.4663412
9.302                0.940792023     -77.6002181
9.303                0.940660994     -77.7344674
9.304                0.940529462     -77.8690904
9.305                0.940397425     -78.0040882
9.306                0.940264883      -78.139462
9.307                0.940131833     -78.2752131
9.308                0.939998274     -78.4113426
9.309                0.939864206     -78.5478519
9.31                 0.939729627     -78.6847421
9.311                0.939594536     -78.8220144
9.312                0.939458931     -78.9596702
9.313                0.939322812     -79.0977105
9.314                0.939186178     -79.2361367
9.315                0.939049026       -79.37495
9.316                0.938911356     -79.5141517
9.317                0.938773167     -79.6537429
9.318                0.938634457      -79.793725
9.319                0.938495226     -79.9340991
9.32                 0.938355472     -80.0748666
9.321                0.938215194     -80.2160286
9.322                0.938074392     -80.3575865
9.323                0.937933063     -80.4995415
9.324                0.937791207     -80.6418949
9.325                0.937648823     -80.7846479
9.326                0.937505909     -80.9278019
9.327                0.937362465      -81.071358
9.328                 0.93721849     -81.2153175
9.329                0.937073982     -81.3596818
9.33                  0.93692894     -81.5044521
9.331                0.936783364     -81.6496296
9.332                0.936637252     -81.7952157
9.333                0.936490604     -81.9412117
9.334                0.936343418     -82.0876188
9.335                0.936195694     -82.2344384
9.336                 0.93604743     -82.3816716
9.337                0.935898626     -82.5293199
9.338                 0.93574928     -82.6773845
9.339                0.935599392     -82.8258667
9.34                 0.935448961     -82.9747678
9.341                0.935297986     -83.1240891
9.342                0.935146466     -83.2738319
9.343                  0.9349944     -83.4239976
9.344                0.934841787     -83.5745874
9.345                0.934688627     -83.7256026
9.346                0.934534918     -83.8770446
9.347                0.934380661     -84.0289147
9.348                0.934225853     -84.1812142
9.349                0.934070495     -84.3339443
9.35                 0.933914586     -84.4871065
9.351                0.933758124     -84.6407021
9.352                 0.93360111     -84.7947323
9.353                0.933443541     -84.9491985
9.354                0.933285419      -85.104102
9.355                0.933126742     -85.2594442
9.356                0.932967509     -85.4152264
9.357                 0.93280772     -85.5714498
9.358                0.932647374      -85.728116
9.359                0.932486471     -85.8852261
9.36                  0.93232501     -86.0427815
9.361                 0.93216299     -86.2007836
9.362                0.932000411     -86.3592336
9.363                0.931837273      -86.518133
9.364                0.931673575     -86.6774831
9.365                0.931509316     -86.8372852
9.366                0.931344496     -86.9975406
9.367                0.931179115     -87.1582507
9.368                0.931013171     -87.3194169
9.369                0.930846666     -87.4810404
9.37                 0.930679598     -87.6431227
9.371                0.930511968     -87.8056651
9.372                0.930343774     -87.9686689
9.373                0.930175016     -88.1321355
9.374                0.930005695     -88.2960662
9.375                 0.92983581     -88.4604624
9.376                 0.92966536     -88.6253254
9.377                0.929494347     -88.7906565
9.378                0.929322768     -88.9564572
9.379                0.929150625     -89.1227288
9.38                 0.928977917     -89.2894726
9.381                0.928804644       -89.45669
9.382                0.928630805     -89.6243824
9.383                0.928456402      -89.792551
9.384                0.928281434     -89.9611972
9.385                0.928105901     -90.1303225
9.386                0.927929802      -90.299928
9.387                0.927753139     -90.4700153
9.388                0.927575911     -90.6405856
9.389                0.927398118     -90.8116403
9.39                  0.92721976     -90.9831808
9.391                0.927040838     -91.1552083
9.392                0.926861352     -91.3277243
9.393                0.926681302       -91.50073
9.394                0.926500689     -91.6742269
9.395                0.926319512     -91.8482163
9.396                0.926137772     -92.0226996
