! TOUCHSTONE file generated by CST DESIGN STUDIO
! Date and time: Tue Feb  4 16:12:17 2025
! Project name: C:\Work\MatlabApps\UnitCellOptimizationMatlab\CST\unitcell.cst
! Tree item: Tasks\Sweep1\SPara1\S-Parameters
! Header version: 2024
! Port assignment regex: !\s*Touchstone port\s*([0-9]+)\s*=\s*(CST MWS port|CST DES external port|CST DES block port)\s*(.+)\s* \(\"(.*)\"\)(\s*mode\s*([0-9]+))?.*
! Touchstone port assignment:
! Touchstone port 1 = CST DES external port 1 ("")
# GHz S MA R 50
9                    0.934159697     -83.4933518
9.001                0.933956454     -83.6328517
9.002                0.933752835     -83.7727343
9.003                0.933548838     -83.9130007
9.004                0.933344465     -84.0536523
9.005                0.933139716     -84.1946902
9.006                0.932934589     -84.3361157
9.007                0.932729086     -84.4779302
9.008                0.932523206     -84.6201347
9.009                0.932316949     -84.7627306
9.01                 0.932110316     -84.9057192
9.011                0.931903305     -85.0491016
9.012                0.931695918     -85.1928792
9.013                0.931488154     -85.3370532
9.014                0.931280013     -85.4816249
9.015                0.931071496     -85.6265956
9.016                0.930862602     -85.7719665
9.017                0.930653332     -85.9177389
9.018                0.930443686     -86.0639141
9.019                0.930233663     -86.2104933
9.02                 0.930023265     -86.3574778
9.021                0.929812491      -86.504869
9.022                0.929601342     -86.6526681
9.023                0.929389817     -86.8008763
9.024                0.929177918      -86.949495
9.025                0.928965643     -87.0985255
9.026                0.928752994      -87.247969
9.027                0.928539971     -87.3978269
9.028                0.928326574     -87.5481004
9.029                0.928112804     -87.6987909
9.03                 0.927898661     -87.8498996
9.031                0.927684145     -88.0014279
9.032                0.927469256     -88.1533769
9.033                0.927253996     -88.3057482
9.034                0.927038364     -88.4585429
9.035                0.926822361     -88.6117623
9.036                0.926605988     -88.7654078
9.037                0.926389244     -88.9194807
9.038                0.926172132     -89.0739823
9.039                 0.92595465     -89.2289139
9.04                   0.9257368     -89.3842768
9.041                0.925518583     -89.5400723
9.042                0.925299998     -89.6963018
9.043                0.925081047     -89.8529666
9.044                0.924861731     -90.0100679
9.045                0.924642049     -90.1676072
9.046                0.924422003     -90.3255857
9.047                0.924201594     -90.4840048
9.048                0.923980821     -90.6428657
9.049                0.923759687     -90.8021699
9.05                 0.923538192     -90.9619185
9.051                0.923316336     -91.1221131
9.052                0.923094121     -91.2827548
9.053                0.922871548      -91.443845
9.054                0.922648617     -91.6053851
9.055                0.922425329     -91.7673764
9.056                0.922201686     -91.9298201
9.057                0.921977688     -92.0927177
9.058                0.921753337     -92.2560705
9.059                0.921528634     -92.4198797
9.06                 0.921303579     -92.5841468
9.061                0.921078173     -92.7488731
9.062                0.920852419     -92.9140598
9.063                0.920626317     -93.0797084
9.064                0.920399868     -93.2458201
9.065                0.920173074     -93.4123963
9.066                0.919945936     -93.5794383
9.067                0.919718455     -93.7469475
9.068                0.919490633     -93.9149252
9.069                0.919262471     -94.0833727
9.07                  0.91903397     -94.2522913
9.071                0.918805132     -94.4216825
9.072                0.918575959     -94.5915474
9.073                0.918346451     -94.7618875
9.074                 0.91811661     -94.9327041
9.075                0.917886439     -95.1039985
9.076                0.917655938      -95.275772
9.077                0.917425109     -95.4480259
9.078                0.917193955     -95.6207617
9.079                0.916962476     -95.7939805
9.08                 0.916730674     -95.9676838
9.081                0.916498552     -96.1418729
9.082                 0.91626611      -96.316549
9.083                0.916033352     -96.4917136
9.084                0.915800278     -96.6673679
9.085                0.915566891     -96.8435132
9.086                0.915333193     -97.0201509
9.087                0.915099185     -97.1972822
9.088                0.914864871     -97.3749085
9.089                0.914630251     -97.5530312
9.09                 0.914395328     -97.7316514
9.091                0.914160105     -97.9107706
9.092                0.913924583       -98.09039
9.093                0.913688764     -98.2705109
9.094                0.913452652     -98.4511346
9.095                0.913216248     -98.6322624
9.096                0.912979554     -98.8138957
9.097                0.912742574     -98.9960357
9.098                0.912505309     -99.1786837
9.099                0.912267763      -99.361841
9.1                  0.912029937     -99.5455088
9.101                0.911791834     -99.7296886
9.102                0.911553458     -99.9143814
9.103                 0.91131481     -100.099589
9.104                0.911075893     -100.285312
9.105                 0.91083671     -100.471552
9.106                0.910597264      -100.65831
9.107                0.910357558     -100.845587
9.108                0.910117594     -101.033386
9.109                0.909877377     -101.221706
9.11                 0.909636908      -101.41055
9.111                 0.90939619     -101.599918
9.112                0.909155227     -101.789812
9.113                0.908914023     -101.980233
9.114                0.908672579     -102.171182
9.115                  0.9084309      -102.36266
9.116                0.908188988     -102.554669
9.117                0.907946848      -102.74721
9.118                0.907704482     -102.940284
9.119                0.907461894     -103.133893
9.12                 0.907219087     -103.328037
9.121                0.906976065     -103.522717
9.122                0.906732831     -103.717936
9.123                 0.90648939     -103.913694
9.124                0.906245745     -104.109992
9.125                0.906001899     -104.306831
9.126                0.905757857     -104.504213
9.127                0.905513622     -104.702139
9.128                0.905269198      -104.90061
9.129                0.905024589     -105.099626
9.13                   0.9047798     -105.299191
9.131                0.904534834     -105.499303
9.132                0.904289695     -105.699965
9.133                0.904044388     -105.901178
9.134                0.903798917     -106.102942
9.135                0.903553286     -106.305259
9.136                0.903307499     -106.508131
9.137                0.903061562     -106.711557
9.138                0.902815477     -106.915539
9.139                0.902569251     -107.120079
9.14                 0.902322888     -107.325177
9.141                0.902076391     -107.530834
9.142                0.901829767     -107.737052
9.143                0.901583019     -107.943831
9.144                0.901336153     -108.151173
9.145                0.901089173     -108.359079
9.146                0.900842084     -108.567548
9.147                0.900594892     -108.776584
9.148                0.900347601     -108.986186
9.149                0.900100217     -109.196356
9.15                 0.899852744     -109.407094
9.151                0.899605188     -109.618401
9.152                0.899357555      -109.83028
9.153                0.899109849     -110.042729
9.154                0.898862077     -110.255751
9.155                0.898614243     -110.469347
9.156                0.898366353     -110.683516
9.157                0.898118413     -110.898261
9.158                0.897870429     -111.113582
9.159                0.897622405      -111.32948
9.16                 0.897374349     -111.545955
9.161                0.897126266     -111.763009
9.162                0.896878162     -111.980643
9.163                0.896630042     -112.198857
9.164                0.896381914     -112.417653
9.165                0.896133782      -112.63703
9.166                0.895885654     -112.856991
9.167                0.895637536     -113.077534
9.168                0.895389433     -113.298663
9.169                0.895141353     -113.520376
9.17                 0.894893302     -113.742676
9.171                0.894645286     -113.965562
9.172                0.894397312     -114.189035
9.173                0.894149387     -114.413097
9.174                0.893901517     -114.637747
9.175                 0.89365371     -114.862987
9.176                0.893405971     -115.088817
9.177                0.893158309     -115.315238
9.178                0.892910729      -115.54225
9.179                 0.89266324     -115.769855
9.18                 0.892415847     -115.998052
9.181                 0.89216856     -116.226842
9.182                0.891921384     -116.456226
9.183                0.891674327     -116.686205
9.184                0.891427396     -116.916779
9.185                  0.8911806     -117.147948
9.186                0.890933945     -117.379713
9.187                 0.89068744     -117.612075
9.188                0.890441091     -117.845033
9.189                0.890194907      -118.07859
9.19                 0.889948895     -118.312744
9.191                0.889703064     -118.547496
9.192                0.889457421     -118.782847
9.193                0.889211974     -119.018797
9.194                0.888966732     -119.255347
9.195                0.888721702     -119.492497
9.196                0.888476893     -119.730246
9.197                0.888232314     -119.968597
9.198                0.887987971     -120.207548
9.199                0.887743875       -120.4471
9.2                  0.887500034     -120.687254
9.201                0.887256455     -120.928009
9.202                0.887013148     -121.169366
9.203                0.886770122     -121.411325
9.204                0.886527385     -121.653886
9.205                0.886284946      -121.89705
9.206                0.886042813     -122.140816
9.207                0.885800997     -122.385184
9.208                0.885559506     -122.630156
9.209                0.885318349      -122.87573
9.21                 0.885077535     -123.121907
9.211                0.884837073     -123.368686
9.212                0.884596974     -123.616069
9.213                0.884357246     -123.864055
9.214                0.884117898     -124.112643
9.215                 0.88387894     -124.361834
9.216                0.883640383     -124.611628
9.217                0.883402234     -124.862024
9.218                0.883164505     -125.113023
9.219                0.882927204     -125.364624
9.22                 0.882690342     -125.616827
9.221                0.882453929     -125.869632
9.222                0.882217974     -126.123038
9.223                0.881982488     -126.377047
9.224                 0.88174748     -126.631656
9.225                0.881512961     -126.886866
9.226                 0.88127894     -127.142676
9.227                0.881045429     -127.399087
9.228                0.880812437     -127.656097
9.229                0.880579975     -127.913707
9.23                 0.880348053     -128.171916
9.231                0.880116682     -128.430723
9.232                0.879885872     -128.690128
9.233                0.879655634     -128.950131
9.234                0.879425978     -129.210731
9.235                0.879196916     -129.471927
9.236                0.878968457     -129.733719
9.237                0.878740613     -129.996106
9.238                0.878513394     -130.259087
9.239                0.878286812     -130.522662
9.24                 0.878060878     -130.786831
9.241                0.877835602     -131.051592
9.242                0.877610995     -131.316944
9.243                0.877387069     -131.582887
9.244                0.877163835      -131.84942
9.245                0.876941304     -132.116543
9.246                0.876719487     -132.384253
9.247                0.876498396     -132.652552
9.248                0.876278041     -132.921436
9.249                0.876058435     -133.190906
9.25                 0.875839588      -133.46096
9.251                0.875621512     -133.731598
9.252                0.875404219     -134.002818
9.253                 0.87518772     -134.274619
9.254                0.874972027     -134.547001
9.255                0.874757152     -134.819961
9.256                0.874543105       -135.0935
9.257                0.874329899     -135.367614
9.258                0.874117545     -135.642305
9.259                0.873906055     -135.917569
9.26                 0.873695442     -136.193405
9.261                0.873485716     -136.469814
9.262                0.873276889     -136.746792
9.263                0.873068975     -137.024338
9.264                0.872861983     -137.302452
9.265                0.872655927     -137.581132
9.266                0.872450818     -137.860375
9.267                0.872246668     -138.140181
9.268                0.872043489     -138.420548
9.269                0.871841293     -138.701475
9.27                 0.871640093     -138.982959
9.271                  0.8714399     -139.264999
9.272                0.871240726     -139.547594
9.273                0.871042583     -139.830741
9.274                0.870845484     -140.114439
9.275                 0.87064944     -140.398686
9.276                0.870454464      -140.68348
9.277                0.870260567     -140.968819
9.278                0.870067763     -141.254701
9.279                0.869876062     -141.541125
9.28                 0.869685477     -141.828088
9.281                0.869496021     -142.115588
9.282                0.869307705     -142.403624
9.283                0.869120541     -142.692193
9.284                0.868934542     -142.981293
9.285                 0.86874972     -143.270921
9.286                0.868566086     -143.561077
9.287                0.868383653     -143.851756
9.288                0.868202433     -144.142958
9.289                0.868022438      -144.43468
9.29                 0.867843681     -144.726919
9.291                0.867666172     -145.019673
9.292                0.867489925      -145.31294
9.293                0.867314951     -145.606716
9.294                0.867141262     -145.901001
9.295                 0.86696887     -146.195791
9.296                0.866797788     -146.491083
9.297                0.866628026     -146.786875
9.298                0.866459598     -147.083165
9.299                0.866292514      -147.37995
9.3                  0.866126787     -147.677226
9.301                0.865962428     -147.974991
9.302                0.865799449     -148.273243
9.303                0.865637863     -148.571979
9.304                 0.86547768     -148.871196
9.305                0.865318912      -149.17089
9.306                0.865161572     -149.471059
9.307                0.865005669       -149.7717
9.308                0.864851217     -150.072811
9.309                0.864698226     -150.374387
9.31                 0.864546708     -150.676426
9.311                0.864396674     -150.978925
9.312                0.864248135      -151.28188
9.313                0.864101104     -151.585289
9.314                 0.86395559     -151.889148
9.315                0.863811605     -152.193454
9.316                0.863669161     -152.498204
9.317                0.863528267     -152.803395
9.318                0.863388936     -153.109022
9.319                0.863251177     -153.415083
9.32                 0.863115003     -153.721574
9.321                0.862980423     -154.028492
9.322                0.862847448     -154.335833
9.323                0.862716088     -154.643594
9.324                0.862586355     -154.951771
9.325                0.862458258     -155.260361
9.326                0.862331809      -155.56936
9.327                0.862207016     -155.878764
9.328                0.862083891     -156.188569
9.329                0.861962443     -156.498772
9.33                 0.861842683      -156.80937
9.331                 0.86172462     -157.120357
9.332                0.861608264     -157.431731
9.333                0.861493624     -157.743488
9.334                0.861380711     -158.055623
9.335                0.861269534     -158.368133
9.336                0.861160103     -158.681014
9.337                0.861052425     -158.994261
9.338                0.860946512     -159.307872
9.339                0.860842371     -159.621841
9.34                 0.860740012     -159.936164
9.341                0.860639443     -160.250838
9.342                0.860540674     -160.565858
9.343                0.860443713     -160.881221
9.344                0.860348568     -161.196921
9.345                0.860255249     -161.512955
9.346                0.860163762     -161.829318
9.347                0.860074116     -162.146006
9.348                 0.85998632     -162.463015
9.349                0.859900381     -162.780341
9.35                 0.859816307     -163.097978
9.351                0.859734105     -163.415923
9.352                0.859653783     -163.734171
9.353                0.859575349     -164.052717
9.354                0.859498809     -164.371558
9.355                0.859424171     -164.690688
9.356                0.859351442     -165.010104
9.357                0.859280628     -165.329799
9.358                0.859211736     -165.649771
9.359                0.859144773     -165.970014
9.36                 0.859079745     -166.290523
9.361                0.859016658     -166.611294
9.362                0.858955518     -166.932322
9.363                0.858896332     -167.253603
9.364                0.858839104     -167.575131
9.365                0.858783841     -167.896902
9.366                0.858730548     -168.218911
9.367                0.858679231     -168.541154
9.368                0.858629894     -168.863624
9.369                0.858582543     -169.186318
9.37                 0.858537182     -169.509231
9.371                0.858493816     -169.832358
9.372                 0.85845245     -170.155693
9.373                0.858413088     -170.479232
9.374                0.858375734      -170.80297
9.375                0.858340392     -171.126902
9.376                0.858307065     -171.451022
9.377                0.858275759     -171.775326
9.378                0.858246476     -172.099809
9.379                0.858219219     -172.424466
9.38                 0.858193992     -172.749291
9.381                0.858170798      -173.07428
9.382                 0.85814964     -173.399427
9.383                0.858130519     -173.724728
9.384                0.858113439     -174.050176
9.385                0.858098403     -174.375768
9.386                0.858085411     -174.701497
9.387                0.858074466     -175.027358
9.388                0.858065571     -175.353348
9.389                0.858058726     -175.679459
9.39                 0.858053932     -176.005687
9.391                0.858051192     -176.332027
9.392                0.858050506     -176.658474
9.393                0.858051875     -176.985021
9.394                  0.8580553     -177.311665
9.395                0.858060781     -177.638399
9.396                0.858068318     -177.965219
