! TOUCHSTONE file generated by CST DESIGN STUDIO
! Date and time: Tue Feb  4 16:12:20 2025
! Project name: C:\Work\MatlabApps\UnitCellOptimizationMatlab\CST\unitcell.cst
! Tree item: Tasks\Sweep1\SPara1\S-Parameters
! Header version: 2024
! Port assignment regex: !\s*Touchstone port\s*([0-9]+)\s*=\s*(CST MWS port|CST DES external port|CST DES block port)\s*(.+)\s* \(\"(.*)\"\)(\s*mode\s*([0-9]+))?.*
! Touchstone port assignment:
! Touchstone port 1 = CST DES external port 1 ("")
# GHz S MA R 50
9                    0.941686257     -73.8763525
9.001                0.941533138     -73.9906267
9.002                0.941379731     -74.1052044
9.003                0.941226033     -74.2200868
9.004                0.941072044     -74.3352749
9.005                0.940917763     -74.4507696
9.006                0.940763189     -74.5665721
9.007                0.940608322     -74.6826834
9.008                0.940453161     -74.7991046
9.009                0.940297704     -74.9158366
9.01                 0.940141951     -75.0328806
9.011                0.939985902     -75.1502377
9.012                0.939829554     -75.2679088
9.013                0.939672908      -75.385895
9.014                0.939515963     -75.5041975
9.015                0.939358718     -75.6228173
9.016                0.939201172     -75.7417555
9.017                0.939043324     -75.8610131
9.018                0.938885173     -75.9805913
9.019                0.938726719     -76.1004911
9.02                 0.938567961     -76.2207137
9.021                0.938408898       -76.34126
9.022                0.938249529     -76.4621312
9.023                0.938089854     -76.5833285
9.024                0.937929872     -76.7048529
9.025                0.937769581     -76.8267054
9.026                0.937608982     -76.9488873
9.027                0.937448073     -77.0713997
9.028                0.937286854     -77.1942436
9.029                0.937125324     -77.3174201
9.03                 0.936963481     -77.4409305
9.031                0.936801327     -77.5647758
9.032                0.936638859     -77.6889571
9.033                0.936476077     -77.8134756
9.034                 0.93631298     -77.9383324
9.035                0.936149567     -78.0635286
9.036                0.935985839     -78.1890655
9.037                0.935821793      -78.314944
9.038                 0.93565743     -78.4411654
9.039                0.935492749     -78.5677309
9.04                 0.935327748     -78.6946415
9.041                0.935162428     -78.8218985
9.042                0.934996787     -78.9495029
9.043                0.934830825      -79.077456
9.044                0.934664542     -79.2057589
9.045                0.934497936     -79.3344128
9.046                0.934331007     -79.4634189
9.047                0.934163754     -79.5927782
9.048                0.933996177     -79.7224921
9.049                0.933828275     -79.8525617
9.05                 0.933660047     -79.9829881
9.051                0.933491493     -80.1137725
9.052                0.933322613     -80.2449162
9.053                0.933153405     -80.3764203
9.054                0.932983868      -80.508286
9.055                0.932814003     -80.6405146
9.056                0.932643809     -80.7731072
9.057                0.932473285     -80.9060649
9.058                0.932302431     -81.0393891
9.059                0.932131246     -81.1730809
9.06                 0.931959729     -81.3071416
9.061                0.931787881     -81.4415723
9.062                  0.9316157     -81.5763743
9.063                0.931443186     -81.7115488
9.064                0.931270338      -81.847097
9.065                0.931097157     -81.9830201
9.066                0.930923641     -82.1193194
9.067                 0.93074979      -82.255996
9.068                0.930575603     -82.3930513
9.069                0.930401081     -82.5304865
9.07                 0.930226222     -82.6683027
9.071                0.930051026     -82.8065013
9.072                0.929875494     -82.9450835
9.073                0.929699623     -83.0840504
9.074                0.929523415     -83.2234035
9.075                0.929346868     -83.3631439
9.076                0.929169982     -83.5032728
9.077                0.928992758     -83.6437916
9.078                0.928815193     -83.7847015
9.079                0.928637289     -83.9260037
9.08                 0.928459045     -84.0676996
9.081                 0.92828046     -84.2097903
9.082                0.928101535     -84.3522772
9.083                0.927922268     -84.4951615
9.084                 0.92774266     -84.6384444
9.085                0.927562711     -84.7821274
9.086                0.927382419     -84.9262115
9.087                0.927201786     -85.0706982
9.088                 0.92702081     -85.2155887
9.089                0.926839491     -85.3608843
9.09                  0.92665783     -85.5065862
9.091                0.926475826     -85.6526958
9.092                0.926293479     -85.7992143
9.093                0.926110789     -85.9461431
9.094                0.925927755     -86.0934834
9.095                0.925744378     -86.2412365
9.096                0.925560658     -86.3894037
9.097                0.925376594     -86.5379864
9.098                0.925192186     -86.6869857
9.099                0.925007434     -86.8364031
9.1                  0.924822339     -86.9862399
9.101                0.924636899     -87.1364972
9.102                0.924451116     -87.2871766
9.103                 0.92426499     -87.4382791
9.104                0.924078519     -87.5898063
9.105                0.923891705     -87.7417593
9.106                0.923704547     -87.8941395
9.107                0.923517046     -88.0469482
9.108                0.923329201     -88.2001867
9.109                0.923141013     -88.3538564
9.11                 0.922952482     -88.5079586
9.111                0.922763608     -88.6624945
9.112                0.922574391     -88.8174656
9.113                0.922384832     -88.9728731
9.114                 0.92219493     -89.1287183
9.115                0.922004686     -89.2850026
9.116                0.921814101     -89.4417274
9.117                0.921623174     -89.5988939
9.118                0.921431906     -89.7565035
9.119                0.921240297     -89.9145575
9.12                 0.921048347     -90.0730572
9.121                0.920856057      -90.232004
9.122                0.920663428     -90.3913992
9.123                0.920470459     -90.5512442
9.124                0.920277152     -90.7115402
9.125                0.920083506     -90.8722886
9.126                0.919889522     -91.0334908
9.127                0.919695201     -91.1951481
9.128                0.919500543     -91.3572617
9.129                0.919305549     -91.5198332
9.13                 0.919110219     -91.6828637
9.131                0.918914554     -91.8463547
9.132                0.918718555     -92.0103074
9.133                0.918522222     -92.1747233
9.134                0.918325557     -92.3396036
9.135                0.918128559     -92.5049497
9.136                0.917931229      -92.670763
9.137                0.917733569     -92.8370447
9.138                0.917535578     -93.0037962
9.139                0.917337259     -93.1710189
9.14                 0.917138612      -93.338714
9.141                0.916939637      -93.506883
9.142                0.916740335     -93.6755271
9.143                0.916540709     -93.8446477
9.144                0.916340757     -94.0142462
9.145                0.916140483     -94.1843239
9.146                0.915939885      -94.354882
9.147                0.915738967      -94.525922
9.148                0.915537728     -94.6974451
9.149                 0.91533617     -94.8694528
9.15                 0.915134294     -95.0419463
9.151                0.914932101      -95.214927
9.152                0.914729593     -95.3883962
9.153                 0.91452677     -95.5623552
9.154                0.914323635     -95.7368053
9.155                0.914120187      -95.911748
9.156                 0.91391643     -96.0871844
9.157                0.913712363      -96.263116
9.158                0.913507989      -96.439544
9.159                0.913303309     -96.6164697
9.16                 0.913098324     -96.7938946
9.161                0.912893036     -96.9718199
9.162                0.912687447     -97.1502468
9.163                0.912481558     -97.3291768
9.164                0.912275371     -97.5086111
9.165                0.912068887     -97.6885511
9.166                0.911862108      -97.868998
9.167                0.911655037     -98.0499531
9.168                0.911447674     -98.2314178
9.169                0.911240021     -98.4133933
9.17                 0.911032081     -98.5958809
9.171                0.910823855      -98.778882
9.172                0.910615346     -98.9623977
9.173                0.910406555     -99.1464295
9.174                0.910197483     -99.3309785
9.175                0.909988135     -99.5160461
9.176                 0.90977851     -99.7016335
9.177                0.909568613      -99.887742
9.178                0.909358444     -100.074373
9.179                0.909148006     -100.261527
9.18                 0.908937301     -100.449207
9.181                0.908726332     -100.637412
9.182                  0.9085151     -100.826145
9.183                0.908303609     -101.015407
9.184                0.908091861     -101.205198
9.185                0.907879858     -101.395521
9.186                0.907667603     -101.586376
9.187                0.907455098     -101.777764
9.188                0.907242346     -101.969687
9.189                 0.90702935     -102.162147
9.19                 0.906816112     -102.355143
9.191                0.906602636     -102.548678
9.192                0.906388923     -102.742753
9.193                0.906174977     -102.937368
9.194                0.905960801     -103.132526
9.195                0.905746397     -103.328227
9.196                0.905531769     -103.524472
9.197                0.905316919     -103.721263
9.198                0.905101852       -103.9186
9.199                0.904886569     -104.116486
9.2                  0.904671075      -104.31492
9.201                0.904455371     -104.513905
9.202                0.904239463     -104.713441
9.203                0.904023352     -104.913529
9.204                0.903807043     -105.114172
9.205                0.903590539     -105.315369
9.206                0.903373843     -105.517121
9.207                0.903156959     -105.719431
9.208                 0.90293989     -105.922299
9.209                0.902722641     -106.125726
9.21                 0.902505214     -106.329713
9.211                0.902287614     -106.534262
9.212                0.902069845     -106.739373
9.213                 0.90185191     -106.945047
9.214                0.901633813     -107.151286
9.215                0.901415559      -107.35809
9.216                 0.90119715     -107.565461
9.217                0.900978592       -107.7734
9.218                0.900759889     -107.981907
9.219                0.900541045     -108.190984
9.22                 0.900322063     -108.400632
9.221                0.900102949     -108.610851
9.222                0.899883706     -108.821642
9.223                 0.89966434     -109.033007
9.224                0.899444855     -109.244947
9.225                0.899225254     -109.457462
9.226                0.899005544     -109.670553
9.227                0.898785727     -109.884222
9.228                0.898565811     -110.098469
9.229                0.898345798     -110.313295
9.23                 0.898125694     -110.528701
9.231                0.897905504     -110.744688
9.232                0.897685232     -110.961257
9.233                0.897464884     -111.178408
9.234                0.897244466     -111.396143
9.235                0.897023981     -111.614462
9.236                0.896803436     -111.833366
9.237                0.896582835     -112.052856
9.238                0.896362184     -112.272933
9.239                0.896141488     -112.493597
9.24                 0.895920753      -112.71485
9.241                0.895699984     -112.936692
9.242                0.895479187     -113.159123
9.243                0.895258368     -113.382145
9.244                0.895037532     -113.605758
9.245                0.894816685     -113.829963
9.246                0.894595832      -114.05476
9.247                0.894374981     -114.280151
9.248                0.894154136     -114.506136
9.249                0.893933304     -114.732715
9.25                 0.893712491     -114.959889
9.251                0.893491703     -115.187659
9.252                0.893270946     -115.416026
9.253                0.893050227      -115.64499
9.254                0.892829552     -115.874551
9.255                0.892608927      -116.10471
9.256                 0.89238836     -116.335468
9.257                0.892167855     -116.566825
9.258                0.891947421     -116.798781
9.259                0.891727063     -117.031338
9.26                 0.891506789     -117.264495
9.261                0.891286605     -117.498253
9.262                0.891066519     -117.732613
9.263                0.890846536     -117.967574
9.264                0.890626665     -118.203138
9.265                0.890406912     -118.439304
9.266                0.890187284     -118.676074
9.267                 0.88996779     -118.913447
9.268                0.889748435     -119.151423
9.269                0.889529227     -119.390003
9.27                 0.889310174     -119.629188
9.271                0.889091283     -119.868977
9.272                0.888872562      -120.10937
9.273                0.888654018     -120.350369
9.274                 0.88843566     -120.591972
9.275                0.888217494     -120.834182
9.276                0.887999529     -121.076996
9.277                0.887781772     -121.320416
9.278                0.887564231     -121.564442
9.279                0.887346915     -121.809074
9.28                 0.887129832     -122.054311
9.281                0.886912989     -122.300155
9.282                0.886696395     -122.546604
9.283                0.886480058      -122.79366
9.284                0.886263986     -123.041321
9.285                0.886048189     -123.289589
9.286                0.885832673     -123.538462
9.287                0.885617448     -123.787941
9.288                0.885402523     -124.038026
9.289                0.885187906     -124.288716
9.29                 0.884973606     -124.540012
9.291                0.884759631     -124.791913
9.292                 0.88454599     -125.044419
9.293                0.884332693     -125.297529
9.294                0.884119748     -125.551245
9.295                0.883907164     -125.805564
9.296                0.883694951     -126.060488
9.297                0.883483117     -126.316015
9.298                0.883271672     -126.572145
9.299                0.883060625     -126.828878
9.3                  0.882849985     -127.086214
9.301                0.882639762     -127.344152
9.302                0.882429965     -127.602691
9.303                0.882220603     -127.861832
9.304                0.882011687     -128.121573
9.305                0.881803226     -128.381914
9.306                0.881595228     -128.642855
9.307                0.881387706     -128.904394
9.308                0.881180667     -129.166532
9.309                0.880974121     -129.429267
9.31                  0.88076808       -129.6926
9.311                0.880562552     -129.956528
9.312                0.880357548     -130.221053
9.313                0.880153077     -130.486171
9.314                 0.87994915     -130.751884
9.315                0.879745777      -131.01819
9.316                0.879542968     -131.285088
9.317                0.879340733     -131.552578
9.318                0.879139083     -131.820658
9.319                0.878938028     -132.089328
9.32                 0.878737578     -132.358586
9.321                0.878537744     -132.628431
9.322                0.878338536     -132.898864
9.323                0.878139965     -133.169881
9.324                0.877942042     -133.441483
9.325                0.877744776     -133.713668
9.326                0.877548179     -133.986436
9.327                0.877352261     -134.259784
9.328                0.877157032     -134.533712
9.329                0.876962505     -134.808218
9.33                 0.876768689     -135.083301
9.331                0.876575596      -135.35896
9.332                0.876383236     -135.635194
9.333                 0.87619162     -135.912001
9.334                0.876000759     -136.189379
9.335                0.875810664     -136.467328
9.336                0.875621346     -136.745845
9.337                0.875432816     -137.024929
9.338                0.875245085     -137.304579
9.339                0.875058165     -137.584794
9.34                 0.874872066      -137.86557
9.341                0.874686799     -138.146908
9.342                0.874502376     -138.428804
9.343                0.874318807     -138.711258
9.344                0.874136105     -138.994268
9.345                 0.87395428     -139.277831
9.346                0.873773343     -139.561947
9.347                0.873593306     -139.846613
9.348                 0.87341418     -140.131827
9.349                0.873235976     -140.417587
9.35                 0.873058706     -140.703892
9.351                0.872882381     -140.990739
9.352                0.872707012     -141.278127
9.353                 0.87253261     -141.566053
9.354                0.872359188     -141.854515
9.355                0.872186755     -142.143511
9.356                0.872015324     -142.433039
9.357                0.871844906     -142.723097
9.358                0.871675513     -143.013682
9.359                0.871507155     -143.304793
9.36                 0.871339843     -143.596426
9.361                0.871173591      -143.88858
9.362                0.871008407     -144.181252
9.363                0.870844305     -144.474439
9.364                0.870681295      -144.76814
9.365                0.870519389     -145.062352
9.366                0.870358597     -145.357072
9.367                0.870198932     -145.652297
9.368                0.870040404     -145.948026
9.369                0.869883025     -146.244255
9.37                 0.869726806     -146.540981
9.371                0.869571758     -146.838203
9.372                0.869417893     -147.135917
9.373                0.869265221      -147.43412
9.374                0.869113753     -147.732811
9.375                0.868963502     -148.031985
9.376                0.868814477     -148.331639
9.377                0.868666691     -148.631772
9.378                0.868520153      -148.93238
9.379                0.868374876      -149.23346
9.38                 0.868230869     -149.535009
9.381                0.868088144     -149.837024
9.382                0.867946712     -150.139502
9.383                0.867806584     -150.442439
9.384                 0.86766777     -150.745833
9.385                0.867530281      -151.04968
9.386                0.867394128     -151.353977
9.387                0.867259322     -151.658721
9.388                0.867125873     -151.963908
9.389                0.866993791     -152.269535
9.39                 0.866863087     -152.575599
9.391                0.866733772     -152.882096
9.392                0.866605856     -153.189023
9.393                0.866479349     -153.496376
9.394                0.866354262     -153.804152
9.395                0.866230605     -154.112347
9.396                0.866108387     -154.420958
