! TOUCHSTONE file generated by CST DESIGN STUDIO
! Date and time: Tue Feb  4 16:12:22 2025
! Project name: C:\Work\MatlabApps\UnitCellOptimizationMatlab\CST\unitcell.cst
! Tree item: Tasks\Sweep1\SPara1\S-Parameters
! Header version: 2024
! Port assignment regex: !\s*Touchstone port\s*([0-9]+)\s*=\s*(CST MWS port|CST DES external port|CST DES block port)\s*(.+)\s* \(\"(.*)\"\)(\s*mode\s*([0-9]+))?.*
! Touchstone port assignment:
! Touchstone port 1 = CST DES external port 1 ("")
# GHz S MA R 50
9                    0.945565081      -69.295889
9.001                0.945435085      -69.399003
9.002                0.945304845     -69.5023843
9.003                 0.94517436     -69.6060336
9.004                 0.94504363     -69.7099521
9.005                0.944912653     -69.8141405
9.006                0.944781429     -69.9185998
9.007                0.944649956      -70.023331
9.008                0.944518233      -70.128335
9.009                 0.94438626     -70.2336127
9.01                 0.944254036     -70.3391651
9.011                0.944121559     -70.4449932
9.012                0.943988829     -70.5510977
9.013                0.943855845     -70.6574798
9.014                0.943722605     -70.7641404
9.015                0.943589109     -70.8710804
9.016                0.943455355     -70.9783008
9.017                0.943321343     -71.0858026
9.018                0.943187072     -71.1935867
9.019                0.943052541     -71.3016541
9.02                 0.942917749     -71.4100058
9.021                0.942782694     -71.5186427
9.022                0.942647376     -71.6275658
9.023                0.942511794     -71.7367762
9.024                0.942375947     -71.8462748
9.025                0.942239833     -71.9560625
9.026                0.942103453     -72.0661405
9.027                0.941966805     -72.1765096
9.028                0.941829887     -72.2871709
9.029                0.941692699     -72.3981253
9.03                 0.941555241      -72.509374
9.031                 0.94141751     -72.6209179
9.032                0.941279506     -72.7327579
9.033                0.941141229     -72.8448952
9.034                0.941002676     -72.9573307
9.035                0.940863848     -73.0700655
9.036                0.940724743     -73.1831006
9.037                0.940585359     -73.2964369
9.038                0.940445697     -73.4100757
9.039                0.940305756     -73.5240178
9.04                 0.940165533     -73.6382643
9.041                0.940025029     -73.7528162
9.042                0.939884241     -73.8676747
9.043                0.939743171     -73.9828407
9.044                0.939601815     -74.0983153
9.045                0.939460174     -74.2140995
9.046                0.939318247     -74.3301945
9.047                0.939176032     -74.4466012
9.048                0.939033528     -74.5633207
9.049                0.938890735     -74.6803541
9.05                 0.938747651     -74.7977025
9.051                0.938604276     -74.9153669
9.052                0.938460609     -75.0333484
9.053                0.938316649     -75.1516481
9.054                0.938172394      -75.270267
9.055                0.938027844     -75.3892063
9.056                0.937882998     -75.5084671
9.057                0.937737855     -75.6280503
9.058                0.937592414     -75.7479572
9.059                0.937446674     -75.8681888
9.06                 0.937300634     -75.9887462
9.061                0.937154294     -76.1096306
9.062                0.937007652     -76.2308429
9.063                0.936860707     -76.3523844
9.064                0.936713458     -76.4742562
9.065                0.936565905     -76.5964593
9.066                0.936418047     -76.7189949
9.067                0.936269883     -76.8418641
9.068                0.936121411      -76.965068
9.069                0.935972631     -77.0886078
9.07                 0.935823542     -77.2124845
9.071                0.935674143     -77.3366994
9.072                0.935524434     -77.4612536
9.073                0.935374413     -77.5861482
9.074                0.935224079     -77.7113843
9.075                0.935073432     -77.8369631
9.076                0.934922471     -77.9628857
9.077                0.934771194     -78.0891533
9.078                0.934619602     -78.2157671
9.079                0.934467693     -78.3427282
9.08                 0.934315466     -78.4700377
9.081                 0.93416292     -78.5976969
9.082                0.934010055     -78.7257069
9.083                 0.93385687     -78.8540688
9.084                0.933703363     -78.9827839
9.085                0.933549535     -79.1118533
9.086                0.933395384     -79.2412783
9.087                 0.93324091     -79.3710599
9.088                0.933086111     -79.5011993
9.089                0.932930987     -79.6316978
9.09                 0.932775537     -79.7625566
9.091                0.932619761     -79.8937768
9.092                0.932463657     -80.0253597
9.093                0.932307224     -80.1573064
9.094                0.932150463     -80.2896181
9.095                0.931993372     -80.4222961
9.096                 0.93183595     -80.5553415
9.097                0.931678197     -80.6887556
9.098                0.931520113     -80.8225396
9.099                0.931361695     -80.9566946
9.1                  0.931202944      -81.091222
9.101                0.931043859     -81.2261229
9.102                0.930884438     -81.3613986
9.103                0.930724683     -81.4970502
9.104                0.930564591     -81.6330791
9.105                0.930404162     -81.7694865
9.106                0.930243395     -81.9062735
9.107                0.930082291     -82.0434414
9.108                0.929920847     -82.1809915
9.109                0.929759064      -82.318925
9.11                  0.92959694     -82.4572432
9.111                0.929434476     -82.5959473
9.112                0.929271671     -82.7350385
9.113                0.929108523     -82.8745181
9.114                0.928945033     -83.0143874
9.115                0.928781199     -83.1546476
9.116                0.928617022        -83.2953
9.117                0.928452501     -83.4363459
9.118                0.928287635     -83.5777864
9.119                0.928122423      -83.719623
9.12                 0.927956865     -83.8618567
9.121                0.927790961      -84.004489
9.122                 0.92762471     -84.1475211
9.123                0.927458112     -84.2909543
9.124                0.927291166     -84.4347898
9.125                0.927123871      -84.579029
9.126                0.926956228      -84.723673
9.127                0.926788235     -84.8687233
9.128                0.926619893     -85.0141811
9.129                0.926451201     -85.1600476
9.13                 0.926282158     -85.3063242
9.131                0.926112764     -85.4530122
9.132                 0.92594302     -85.6001129
9.133                0.925772923     -85.7476275
9.134                0.925602475     -85.8955574
9.135                0.925431674     -86.0439038
9.136                0.925260521     -86.1926681
9.137                0.925089015     -86.3418516
9.138                0.924917156     -86.4914555
9.139                0.924744944     -86.6414813
9.14                 0.924572378     -86.7919301
9.141                0.924399458     -86.9428033
9.142                0.924226184     -87.0941023
9.143                0.924052556     -87.2458283
9.144                0.923878573     -87.3979827
9.145                0.923704236     -87.5505668
9.146                0.923529544     -87.7035818
9.147                0.923354497     -87.8570292
9.148                0.923179095     -88.0109102
9.149                0.923003338     -88.1652261
9.15                 0.922827226     -88.3199784
9.151                0.922650758     -88.4751683
9.152                0.922473936     -88.6307971
9.153                0.922296758     -88.7868662
9.154                0.922119224     -88.9433769
9.155                0.921941336     -89.1003305
9.156                0.921763092     -89.2577284
9.157                0.921584493     -89.4155719
9.158                0.921405539     -89.5738623
9.159                 0.92122623      -89.732601
9.16                 0.921046566     -89.8917893
9.161                0.920866548     -90.0514286
9.162                0.920686175     -90.2115201
9.163                0.920505448     -90.3720653
9.164                0.920324366     -90.5330654
9.165                0.920142931     -90.6945217
9.166                0.919961142     -90.8564358
9.167                0.919778999     -91.0188088
9.168                0.919596504     -91.1816421
9.169                0.919413656     -91.3449371
9.17                 0.919230455      -91.508695
9.171                0.919046903     -91.6729173
9.172                0.918862999     -91.8376053
9.173                0.918678743     -92.0027603
9.174                0.918494137     -92.1683836
9.175                0.918309181     -92.3344767
9.176                0.918123875     -92.5010408
9.177                 0.91793822     -92.6680772
9.178                0.917752216     -92.8355874
9.179                0.917565864     -93.0035727
9.18                 0.917379165     -93.1720343
9.181                0.917192118     -93.3409737
9.182                0.917004726     -93.5103922
9.183                0.916816988     -93.6802911
9.184                0.916628906     -93.8506717
9.185                0.916440479     -94.0215355
9.186                0.916251709     -94.1928836
9.187                0.916062597     -94.3647175
9.188                0.915873143     -94.5370385
9.189                0.915683349     -94.7098479
9.19                 0.915493215     -94.8831471
9.191                0.915302742     -95.0569374
9.192                0.915111931     -95.2312201
9.193                0.914920783     -95.4059965
9.194                0.914729299      -95.581268
9.195                0.914537481     -95.7570358
9.196                0.914345328     -95.9333014
9.197                0.914152844     -96.1100661
9.198                0.913960027      -96.287331
9.199                0.913766881     -96.4650977
9.2                  0.913573405     -96.6433673
9.201                0.913379602     -96.8221412
9.202                0.913185472     -97.0014207
9.203                0.912991017     -97.1812072
9.204                0.912796238     -97.3615018
9.205                0.912601137      -97.542306
9.206                0.912405715      -97.723621
9.207                0.912209974     -97.9054481
9.208                0.912013914     -98.0877887
9.209                0.911817539     -98.2706439
9.21                 0.911620848     -98.4540152
9.211                0.911423844     -98.6379037
9.212                0.911226529     -98.8223108
9.213                0.911028904     -99.0072377
9.214                0.910830971     -99.1926858
9.215                0.910632731     -99.3786562
9.216                0.910434187     -99.5651503
9.217                0.910235341     -99.7521693
9.218                0.910036194     -99.9397145
9.219                0.909836748     -100.127787
9.22                 0.909637005     -100.316389
9.221                0.909436967      -100.50552
9.222                0.909236637     -100.695182
9.223                0.909036017     -100.885377
9.224                0.908835108     -101.076106
9.225                0.908633912     -101.267369
9.226                0.908432433     -101.459169
9.227                0.908230672     -101.651506
9.228                0.908028632     -101.844381
9.229                0.907826315     -102.037796
9.23                 0.907623724     -102.231753
9.231                 0.90742086     -102.426251
9.232                0.907217727     -102.621293
9.233                0.907014327     -102.816879
9.234                0.906810662     -103.013011
9.235                0.906606736      -103.20969
9.236                0.906402551     -103.406917
9.237                0.906198109     -103.604693
9.238                0.905993414      -103.80302
9.239                0.905788469     -104.001898
9.24                 0.905583276     -104.201329
9.241                0.905377838     -104.401313
9.242                0.905172158     -104.601853
9.243                 0.90496624     -104.802949
9.244                0.904760086     -105.004601
9.245                  0.9045537     -105.206813
9.246                0.904347085     -105.409583
9.247                0.904140243     -105.612914
9.248                0.903933179     -105.816807
9.249                0.903725896     -106.021263
9.25                 0.903518397     -106.226282
9.251                0.903310685     -106.431865
9.252                0.903102765     -106.638015
9.253                0.902894639     -106.844732
9.254                0.902686311     -107.052016
9.255                0.902477786      -107.25987
9.256                0.902269067     -107.468293
9.257                0.902060157     -107.677288
9.258                 0.90185106     -107.886854
9.259                0.901641781     -108.096993
9.26                 0.901432323     -108.307706
9.261                 0.90122269     -108.518995
9.262                0.901012887     -108.730858
9.263                0.900802917     -108.943299
9.264                0.900592786     -109.156318
9.265                0.900382496     -109.369915
9.266                0.900172052     -109.584092
9.267                0.899961459     -109.798849
9.268                0.899750722     -110.014187
9.269                0.899539844     -110.230108
9.27                  0.89932883     -110.446612
9.271                0.899117685       -110.6637
9.272                0.898906413     -110.881373
9.273                 0.89869502     -111.099631
9.274                 0.89848351     -111.318476
9.275                0.898271887     -111.537908
9.276                0.898060158     -111.757929
9.277                0.897848326     -111.978538
9.278                0.897636397     -112.199737
9.279                0.897424376     -112.421526
9.28                 0.897212268     -112.643906
9.281                0.897000079     -112.866878
9.282                0.896787813     -113.090443
9.283                0.896575476     -113.314601
9.284                0.896363073     -113.539353
9.285                0.896150611       -113.7647
9.286                0.895938094     -113.990642
9.287                0.895725528      -114.21718
9.288                0.895512919     -114.444314
9.289                0.895300272     -114.672046
9.29                 0.895087594     -114.900376
9.291                 0.89487489     -115.129303
9.292                0.894662166      -115.35883
9.293                0.894449429     -115.588956
9.294                0.894236683     -115.819683
9.295                0.894023936      -116.05101
9.296                0.893811194     -116.282937
9.297                0.893598462     -116.515467
9.298                0.893385748     -116.748598
9.299                0.893173058     -116.982332
9.3                  0.892960397     -117.216668
9.301                0.892747774     -117.451608
9.302                0.892535193     -117.687152
9.303                0.892322663     -117.923299
9.304                0.892110189     -118.160051
9.305                0.891897779     -118.397408
9.306                0.891685439      -118.63537
9.307                0.891473176     -118.873937
9.308                0.891260998      -119.11311
9.309                0.891048911     -119.352888
9.31                 0.890836923     -119.593273
9.311                 0.89062504     -119.834264
9.312                0.890413271     -120.075862
9.313                0.890201622     -120.318066
9.314                0.889990101     -120.560878
9.315                0.889778715     -120.804296
9.316                0.889567472     -121.048322
9.317                0.889356379     -121.292955
9.318                0.889145445     -121.538195
9.319                0.888934677     -121.784043
9.32                 0.888724082     -122.030498
9.321                0.888513669      -122.27756
9.322                0.888303445      -122.52523
9.323                0.888093419     -122.773507
9.324                0.887883599     -123.022392
9.325                0.887673993     -123.271884
9.326                0.887464608     -123.521983
9.327                0.887255454     -123.772689
9.328                0.887046538     -124.024002
9.329                 0.88683787     -124.275921
9.33                 0.886629457     -124.528447
9.331                0.886421308      -124.78158
9.332                0.886213432     -125.035318
9.333                0.886005837     -125.289662
9.334                0.885798532     -125.544612
9.335                0.885591526     -125.800166
9.336                0.885384827     -126.056325
9.337                0.885178446     -126.313089
9.338                 0.88497239     -126.570457
9.339                0.884766668     -126.828428
9.34                  0.88456129     -127.087002
9.341                0.884356265     -127.346179
9.342                0.884151603     -127.605958
9.343                0.883947311     -127.866339
9.344                0.883743401      -128.12732
9.345                 0.88353988     -128.388902
9.346                 0.88333676     -128.651084
9.347                0.883134048     -128.913865
9.348                0.882931755     -129.177244
9.349                 0.88272989     -129.441221
9.35                 0.882528464     -129.705796
9.351                0.882327485     -129.970966
9.352                0.882126964     -130.236732
9.353                 0.88192691     -130.503092
9.354                0.881727333     -130.770046
9.355                0.881528244     -131.037593
9.356                0.881329652     -131.305733
9.357                0.881131567     -131.574463
9.358                   0.880934     -131.843783
9.359                 0.88073696     -132.113693
9.36                 0.880540458      -132.38419
9.361                0.880344505     -132.655274
9.362                 0.88014911     -132.926945
9.363                0.879954283       -133.1992
9.364                0.879760036     -133.472039
9.365                0.879566378      -133.74546
9.366                 0.87937332     -134.019462
9.367                0.879180873     -134.294045
9.368                0.878989047     -134.569206
9.369                0.878797853     -134.844944
9.37                 0.878607301     -135.121259
9.371                0.878417402     -135.398148
9.372                0.878228167      -135.67561
9.373                0.878039607     -135.953644
9.374                0.877851732     -136.232249
9.375                0.877664554     -136.511422
9.376                0.877478083     -136.791163
9.377                0.877292329     -137.071469
9.378                0.877107305     -137.352339
9.379                0.876923021     -137.633771
9.38                 0.876739487     -137.915765
9.381                0.876556716     -138.198317
9.382                0.876374717     -138.481427
9.383                0.876193503     -138.765092
9.384                0.876013084      -139.04931
9.385                0.875833471     -139.334081
9.386                0.875654676     -139.619401
9.387                0.875476709      -139.90527
9.388                0.875299582     -140.191684
9.389                0.875123306     -140.478643
9.39                 0.874947892     -140.766143
9.391                0.874773352     -141.054184
9.392                0.874599696     -141.342762
9.393                0.874426937     -141.631876
9.394                0.874255084     -141.921523
9.395                 0.87408415     -142.211702
9.396                0.873914146      -142.50241
