! TOUCHSTONE file generated by CST DESIGN STUDIO
! Date and time: Wed Feb  5 13:35:22 2025
! Project name: C:\Work\MatlabApps\UnitCellOptimizationMatlab\CST\unitcell.cst
! Tree item: Tasks\Sweep1\SPara1\S-Parameters
! Header version: 2024
! Port assignment regex: !\s*Touchstone port\s*([0-9]+)\s*=\s*(CST MWS port|CST DES external port|CST DES block port)\s*(.+)\s* \(\"(.*)\"\)(\s*mode\s*([0-9]+))?.*
! Touchstone port assignment:
! Touchstone port 1 = CST DES external port 1 ("")
# GHz S MA R 50
9                    0.953468994      -65.094042
9.001                 0.95338063     -65.1945765
9.002                0.953291737     -65.2953761
9.003                0.953202313     -65.3964415
9.004                0.953112354     -65.4977736
9.005                 0.95302186     -65.5993734
9.006                0.952930828     -65.7012418
9.007                0.952839256     -65.8033795
9.008                0.952747143     -65.9057876
9.009                0.952654486      -66.008467
9.01                 0.952561283     -66.1114185
9.011                0.952467532     -66.2146431
9.012                0.952373232     -66.3181416
9.013                 0.95227838     -66.4219151
9.014                0.952182974     -66.5259644
9.015                0.952087012     -66.6302904
9.016                0.951990492     -66.7348941
9.017                0.951893413     -66.8397764
9.018                0.951795771     -66.9449383
9.019                0.951697565     -67.0503806
9.02                 0.951598794     -67.1561044
9.021                0.951499454     -67.2621105
9.022                0.951399544        -67.3684
9.023                0.951299061     -67.4749737
9.024                0.951198005     -67.5818327
9.025                0.951096371     -67.6889778
9.026                 0.95099416     -67.7964101
9.027                0.950891368     -67.9041305
9.028                0.950787993       -68.01214
9.029                0.950684033     -68.1204395
9.03                 0.950579487     -68.2290301
9.031                0.950474352     -68.3379127
9.032                0.950368625     -68.4470883
9.033                0.950262306     -68.5565579
9.034                0.950155391     -68.6663224
9.035                0.950047879     -68.7763829
9.036                0.949939768     -68.8867404
9.037                0.949831054     -68.9973958
9.038                0.949721738     -69.1083502
9.039                0.949611815     -69.2196046
9.04                 0.949501284       -69.33116
9.041                0.949390143     -69.4430173
9.042                0.949278391     -69.5551777
9.043                0.949166023     -69.6676421
9.044                0.949053039     -69.7804116
9.045                0.948939437     -69.8934872
9.046                0.948825214     -70.0068699
9.047                0.948710367     -70.1205607
9.048                0.948594896     -70.2345607
9.049                0.948478797      -70.348871
9.05                 0.948362069     -70.4634926
9.051                 0.94824471     -70.5784265
9.052                0.948126717     -70.6936738
9.053                0.948008088     -70.8092355
9.054                 0.94788882     -70.9251128
9.055                0.947768913     -71.0413066
9.056                0.947648363      -71.157818
9.057                0.947527169     -71.2746481
9.058                0.947405328     -71.3917981
9.059                0.947282838     -71.5092688
9.06                 0.947159697     -71.6270615
9.061                0.947035903     -71.7451773
9.062                0.946911453     -71.8636171
9.063                0.946786346     -71.9823822
9.064                0.946660578     -72.1014735
9.065                0.946534149     -72.2208923
9.066                0.946407056     -72.3406395
9.067                0.946279296     -72.4607164
9.068                0.946150868     -72.5811239
9.069                0.946021769     -72.7018633
9.07                 0.945891997     -72.8229357
9.071                 0.94576155     -72.9443421
9.072                0.945630426     -73.0660837
9.073                0.945498622     -73.1881616
9.074                0.945366137     -73.3105769
9.075                0.945232967     -73.4333309
9.076                0.945099112     -73.5564245
9.077                0.944964568     -73.6798591
9.078                0.944829334     -73.8036356
9.079                0.944693407     -73.9277553
9.08                 0.944556786     -74.0522193
9.081                0.944419467     -74.1770287
9.082                0.944281449     -74.3021848
9.083                 0.94414273     -74.4276887
9.084                0.944003308     -74.5535415
9.085                0.943863179     -74.6797445
9.086                0.943722343     -74.8062987
9.087                0.943580796     -74.9332054
9.088                0.943438537     -75.0604658
9.089                0.943295564      -75.188081
9.09                 0.943151874     -75.3160522
9.091                0.943007465     -75.4443807
9.092                0.942862335     -75.5730675
9.093                0.942716482      -75.702114
9.094                0.942569904     -75.8315213
9.095                0.942422598     -75.9612906
9.096                0.942274562     -76.0914231
9.097                0.942125795     -76.2219201
9.098                0.941976293     -76.3527827
9.099                0.941826056     -76.4840122
9.1                   0.94167508     -76.6156098
9.101                0.941523364     -76.7475767
9.102                0.941370905     -76.8799141
9.103                0.941217701     -77.0126233
9.104                 0.94106375     -77.1457056
9.105                0.940909051     -77.2791621
9.106                  0.9407536     -77.4129941
9.107                0.940597396     -77.5472028
9.108                0.940440437     -77.6817895
9.109                 0.94028272     -77.8167555
9.11                 0.940124244      -77.952102
9.111                0.939965006     -78.0878302
9.112                0.939805004     -78.2239415
9.113                0.939644237     -78.3604371
9.114                0.939482701     -78.4973182
9.115                0.939320395     -78.6345861
9.116                0.939157318     -78.7722422
9.117                0.938993466     -78.9102877
9.118                0.938828838     -79.0487238
9.119                0.938663431     -79.1875519
9.12                 0.938497245     -79.3267732
9.121                0.938330276      -79.466389
9.122                0.938162522     -79.6064007
9.123                0.937993982     -79.7468096
9.124                0.937824654     -79.8876168
9.125                0.937654536     -80.0288238
9.126                0.937483625     -80.1704318
9.127                 0.93731192     -80.3124422
9.128                0.937139418     -80.4548563
9.129                0.936966118     -80.5976753
9.13                 0.936792018     -80.7409007
9.131                0.936617115     -80.8845336
9.132                0.936441409     -81.0285755
9.133                0.936264896     -81.1730277
9.134                0.936087576     -81.3178916
9.135                0.935909445     -81.4631683
9.136                0.935730503     -81.6088594
9.137                0.935550747     -81.7549661
9.138                0.935370176     -81.9014897
9.139                0.935188787     -82.0484316
9.14                  0.93500658     -82.1957933
9.141                0.934823551     -82.3435759
9.142                0.934639699     -82.4917809
9.143                0.934455023     -82.6404096
9.144                 0.93426952     -82.7894634
9.145                0.934083189     -82.9389437
9.146                0.933896028     -83.0888517
9.147                0.933708036      -83.239189
9.148                 0.93351921     -83.3899568
9.149                0.933329549     -83.5411565
9.15                 0.933139051     -83.6927895
9.151                0.932947715     -83.8448571
9.152                0.932755538     -83.9973609
9.153                 0.93256252      -84.150302
9.154                0.932368659      -84.303682
9.155                0.932173952     -84.4575022
9.156                0.931978399      -84.611764
9.157                0.931781997     -84.7664687
9.158                0.931584746     -84.9216178
9.159                0.931386643     -85.0772127
9.16                 0.931187688     -85.2332548
9.161                0.930987878     -85.3897455
9.162                0.930787213     -85.5466861
9.163                 0.93058569     -85.7040781
9.164                0.930383309     -85.8619228
9.165                0.930180068     -86.0202218
9.166                0.929975965     -86.1789763
9.167                0.929770999     -86.3381879
9.168                0.929565169     -86.4978579
9.169                0.929358474     -86.6579877
9.17                 0.929150912     -86.8185788
9.171                0.928942482     -86.9796325
9.172                0.928733182     -87.1411504
9.173                0.928523012     -87.3031337
9.174                 0.92831197      -87.465584
9.175                0.928100055     -87.6285026
9.176                0.927887266      -87.791891
9.177                0.927673602     -87.9557507
9.178                0.927459062     -88.1200829
9.179                0.927243644     -88.2848893
9.18                 0.927027348     -88.4501711
9.181                0.926810173     -88.6159299
9.182                0.926592117      -88.782167
9.183                 0.92637318     -88.9488839
9.184                 0.92615336      -89.116082
9.185                0.925932657     -89.2837628
9.186                0.925711071     -89.4519278
9.187                0.925488599     -89.6205782
9.188                0.925265242     -89.7897156
9.189                0.925040998     -89.9593415
9.19                 0.924815867     -90.1294571
9.191                0.924589849     -90.3000641
9.192                0.924362941     -90.4711638
9.193                0.924135145     -90.6427577
9.194                0.923906459     -90.8148472
9.195                0.923676882     -90.9874337
9.196                0.923446415     -91.1605188
9.197                0.923215056     -91.3341037
9.198                0.922982806       -91.50819
9.199                0.922749663     -91.6827792
9.2                  0.922515628     -91.8578726
9.201                  0.9222807     -92.0334717
9.202                0.922044879     -92.2095779
9.203                0.921808164     -92.3861927
9.204                0.921570555     -92.5633175
9.205                0.921332053     -92.7409537
9.206                0.921092657     -92.9191029
9.207                0.920852366     -93.0977663
9.208                0.920611182     -93.2769456
9.209                0.920369103      -93.456642
9.21                  0.92012613      -93.636857
9.211                0.919882263     -93.8175921
9.212                0.919637502     -93.9988487
9.213                0.919391848     -94.1806282
9.214                  0.9191453     -94.3629321
9.215                0.918897858     -94.5457618
9.216                0.918649524     -94.7291186
9.217                0.918400297     -94.9130041
9.218                0.918150178     -95.0974197
9.219                0.917899168     -95.2823667
9.22                 0.917647266     -95.4678466
9.221                0.917394473     -95.6538609
9.222                0.917140791     -95.8404108
9.223                0.916886219     -96.0274979
9.224                0.916630758     -96.2151236
9.225                 0.91637441     -96.4032892
9.226                0.916117175     -96.5919962
9.227                0.915859053     -96.7812459
9.228                0.915600047     -96.9710398
9.229                0.915340156     -97.1613792
9.23                 0.915079382     -97.3522657
9.231                0.914817726     -97.5437004
9.232                0.914555189     -97.7356849
9.233                0.914291772     -97.9282205
9.234                0.914027477     -98.1213087
9.235                0.913762305     -98.3149506
9.236                0.913496258     -98.5091479
9.237                0.913229336     -98.7039017
9.238                0.912961542     -98.8992136
9.239                0.912692876     -99.0950848
9.24                 0.912423341     -99.2915166
9.241                0.912152939     -99.4885106
9.242                0.911881671     -99.6860679
9.243                0.911609539       -99.88419
9.244                0.911336544     -100.082878
9.245                 0.91106269     -100.282134
9.246                0.910787978     -100.481958
9.247                0.910512409     -100.682352
9.248                0.910235988     -100.883318
9.249                0.909958714     -101.084857
9.25                 0.909680592     -101.286969
9.251                0.909401623     -101.489657
9.252                0.909121809     -101.692922
9.253                0.908841154     -101.896764
9.254                0.908559661     -102.101185
9.255                 0.90827733     -102.306187
9.256                0.907994167     -102.511771
9.257                0.907710172     -102.717938
9.258                 0.90742535     -102.924688
9.259                0.907139704     -103.132025
9.26                 0.906853235     -103.339948
9.261                0.906565949     -103.548459
9.262                0.906277847     -103.757559
9.263                0.905988933      -103.96725
9.264                0.905699211     -104.177533
9.265                0.905408684     -104.388408
9.266                0.905117356     -104.599877
9.267                 0.90482523     -104.811941
9.268                 0.90453231     -105.024602
9.269                  0.9042386     -105.237861
9.27                 0.903944104     -105.451718
9.271                0.903648826     -105.666175
9.272                 0.90335277     -105.881233
9.273                 0.90305594     -106.096893
9.274                0.902758341     -106.313157
9.275                0.902459976     -106.530025
9.276                0.902160851     -106.747498
9.277                0.901860969     -106.965578
9.278                0.901560336     -107.184266
9.279                0.901258956     -107.403563
9.28                 0.900956834     -107.623469
9.281                0.900653976     -107.843986
9.282                0.900350385     -108.065115
9.283                0.900046067     -108.286857
9.284                0.899741028     -108.509213
9.285                0.899435272     -108.732185
9.286                0.899128806     -108.955772
9.287                0.898821634     -109.179976
9.288                0.898513762     -109.404797
9.289                0.898205196     -109.630238
9.29                 0.897895942     -109.856299
9.291                0.897586006      -110.08298
9.292                0.897275393     -110.310283
9.293                 0.89696411     -110.538209
9.294                0.896652163     -110.766758
9.295                0.896339558     -110.995932
9.296                0.896026302     -111.225731
9.297                0.895712402     -111.456155
9.298                0.895397863     -111.687207
9.299                0.895082693     -111.918887
9.3                  0.894766899     -112.151195
9.301                0.894450487     -112.384132
9.302                0.894133465     -112.617699
9.303                0.893815839     -112.851898
9.304                0.893497618     -113.086728
9.305                0.893178808      -113.32219
9.306                0.892859418     -113.558285
9.307                0.892539454     -113.795015
9.308                0.892218924     -114.032378
9.309                0.891897837     -114.270377
9.31                   0.8915762     -114.509011
9.311                0.891254021     -114.748282
9.312                0.890931309      -114.98819
9.313                0.890608072     -115.228735
9.314                0.890284318     -115.469918
9.315                0.889960056      -115.71174
9.316                0.889635294     -115.954202
9.317                0.889310042     -116.197303
9.318                0.888984308     -116.441044
9.319                0.888658102     -116.685426
9.32                 0.888331432      -116.93045
9.321                0.888004307     -117.176115
9.322                0.887676737     -117.422422
9.323                0.887348732     -117.669371
9.324                0.887020301     -117.916963
9.325                0.886691454     -118.165199
9.326                0.886362201     -118.414078
9.327                0.886032552       -118.6636
9.328                0.885702516     -118.913767
9.329                0.885372104     -119.164579
9.33                 0.885041327     -119.416035
9.331                0.884710195     -119.668135
9.332                0.884378718     -119.920881
9.333                0.884046907     -120.174272
9.334                0.883714773     -120.428309
9.335                0.883382327     -120.682991
9.336                0.883049581     -120.938319
9.337                0.882716544     -121.194293
9.338                0.882383229     -121.450912
9.339                0.882049647     -121.708177
9.34                  0.88171581     -121.966088
9.341                0.881381729     -122.224645
9.342                0.881047416     -122.483848
9.343                0.880712883     -122.743696
9.344                0.880378142      -123.00419
9.345                0.880043206      -123.26533
9.346                0.879708086     -123.527115
9.347                0.879372795     -123.789545
9.348                0.879037346      -124.05262
9.349                0.878701751     -124.316341
9.35                 0.878366024     -124.580705
9.351                0.878030176     -124.845714
9.352                0.877694222     -125.111367
9.353                0.877358173     -125.377663
9.354                0.877022045     -125.644603
9.355                0.876685849     -125.912186
9.356                  0.8763496     -126.180411
9.357                0.876013311     -126.449278
9.358                0.875676995     -126.718787
9.359                0.875340668     -126.988936
9.36                 0.875004343     -127.259726
9.361                0.874668033     -127.531157
9.362                0.874331754     -127.803226
9.363                 0.87399552     -128.075934
9.364                0.873659344      -128.34928
9.365                0.873323243     -128.623263
9.366                0.872987229     -128.897883
9.367                0.872651319     -129.173139
9.368                0.872315528     -129.449029
9.369                0.871979869     -129.725554
9.37                 0.871644359     -130.002713
9.371                0.871309013     -130.280503
9.372                0.870973846     -130.558926
9.373                0.870638874     -130.837979
9.374                0.870304112     -131.117661
9.375                0.869969576     -131.397972
9.376                0.869635282     -131.678911
9.377                0.869301246     -131.960476
9.378                0.868967483     -132.242666
9.379                0.868634011      -132.52548
9.38                 0.868300845     -132.808918
9.381                0.867968002     -133.092977
9.382                0.867635498     -133.377656
9.383                 0.86730335     -133.662955
9.384                0.866971574     -133.948871
9.385                0.866640187     -134.235404
9.386                0.866309207     -134.522552
9.387                0.865978649     -134.810313
9.388                0.865648531     -135.098687
9.389                0.865318871     -135.387671
9.39                 0.864989685     -135.677264
9.391                0.864660991     -135.967464
9.392                0.864332806     -136.258271
9.393                0.864005147     -136.549681
9.394                0.863678033     -136.841694
9.395                0.863351481     -137.134307
9.396                0.863025509     -137.427519
