! TOUCHSTONE file generated by CST DESIGN STUDIO
! Date and time: Wed Feb  5 13:35:12 2025
! Project name: C:\Work\MatlabApps\UnitCellOptimizationMatlab\CST\unitcell.cst
! Tree item: Tasks\Sweep1\SPara1\S-Parameters
! Header version: 2024
! Port assignment regex: !\s*Touchstone port\s*([0-9]+)\s*=\s*(CST MWS port|CST DES external port|CST DES block port)\s*(.+)\s* \(\"(.*)\"\)(\s*mode\s*([0-9]+))?.*
! Touchstone port assignment:
! Touchstone port 1 = CST DES external port 1 ("")
# GHz S MA R 50
9                    0.890507872     -101.301869
9.001                0.890311412     -101.504722
9.002                0.890114934     -101.708219
9.003                0.889918436      -101.91236
9.004                0.889721919     -102.117147
9.005                0.889525383     -102.322584
9.006                0.889328827     -102.528671
9.007                0.889132252      -102.73541
9.008                0.888935656     -102.942804
9.009                0.888739041     -103.150855
9.01                 0.888542405     -103.359563
9.011                 0.88834575     -103.568932
9.012                0.888149073     -103.778964
9.013                0.887952377     -103.989659
9.014                0.887755659      -104.20102
9.015                0.887558922     -104.413049
9.016                0.887362163     -104.625747
9.017                0.887165384     -104.839117
9.018                0.886968585      -105.05316
9.019                0.886771764     -105.267877
9.02                 0.886574924     -105.483272
9.021                0.886378063     -105.699346
9.022                0.886181183     -105.916099
9.023                0.885984282     -106.133535
9.024                0.885787362     -106.351655
9.025                0.885590422      -106.57046
9.026                0.885393464     -106.789952
9.027                0.885196487     -107.010134
9.028                0.884999492     -107.231006
9.029                0.884802479      -107.45257
9.03                  0.88460545     -107.674829
9.031                0.884408404     -107.897782
9.032                0.884211342     -108.121433
9.033                0.884014265     -108.345783
9.034                0.883817174     -108.570833
9.035                0.883620069     -108.796586
9.036                0.883422952     -109.023041
9.037                0.883225823     -109.250202
9.038                0.883028684     -109.478069
9.039                0.882831535     -109.706644
9.04                 0.882634378     -109.935928
9.041                0.882437213     -110.165924
9.042                0.882240044     -110.396632
9.043                0.882042869     -110.628054
9.044                0.881845692     -110.860191
9.045                0.881648514     -111.093044
9.046                0.881451336     -111.326616
9.047                 0.88125416     -111.560906
9.048                0.881056987     -111.795918
9.049                0.880859821     -112.031651
9.05                 0.880662661     -112.268108
9.051                0.880465512     -112.505289
9.052                0.880268374     -112.743195
9.053                 0.88007125     -112.981829
9.054                0.879874143     -113.221191
9.055                0.879677054     -113.461282
9.056                0.879479986     -113.702104
9.057                0.879282942     -113.943657
9.058                0.879085924     -114.185943
9.059                0.878888936     -114.428962
9.06                 0.878691979     -114.672717
9.061                0.878495058     -114.917207
9.062                0.878298174     -115.162435
9.063                0.878101331       -115.4084
9.064                0.877904533     -115.655104
9.065                0.877707783     -115.902548
9.066                0.877511084     -116.150733
9.067                 0.87731444     -116.399659
9.068                0.877117854     -116.649328
9.069                 0.87692133      -116.89974
9.07                 0.876724873     -117.150896
9.071                0.876528485     -117.402798
9.072                0.876332172     -117.655445
9.073                0.876135936     -117.908838
9.074                0.875939784     -118.162979
9.075                0.875743718     -118.417867
9.076                0.875547744     -118.673504
9.077                0.875351867      -118.92989
9.078                 0.87515609     -119.187025
9.079                0.874960419     -119.444911
9.08                 0.874764858     -119.703548
9.081                0.874569413     -119.962935
9.082                 0.87437409     -120.223075
9.083                0.874178892     -120.483967
9.084                0.873983826     -120.745612
9.085                0.873788897     -121.008009
9.086                0.873594111      -121.27116
9.087                0.873399474     -121.535065
9.088                0.873204991     -121.799723
9.089                0.873010668     -122.065136
9.09                 0.872816511     -122.331303
9.091                0.872622528     -122.598225
9.092                0.872428723     -122.865902
9.093                0.872235104     -123.134334
9.094                0.872041676      -123.40352
9.095                0.871848447     -123.673462
9.096                0.871655424     -123.944159
9.097                0.871462612     -124.215611
9.098                 0.87127002     -124.487818
9.099                0.871077654      -124.76078
9.1                  0.870885522     -125.034497
9.101                0.870693631     -125.308969
9.102                0.870501988     -125.584195
9.103                0.870310601     -125.860175
9.104                0.870119478     -126.136909
9.105                0.869928626     -126.414397
9.106                0.869738054     -126.692639
9.107                0.869547769     -126.971633
9.108                0.869357779      -127.25138
9.109                0.869168094     -127.531879
9.11                  0.86897872      -127.81313
9.111                0.868789667     -128.095131
9.112                0.868600943     -128.377883
9.113                0.868412557     -128.661385
9.114                0.868224518     -128.945637
9.115                0.868036835     -129.230637
9.116                0.867849516     -129.516384
9.117                 0.86766257     -129.802879
9.118                0.867476008     -130.090119
9.119                0.867289838     -130.378105
9.12                  0.86710407     -130.666836
9.121                0.866918713      -130.95631
9.122                0.866733777     -131.246526
9.123                0.866549272     -131.537484
9.124                0.866365208     -131.829182
9.125                0.866181594     -132.121619
9.126                 0.86599844     -132.414794
9.127                0.865815758     -132.708706
9.128                0.865633556     -133.003354
9.129                0.865451846     -133.298736
9.13                 0.865270638     -133.594851
9.131                0.865089942     -133.891697
9.132                0.864909769     -134.189273
9.133                 0.86473013     -134.487578
9.134                0.864551035      -134.78661
9.135                0.864372496     -135.086367
9.136                0.864194523     -135.386849
9.137                0.864017128     -135.688052
9.138                0.863840322     -135.989976
9.139                0.863664116     -136.292618
9.14                 0.863488521     -136.595977
9.141                0.863313549     -136.900051
9.142                0.863139211     -137.204838
9.143                0.862965519     -137.510336
9.144                0.862792484     -137.816543
9.145                0.862620119     -138.123457
9.146                0.862448435     -138.431076
9.147                0.862277444     -138.739397
9.148                0.862107158     -139.048419
9.149                0.861937588     -139.358139
9.15                 0.861768748     -139.668555
9.151                0.861600649     -139.979664
9.152                0.861433303     -140.291464
9.153                0.861266723     -140.603953
9.154                 0.86110092     -140.917128
9.155                0.860935909     -141.230986
9.156                  0.8607717     -141.545525
9.157                0.860608306     -141.860742
9.158                 0.86044574     -142.176635
9.159                0.860284015       -142.4932
9.16                 0.860123143     -142.810434
9.161                0.859963136     -143.128336
9.162                0.859804009     -143.446901
9.163                0.859645772     -143.766128
9.164                 0.85948844     -144.086012
9.165                0.859332024     -144.406551
9.166                0.859176539     -144.727741
9.167                0.859021996      -145.04958
9.168                 0.85886841     -145.372063
9.169                0.858715791     -145.695189
9.17                 0.858564155     -146.018953
9.171                0.858413513     -146.343351
9.172                 0.85826388     -146.668382
9.173                0.858115267      -146.99404
9.174                0.857967687     -147.320322
9.175                0.857821155     -147.647225
9.176                0.857675683     -147.974745
9.177                0.857531285     -148.302878
9.178                0.857387972     -148.631621
9.179                0.857245759     -148.960969
9.18                 0.857104658     -149.290919
9.181                0.856964683     -149.621466
9.182                0.856825847     -149.952607
9.183                0.856688163     -150.284338
9.184                0.856551643     -150.616654
9.185                0.856416301     -150.949551
9.186                 0.85628215     -151.283025
9.187                0.856149204     -151.617072
9.188                0.856017474     -151.951687
9.189                0.855886974     -152.286866
9.19                 0.855757717     -152.622605
9.191                0.855629716     -152.958898
9.192                0.855502983     -153.295742
9.193                0.855377533     -153.633132
9.194                0.855253376     -153.971063
9.195                0.855130526     -154.309531
9.196                0.855008997      -154.64853
9.197                0.854888799     -154.988056
9.198                0.854769947     -155.328104
9.199                0.854652453     -155.668669
9.2                  0.854536328     -156.009746
9.201                0.854421586      -156.35133
9.202                0.854308239     -156.693416
9.203                  0.8541963     -157.035999
9.204                 0.85408578     -157.379074
9.205                0.853976691     -157.722635
9.206                0.853869046     -158.066677
9.207                0.853762857     -158.411195
9.208                0.853658136     -158.756184
9.209                0.853554894     -159.101638
9.21                 0.853453144     -159.447551
9.211                0.853352896     -159.793919
9.212                0.853254163     -160.140735
9.213                0.853156956     -160.487994
9.214                0.853061287      -160.83569
9.215                0.852967166     -161.183818
9.216                0.852874605     -161.532372
9.217                0.852783615     -161.881345
9.218                0.852694207     -162.230733
9.219                0.852606391     -162.580529
9.22                 0.852520179     -162.930728
9.221                0.852435582     -163.281323
9.222                0.852352608     -163.632308
9.223                 0.85227127     -163.983678
9.224                0.852191577     -164.335426
9.225                0.852113539     -164.687546
9.226                0.852037167     -165.040032
9.227                0.851962469     -165.392878
9.228                0.851889457     -165.746077
9.229                0.851818138     -166.099623
9.23                 0.851748524     -166.453511
9.231                0.851680623     -166.807733
9.232                0.851614443     -167.162282
9.233                0.851549995     -167.517154
9.234                0.851487288      -167.87234
9.235                0.851426328     -168.227836
9.236                0.851367126     -168.583633
9.237                 0.85130969     -168.939726
9.238                0.851254027     -169.296107
9.239                0.851200146     -169.652771
9.24                 0.851148054     -170.009711
9.241                 0.85109776     -170.366919
9.242                 0.85104927      -170.72439
9.243                0.851002593     -171.082115
9.244                0.850957735     -171.440089
9.245                0.850914703     -171.798305
9.246                0.850873504     -172.156756
9.247                0.850834145     -172.515435
9.248                0.850796633     -172.874335
9.249                0.850760972     -173.233449
9.25                  0.85072717      -173.59277
9.251                0.850695233     -173.952291
9.252                0.850665165     -174.312005
9.253                0.850636973     -174.671906
9.254                0.850610662     -175.031985
9.255                0.850586236     -175.392237
9.256                0.850563702     -175.752654
9.257                0.850543063     -176.113228
9.258                0.850524324     -176.473953
9.259                0.850507489     -176.834822
9.26                 0.850492563     -177.195827
9.261                 0.85047955     -177.556961
9.262                0.850468452     -177.918217
9.263                0.850459274     -178.279588
9.264                0.850452019     -178.641067
9.265                0.850446689     -179.002646
9.266                0.850443289     -179.364319
9.267                0.850441819     -179.726077
9.268                0.850442284      179.912086
9.269                0.850444685      179.550178
9.27                 0.850449024      179.188206
9.271                0.850455302      178.826176
9.272                0.850463523      178.464098
9.273                0.850473686      178.101977
9.274                0.850485793      177.739821
9.275                0.850499845      177.377637
9.276                0.850515843      177.015433
9.277                0.850533787      176.653216
9.278                0.850553677      176.290993
9.279                0.850575515      175.928772
9.28                 0.850599298       175.56656
9.281                0.850625028      175.204364
9.282                0.850652704      174.842191
9.283                0.850682324      174.480049
9.284                0.850713888      174.117945
9.285                0.850747394      173.755887
9.286                0.850782842      173.393881
9.287                0.850820229      173.031934
9.288                0.850859554      172.670055
9.289                0.850900815      172.308251
9.29                 0.850944009      171.946528
9.291                0.850989133      171.584893
9.292                0.851036186      171.223355
9.293                0.851085164       170.86192
9.294                0.851136064      170.500596
9.295                0.851188883      170.139389
9.296                0.851243617      169.778307
9.297                0.851300262      169.417357
9.298                0.851358815      169.056546
9.299                0.851419271      168.695881
9.3                  0.851481627       168.33537
9.301                0.851545876      167.975019
9.302                0.851612015      167.614835
9.303                0.851680039      167.254826
9.304                0.851749942      166.894998
9.305                0.851821719      166.535358
9.306                0.851895365      166.175914
9.307                0.851970873      165.816673
9.308                0.852048238       165.45764
9.309                0.852127454      165.098824
9.31                 0.852208514      164.740231
9.311                0.852291412      164.381867
9.312                0.852376141      164.023741
9.313                0.852462694      163.665857
9.314                0.852551064      163.308224
9.315                0.852641243      162.950848
9.316                0.852733225      162.593736
9.317                0.852827002      162.236893
9.318                0.852922566      161.880328
9.319                0.853019908      161.524046
9.32                 0.853119022      161.168054
9.321                0.853219898      160.812358
9.322                0.853322527      160.456966
9.323                0.853426903      160.101883
9.324                0.853533015      159.747116
9.325                0.853640854      159.392671
9.326                0.853750412      159.038555
9.327                0.853861679      158.684774
9.328                0.853974646      158.331334
9.329                0.854089303      157.978241
9.33                  0.85420564      157.625502
9.331                0.854323649      157.273123
9.332                0.854443317       156.92111
9.333                0.854564637      156.569468
9.334                0.854687596      156.218205
9.335                0.854812185      155.867325
9.336                0.854938393      155.516835
9.337                 0.85506621      155.166741
9.338                0.855195624      154.817049
9.339                0.855326625      154.467763
9.34                 0.855459201      154.118891
9.341                0.855593342      153.770438
9.342                0.855729036       153.42241
9.343                0.855866272      153.074811
9.344                0.856005038      152.727648
9.345                0.856145323      152.380927
9.346                0.856287114      152.034652
9.347                0.856430401      151.688829
9.348                 0.85657517      151.343464
9.349                 0.85672141      150.998561
9.35                 0.856869109      150.654127
9.351                0.857018255      150.310166
9.352                0.857168835      149.966683
9.353                0.857320837      149.623685
9.354                0.857474248      149.281175
9.355                0.857629056      148.939158
9.356                0.857785249      148.597641
9.357                0.857942812      148.256627
9.358                0.858101735      147.916122
9.359                0.858262003       147.57613
9.36                 0.858423604      147.236656
9.361                0.858586524      146.897705
9.362                0.858750752      146.559282
9.363                0.858916273      146.221391
9.364                0.859083075      145.884037
9.365                0.859251144      145.547223
9.366                0.859420466      145.210956
9.367                 0.85959103      144.875239
9.368                0.859762821      144.540076
9.369                0.859935825      144.205472
9.37                  0.86011003      143.871431
9.371                0.860285422      143.537957
9.372                0.860461987      143.205054
9.373                0.860639712      142.872727
9.374                0.860818584       142.54098
9.375                0.860998588      142.209815
9.376                0.861179711      141.879238
9.377                0.861361939      141.549253
9.378                0.861545259      141.219862
9.379                0.861729656       140.89107
9.38                 0.861915118      140.562881
9.381                0.862101631      140.235298
9.382                 0.86228918      139.908324
9.383                0.862477753      139.581964
9.384                0.862667334      139.256221
9.385                0.862857911      138.931097
9.386                 0.86304947      138.606598
9.387                0.863241997      138.282725
9.388                0.863435479      137.959482
9.389                  0.8636299      137.636873
9.39                 0.863825249      137.314901
9.391                0.864021511      136.993568
9.392                0.864218673      136.672878
9.393                 0.86441672      136.352833
9.394                0.864615639      136.033438
9.395                0.864815417      135.714694
9.396                0.865016039      135.396604
