! TOUCHSTONE file generated by CST DESIGN STUDIO
! Date and time: Wed Feb  5 13:35:24 2025
! Project name: C:\Work\MatlabApps\UnitCellOptimizationMatlab\CST\unitcell.cst
! Tree item: Tasks\Sweep1\SPara1\S-Parameters
! Header version: 2024
! Port assignment regex: !\s*Touchstone port\s*([0-9]+)\s*=\s*(CST MWS port|CST DES external port|CST DES block port)\s*(.+)\s* \(\"(.*)\"\)(\s*mode\s*([0-9]+))?.*
! Touchstone port assignment:
! Touchstone port 1 = CST DES external port 1 ("")
# GHz S MA R 50
9                    0.960122279     -60.4542937
9.001                0.960042253     -60.5435204
9.002                0.959961763     -60.6329704
9.003                0.959880807     -60.7226444
9.004                0.959799384      -60.812543
9.005                0.959717491     -60.9026671
9.006                0.959635126     -60.9930174
9.007                0.959552289     -61.0835946
9.008                0.959468978     -61.1743994
9.009                 0.95938519     -61.2654326
9.01                 0.959300923     -61.3566949
9.011                0.959216177     -61.4481871
9.012                 0.95913095     -61.5399099
9.013                0.959045238     -61.6318641
9.014                0.958959042     -61.7240504
9.015                0.958872359     -61.8164696
9.016                0.958785187     -61.9091224
9.017                0.958697525     -62.0020096
9.018                 0.95860937      -62.095132
9.019                0.958520721     -62.1884903
9.02                 0.958431576     -62.2820854
9.021                0.958341934     -62.3759179
9.022                0.958251792     -62.4699887
9.023                0.958161149     -62.5642985
9.024                0.958070003     -62.6588481
9.025                0.957978352     -62.7536384
9.026                0.957886194     -62.8486701
9.027                0.957793528     -62.9439439
9.028                0.957700352     -63.0394608
9.029                0.957606663     -63.1352214
9.03                  0.95751246     -63.2312266
9.031                0.957417742     -63.3274772
9.032                0.957322505      -63.423974
9.033                 0.95722675     -63.5207178
9.034                0.957130473     -63.6177094
9.035                0.957033672     -63.7149497
9.036                0.956936347     -63.8124394
9.037                0.956838495     -63.9101794
9.038                0.956740114     -64.0081705
9.039                0.956641202     -64.1064135
9.04                 0.956541758     -64.2049093
9.041                 0.95644178     -64.3036587
9.042                0.956341265     -64.4026625
9.043                0.956240213     -64.5019216
9.044                 0.95613862     -64.6014368
9.045                0.956036485     -64.7012089
9.046                0.955933807     -64.8012389
9.047                0.955830583     -64.9015276
9.048                0.955726811     -65.0020757
9.049                 0.95562249     -65.1028843
9.05                 0.955517618     -65.2039541
9.051                0.955412193      -65.305286
9.052                0.955306212     -65.4068809
9.053                0.955199674     -65.5087396
9.054                0.955092577     -65.6108631
9.055                 0.95498492     -65.7132522
9.056                0.954876699     -65.8159077
9.057                0.954767914     -65.9188307
9.058                0.954658563     -66.0220219
9.059                0.954548642     -66.1254822
9.06                 0.954438152     -66.2292126
9.061                0.954327088     -66.3332139
9.062                0.954215451     -66.4374871
9.063                0.954103237      -66.542033
9.064                0.953990445     -66.6468526
9.065                0.953877072     -66.7519467
9.066                0.953763118     -66.8573163
9.067                0.953648579     -66.9629623
9.068                0.953533455     -67.0688857
9.069                0.953417742     -67.1750872
9.07                 0.953301439      -67.281568
9.071                0.953184545     -67.3883288
9.072                0.953067057     -67.4953707
9.073                0.952948973     -67.6026945
9.074                0.952830291     -67.7103012
9.075                0.952711009     -67.8181918
9.076                0.952591125     -67.9263672
9.077                0.952470638     -68.0348284
9.078                0.952349545     -68.1435762
9.079                0.952227845     -68.2526117
9.08                 0.952105534     -68.3619359
9.081                0.951982612     -68.4715496
9.082                0.951859077     -68.5814539
9.083                0.951734926     -68.6916497
9.084                0.951610157      -68.802138
9.085                0.951484769     -68.9129197
9.086                0.951358759      -69.023996
9.087                0.951232126     -69.1353676
9.088                0.951104867     -69.2470357
9.089                0.950976981     -69.3590012
9.09                 0.950848465     -69.4712651
9.091                0.950719317     -69.5838285
9.092                0.950589536     -69.6966922
9.093                 0.95045912     -69.8098574
9.094                0.950328066      -69.923325
9.095                0.950196372      -70.037096
9.096                0.950064037     -70.1511714
9.097                0.949931058     -70.2655524
9.098                0.949797434     -70.3802398
9.099                0.949663162     -70.4952348
9.1                  0.949528241     -70.6105383
9.101                0.949392668     -70.7261513
9.102                0.949256442      -70.842075
9.103                 0.94911956     -70.9583103
9.104                0.948982021     -71.0748584
9.105                0.948843822     -71.1917201
9.106                0.948704961     -71.3088967
9.107                0.948565437     -71.4263891
9.108                0.948425247     -71.5441984
9.109                 0.94828439     -71.6623257
9.11                 0.948142863      -71.780772
9.111                0.948000664     -71.8995384
9.112                0.947857792     -72.0186259
9.113                0.947714244     -72.1380357
9.114                0.947570019     -72.2577688
9.115                0.947425114     -72.3778263
9.116                0.947279527     -72.4982092
9.117                0.947133257     -72.6189188
9.118                0.946986301      -72.739956
9.119                0.946838657     -72.8613219
9.12                 0.946690324     -72.9830177
9.121                  0.9465413     -73.1050444
9.122                0.946391581     -73.2274032
9.123                0.946241167     -73.3500952
9.124                0.946090056     -73.4731215
9.125                0.945938245     -73.5964831
9.126                0.945785733     -73.7201813
9.127                0.945632517     -73.8442171
9.128                0.945478595     -73.9685916
9.129                0.945323966     -74.0933061
9.13                 0.945168628     -74.2183615
9.131                0.945012578     -74.3437592
9.132                0.944855814     -74.4695001
9.133                0.944698336     -74.5955855
9.134                 0.94454014     -74.7220165
9.135                0.944381225     -74.8487942
9.136                0.944221588     -74.9759198
9.137                0.944061229     -75.1033945
9.138                0.943900144     -75.2312194
9.139                0.943738332     -75.3593957
9.14                 0.943575791     -75.4879245
9.141                 0.94341252      -75.616807
9.142                0.943248515     -75.7460445
9.143                0.943083776      -75.875638
9.144                  0.9429183     -76.0055887
9.145                0.942752085     -76.1358979
9.146                 0.94258513     -76.2665668
9.147                0.942417432     -76.3975964
9.148                 0.94224899     -76.5289881
9.149                0.942079802     -76.6607429
9.15                 0.941909865     -76.7928622
9.151                0.941739179     -76.9253471
9.152                0.941567741     -77.0581988
9.153                0.941395549     -77.1914186
9.154                0.941222601     -77.3250076
9.155                0.941048896     -77.4589671
9.156                0.940874431     -77.5932982
9.157                0.940699206     -77.7280023
9.158                0.940523217     -77.8630806
9.159                0.940346464     -77.9985342
9.16                 0.940168944     -78.1343644
9.161                0.939990656     -78.2705725
9.162                0.939811597     -78.4071597
9.163                0.939631767     -78.5441272
9.164                0.939451162     -78.6814763
9.165                0.939269782     -78.8192082
9.166                0.939087625     -78.9573242
9.167                0.938904689     -79.0958256
9.168                0.938720971     -79.2347136
9.169                0.938536471     -79.3739894
9.17                 0.938351187     -79.5136544
9.171                0.938165117     -79.6537098
9.172                0.937978259     -79.7941568
9.173                0.937790612     -79.9349969
9.174                0.937602174     -80.0762311
9.175                0.937412942     -80.2178609
9.176                0.937222917     -80.3598875
9.177                0.937032095     -80.5023122
9.178                0.936840476     -80.6451362
9.179                0.936648057      -80.788361
9.18                 0.936454838     -80.9319877
9.181                0.936260815     -81.0760176
9.182                0.936065989     -81.2204522
9.183                0.935870357     -81.3652926
9.184                0.935673918     -81.5105402
9.185                 0.93547667     -81.6561964
9.186                0.935278612     -81.8022623
9.187                0.935079742     -81.9487394
9.188                0.934880058     -82.0956289
9.189                 0.93467956     -82.2429322
9.19                 0.934478245     -82.3906506
9.191                0.934276113     -82.5387854
9.192                0.934073162      -82.687338
9.193                 0.93386939     -82.8363097
9.194                0.933664796     -82.9857018
9.195                0.933459379     -83.1355156
9.196                0.933253137     -83.2857526
9.197                0.933046068      -83.436414
9.198                0.932838173     -83.5875012
9.199                0.932629449     -83.7390156
9.2                  0.932419895     -83.8909584
9.201                0.932209509     -84.0433311
9.202                0.931998291      -84.196135
9.203                0.931786239     -84.3493715
9.204                0.931573353     -84.5030419
9.205                 0.93135963     -84.6571475
9.206                0.931145069     -84.8116898
9.207                0.930929671     -84.9666701
9.208                0.930713432     -85.1220898
9.209                0.930496353     -85.2779503
9.21                 0.930278432     -85.4342529
9.211                0.930059669     -85.5909989
9.212                0.929840061     -85.7481899
9.213                0.929619608     -85.9058271
9.214                 0.92939831     -86.0639119
9.215                0.929176165     -86.2224458
9.216                0.928953171       -86.38143
9.217                 0.92872933     -86.5408661
9.218                0.928504638     -86.7007553
9.219                0.928279096     -86.8610991
9.22                 0.928052703     -87.0218988
9.221                0.927825457     -87.1831559
9.222                0.927597359     -87.3448717
9.223                0.927368407     -87.5070477
9.224                0.927138601     -87.6696852
9.225                0.926907939     -87.8327856
9.226                0.926676422     -87.9963504
9.227                0.926444049     -88.1603809
9.228                0.926210818     -88.3248786
9.229                 0.92597673     -88.4898448
9.23                 0.925741784     -88.6552809
9.231                0.925505979     -88.8211884
9.232                0.925269315     -88.9875686
9.233                0.925031792      -89.154423
9.234                0.924793408      -89.321753
9.235                0.924554164     -89.4895599
9.236                 0.92431406     -89.6578453
9.237                0.924073094     -89.8266104
9.238                0.923831267     -89.9958568
9.239                0.923588579     -90.1655858
9.24                 0.923345029     -90.3357988
9.241                0.923100617     -90.5064973
9.242                0.922855342     -90.6776826
9.243                0.922609206     -90.8493562
9.244                0.922362208     -91.0215195
9.245                0.922114347     -91.1941739
9.246                0.921865624     -91.3673209
9.247                0.921616038     -91.5409617
9.248                0.921365591      -91.715098
9.249                0.921114282     -91.8897309
9.25                 0.920862111     -92.0648621
9.251                0.920609078     -92.2404928
9.252                0.920355184     -92.4166245
9.253                 0.92010043     -92.5932587
9.254                0.919844814     -92.7703966
9.255                0.919588339     -92.9480399
9.256                0.919331003     -93.1261897
9.257                0.919072808     -93.3048476
9.258                0.918813755      -93.484015
9.259                0.918553843     -93.6636933
9.26                 0.918293074     -93.8438838
9.261                0.918031448      -94.024588
9.262                0.917768965     -94.2058073
9.263                0.917505627     -94.3875431
9.264                0.917241435     -94.5697969
9.265                0.916976389     -94.7525699
9.266                 0.91671049     -94.9358636
9.267                0.916443739     -95.1196794
9.268                0.916176137     -95.3040187
9.269                0.915907686     -95.4888829
9.27                 0.915638385     -95.6742734
9.271                0.915368238     -95.8601915
9.272                0.915097244     -96.0466387
9.273                0.914825405     -96.2336164
9.274                0.914552723     -96.4211259
9.275                0.914279198     -96.6091685
9.276                0.914004833     -96.7977458
9.277                0.913729628      -96.986859
9.278                0.913453586     -97.1765096
9.279                0.913176708     -97.3666989
9.28                 0.912898995     -97.5574282
9.281                 0.91262045      -97.748699
9.282                0.912341074     -97.9405126
9.283                0.912060869     -98.1328703
9.284                0.911779837     -98.3257736
9.285                 0.91149798     -98.5192237
9.286                  0.9112153      -98.713222
9.287                  0.9109318     -98.9077698
9.288                 0.91064748     -99.1028686
9.289                0.910362345     -99.2985195
9.29                 0.910076395      -99.494724
9.291                0.909789634     -99.6914834
9.292                0.909502064      -99.888799
9.293                0.909213687     -100.086672
9.294                0.908924506     -100.285104
9.295                0.908634524     -100.484096
9.296                0.908343743      -100.68365
9.297                0.908052166     -100.883766
9.298                0.907759796     -101.084446
9.299                0.907466636     -101.285692
9.3                  0.907172689     -101.487504
9.301                0.906877958     -101.689884
9.302                0.906582447     -101.892833
9.303                0.906286158     -102.096353
9.304                0.905989095     -102.300444
9.305                0.905691261     -102.505108
9.306                0.905392659     -102.710347
9.307                0.905093295     -102.916161
9.308                 0.90479317     -103.122551
9.309                0.904492288     -103.329519
9.31                 0.904190654     -103.537066
9.311                0.903888272     -103.745194
9.312                0.903585144     -103.953903
9.313                0.903281276     -104.163195
9.314                0.902976671     -104.373071
9.315                0.902671334     -104.583531
9.316                0.902365269     -104.794578
9.317                 0.90205848     -105.006212
9.318                0.901750972     -105.218435
9.319                0.901442749     -105.431248
9.32                 0.901133816     -105.644651
9.321                0.900824178     -105.858646
9.322                0.900513839     -106.073235
9.323                0.900202805     -106.288417
9.324                 0.89989108     -106.504195
9.325                0.899578669     -106.720569
9.326                0.899265579     -106.937541
9.327                0.898951813     -107.155111
9.328                0.898637377     -107.373281
9.329                0.898322277     -107.592052
9.33                 0.898006518     -107.811424
9.331                0.897690106     -108.031399
9.332                0.897373047     -108.251977
9.333                0.897055346     -108.473161
9.334                 0.89673701      -108.69495
9.335                0.896418044     -108.917346
9.336                0.896098455     -109.140349
9.337                0.895778249     -109.363961
9.338                0.895457431     -109.588183
9.339                 0.89513601     -109.813016
9.34                  0.89481399     -110.038459
9.341                0.894491379     -110.264516
9.342                0.894168183     -110.491185
9.343                 0.89384441     -110.718469
9.344                0.893520066     -110.946368
9.345                0.893195158     -111.174882
9.346                0.892869694     -111.404014
9.347                 0.89254368     -111.633763
9.348                0.892217125      -111.86413
9.349                0.891890035     -112.095117
9.35                 0.891562417     -112.326723
9.351                0.891234281     -112.558951
9.352                0.890905633       -112.7918
9.353                0.890576481     -113.025271
9.354                0.890246834     -113.259365
9.355                  0.8899167     -113.494083
9.356                0.889586086     -113.729425
9.357                0.889255001     -113.965393
9.358                0.888923453     -114.201986
9.359                0.888591452     -114.439206
9.36                 0.888259005     -114.677052
9.361                0.887926122     -114.915526
9.362                0.887592811     -115.154629
9.363                0.887259082      -115.39436
9.364                0.886924943     -115.634721
9.365                0.886590404     -115.875711
9.366                0.886255473     -116.117332
9.367                0.885920162     -116.359584
9.368                0.885584478     -116.602468
9.369                0.885248432     -116.845983
9.37                 0.884912034      -117.09013
9.371                0.884575293     -117.334911
9.372                 0.88423822     -117.580324
9.373                0.883900824     -117.826371
9.374                0.883563116     -118.073052
9.375                0.883225107     -118.320368
9.376                0.882886806     -118.568318
9.377                0.882548225     -118.816902
9.378                0.882209374     -119.066122
9.379                0.881870264     -119.315978
9.38                 0.881530906     -119.566469
9.381                0.881191311     -119.817596
9.382                 0.88085149     -120.069359
9.383                0.880511455     -120.321759
9.384                0.880171216     -120.574795
9.385                0.879830787     -120.828467
9.386                0.879490178     -121.082776
9.387                  0.8791494     -121.337722
9.388                0.878808467     -121.593305
9.389                 0.87846739     -121.849525
9.39                 0.878126181     -122.106381
9.391                0.877784852     -122.363874
9.392                0.877443416     -122.622004
9.393                0.877101885     -122.880771
9.394                0.876760273     -123.140174
9.395                0.876418591     -123.400214
9.396                0.876076852     -123.660891
