! TOUCHSTONE file generated by CST DESIGN STUDIO
! Date and time: Wed Feb  5 13:35:29 2025
! Project name: C:\Work\MatlabApps\UnitCellOptimizationMatlab\CST\unitcell.cst
! Tree item: Tasks\Sweep1\SPara1\S-Parameters
! Header version: 2024
! Port assignment regex: !\s*Touchstone port\s*([0-9]+)\s*=\s*(CST MWS port|CST DES external port|CST DES block port)\s*(.+)\s* \(\"(.*)\"\)(\s*mode\s*([0-9]+))?.*
! Touchstone port assignment:
! Touchstone port 1 = CST DES external port 1 ("")
# GHz S MA R 50
9                    0.974443828     -48.8347973
9.001                0.974379385     -48.8996953
9.002                0.974316183     -48.9644585
9.003                0.974254227     -49.0290872
9.004                 0.97419352      -49.093582
9.005                0.974127359     -49.1590203
9.006                0.974062616      -49.224318
9.007                0.973999296     -49.2894754
9.008                0.973937404     -49.3544927
9.009                0.973869599     -49.4204918
9.01                  0.97380342     -49.4863443
9.011                0.973738877     -49.5520498
9.012                0.973675976     -49.6176087
9.013                0.973606451     -49.6841654
9.014                0.973538808     -49.7505679
9.015                0.973473055     -49.8168164
9.016                0.973409197     -49.8829112
9.017                0.973337829     -49.9500191
9.018                0.973268652     -50.0169648
9.019                0.973201672     -50.0837484
9.02                   0.9731369     -50.1503699
9.021                0.973063567     -50.2180677
9.022                0.972992797     -50.2855946
9.023                0.972924603       -50.35295
9.024                0.972858997     -50.4201338
9.025                0.972783586     -50.4884167
9.026                0.972711205     -50.5565176
9.027                0.972641868     -50.6244362
9.028                0.972575583     -50.6921722
9.029                0.972497852     -50.7610496
9.03                 0.972423736     -50.8297322
9.031                0.972353247     -50.8982195
9.032                0.972286391     -50.9665114
9.033                0.972206203     -51.0359725
9.034                0.972130363     -51.1052236
9.035                0.972058886     -51.1742637
9.036                0.971991786     -51.2430919
9.037                0.971908695     -51.3131958
9.038                0.971830896     -51.3830708
9.039                0.971758411      -51.452715
9.04                 0.971691254     -51.5221268
9.041                0.971604895     -51.5928623
9.042                0.971525072     -51.6633443
9.043                0.971451802       -51.73357
9.044                0.971385093     -51.8035374
9.045                0.971294828     -51.8749058
9.046                 0.97121275     -51.9459885
9.047                0.971138875     -52.0167812
9.048                 0.97107322     -52.0872797
9.049                0.970978105      -52.159347
9.05                 0.970893426     -52.2310845
9.051                 0.97081921     -52.3024848
9.052                0.970755469     -52.3735409
9.053                 0.97065411     -52.4463282
9.054                0.970566376     -52.5187213
9.055                 0.97049227     -52.5907085
9.056                0.970431777      -52.662279
9.057                0.970322075     -52.7358372
9.058                0.970230593     -52.8089053
9.059                0.970157299     -52.8814628
9.06                 0.970102157     -52.9534896
9.061                0.969980767     -53.0279339
9.062                0.969884462     -53.1017371
9.063                0.969813159       -53.17486
9.064                0.969766725     -53.2472653
9.065                0.969627963     -53.3227741
9.066                0.969524998     -53.3973877
9.067                0.969457473     -53.4710308
9.068                0.969424957     -53.5436307
9.069                0.969260192     -53.6205174
9.07                 0.969148095     -53.6960769
9.071                0.969087572     -53.7701508
9.072                0.969077312      -53.842589
9.073                0.968875205     -53.9213101
9.074                0.968751047     -53.9980301
9.075                0.968701718     -54.0724064
9.076                0.968723755     -54.1441139
9.077                 0.96848097     -54.2245509
9.078                0.968344676     -54.3024902
9.079                0.968308228     -54.3772895
9.08                  0.96836392     -54.4483665
9.081                0.968098271     -54.5273033
9.082                0.967950881     -54.6053167
9.083                0.967918875     -54.6815933
9.084                0.967997722     -54.7553584
9.085                0.967719058     -54.8308637
9.086                0.967559603     -54.9082227
9.087                0.967526582     -54.9865745
9.088                0.967625466     -55.0650009
9.089                0.967364569     -55.1410211
9.09                  0.96721114     -55.2188534
9.091                0.967170488      -55.297888
9.092                0.967246843     -55.3774874
9.093                0.967025969      -55.455342
9.094                0.966886869     -55.5340504
9.095                0.966831592     -55.6133054
9.096                0.966861802     -55.6927941
9.097                0.966674551     -55.7720672
9.098                0.966546381     -55.8516057
9.099                0.966478127     -55.9312627
9.1                  0.966470532     -56.0108908
9.101                0.966305692     -56.0912531
9.102                0.966184138     -56.1715929
9.103                0.966106359     -56.2518358
9.104                0.966072732     -56.3319079
9.105                 0.96592215     -56.4131852
9.106                0.965804403     -56.4942972
9.107                0.965719743     -56.5752037
9.108                0.965668374     -56.6558652
9.109                 0.96552696     -56.7379639
9.11                 0.965411234     -56.8198217
9.111                0.965321357     -56.9014159
9.112                0.965257484     -56.9827235
9.113                0.965122002     -57.0656419
9.114                0.965007165     -57.1482768
9.115                0.964913134     -57.2306136
9.116                0.964840026     -57.3126387
9.117                0.964708276     -57.3963569
9.118                0.964593581     -57.4797633
9.119                0.964496045     -57.5628493
9.12                 0.964415753     -57.6456068
9.121                0.964286359     -57.7301171
9.122                0.964171335     -57.8142957
9.123                0.964070757     -57.8981375
9.124                0.963984678     -57.9816386
9.125                0.963856796     -58.0669338
9.126                0.963741225     -58.1518819
9.127                0.963638029     -58.2364803
9.128                0.963547273     -58.3207259
9.129                0.963420035     -58.4068514
9.13                 0.963303504     -58.4926169
9.131                0.963197748     -58.5780204
9.132                0.963102819     -58.6630608
9.133                 0.96297572     -58.7500028
9.134                0.962858069      -58.836572
9.135                0.962749912     -58.9227679
9.136                0.962651285     -59.0085913
9.137                0.962524008     -59.0963475
9.138                0.962405151     -59.1837188
9.139                0.962294756      -59.270706
9.14                 0.962192865     -59.3573095
9.141                0.962065136     -59.4459195
9.142                0.961944981     -59.5341332
9.143                0.961832448     -59.6219512
9.144                0.961727576     -59.7093747
9.145                0.961599092      -59.798841
9.146                0.961477496     -59.8878981
9.147                0.961362825     -59.9765475
9.148                0.961255106     -60.0647917
9.149                0.961125728      -60.155105
9.15                 0.961002658     -60.2449963
9.151                0.960885927     -60.3344677
9.152                0.960775565     -60.4235217
9.153                0.960645116     -60.5147271
9.154                0.960520476      -60.605498
9.155                0.960401686     -60.6958359
9.156                0.960288774     -60.7857435
9.157                0.960157103     -60.8778397
9.158                0.960030834     -60.9694866
9.159                0.959909993     -61.0606869
9.16                 0.959794606      -61.151444
9.161                0.959661644     -61.2444451
9.162                0.959533731     -61.3369817
9.163                0.959410889     -61.4290573
9.164                0.959293134     -61.5206765
9.165                0.959158812     -61.6145733
9.166                0.959029228     -61.7079902
9.167                0.958904405     -61.8009312
9.168                0.958784363        -61.8934
9.169                0.958648575     -61.9882421
9.17                 0.958517257     -62.0825884
9.171                0.958390435     -62.1764426
9.172                0.958268128      -62.269809
9.173                0.958130832     -62.3655902
9.174                0.957997782     -62.4608579
9.175                0.957868998     -62.5556166
9.176                 0.95774449     -62.6498719
9.177                0.957605606     -62.7465988
9.178                0.957470767      -62.842794
9.179                 0.95733999     -62.9384626
9.18                 0.957213292     -63.0336097
9.181                 0.95707272     -63.1313221
9.182                0.956936015     -63.2284845
9.183                  0.9568032     -63.3251014
9.184                0.956674288     -63.4211782
9.185                0.956532047     -63.5198762
9.186                0.956393526      -63.618003
9.187                0.956258742     -63.7155645
9.188                0.956127702     -63.8125675
9.189                0.955983665     -63.9122485
9.19                 0.955843215     -64.0113372
9.191                0.955706366     -64.1098401
9.192                0.955573131     -64.2077634
9.193                0.955427377     -64.3084763
9.194                0.955285094     -64.4085755
9.195                  0.9551463     -64.5080666
9.196                0.955011008     -64.6069562
9.197                0.954863366     -64.7086983
9.198                0.954719101     -64.8098021
9.199                0.954578226     -64.9102746
9.2                  0.954440749     -65.0101236
9.201                0.954291199     -65.1129013
9.202                0.954144944     -65.2150154
9.203                0.954001992     -65.3164739
9.204                0.953862354     -65.4172844
9.205                0.953710963     -65.5211378
9.206                0.953562789     -65.6243025
9.207                0.953417848     -65.7267855
9.208                0.953276148     -65.8285949
9.209                0.953122796     -65.9335295
9.21                 0.952972607     -66.0377462
9.211                0.952825591     -66.1412537
9.212                0.952681753     -66.2440614
9.213                0.952526439     -66.3500885
9.214                0.952374243     -66.4553675
9.215                 0.95222517     -66.5599083
9.216                0.952079219     -66.6637223
9.217                0.951921861     -66.7708495
9.218                0.951767581     -66.8771974
9.219                0.951616385     -66.9827767
9.22                 0.951468277     -67.0875977
9.221                0.951308924     -67.1958732
9.222                0.951152621     -67.3033369
9.223                0.950999374     -67.4099991
9.224                0.950849186     -67.5158711
9.225                0.950687702     -67.6252941
9.226                0.950529252     -67.7338687
9.227                0.950373837     -67.8416073
9.228                0.950221452     -67.9485236
9.229                0.950057991     -68.0590914
9.23                 0.949897554     -68.1687737
9.231                 0.94974014     -68.2775839
9.232                0.949585749      -68.385535
9.233                    0.94942     -68.4973216
9.234                0.949257271     -68.6081835
9.235                0.949097564     -68.7181338
9.236                0.948940878     -68.8271865
9.237                0.948773021     -68.9401622
9.238                0.948608195     -69.0521697
9.239                0.948446395     -69.1632244
9.24                 0.948287614     -69.2733429
9.241                0.948117512     -69.3875406
9.242                0.947950457     -69.5007245
9.243                0.947786443     -69.6129116
9.244                0.947625464     -69.7241186
9.245                0.947453178     -69.8395753
9.246                0.947283959     -69.9539718
9.247                0.947117805     -70.0673242
9.248                0.946954706     -70.1796506
9.249                0.946780196     -70.2963711
9.25                 0.946608791     -70.4119781
9.251                 0.94644048      -70.526491
9.252                 0.94627525     -70.6399301
9.253                0.946098381     -70.7579528
9.254                0.945924662     -70.8748053
9.255                0.945754079     -70.9905097
9.256                 0.94558661     -71.1050899
9.257                0.945407439      -71.224401
9.258                0.945231467     -71.3424831
9.259                0.945058677     -71.4593599
9.26                  0.94488905     -71.5750548
9.261                0.944707566       -71.69572
9.262                0.944529341     -71.8150929
9.263                0.944354356     -71.9331984
9.264                0.944182589     -72.0500622
9.265                0.943998705     -72.1720962
9.266                0.943818154     -72.2927674
9.267                 0.94364091     -72.4121045
9.268                0.943466943     -72.5301378
9.269                0.943280674     -72.6535284
9.27                 0.943097818     -72.7754826
9.271                0.942918344     -72.8960318
9.272                0.942742222     -73.0152067
9.273                0.942553492      -73.140031
9.274                0.942368262       -73.26334
9.275                0.942186501     -73.3851663
9.276                0.942008175     -73.5055434
9.277                0.941816848     -73.6318122
9.278                 0.94162913     -73.7564761
9.279                0.941444978     -73.8795735
9.28                  0.94126435     -74.0011435
9.281                0.941070661     -74.1288617
9.282                0.940880696     -74.2548807
9.283                0.940694407      -74.379243
9.284                0.940511747     -74.5019896
9.285                0.940315451     -74.6312295
9.286                0.940123003     -74.7586692
9.287                0.939934355     -74.8843528
9.288                0.939749453     -75.0083257
9.289                0.939550503     -75.1391007
9.29                 0.939355552     -75.2679601
9.291                0.939164536     -75.3949555
9.292                 0.93897739     -75.5201394
9.293                0.938775823     -75.6524927
9.294                0.938578419     -75.7828049
9.295                0.938385104     -75.9111349
9.296                0.938195794     -76.0375438
9.297                0.937991655      -76.171465
9.298                0.937791854     -76.3032098
9.299                0.937596305     -76.4328441
9.3                  0.937404924     -76.5604312
9.301                0.937197874     -76.6960299
9.302                0.936995357     -76.8293016
9.303                0.936797276     -76.9603188
9.304                0.936603533     -77.0891537
9.305                0.936394003     -77.2264297
9.306                0.936189234     -77.3612091
9.307                0.935989108     -77.4935763
9.308                0.935793506     -77.6236161
9.309                0.935580978     -77.7626162
9.31                 0.935373454     -77.8989327
9.311                0.935170796     -78.0326615
9.312                0.934972873      -78.163894
9.313                0.934757465     -78.3046994
9.314                0.934547331     -78.4426128
9.315                0.934342316     -78.5777409
9.316                0.934142266     -78.7101881
9.317                0.933924142     -78.8528398
9.318                0.933711606     -78.9923581
9.319                0.933504467     -79.1288698
9.32                 0.933302538     -79.2624991
9.321                 0.93308135     -79.4070427
9.322                0.932866088      -79.548183
9.323                0.932656527     -79.6860672
9.324                0.932452455     -79.8208343
9.325                0.932228103     -79.9673967
9.326                0.932010051     -80.1102486
9.327                0.931798041      -80.249557
9.328                 0.93159182      -80.385484
9.329                0.931364372     -80.5341245
9.33                 0.931143664     -80.6786898
9.331                0.930929376     -80.8193828
9.332                0.930721199     -80.9563983
9.333                0.930490687     -81.1072049
9.334                0.930267402      -81.253515
9.335                0.930050953     -81.3955723
9.336                0.929840975     -81.5336035
9.337                0.929607091     -81.6867324
9.338                 0.92938097     -81.8348725
9.339                0.929162144     -81.9783103
9.34                 0.928950168     -82.1173187
9.341                0.928713052     -82.2729174
9.342                0.928484336     -82.4229206
9.343                0.928263425     -82.5676881
9.344                0.928049765     -82.7075558
9.345                0.927809018     -82.8658538
9.346                0.927577367     -83.0178143
9.347                0.927354054     -83.1638924
9.348                0.927138373     -83.3045124
9.349                0.926894288     -83.4656697
9.35                 0.926660088     -83.6195737
9.351                 0.92643479     -83.7668065
9.352                0.926217513     -83.9078894
9.353                0.925969725     -84.0724199
9.354                0.925732691     -84.2285095
9.355                0.925505112     -84.3769177
9.356                0.925285832     -84.5183233
9.357                0.925034629     -84.6866703
9.358                0.924795071     -84.8449851
9.359                0.924565359     -84.9943133
9.36                 0.924343918     -85.1355746
9.361                0.924089733     -85.3085507
9.362                 0.92384802     -85.4692738
9.363                0.923616188     -85.6192371
9.364                0.923392056     -85.7597006
9.365                0.923136252     -85.9387597
9.366                0.922893179      -86.102222
9.367                0.922658859     -86.2523494
9.368                0.922430048     -86.3909961
9.369                0.922176991     -86.5789236
9.37                  0.92193481     -86.7455768
9.371                0.921696682     -86.8947734
9.372                0.921457341     -87.0294821
9.373                 0.92122417     -87.2336223
9.374                0.920991631     -87.4046714
9.375                0.920745355     -87.5500566
9.376                0.920474899     -87.6750172
9.377                0.920353264      -87.932683
9.378                0.920186436     -88.1163119
9.379                 0.91991228     -88.2443298
9.38                 0.919481889     -88.3280565
9.381                0.919441562     -89.3264185
9.382                0.921468853     -89.7448565
9.383                0.922231246     -89.6101718
9.384                0.918476752     -88.9889032
9.385                0.916325911     -90.8365453
9.386                0.923275604     -91.5642936
9.387                0.927498362     -91.1059023
9.388                0.917465271     -89.6565547
9.389                0.917676825     -89.8705278
9.39                 0.917702223     -90.0417973
9.391                0.917359262     -90.1861525
9.392                0.916442269     -90.3319877
9.393                0.916377795      -90.476816
9.394                 0.91619825     -90.6336053
9.395                0.915883832     -90.8095433
9.396                 0.91540847     -91.0153002
