! TOUCHSTONE file generated by CST DESIGN STUDIO
! Date and time: Wed Feb  5 13:35:27 2025
! Project name: C:\Work\MatlabApps\UnitCellOptimizationMatlab\CST\unitcell.cst
! Tree item: Tasks\Sweep1\SPara1\S-Parameters
! Header version: 2024
! Port assignment regex: !\s*Touchstone port\s*([0-9]+)\s*=\s*(CST MWS port|CST DES external port|CST DES block port)\s*(.+)\s* \(\"(.*)\"\)(\s*mode\s*([0-9]+))?.*
! Touchstone port assignment:
! Touchstone port 1 = CST DES external port 1 ("")
# GHz S MA R 50
9                    0.970487027     -52.3557656
9.001                0.970421008     -52.4272204
9.002                0.970354612     -52.4988329
9.003                0.970287838     -52.5706039
9.004                0.970220685     -52.6425336
9.005                0.970153152     -52.7146227
9.006                0.970085238     -52.7868716
9.007                0.970016942     -52.8592807
9.008                0.969948263     -52.9318506
9.009                0.969879199     -53.0045817
9.01                 0.969809751     -53.0774745
9.011                0.969739916     -53.1505296
9.012                0.969669695     -53.2237474
9.013                0.969599084     -53.2971283
9.014                0.969528085      -53.370673
9.015                0.969456695     -53.4443819
9.016                0.969384913     -53.5182554
9.017                0.969312739     -53.5922942
9.018                0.969240172     -53.6664986
9.019                0.969167209     -53.7408693
9.02                 0.969093851     -53.8154067
9.021                0.969020097     -53.8901113
9.022                0.968945944     -53.9649836
9.023                0.968871393     -54.0400242
9.024                0.968796441     -54.1152336
9.025                0.968721089     -54.1906122
9.026                0.968645335     -54.2661607
9.027                0.968569177     -54.3418795
9.028                0.968492615     -54.4177691
9.029                0.968415648     -54.4938301
9.03                 0.968338274      -54.570063
9.031                0.968260493     -54.6464683
9.032                0.968182304     -54.7230467
9.033                0.968103705     -54.7997985
9.034                0.968024695     -54.8767243
9.035                0.967945274     -54.9538248
9.036                0.967865439     -55.0311004
9.037                0.967785191     -55.1085516
9.038                0.967704528      -55.186179
9.039                0.967623448     -55.2639833
9.04                 0.967541952     -55.3419648
9.041                0.967460037     -55.4201242
9.042                0.967377703      -55.498462
9.043                0.967294948     -55.5769788
9.044                0.967211772     -55.6556751
9.045                0.967128173     -55.7345515
9.046                 0.96704415     -55.8136086
9.047                0.966959703     -55.8928469
9.048                0.966874829      -55.972267
9.049                0.966789529     -56.0518694
9.05                   0.9667038     -56.1316548
9.051                0.966617642     -56.2116238
9.052                0.966531053     -56.2917768
9.053                0.966444033     -56.3721144
9.054                0.966356581     -56.4526374
9.055                0.966268695     -56.5333462
9.056                0.966180373     -56.6142414
9.057                0.966091616     -56.6953236
9.058                0.966002422     -56.7765934
9.059                 0.96591279     -56.8580514
9.06                 0.965822718     -56.9396983
9.061                0.965732206     -57.0215345
9.062                0.965641252     -57.1035607
9.063                0.965549855     -57.1857775
9.064                0.965458015     -57.2681856
9.065                0.965365729     -57.3507854
9.066                0.965272998     -57.4335777
9.067                0.965179819      -57.516563
9.068                0.965086192      -57.599742
9.069                0.964992115     -57.6831152
9.07                 0.964897588     -57.7666834
9.071                0.964802608     -57.8504471
9.072                0.964707176     -57.9344069
9.073                 0.96461129     -58.0185635
9.074                0.964514948     -58.1029175
9.075                 0.96441815     -58.1874695
9.076                0.964320894     -58.2722203
9.077                 0.96422318     -58.3571703
9.078                0.964125005     -58.4423203
9.079                 0.96402637     -58.5276709
9.08                 0.963927272     -58.6132228
9.081                0.963827711     -58.6989765
9.082                0.963727685     -58.7849328
9.083                0.963627194     -58.8710923
9.084                0.963526236     -58.9574557
9.085                0.963424809     -59.0440235
9.086                0.963322914     -59.1307966
9.087                0.963220548     -59.2177755
9.088                 0.96311771     -59.3049609
9.089                  0.9630144     -59.3923535
9.09                 0.962910615      -59.479954
9.091                0.962806356      -59.567763
9.092                 0.96270162     -59.6557812
9.093                0.962596406     -59.7440093
9.094                0.962490714      -59.832448
9.095                0.962384542     -59.9210979
9.096                0.962277889     -60.0099598
9.097                0.962170753     -60.0990343
9.098                0.962063134     -60.1883222
9.099                 0.96195503     -60.2778241
9.1                  0.961846441     -60.3675408
9.101                0.961737364     -60.4574729
9.102                0.961627799     -60.5476211
9.103                0.961517744     -60.6379862
9.104                0.961407199     -60.7285688
9.105                0.961296161     -60.8193698
9.106                0.961184631     -60.9103897
9.107                0.961072606     -61.0016294
9.108                0.960960085     -61.0930895
9.109                0.960847068     -61.1847707
9.11                 0.960733552     -61.2766739
9.111                0.960619537     -61.3687997
9.112                0.960505022     -61.4611488
9.113                0.960390005      -61.553722
9.114                0.960274485     -61.6465201
9.115                 0.96015846     -61.7395438
9.116                0.960041931     -61.8327938
9.117                0.959924894     -61.9262708
9.118                 0.95980735     -62.0199757
9.119                0.959689296     -62.1139092
9.12                 0.959570732      -62.208072
9.121                0.959451657     -62.3024649
9.122                0.959332068     -62.3970887
9.123                0.959211965     -62.4919441
9.124                0.959091347     -62.5870319
9.125                0.958970212     -62.6823529
9.126                 0.95884856     -62.7779079
9.127                0.958726388     -62.8736975
9.128                0.958603695     -62.9697227
9.129                0.958480481     -63.0659842
9.13                 0.958356744     -63.1624828
9.131                0.958232483     -63.2592192
9.132                0.958107696     -63.3561943
9.133                0.957982382     -63.4534089
9.134                0.957856541     -63.5508638
9.135                 0.95773017     -63.6485597
9.136                0.957603268     -63.7464975
9.137                0.957475835      -63.844678
9.138                0.957347869      -63.943102
9.139                0.957219368     -64.0417703
9.14                 0.957090331     -64.1406837
9.141                0.956960757     -64.2398431
9.142                0.956830646     -64.3392493
9.143                0.956699994     -64.4389031
9.144                0.956568802     -64.5388053
9.145                0.956437068     -64.6389568
9.146                 0.95630479     -64.7393585
9.147                0.956171967     -64.8400111
9.148                0.956038599     -64.9409155
9.149                0.955904683     -65.0420725
9.15                 0.955770218     -65.1434831
9.151                0.955635204      -65.245148
9.152                0.955499639     -65.3470681
9.153                0.955363521     -65.4492443
9.154                0.955226849     -65.5516774
9.155                0.955089622     -65.6543684
9.156                0.954951839      -65.757318
9.157                0.954813498     -65.8605271
9.158                0.954674598     -65.9639967
9.159                0.954535137     -66.0677276
9.16                 0.954395115     -66.1717207
9.161                 0.95425453     -66.2759769
9.162                0.954113381     -66.3804971
9.163                0.953971666     -66.4852821
9.164                0.953829385     -66.5903328
9.165                0.953686535     -66.6956503
9.166                0.953543115     -66.8012353
9.167                0.953399125     -66.9070887
9.168                0.953254563     -67.0132116
9.169                0.953109427     -67.1196047
9.17                 0.952963716     -67.2262691
9.171                0.952817429     -67.3332056
9.172                0.952670565     -67.4404152
9.173                0.952523122     -67.5478987
9.174                0.952375099     -67.6556572
9.175                0.952226495     -67.7636915
9.176                0.952077308     -67.8720026
9.177                0.951927537     -67.9805914
9.178                 0.95177718     -68.0894589
9.179                0.951626237     -68.1986061
9.18                 0.951474706     -68.3080338
9.181                0.951322585      -68.417743
9.182                0.951169874     -68.5277347
9.183                0.951016571     -68.6380099
9.184                0.950862675     -68.7485695
9.185                0.950708184     -68.8594145
9.186                0.950553097     -68.9705459
9.187                0.950397412     -69.0819645
9.188                0.950241129     -69.1936715
9.189                0.950084247     -69.3056678
9.19                 0.949926763     -69.4179544
9.191                0.949768676     -69.5305322
9.192                0.949609986     -69.6434023
9.193                 0.94945069     -69.7565657
9.194                0.949290788     -69.8700233
9.195                0.949130278     -69.9837762
9.196                0.948969158     -70.0978254
9.197                0.948807429     -70.2121718
9.198                0.948645087     -70.3268166
9.199                0.948482133     -70.4417606
9.2                  0.948318564     -70.5570051
9.201                0.948154379     -70.6725508
9.202                0.947989577      -70.788399
9.203                0.947824157     -70.9045506
9.204                0.947658117     -71.0210067
9.205                0.947491456     -71.1377682
9.206                0.947324173     -71.2548363
9.207                0.947156266      -71.372212
9.208                0.946987735     -71.4898963
9.209                0.946818577     -71.6078904
9.21                 0.946648792     -71.7261951
9.211                0.946478378     -71.8448117
9.212                0.946307333     -71.9637412
9.213                0.946135658     -72.0829846
9.214                 0.94596335      -72.202543
9.215                0.945790408     -72.3224176
9.216                 0.94561683     -72.4426092
9.217                0.945442616     -72.5631192
9.218                0.945267765     -72.6839485
9.219                0.945092274     -72.8050982
9.22                 0.944916143     -72.9265694
9.221                 0.94473937     -73.0483632
9.222                0.944561955     -73.1704808
9.223                0.944383895     -73.2929232
9.224                 0.94420519     -73.4156915
9.225                0.944025838     -73.5387869
9.226                0.943845838     -73.6622104
9.227                0.943665189     -73.7859632
9.228                 0.94348389     -73.9100463
9.229                0.943301939      -74.034461
9.23                 0.943119336     -74.1592084
9.231                0.942936078     -74.2842895
9.232                0.942752165     -74.4097056
9.233                0.942567595     -74.5354577
9.234                0.942382368      -74.661547
9.235                0.942196481     -74.7879746
9.236                0.942009935     -74.9147417
9.237                0.941822727     -75.0418495
9.238                0.941634856     -75.1692991
9.239                0.941446322     -75.2970917
9.24                 0.941257123     -75.4252284
9.241                0.941067257     -75.5537104
9.242                0.940876725     -75.6825389
9.243                0.940685523      -75.811715
9.244                0.940493653       -75.94124
9.245                0.940301111     -76.0711149
9.246                0.940107898     -76.2013411
9.247                0.939914011     -76.3319196
9.248                0.939719451     -76.4628517
9.249                0.939524215     -76.5941386
9.25                 0.939328302     -76.7257815
9.251                0.939131712     -76.8577815
9.252                0.938934444     -76.9901399
9.253                0.938736495     -77.1228579
9.254                0.938537866     -77.2559367
9.255                0.938338555     -77.3893775
9.256                0.938138561     -77.5231816
9.257                0.937937883     -77.6573501
9.258                 0.93773652     -77.7918844
9.259                0.937534471     -77.9267855
9.26                 0.937331735     -78.0620548
9.261                 0.93712831     -78.1976935
9.262                0.936924197     -78.3337028
9.263                0.936719393      -78.470084
9.264                0.936513898     -78.6068383
9.265                0.936307711      -78.743967
9.266                0.936100831     -78.8814714
9.267                0.935893256     -79.0193526
9.268                0.935684987     -79.1576119
9.269                0.935476021     -79.2962507
9.27                 0.935266359     -79.4352701
9.271                0.935055999     -79.5746715
9.272                 0.93484494     -79.7144561
9.273                0.934633182     -79.8546252
9.274                0.934420723     -79.9951801
9.275                0.934207563     -80.1361221
9.276                  0.9339937     -80.2774524
9.277                0.933779135     -80.4191723
9.278                0.933563865     -80.5612831
9.279                0.933347891     -80.7037862
9.28                 0.933131212     -80.8466828
9.281                0.932913826     -80.9899742
9.282                0.932695733     -81.1336618
9.283                0.932476932     -81.2777467
9.284                0.932257423     -81.4222304
9.285                0.932037205     -81.5671142
9.286                0.931816276     -81.7123994
9.287                0.931594637     -81.8580872
9.288                0.931372287     -82.0041791
9.289                0.931149224     -82.1506763
9.29                 0.930925449     -82.2975802
9.291                0.930700961      -82.444892
9.292                0.930475759     -82.5926132
9.293                0.930249842     -82.7407451
9.294                 0.93002321      -82.889289
9.295                0.929795863     -83.0382462
9.296                  0.9295678     -83.1876182
9.297                 0.92933902     -83.3374062
9.298                0.929109522     -83.4876115
9.299                0.928879307     -83.6382356
9.3                  0.928648375     -83.7892798
9.301                0.928416723     -83.9407455
9.302                0.928184353      -84.092634
9.303                0.927951263     -84.2449467
9.304                0.927717453     -84.3976849
9.305                0.927482924       -84.55085
9.306                0.927247674     -84.7044434
9.307                0.927011703     -84.8584665
9.308                0.926775011     -85.0129206
9.309                0.926537598      -85.167807
9.31                 0.926299464     -85.3231273
9.311                0.926060608     -85.4788828
9.312                0.925821029     -85.6350747
9.313                0.925580729     -85.7917047
9.314                0.925339706     -85.9487739
9.315                0.925097961     -86.1062838
9.316                0.924855494     -86.2642359
9.317                0.924612304     -86.4226314
9.318                0.924368391     -86.5814719
9.319                0.924123756     -86.7407586
9.32                 0.923878398      -86.900493
9.321                0.923632318     -87.0606764
9.322                0.923385515     -87.2213104
9.323                 0.92313799     -87.3823963
9.324                0.922889742     -87.5439354
9.325                0.922640773     -87.7059293
9.326                0.922391081     -87.8683792
9.327                0.922140668     -88.0312867
9.328                0.921889533     -88.1946531
9.329                0.921637677     -88.3584799
9.33                 0.921385099     -88.5227684
9.331                0.921131802     -88.6875201
9.332                0.920877784     -88.8527364
9.333                0.920623046     -89.0184187
9.334                0.920367589     -89.1845685
9.335                0.920111413      -89.351187
9.336                0.919854519     -89.5182759
9.337                0.919596906     -89.6858364
9.338                0.919338576     -89.8538701
9.339                 0.91907953     -90.0223782
9.34                 0.918819767     -90.1913624
9.341                0.918559289     -90.3608239
9.342                0.918298096     -90.5307642
9.343                 0.91803619     -90.7011848
9.344                 0.91777357      -90.872087
9.345                0.917510238     -91.0434724
9.346                0.917246194     -91.2153422
9.347                0.916981439      -91.387698
9.348                0.916715975     -91.5605411
9.349                0.916449803     -91.7338731
9.35                 0.916182922     -91.9076952
9.351                0.915915335      -92.082009
9.352                0.915647043     -92.2568159
9.353                0.915378046     -92.4321173
9.354                0.915108346     -92.6079147
9.355                0.914837944     -92.7842094
9.356                0.914566841     -92.9610028
9.357                0.914295039     -93.1382965
9.358                 0.91402254     -93.3160919
9.359                0.913749343     -93.4943902
9.36                 0.913475451     -93.6731931
9.361                0.913200866     -93.8525019
9.362                0.912925589      -94.032318
9.363                0.912649621     -94.2126429
9.364                0.912372965     -94.3934779
9.365                0.912095621     -94.5748245
9.366                0.911817592     -94.7566841
9.367                0.911538879     -94.9390581
9.368                0.911259484      -95.121948
9.369                 0.91097941     -95.3053551
9.37                 0.910698657     -95.4892809
9.371                0.910417229     -95.6737267
9.372                0.910135127      -95.858694
9.373                0.909852353     -96.0441842
9.374                0.909568909     -96.2301987
9.375                0.909284798     -96.4167388
9.376                0.909000022     -96.6038061
9.377                0.908714582     -96.7914018
9.378                0.908428483     -96.9795274
9.379                0.908141725     -97.1681842
9.38                 0.907854311     -97.3573737
9.381                0.907566245     -97.5470973
9.382                0.907277528     -97.7373562
9.383                0.906988163      -97.928152
9.384                0.906698153     -98.1194859
9.385                0.906407501     -98.3113594
9.386                 0.90611621     -98.5037738
9.387                0.905824282     -98.6967305
9.388                 0.90553172     -98.8902309
9.389                0.905238528     -99.0842762
9.39                 0.904944708      -99.278868
9.391                0.904650264     -99.4740074
9.392                0.904355199     -99.6696959
9.393                0.904059516     -99.8659348
9.394                0.903763219     -100.062725
9.395                0.903466311     -100.260069
9.396                0.903168795     -100.457967
