! TOUCHSTONE file generated by CST DESIGN STUDIO
! Date and time: Tue Feb  4 18:28:32 2025
! Project name: C:\Work\MatlabApps\UnitCellOptimizationMatlab\CST\unitcell.cst
! Tree item: Tasks\Sweep1\SPara1\S-Parameters
! Header version: 2024
! Port assignment regex: !\s*Touchstone port\s*([0-9]+)\s*=\s*(CST MWS port|CST DES external port|CST DES block port)\s*(.+)\s* \(\"(.*)\"\)(\s*mode\s*([0-9]+))?.*
! Touchstone port assignment:
! Touchstone port 1 = CST DES external port 1 ("")
# GHz S MA R 50
9                    0.963665387     -52.2497212
9.001                0.963597201     -52.3169568
9.002                0.963528807     -52.3843372
9.003                0.963460204     -52.4518627
9.004                0.963391391     -52.5195337
9.005                0.963322368     -52.5873508
9.006                0.963253134     -52.6553144
9.007                0.963183688     -52.7234249
9.008                 0.96311403     -52.7916828
9.009                0.963044158     -52.8600885
9.01                 0.962974072     -52.9286426
9.011                0.962903772     -52.9973453
9.012                0.962833256     -53.0661973
9.013                0.962762524      -53.135199
9.014                0.962691575     -53.2043508
9.015                0.962620409     -53.2736532
9.016                0.962549024     -53.3431067
9.017                 0.96247742     -53.4127118
9.018                0.962405596     -53.4824688
9.019                0.962333552     -53.5523783
9.02                 0.962261287     -53.6224408
9.021                0.962188799     -53.6926567
9.022                0.962116089     -53.7630265
9.023                0.962043155     -53.8335507
9.024                0.961969996     -53.9042298
9.025                0.961896613     -53.9750642
9.026                0.961823004     -54.0460545
9.027                0.961749168     -54.1172011
9.028                0.961675105     -54.1885044
9.029                0.961600814     -54.2599651
9.03                 0.961526293     -54.3315836
9.031                0.961451543     -54.4033603
9.032                0.961376563     -54.4752958
9.033                0.961301352     -54.5473906
9.034                0.961225908     -54.6196451
9.035                0.961150232       -54.69206
9.036                0.961074322     -54.7646355
9.037                0.960998177     -54.8373724
9.038                0.960921798      -54.910271
9.039                0.960845183      -54.983332
9.04                  0.96076833     -55.0565557
9.041                0.960691241     -55.1299427
9.042                0.960613913     -55.2034936
9.043                0.960536345     -55.2772088
9.044                0.960458538     -55.3510888
9.045                 0.96038049     -55.4251342
9.046                0.960302201     -55.4993455
9.047                0.960223669     -55.5737232
9.048                0.960144894     -55.6482679
9.049                0.960065874       -55.72298
9.05                  0.95998661     -55.7978601
9.051                0.959907101     -55.8729087
9.052                0.959827345     -55.9481264
9.053                0.959747341     -56.0235137
9.054                0.959667089     -56.0990711
9.055                0.959586589     -56.1747992
9.056                0.959505838     -56.2506984
9.057                0.959424837     -56.3267694
9.058                0.959343584     -56.4030127
9.059                0.959262079     -56.4794288
9.06                 0.959180321     -56.5560183
9.061                0.959098308     -56.6327818
9.062                0.959016041     -56.7097197
9.063                0.958933518     -56.7868326
9.064                0.958850738     -56.8641212
9.065                0.958767701     -56.9415858
9.066                0.958684406     -57.0192272
9.067                0.958600851     -57.0970459
9.068                0.958517036     -57.1750424
9.069                 0.95843296     -57.2532173
9.07                 0.958348623     -57.3315712
9.071                0.958264022     -57.4101046
9.072                0.958179158     -57.4888181
9.073                 0.95809403     -57.5677123
9.074                0.958008636     -57.6467877
9.075                0.957922976      -57.726045
9.076                0.957837049     -57.8054847
9.077                0.957750854     -57.8851075
9.078                 0.95766439     -57.9649138
9.079                0.957577657     -58.0449042
9.08                 0.957490652     -58.1250795
9.081                0.957403376     -58.2054401
9.082                0.957315828     -58.2859866
9.083                0.957228006     -58.3667197
9.084                0.957139909     -58.4476399
9.085                0.957051538     -58.5287478
9.086                 0.95696289     -58.6100441
9.087                0.956873965     -58.6915293
9.088                0.956784763     -58.7732041
9.089                0.956695281     -58.8550691
9.09                  0.95660552     -58.9371248
9.091                0.956515478     -59.0193719
9.092                0.956425154      -59.101811
9.093                0.956334547     -59.1844427
9.094                0.956243657     -59.2672676
9.095                0.956152483     -59.3502864
9.096                0.956061023     -59.4334996
9.097                0.955969277      -59.516908
9.098                0.955877243     -59.6005121
9.099                0.955784922     -59.6843126
9.1                  0.955692311     -59.7683101
9.101                 0.95559941     -59.8525051
9.102                0.955506217     -59.9368985
9.103                0.955412733     -60.0214908
9.104                0.955318956     -60.1062826
9.105                0.955224885     -60.1912746
9.106                0.955130519     -60.2764675
9.107                0.955035857     -60.3618618
9.108                0.954940898     -60.4474583
9.109                0.954845641     -60.5332576
9.11                 0.954750085     -60.6192604
9.111                 0.95465423     -60.7054672
9.112                0.954558074     -60.7918788
9.113                0.954461616     -60.8784959
9.114                0.954364856     -60.9653191
9.115                0.954267792      -61.052349
9.116                0.954170423     -61.1395863
9.117                0.954072748     -61.2270318
9.118                0.953974767     -61.3146861
9.119                0.953876478     -61.4025498
9.12                 0.953777881     -61.4906237
9.121                0.953678974     -61.5789083
9.122                0.953579756     -61.6674045
9.123                0.953480226     -61.7561129
9.124                0.953380384     -61.8450342
9.125                0.953280229     -61.9341691
9.126                0.953179758     -62.0235182
9.127                0.953078972     -62.1130823
9.128                 0.95297787      -62.202862
9.129                0.952876449     -62.2928582
9.13                  0.95277471     -62.3830714
9.131                0.952672651     -62.4735024
9.132                0.952570272     -62.5641518
9.133                 0.95246757     -62.6550205
9.134                0.952364546     -62.7461091
9.135                0.952261198     -62.8374183
9.136                0.952157526     -62.9289489
9.137                0.952053527     -63.0207016
9.138                0.951949201      -63.112677
9.139                0.951844548      -63.204876
9.14                 0.951739566     -63.2972992
9.141                0.951634253     -63.3899475
9.142                 0.95152861     -63.4828214
9.143                0.951422634     -63.5759218
9.144                0.951316326     -63.6692494
9.145                0.951209683     -63.7628049
9.146                0.951102705     -63.8565892
9.147                 0.95099539     -63.9506028
9.148                0.950887739     -64.0448467
9.149                0.950779749     -64.1393214
9.15                 0.950671419     -64.2340279
9.151                 0.95056275     -64.3289668
9.152                0.950453738     -64.4241389
9.153                0.950344384      -64.519545
9.154                0.950234687     -64.6151859
9.155                0.950124645     -64.7110622
9.156                0.950014256     -64.8071748
9.157                0.949903522     -64.9035245
9.158                0.949792439      -65.000112
9.159                0.949681007     -65.0969381
9.16                 0.949569226     -65.1940036
9.161                0.949457093     -65.2913093
9.162                0.949344608     -65.3888559
9.163                 0.94923177     -65.4866443
9.164                0.949118578     -65.5846752
9.165                 0.94900503     -65.6829495
9.166                0.948891126     -65.7814679
9.167                0.948776864     -65.8802312
9.168                0.948662244     -65.9792403
9.169                0.948547264     -66.0784959
9.17                 0.948431923     -66.1779989
9.171                 0.94831622     -66.2777501
9.172                0.948200155     -66.3777502
9.173                0.948083725     -66.4780001
9.174                0.947966931     -66.5785006
9.175                 0.94784977     -66.6792526
9.176                0.947732243     -66.7802569
9.177                0.947614346     -66.8815142
9.178                0.947496081     -66.9830255
9.179                0.947377445     -67.0847915
9.18                 0.947258437     -67.1868131
9.181                0.947139057     -67.2890911
9.182                0.947019303     -67.3916265
9.183                0.946899174     -67.4944199
9.184                0.946778669     -67.5974723
9.185                0.946657788     -67.7007845
9.186                0.946536528     -67.8043574
9.187                0.946414889     -67.9081919
9.188                0.946292869     -68.0122887
9.189                0.946170469     -68.1166487
9.19                 0.946047686     -68.2212729
9.191                0.945924519      -68.326162
9.192                0.945800968      -68.431317
9.193                0.945677031     -68.5367387
9.194                0.945552707     -68.6424281
9.195                0.945427995     -68.7483858
9.196                0.945302895      -68.854613
9.197                0.945177404     -68.9611104
9.198                0.945051522     -69.0678789
9.199                0.944925248     -69.1749194
9.2                  0.944798581     -69.2822329
9.201                0.944671519     -69.3898201
9.202                0.944544062     -69.4976821
9.203                0.944416208     -69.6058196
9.204                0.944287956     -69.7142337
9.205                0.944159306     -69.8229252
9.206                0.944030256      -69.931895
9.207                0.943900805     -70.0411441
9.208                0.943770952     -70.1506733
9.209                0.943640696     -70.2604836
9.21                 0.943510035     -70.3705759
9.211                 0.94337897     -70.4809511
9.212                0.943247498     -70.5916102
9.213                0.943115619      -70.702554
9.214                0.942983331     -70.8137836
9.215                0.942850634     -70.9252998
9.216                0.942717526     -71.0371036
9.217                0.942584006     -71.1491959
9.218                0.942450074     -71.2615777
9.219                0.942315728     -71.3742499
9.22                 0.942180967     -71.4872135
9.221                 0.94204579     -71.6004694
9.222                0.941910197     -71.7140186
9.223                0.941774185      -71.827862
9.224                0.941637754     -71.9420006
9.225                0.941500902     -72.0564354
9.226                 0.94136363     -72.1711674
9.227                0.941225935     -72.2861974
9.228                0.941087817     -72.4015265
9.229                0.940949275     -72.5171557
9.23                 0.940810307     -72.6330859
9.231                0.940670913     -72.7493181
9.232                0.940531092     -72.8658533
9.233                0.940390842     -72.9826925
9.234                0.940250162     -73.0998367
9.235                0.940109052     -73.2172869
9.236                 0.93996751      -73.335044
9.237                0.939825536     -73.4531091
9.238                0.939683128     -73.5714832
9.239                0.939540285     -73.6901672
9.24                 0.939397007     -73.8091622
9.241                0.939253292     -73.9284693
9.242                0.939109139     -74.0480893
9.243                0.938964548     -74.1680234
9.244                0.938819517     -74.2882725
9.245                0.938674046     -74.4088377
9.246                0.938528133     -74.5297199
9.247                0.938381777     -74.6509203
9.248                0.938234978     -74.7724399
9.249                0.938087734     -74.8942796
9.25                 0.937940045     -75.0164406
9.251                0.937791909     -75.1389238
9.252                0.937643326     -75.2617303
9.253                0.937494294     -75.3848612
9.254                0.937344814     -75.5083174
9.255                0.937194882     -75.6321001
9.256                  0.9370445     -75.7562103
9.257                0.936893666     -75.8806491
9.258                0.936742378     -76.0054175
9.259                0.936590636     -76.1305166
9.26                  0.93643844     -76.2559474
9.261                0.936285788      -76.381711
9.262                0.936132679     -76.5078085
9.263                0.935979112     -76.6342409
9.264                0.935825087     -76.7610094
9.265                0.935670603     -76.8881149
9.266                0.935515658     -77.0155587
9.267                0.935360252     -77.1433417
9.268                0.935204384     -77.2714651
9.269                0.935048054     -77.3999299
9.27                 0.934891259     -77.5287373
9.271                0.934734001     -77.6578883
9.272                0.934576277      -77.787384
9.273                0.934418086     -77.9172256
9.274                0.934259429      -78.047414
9.275                0.934100304     -78.1779505
9.276                 0.93394071     -78.3088362
9.277                0.933780647     -78.4400721
9.278                0.933620114     -78.5716593
9.279                 0.93345911     -78.7035991
9.28                 0.933297634     -78.8358924
9.281                0.933135686     -78.9685404
9.282                0.932973264     -79.1015443
9.283                0.932810369     -79.2349052
9.284                0.932646999     -79.3686241
9.285                0.932483154     -79.5027023
9.286                0.932318832     -79.6371408
9.287                0.932154034     -79.7719408
9.288                0.931988758     -79.9071034
9.289                0.931823004     -80.0426298
9.29                 0.931656771     -80.1785211
9.291                0.931490059     -80.3147784
9.292                0.931322866      -80.451403
9.293                0.931155193     -80.5883959
9.294                0.930987039     -80.7257583
9.295                0.930818402     -80.8634913
9.296                0.930649283     -81.0015962
9.297                0.930479681      -81.140074
9.298                0.930309595      -81.278926
9.299                0.930139025     -81.4181533
9.3                   0.92996797      -81.557757
9.301                0.929796429     -81.6977383
9.302                0.929624403     -81.8380984
9.303                 0.92945189     -81.9788385
9.304                 0.92927889     -82.1199598
9.305                0.929105403     -82.2614633
9.306                0.928931428     -82.4033504
9.307                0.928756965     -82.5456221
9.308                0.928582013     -82.6882796
9.309                0.928406572     -82.8313242
9.31                 0.928230641     -82.9747571
9.311                 0.92805422     -83.1185793
9.312                0.927877309     -83.2627921
9.313                0.927699906     -83.4073968
9.314                0.927522013     -83.5523944
9.315                0.927343629     -83.6977862
9.316                0.927164752     -83.8435734
9.317                0.926985384     -83.9897571
9.318                0.926805523     -84.1363386
9.319                 0.92662517     -84.2833191
9.32                 0.926444324     -84.4306998
9.321                0.926262984     -84.5784819
9.322                0.926081152     -84.7266666
9.323                0.925898825      -84.875255
9.324                0.925716006     -85.0242485
9.325                0.925532692     -85.1736482
9.326                0.925348884     -85.3234554
9.327                0.925164582     -85.4736712
9.328                0.924979786     -85.6242968
9.329                0.924794496     -85.7753336
9.33                 0.924608711     -85.9267826
9.331                0.924422431     -86.0786452
9.332                0.924235658     -86.2309225
9.333                0.924048389     -86.3836157
9.334                0.923860626     -86.5367262
9.335                0.923672369     -86.6902551
9.336                0.923483618     -86.8442036
9.337                0.923294372      -86.998573
9.338                0.923104632     -87.1533644
9.339                0.922914398     -87.3085792
9.34                 0.922723669     -87.4642186
9.341                0.922532447     -87.6202837
9.342                0.922340732     -87.7767758
9.343                0.922148523     -87.9336962
9.344                0.921955821      -88.091046
9.345                0.921762626     -88.2488266
9.346                0.921568939     -88.4070391
9.347                0.921374759     -88.5656848
9.348                0.921180087     -88.7247648
9.349                0.920984924     -88.8842806
9.35                 0.920789269     -89.0442332
9.351                0.920593124     -89.2046239
9.352                0.920396488      -89.365454
9.353                0.920199362     -89.5267247
9.354                0.920001747     -89.6884372
9.355                0.919803643     -89.8505928
9.356                0.919605051     -90.0131926
9.357                 0.91940597      -90.176238
9.358                0.919206403     -90.3397302
9.359                0.919006349     -90.5036704
9.36                 0.918805809     -90.6680599
9.361                0.918604784     -90.8328998
9.362                0.918403274     -90.9981915
9.363                0.918201281     -91.1639362
9.364                0.917998804      -91.330135
9.365                0.917795846     -91.4967892
9.366                0.917592406     -91.6639002
9.367                0.917388485      -91.831469
9.368                0.917184085      -91.999497
9.369                0.916979206     -92.1679853
9.37                  0.91677385     -92.3369353
9.371                0.916568016      -92.506348
9.372                0.916361707     -92.6762249
9.373                0.916154924      -92.846567
9.374                0.915947666     -93.0173756
9.375                0.915739937      -93.188652
9.376                0.915531736     -93.3603974
9.377                0.915323065      -93.532613
9.378                0.915113925        -93.7053
9.379                0.914904318     -93.8784596
9.38                 0.914694244     -94.0520931
9.381                0.914483705     -94.2262017
9.382                0.914272703     -94.4007866
9.383                0.914061239      -94.575849
9.384                0.913849314     -94.7513902
9.385                0.913636929     -94.9274113
9.386                0.913424087     -95.1039135
9.387                0.913210789     -95.2808981
9.388                0.912997036     -95.4583663
9.389                0.912782831     -95.6363192
9.39                 0.912568174     -95.8147582
9.391                0.912353068     -95.9936842
9.392                0.912137514     -96.1730987
9.393                0.911921513     -96.3530027
9.394                0.911705069     -96.5333975
9.395                0.911488183     -96.7142842
9.396                0.911270856     -96.8956641
