! TOUCHSTONE file generated by CST DESIGN STUDIO
! Date and time: Tue Feb  4 18:28:25 2025
! Project name: C:\Work\MatlabApps\UnitCellOptimizationMatlab\CST\unitcell.cst
! Tree item: Tasks\Sweep1\SPara1\S-Parameters
! Header version: 2024
! Port assignment regex: !\s*Touchstone port\s*([0-9]+)\s*=\s*(CST MWS port|CST DES external port|CST DES block port)\s*(.+)\s* \(\"(.*)\"\)(\s*mode\s*([0-9]+))?.*
! Touchstone port assignment:
! Touchstone port 1 = CST DES external port 1 ("")
# GHz S MA R 50
9                    0.955592053      -68.043603
9.001                0.955485888     -68.1437568
9.002                0.955379389     -68.2441581
9.003                0.955272554     -68.3448075
9.004                0.955165383     -68.4457059
9.005                0.955057875     -68.5468541
9.006                0.954950028     -68.6482528
9.007                0.954841842     -68.7499029
9.008                0.954733315     -68.8518051
9.009                0.954624447     -68.9539603
9.01                 0.954515236     -69.0563694
9.011                0.954405682      -69.159033
9.012                0.954295784      -69.261952
9.013                0.954185539     -69.3651273
9.014                0.954074949     -69.4685597
9.015                0.953964011     -69.5722499
9.016                0.953852724     -69.6761988
9.017                0.953741087     -69.7804073
9.018                  0.9536291     -69.8848761
9.019                0.953516762     -69.9896061
9.02                 0.953404071     -70.0945982
9.021                0.953291026     -70.1998531
9.022                0.953177626     -70.3053718
9.023                0.953063871      -70.411155
9.024                0.952949759     -70.5172036
9.025                 0.95283529     -70.6235185
9.026                0.952720462     -70.7301005
9.027                0.952605274     -70.8369504
9.028                0.952489725     -70.9440692
9.029                0.952373814     -71.0514577
9.03                 0.952257541     -71.1591167
9.031                0.952140904     -71.2670471
9.032                0.952023902     -71.3752498
9.033                0.951906534     -71.4837256
9.034                  0.9517888     -71.5924754
9.035                0.951670697     -71.7015002
9.036                0.951552226     -71.8108007
9.037                0.951433385     -71.9203779
9.038                0.951314173     -72.0302326
9.039                0.951194589     -72.1403657
9.04                 0.951074632     -72.2507782
9.041                0.950954301     -72.3614708
9.042                0.950833595     -72.4724445
9.043                0.950712514     -72.5837003
9.044                0.950591055     -72.6952389
9.045                0.950469219     -72.8070613
9.046                0.950347003     -72.9191685
9.047                0.950224408     -73.0315612
9.048                0.950101432     -73.1442404
9.049                0.949978074     -73.2572071
9.05                 0.949854332     -73.3704621
9.051                0.949730207     -73.4840064
9.052                0.949605698     -73.5978409
9.053                0.949480802     -73.7119664
9.054                0.949355519      -73.826384
9.055                0.949229848     -73.9410946
9.056                0.949103789      -74.056099
9.057                 0.94897734     -74.1713983
9.058                0.948850499     -74.2869933
9.059                0.948723267      -74.402885
9.06                 0.948595643     -74.5190744
9.061                0.948467624     -74.6355623
9.062                0.948339211     -74.7523497
9.063                0.948210402     -74.8694377
9.064                0.948081197      -74.986827
9.065                0.947951593     -75.1045188
9.066                0.947821592     -75.2225139
9.067                 0.94769119     -75.3408132
9.068                0.947560389     -75.4594179
9.069                0.947429185     -75.5783287
9.07                  0.94729758     -75.6975468
9.071                0.947165571      -75.817073
9.072                0.947033158     -75.9369083
9.073                0.946900339     -76.0570538
9.074                0.946767115     -76.1775103
9.075                0.946633483     -76.2982789
9.076                0.946499444     -76.4193605
9.077                0.946364995     -76.5407562
9.078                0.946230137     -76.6624668
9.079                0.946094867     -76.7844935
9.08                 0.945959187     -76.9068372
9.081                0.945823093     -77.0294989
9.082                0.945686586     -77.1524795
9.083                0.945549665     -77.2757802
9.084                0.945412329     -77.3994018
9.085                0.945274576     -77.5233455
9.086                0.945136406     -77.6476121
9.087                0.944997819     -77.7722028
9.088                0.944858812     -77.8971185
9.089                0.944719386     -78.0223602
9.09                  0.94457954      -78.147929
9.091                0.944439272     -78.2738258
9.092                0.944298581     -78.4000518
9.093                0.944157468     -78.5266079
9.094                0.944015931     -78.6534951
9.095                0.943873969     -78.7807145
9.096                0.943731582     -78.9082671
9.097                0.943588768     -79.0361539
9.098                0.943445527     -79.1643761
9.099                0.943301858     -79.2929345
9.1                   0.94315776     -79.4218303
9.101                0.943013232     -79.5510645
9.102                0.942868274     -79.6806381
9.103                0.942722885     -79.8105522
9.104                0.942577064     -79.9408079
9.105                 0.94243081     -80.0714062
9.106                0.942284123     -80.2023481
9.107                0.942137001     -80.3336347
9.108                0.941989445      -80.465267
9.109                0.941841452     -80.5972462
9.11                 0.941693024     -80.7295733
9.111                0.941544158     -80.8622493
9.112                0.941394854     -80.9952753
9.113                0.941245111     -81.1286524
9.114                 0.94109493     -81.2623817
9.115                0.940944308     -81.3964642
9.116                0.940793245      -81.530901
9.117                0.940641742     -81.6656932
9.118                0.940489796     -81.8008418
9.119                0.940337408      -81.936348
9.12                 0.940184576     -82.0722128
9.121                  0.9400313     -82.2084374
9.122                 0.93987758     -82.3450227
9.123                0.939723415     -82.4819699
9.124                0.939568804     -82.6192801
9.125                0.939413746     -82.7569544
9.126                0.939258242     -82.8949938
9.127                 0.93910229     -83.0333995
9.128                 0.93894589     -83.1721726
9.129                0.938789042     -83.3113142
9.13                 0.938631744     -83.4508253
9.131                0.938473997      -83.590707
9.132                0.938315799     -83.7309606
9.133                0.938157151      -83.871587
9.134                0.937998052     -84.0125875
9.135                0.937838501      -84.153963
9.136                0.937678497     -84.2957148
9.137                0.937518041     -84.4378439
9.138                0.937357133     -84.5803514
9.139                 0.93719577     -84.7232386
9.14                 0.937033954     -84.8665064
9.141                0.936871684      -85.010156
9.142                0.936708958     -85.1541885
9.143                0.936545778     -85.2986051
9.144                0.936382143     -85.4434068
9.145                0.936218051     -85.5885949
9.146                0.936053504     -85.7341704
9.147                  0.9358885     -85.8801344
9.148                0.935723039     -86.0264881
9.149                0.935557122     -86.1732327
9.15                 0.935390747     -86.3203692
9.151                0.935223914     -86.4678988
9.152                0.935056624     -86.6158226
9.153                0.934888876     -86.7641418
9.154                 0.93472067     -86.9128574
9.155                0.934552005     -87.0619707
9.156                0.934382882     -87.2114828
9.157                  0.9342133     -87.3613947
9.158                0.934043259     -87.5117078
9.159                0.933872759      -87.662423
9.16                 0.933701799     -87.8135415
9.161                0.933530381     -87.9650646
9.162                0.933358503     -88.1169932
9.163                0.933186166     -88.2693287
9.164                 0.93301337      -88.422072
9.165                0.932840114     -88.5752244
9.166                0.932666399      -88.728787
9.167                0.932492224      -88.882761
9.168                 0.93231759     -89.0371475
9.169                0.932142497     -89.1919477
9.17                 0.931966945     -89.3471626
9.171                0.931790933     -89.5027935
9.172                0.931614462     -89.6588415
9.173                0.931437533     -89.8153078
9.174                0.931260145     -89.9721934
9.175                0.931082298     -90.1294997
9.176                0.930903993     -90.2872276
9.177                 0.93072523     -90.4453784
9.178                0.930546009     -90.6039532
9.179                 0.93036633     -90.7629532
9.18                 0.930186195     -90.9223795
9.181                0.930005602     -91.0822332
9.182                0.929824552     -91.2425156
9.183                0.929643047     -91.4032277
9.184                0.929461085     -91.5643707
9.185                0.929278668     -91.7259458
9.186                0.929095796     -91.8879542
9.187                0.928912469     -92.0503969
9.188                0.928728688     -92.2132751
9.189                0.928544454       -92.37659
9.19                 0.928359766     -92.5403426
9.191                0.928174626     -92.7045343
9.192                0.927989034     -92.8691661
9.193                0.927802991     -93.0342391
9.194                0.927616497     -93.1997545
9.195                0.927429553     -93.3657134
9.196                0.927242159     -93.5321171
9.197                0.927054317     -93.6989665
9.198                0.926866028      -93.866263
9.199                0.926677291     -94.0340075
9.2                  0.926488107     -94.2022013
9.201                0.926298479     -94.3708455
9.202                0.926108405     -94.5399412
9.203                0.925917888     -94.7094896
9.204                0.925726928     -94.8794917
9.205                0.925535527     -95.0499488
9.206                0.925343684     -95.2208619
9.207                0.925151402     -95.3922323
9.208                0.924958681     -95.5640609
9.209                0.924765522     -95.7363489
9.21                 0.924571926     -95.9090975
9.211                0.924377895     -96.0823078
9.212                 0.92418343     -96.2559809
9.213                0.923988531     -96.4301179
9.214                  0.9237932       -96.60472
9.215                0.923597439     -96.7797881
9.216                0.923401249     -96.9553236
9.217                0.923204631     -97.1313273
9.218                0.923007585     -97.3078006
9.219                0.922810115     -97.4847444
9.22                 0.922612221     -97.6621599
9.221                0.922413905     -97.8400481
9.222                0.922215167     -98.0184102
9.223                0.922016011     -98.1972472
9.224                0.921816437     -98.3765603
9.225                0.921616447     -98.5563505
9.226                0.921416042     -98.7366189
9.227                0.921215225     -98.9173666
9.228                0.921013996     -99.0985946
9.229                0.920812359     -99.2803041
9.23                 0.920610314     -99.4624961
9.231                0.920407863     -99.6451716
9.232                0.920205009     -99.8283317
9.233                0.920001753     -100.011978
9.234                0.919798098      -100.19611
9.235                0.919594044      -100.38073
9.236                0.919389595     -100.565839
9.237                0.919184752     -100.751438
9.238                0.918979517     -100.937528
9.239                0.918773894      -101.12411
9.24                 0.918567883     -101.311185
9.241                0.918361487     -101.498754
9.242                0.918154708     -101.686817
9.243                 0.91794755     -101.875377
9.244                0.917740013     -102.064434
9.245                0.917532101     -102.253989
9.246                0.917323816     -102.444042
9.247                 0.91711516     -102.634596
9.248                0.916906137     -102.825651
9.249                0.916696748     -103.017208
9.25                 0.916486996     -103.209267
9.251                0.916276885     -103.401831
9.252                0.916066416       -103.5949
9.253                0.915855593     -103.788474
9.254                0.915644418     -103.982555
9.255                0.915432894     -104.177144
9.256                0.915221025     -104.372241
9.257                0.915008813     -104.567848
9.258                0.914796261     -104.763966
9.259                0.914583372     -104.960595
9.26                  0.91437015     -105.157736
9.261                0.914156597     -105.355391
9.262                0.913942717      -105.55356
9.263                0.913728513     -105.752244
9.264                0.913513988     -105.951444
9.265                0.913299146      -106.15116
9.266                 0.91308399     -106.351394
9.267                0.912868524     -106.552147
9.268                0.912652751      -106.75342
9.269                0.912436675     -106.955212
9.27                 0.912220299     -107.157526
9.271                0.912003627     -107.360361
9.272                0.911786663     -107.563719
9.273                 0.91156941     -107.767601
9.274                0.911351873     -107.972007
9.275                0.911134055     -108.176938
9.276                0.910915961     -108.382395
9.277                0.910697594     -108.588379
9.278                0.910478958      -108.79489
9.279                0.910260057     -109.001929
9.28                 0.910040896     -109.209497
9.281                0.909821479     -109.417595
9.282                 0.90960181     -109.626224
9.283                0.909381893     -109.835383
9.284                0.909161733     -110.045075
9.285                0.908941335     -110.255299
9.286                0.908720702     -110.466056
9.287                 0.90849984     -110.677347
9.288                0.908278752     -110.889173
9.289                0.908057445     -111.101534
9.29                 0.907835921      -111.31443
9.291                0.907614187     -111.527864
9.292                0.907392247     -111.741834
9.293                0.907170106     -111.956342
9.294                0.906947769     -112.171389
9.295                0.906725241     -112.386974
9.296                0.906502527     -112.603099
9.297                0.906279632     -112.819764
9.298                0.906056561      -113.03697
9.299                0.905833321     -113.254716
9.3                  0.905609915     -113.473005
9.301                 0.90538635     -113.691835
9.302                 0.90516263     -113.911208
9.303                0.904938762     -114.131125
9.304                0.904714751     -114.351585
9.305                0.904490603     -114.572589
9.306                0.904266323     -114.794138
9.307                0.904041917     -115.016232
9.308                0.903817391     -115.238871
9.309                0.903592751     -115.462056
9.31                 0.903368002     -115.685787
9.311                0.903143152     -115.910064
9.312                0.902918205     -116.134889
9.313                0.902693168     -116.360261
9.314                0.902468047      -116.58618
9.315                0.902242849     -116.812648
9.316                0.902017579     -117.039663
9.317                0.901792245     -117.267228
9.318                0.901566852     -117.495341
9.319                0.901341407     -117.724003
9.32                 0.901115917     -117.953214
9.321                0.900890389     -118.182975
9.322                0.900664828     -118.413285
9.323                0.900439243     -118.644146
9.324                0.900213638     -118.875556
9.325                0.899988023     -119.107517
9.326                0.899762403     -119.340028
9.327                0.899536785      -119.57309
9.328                0.899311177     -119.806702
9.329                0.899085586     -120.040865
9.33                 0.898860019     -120.275578
9.331                0.898634483     -120.510843
9.332                0.898408986     -120.746658
9.333                0.898183534     -120.983024
9.334                0.897958136     -121.219941
9.335                0.897732799     -121.457409
9.336                0.897507531     -121.695427
9.337                0.897282339     -121.933997
9.338                0.897057231     -122.173117
9.339                0.896832215     -122.412787
9.34                 0.896607298     -122.653008
9.341                0.896382488     -122.893779
9.342                0.896157795     -123.135101
9.343                0.895933224     -123.376972
9.344                0.895708785     -123.619393
9.345                0.895484486     -123.862364
9.346                0.895260335     -124.105884
9.347                 0.89503634     -124.349953
9.348                 0.89481251      -124.59457
9.349                0.894588853     -124.839737
9.35                 0.894365377     -125.085451
9.351                0.894142091     -125.331713
9.352                0.893919003     -125.578523
9.353                0.893696123     -125.825879
9.354                0.893473459     -126.073783
9.355                0.893251019     -126.322232
9.356                0.893028812     -126.571228
9.357                0.892806848     -126.820768
9.358                0.892585135     -127.070854
9.359                0.892363683     -127.321483
9.36                 0.892142499     -127.572657
9.361                0.891921594     -127.824373
9.362                0.891700977     -128.076632
9.363                0.891480656     -128.329433
9.364                0.891260641     -128.582776
9.365                0.891040942     -128.836659
9.366                0.890821567     -129.091082
9.367                0.890602527     -129.346044
9.368                 0.89038383     -129.601545
9.369                0.890165486     -129.857583
9.37                 0.889947505     -130.114159
9.371                0.889729896      -130.37127
9.372                 0.88951267     -130.628917
9.373                0.889295835     -130.887099
9.374                0.889079402     -131.145814
9.375                0.888863381     -131.405062
9.376                 0.88864778     -131.664841
9.377                0.888432611     -131.925152
9.378                0.888217884     -132.185992
9.379                0.888003608     -132.447361
9.38                 0.887789793     -132.709257
9.381                0.887576449     -132.971681
9.382                0.887363587      -133.23463
9.383                0.887151218     -133.498103
9.384                 0.88693935       -133.7621
9.385                0.886727995      -134.02662
9.386                0.886517162      -134.29166
9.387                0.886306863     -134.557219
9.388                0.886097107     -134.823298
9.389                0.885887905     -135.089893
9.39                 0.885679268     -135.357005
9.391                0.885471206     -135.624631
9.392                0.885263729      -135.89277
9.393                0.885056848     -136.161422
9.394                0.884850575     -136.430583
9.395                0.884644918     -136.700254
9.396                 0.88443989     -136.970432
