! TOUCHSTONE file generated by CST DESIGN STUDIO
! Date and time: Tue Feb  4 18:28:30 2025
! Project name: C:\Work\MatlabApps\UnitCellOptimizationMatlab\CST\unitcell.cst
! Tree item: Tasks\Sweep1\SPara1\S-Parameters
! Header version: 2024
! Port assignment regex: !\s*Touchstone port\s*([0-9]+)\s*=\s*(CST MWS port|CST DES external port|CST DES block port)\s*(.+)\s* \(\"(.*)\"\)(\s*mode\s*([0-9]+))?.*
! Touchstone port assignment:
! Touchstone port 1 = CST DES external port 1 ("")
# GHz S MA R 50
9                    0.961684307     -56.0480597
9.001                 0.96160712     -56.1224098
9.002                0.961529694     -56.1969265
9.003                0.961452029     -56.2716102
9.004                0.961374125     -56.3464614
9.005                0.961295979     -56.4214808
9.006                0.961217592     -56.4966687
9.007                0.961138963     -56.5720258
9.008                0.961060091     -56.6475525
9.009                0.960980974     -56.7232495
9.01                 0.960901613     -56.7991172
9.011                0.960822006     -56.8751562
9.012                0.960742153      -56.951367
9.013                0.960662053     -57.0277501
9.014                0.960581704     -57.1043061
9.015                0.960501107     -57.1810356
9.016                0.960420259     -57.2579391
9.017                0.960339161     -57.3350171
9.018                0.960257812     -57.4122701
9.019                 0.96017621     -57.4896988
9.02                 0.960094355     -57.5673037
9.021                0.960012246     -57.6450854
9.022                0.959929883     -57.7230443
9.023                0.959847263     -57.8011812
9.024                0.959764387     -57.8794964
9.025                0.959681254     -57.9579906
9.026                0.959597862     -58.0366644
9.027                0.959514211     -58.1155183
9.028                0.959430301     -58.1945529
9.029                0.959346129     -58.2737688
9.03                 0.959261695     -58.3531665
9.031                0.959176999     -58.4327466
9.032                 0.95909204     -58.5125098
9.033                0.959006816     -58.5924565
9.034                0.958921326     -58.6725873
9.035                0.958835571     -58.7529029
9.036                0.958749549     -58.8334039
9.037                0.958663258     -58.9140907
9.038                0.958576699     -58.9949641
9.039                 0.95848987     -59.0760245
9.04                 0.958402771     -59.1572727
9.041                  0.9583154     -59.2387092
9.042                0.958227756     -59.3203345
9.043                 0.95813984     -59.4021494
9.044                0.958051649     -59.4841543
9.045                0.957963183       -59.56635
9.046                0.957874441      -59.648737
9.047                0.957785422     -59.7313159
9.048                0.957696125     -59.8140873
9.049                0.957606549     -59.8970519
9.05                 0.957516694     -59.9802103
9.051                0.957426558      -60.063563
9.052                0.957336141     -60.1471108
9.053                0.957245441     -60.2308542
9.054                0.957154457     -60.3147939
9.055                 0.95706319     -60.3989304
9.056                0.956971637     -60.4832645
9.057                0.956879798     -60.5677967
9.058                0.956787671     -60.6525277
9.059                0.956695257     -60.7374581
9.06                 0.956602554     -60.8225886
9.061                 0.95650956     -60.9079197
9.062                0.956416276     -60.9934523
9.063                  0.9563227     -61.0791868
9.064                0.956228831      -61.165124
9.065                0.956134668     -61.2512644
9.066                0.956040211     -61.3376088
9.067                0.955945457     -61.4241578
9.068                0.955850408      -61.510912
9.069                 0.95575506     -61.5978722
9.07                 0.955659414      -61.685039
9.071                0.955563468     -61.7724129
9.072                0.955467222     -61.8599949
9.073                0.955370675     -61.9477853
9.074                0.955273825     -62.0357851
9.075                0.955176671     -62.1239947
9.076                0.955079213      -62.212415
9.077                 0.95498145     -62.3010465
9.078                 0.95488338       -62.38989
9.079                0.954785003     -62.4789462
9.08                 0.954686317     -62.5682156
9.081                0.954587322     -62.6576991
9.082                0.954488017     -62.7473973
9.083                0.954388401     -62.8373109
9.084                0.954288472     -62.9274407
9.085                 0.95418823     -63.0177872
9.086                0.954087673     -63.1083512
9.087                0.953986801     -63.1991334
9.088                0.953885613     -63.2901345
9.089                0.953784108     -63.3813552
9.09                 0.953682284     -63.4727962
9.091                0.953580141     -63.5644583
9.092                0.953477677     -63.6563421
9.093                0.953374892     -63.7484484
9.094                0.953271785     -63.8407779
9.095                0.953168354     -63.9333313
9.096                0.953064599     -64.0261093
9.097                0.952960518     -64.1191127
9.098                0.952856111     -64.2123422
9.099                0.952751377     -64.3057985
9.1                  0.952646314     -64.3994824
9.101                0.952540921     -64.4933946
9.102                0.952435198     -64.5875358
9.103                0.952329144     -64.6819068
9.104                0.952222756     -64.7765083
9.105                0.952116035     -64.8713411
9.106                 0.95200898     -64.9664059
9.107                0.951901589     -65.0617035
9.108                 0.95179386     -65.1572347
9.109                0.951685795     -65.2530001
9.11                  0.95157739     -65.3490006
9.111                0.951468645     -65.4452369
9.112                 0.95135956     -65.5417098
9.113                0.951250132       -65.63842
9.114                0.951140362     -65.7353684
9.115                0.951030247     -65.8325556
9.116                0.950919788     -65.9299825
9.117                0.950808982     -66.0276499
9.118                0.950697829     -66.1255585
9.119                0.950586328     -66.2237091
9.12                 0.950474477     -66.3221026
9.121                0.950362276     -66.4207396
9.122                0.950249724      -66.519621
9.123                 0.95013682     -66.6187476
9.124                0.950023561     -66.7181202
9.125                0.949909949     -66.8177395
9.126                 0.94979598     -66.9176064
9.127                0.949681655     -67.0177217
9.128                0.949566972     -67.1180862
9.129                0.949451931     -67.2187008
9.13                 0.949336529     -67.3195661
9.131                0.949220767      -67.420683
9.132                0.949104642     -67.5220525
9.133                0.948988155     -67.6236751
9.134                0.948871303     -67.7255519
9.135                0.948754087     -67.8276836
9.136                0.948636504     -67.9300711
9.137                0.948518553     -68.0327152
9.138                0.948400235     -68.1356166
9.139                0.948281547     -68.2387764
9.14                 0.948162488     -68.3421952
9.141                0.948043058      -68.445874
9.142                0.947923255     -68.5498136
9.143                0.947803079     -68.6540148
9.144                0.947682527     -68.7584785
9.145                  0.9475616     -68.8632056
9.146                0.947440296     -68.9681968
9.147                0.947318614     -69.0734531
9.148                0.947196553     -69.1789754
9.149                0.947074112     -69.2847644
9.15                  0.94695129     -69.3908211
9.151                0.946828086     -69.4971463
9.152                0.946704498     -69.6037409
9.153                0.946580526     -69.7106058
9.154                0.946456168     -69.8177418
9.155                0.946331424     -69.9251499
9.156                0.946206293     -70.0328309
9.157                0.946080772     -70.1407858
9.158                0.945954863     -70.2490153
9.159                0.945828562     -70.3575204
9.16                  0.94570187      -70.466302
9.161                0.945574785      -70.575361
9.162                0.945447305     -70.6846983
9.163                0.945319431     -70.7943148
9.164                0.945191161     -70.9042113
9.165                0.945062494     -71.0143889
9.166                0.944933429     -71.1248484
9.167                0.944803964     -71.2355908
9.168                0.944674099     -71.3466169
9.169                0.944543833     -71.4579277
9.17                 0.944413165      -71.569524
9.171                0.944282093      -71.681407
9.172                0.944150617     -71.7935773
9.173                0.944018735     -71.9060361
9.174                0.943886447     -72.0187841
9.175                0.943753751     -72.1318225
9.176                0.943620647      -72.245152
9.177                0.943487133     -72.3587737
9.178                0.943353209     -72.4726884
9.179                0.943218872     -72.5868972
9.18                 0.943084123      -72.701401
9.181                 0.94294896     -72.8162008
9.182                0.942813383     -72.9312974
9.183                0.942677389     -73.0466919
9.184                0.942540979     -73.1623852
9.185                0.942404151     -73.2783783
9.186                0.942266904     -73.3946722
9.187                0.942129237     -73.5112678
9.188                 0.94199115     -73.6281661
9.189                 0.94185264     -73.7453681
9.19                 0.941713708     -73.8628747
9.191                0.941574352      -73.980687
9.192                0.941434571     -74.0988059
9.193                0.941294364     -74.2172325
9.194                 0.94115373     -74.3359676
9.195                0.941012668     -74.4550123
9.196                0.940871177     -74.5743676
9.197                0.940729257     -74.6940345
9.198                0.940586906      -74.814014
9.199                0.940444123     -74.9343071
9.2                  0.940300907     -75.0549148
9.201                0.940157258     -75.1758382
9.202                0.940013174     -75.2970781
9.203                0.939868655     -75.4186357
9.204                0.939723699      -75.540512
9.205                0.939578305     -75.6627079
9.206                0.939432474     -75.7852245
9.207                0.939286202     -75.9080629
9.208                0.939139491      -76.031224
9.209                0.938992338     -76.1547089
9.21                 0.938844743     -76.2785187
9.211                0.938696705     -76.4026543
9.212                0.938548224     -76.5271168
9.213                0.938399297     -76.6519072
9.214                0.938249925     -76.7770266
9.215                0.938100106     -76.9024761
9.216                0.937949839     -77.0282567
9.217                0.937799124     -77.1543693
9.218                 0.93764796     -77.2808152
9.219                0.937496346     -77.4075953
9.22                 0.937344281     -77.5347108
9.221                0.937191764     -77.6621626
9.222                0.937038794     -77.7899518
9.223                0.936885371     -77.9180796
9.224                0.936731493     -78.0465469
9.225                 0.93657716     -78.1753549
9.226                0.936422372     -78.3045046
9.227                0.936267126     -78.4339971
9.228                0.936111423     -78.5638335
9.229                0.935955262     -78.6940149
9.23                 0.935798641     -78.8245423
9.231                 0.93564156     -78.9554169
9.232                0.935484019     -79.0866397
9.233                0.935326016     -79.2182118
9.234                0.935167551     -79.3501343
9.235                0.935008623     -79.4824084
9.236                0.934849231     -79.6150351
9.237                0.934689375     -79.7480155
9.238                0.934529054     -79.8813507
9.239                0.934368267     -80.0150419
9.24                 0.934207013     -80.1490901
9.241                0.934045292     -80.2834965
9.242                0.933883103     -80.4182622
9.243                0.933720446     -80.5533882
9.244                0.933557319     -80.6888758
9.245                0.933393722     -80.8247259
9.246                0.933229655     -80.9609399
9.247                0.933065117     -81.0975187
9.248                0.932900107     -81.2344635
9.249                0.932734625     -81.3717754
9.25                 0.932568669     -81.5094556
9.251                 0.93240224     -81.6475053
9.252                0.932235338     -81.7859254
9.253                 0.93206796     -81.9247173
9.254                0.931900107     -82.0638819
9.255                0.931731779     -82.2034205
9.256                0.931562974     -82.3433343
9.257                0.931393692     -82.4836242
9.258                0.931223934     -82.6242916
9.259                0.931053697     -82.7653375
9.26                 0.930882983     -82.9067632
9.261                0.930711789     -83.0485697
9.262                0.930540117     -83.1907582
9.263                0.930367965     -83.3333299
9.264                0.930195333     -83.4762859
9.265                0.930022221     -83.6196274
9.266                0.929848628     -83.7633555
9.267                0.929674554     -83.9074715
9.268                0.929499999     -84.0519765
9.269                0.929324962     -84.1968717
9.27                 0.929149443     -84.3421582
9.271                0.928973441     -84.4878371
9.272                0.928796957     -84.6339098
9.273                 0.92861999     -84.7803773
9.274                 0.92844254     -84.9272408
9.275                0.928264606     -85.0745016
9.276                0.928086188     -85.2221607
9.277                0.927907287     -85.3702194
9.278                0.927727902     -85.5186789
9.279                0.927548032     -85.6675403
9.28                 0.927367678     -85.8168048
9.281                 0.92718684     -85.9664736
9.282                0.927005517     -86.1165479
9.283                0.926823709     -86.2670289
9.284                0.926641416     -86.4179178
9.285                0.926458639     -86.5692157
9.286                0.926275376     -86.7209239
9.287                0.926091629     -86.8730436
9.288                0.925907396     -87.0255759
9.289                0.925722679      -87.178522
9.29                 0.925537477     -87.3318832
9.291                 0.92535179     -87.4856606
9.292                0.925165618     -87.6398554
9.293                0.924978962     -87.7944689
9.294                0.924791821     -87.9495023
9.295                0.924604196     -88.1049566
9.296                0.924416087     -88.2608332
9.297                0.924227493     -88.4171332
9.298                0.924038416     -88.5738579
9.299                0.923848856     -88.7310085
9.3                  0.923658812      -88.888586
9.301                0.923468285     -89.0465919
9.302                0.923277275     -89.2050272
9.303                0.923085783     -89.3638931
9.304                0.922893809     -89.5231909
9.305                0.922701353     -89.6829218
9.306                0.922508416      -89.843087
9.307                0.922314998     -90.0036877
9.308                  0.9221211     -90.1647251
9.309                0.921926723     -90.3262003
9.31                 0.921731865     -90.4881147
9.311                0.921536529     -90.6504694
9.312                0.921340715     -90.8132656
9.313                0.921144423     -90.9765046
9.314                0.920947654     -91.1401874
9.315                0.920750409     -91.3043154
9.316                0.920552687     -91.4688898
9.317                0.920354491     -91.6339117
9.318                0.920155821     -91.7993823
9.319                0.919956677     -91.9653029
9.32                  0.91975706     -92.1316747
9.321                0.919556972     -92.2984988
9.322                0.919356412     -92.4657765
9.323                0.919155382     -92.6335089
9.324                0.918953883     -92.8016973
9.325                0.918751916     -92.9703429
9.326                0.918549481     -93.1394468
9.327                 0.91834658     -93.3090103
9.328                0.918143213     -93.4790345
9.329                0.917939382     -93.6495207
9.33                 0.917735089     -93.8204701
9.331                0.917530333     -93.9918837
9.332                0.917325116     -94.1637629
9.333                 0.91711944     -94.3361088
9.334                0.916913305     -94.5089226
9.335                0.916706713     -94.6822055
9.336                0.916499666     -94.8559587
9.337                0.916292164     -95.0301833
9.338                0.916084208     -95.2048806
9.339                0.915875802     -95.3800517
9.34                 0.915666945     -95.5556978
9.341                0.915457639       -95.73182
9.342                0.915247886     -95.9084196
9.343                0.915037688     -96.0854977
9.344                0.914827045     -96.2630554
9.345                 0.91461596     -96.4410941
9.346                0.914404434     -96.6196147
9.347                 0.91419247     -96.7986185
9.348                0.913980068     -96.9781066
9.349                0.913767231     -97.1580801
9.35                  0.91355396     -97.3385404
9.351                0.913340257     -97.5194884
9.352                0.913126125     -97.7009253
9.353                0.912911565     -97.8828523
9.354                0.912696579     -98.0652704
9.355                0.912481169      -98.248181
9.356                0.912265338      -98.431585
9.357                0.912049087     -98.6154836
9.358                0.911832418     -98.7998779
9.359                0.911615335     -98.9847691
9.36                 0.911397839     -99.1701583
9.361                0.911179932     -99.3560465
9.362                0.910961617      -99.542435
9.363                0.910742895     -99.7293247
9.364                0.910523771     -99.9167168
9.365                0.910304246     -100.104612
9.366                0.910084322     -100.293013
9.367                0.909864003     -100.481919
9.368                 0.90964329     -100.671331
9.369                0.909422187     -100.861252
9.37                 0.909200696     -101.051681
9.371                 0.90897882      -101.24262
9.372                0.908756562     -101.434071
9.373                0.908533925     -101.626033
9.374                0.908310912     -101.818509
9.375                0.908087525     -102.011499
9.376                0.907863767     -102.205004
9.377                0.907639643     -102.399025
9.378                0.907415154     -102.593564
9.379                0.907190304     -102.788621
9.38                 0.906965097     -102.984197
9.381                0.906739535     -103.180294
9.382                0.906513622     -103.376912
9.383                0.906287361     -103.574053
9.384                0.906060756     -103.771716
9.385                0.905833809     -103.969905
9.386                0.905606526     -104.168618
9.387                0.905378909     -104.367858
9.388                0.905150962     -104.567625
9.389                0.904922689      -104.76792
9.39                 0.904694093     -104.968744
9.391                0.904465178     -105.170099
9.392                0.904235949     -105.371984
9.393                0.904006408     -105.574402
9.394                0.903776561     -105.777352
9.395                0.903546411     -105.980836
9.396                0.903315962     -106.184855
