! TOUCHSTONE file generated by CST DESIGN STUDIO
! Date and time: Tue Feb  4 18:28:22 2025
! Project name: C:\Work\MatlabApps\UnitCellOptimizationMatlab\CST\unitcell.cst
! Tree item: Tasks\Sweep1\SPara1\S-Parameters
! Header version: 2024
! Port assignment regex: !\s*Touchstone port\s*([0-9]+)\s*=\s*(CST MWS port|CST DES external port|CST DES block port)\s*(.+)\s* \(\"(.*)\"\)(\s*mode\s*([0-9]+))?.*
! Touchstone port assignment:
! Touchstone port 1 = CST DES external port 1 ("")
# GHz S MA R 50
9                     0.95166544     -76.2547767
9.001                0.951540412      -76.375028
9.002                0.951414995     -76.4955904
9.003                0.951289187     -76.6164648
9.004                0.951162989     -76.7376522
9.005                0.951036397     -76.8591536
9.006                0.950909413       -76.98097
9.007                0.950782034     -77.1031023
9.008                0.950654261     -77.2255516
9.009                0.950526091     -77.3483188
9.01                 0.950397524     -77.4714049
9.011                 0.95026856      -77.594811
9.012                0.950139197      -77.718538
9.013                0.950009435     -77.8425869
9.014                0.949879272     -77.9669587
9.015                0.949748708     -78.0916544
9.016                0.949617741     -78.2166751
9.017                0.949486372     -78.3420218
9.018                0.949354598     -78.4676953
9.019                 0.94922242     -78.5936969
9.02                 0.949089836     -78.7200275
9.021                0.948956845     -78.8466881
9.022                0.948823447     -78.9736797
9.023                0.948689641     -79.1010034
9.024                0.948555426     -79.2286601
9.025                0.948420801      -79.356651
9.026                0.948285765      -79.484977
9.027                0.948150318     -79.6136392
9.028                0.948014459     -79.7426386
9.029                0.947878186     -79.8719763
9.03                 0.947741499     -80.0016532
9.031                0.947604398     -80.1316705
9.032                0.947466881     -80.2620292
9.033                0.947328947     -80.3927303
9.034                0.947190597     -80.5237748
9.035                0.947051828     -80.6551639
9.036                0.946912641     -80.7868986
9.037                0.946773035     -80.9189799
9.038                0.946633008     -81.0514089
9.039                0.946492561     -81.1841867
9.04                 0.946351692     -81.3173143
9.041                  0.9462104     -81.4507927
9.042                0.946068686     -81.5846231
9.043                0.945926547     -81.7188065
9.044                0.945783984      -81.853344
9.045                0.945640996     -81.9882367
9.046                0.945497583     -82.1234856
9.047                0.945353742     -82.2590917
9.048                0.945209474     -82.3950563
9.049                0.945064779     -82.5313803
9.05                 0.944919655     -82.6680649
9.051                0.944774101     -82.8051111
9.052                0.944628118       -82.94252
9.053                0.944481705     -83.0802927
9.054                 0.94433486     -83.2184303
9.055                0.944187584     -83.3569339
9.056                0.944039875     -83.4958045
9.057                0.943891734     -83.6350433
9.058                0.943743159     -83.7746514
9.059                 0.94359415     -83.9146299
9.06                 0.943444706     -84.0549798
9.061                0.943294828     -84.1957022
9.062                0.943144514     -84.3367984
9.063                0.942993764     -84.4782693
9.064                0.942842577      -84.620116
9.065                0.942690953     -84.7623398
9.066                0.942538891     -84.9049416
9.067                0.942386391     -85.0479227
9.068                0.942233453      -85.191284
9.069                0.942080075     -85.3350268
9.07                 0.941926258     -85.4791522
9.071                0.941772001     -85.6236612
9.072                0.941617304     -85.7685549
9.073                0.941462166     -85.9138346
9.074                0.941306587     -86.0595013
9.075                0.941150567     -86.2055561
9.076                0.940994105     -86.3520002
9.077                  0.9408372     -86.4988347
9.078                0.940679853     -86.6460606
9.079                0.940522064     -86.7936793
9.08                 0.940363831     -86.9416916
9.081                0.940205154     -87.0900989
9.082                0.940046034     -87.2389022
9.083                 0.93988647     -87.3881026
9.084                0.939726462     -87.5377014
9.085                 0.93956601     -87.6876995
9.086                0.939405112     -87.8380982
9.087                 0.93924377     -87.9888985
9.088                0.939081983     -88.1401017
9.089                0.938919751     -88.2917089
9.09                 0.938757073     -88.4437211
9.091                 0.93859395     -88.5961395
9.092                0.938430381     -88.7489654
9.093                0.938266367     -88.9021997
9.094                0.938101906     -89.0558436
9.095                   0.937937     -89.2098984
9.096                0.937771648      -89.364365
9.097                0.937605851     -89.5192447
9.098                0.937439607     -89.6745386
9.099                0.937272917     -89.8302479
9.1                  0.937105782     -89.9863736
9.101                0.936938201      -90.142917
9.102                0.936770174     -90.2998791
9.103                0.936601701     -90.4572612
9.104                0.936432783     -90.6150642
9.105                0.936263419     -90.7732895
9.106                 0.93609361     -90.9319381
9.107                0.935923356     -91.0910112
9.108                0.935752657     -91.2505099
9.109                0.935581514     -91.4104353
9.11                 0.935409926     -91.5707887
9.111                0.935237893     -91.7315711
9.112                0.935065417     -91.8927837
9.113                0.934892497     -92.0544275
9.114                0.934719134     -92.2165039
9.115                0.934545328     -92.3790139
9.116                 0.93437108     -92.5419586
9.117                0.934196389     -92.7053391
9.118                0.934021256     -92.8691567
9.119                0.933845682     -93.0334125
9.12                 0.933669667     -93.1981075
9.121                0.933493212      -93.363243
9.122                0.933316317       -93.52882
9.123                0.933138982     -93.6948397
9.124                0.932961209     -93.8613033
9.125                0.932782998     -94.0282118
9.126                0.932604349     -94.1955664
9.127                0.932425263     -94.3633682
9.128                0.932245741     -94.5316183
9.129                0.932065783      -94.700318
9.13                  0.93188539     -94.8694682
9.131                0.931704564     -95.0390701
9.132                0.931523304     -95.2091249
9.133                0.931341611     -95.3796337
9.134                0.931159487     -95.5505975
9.135                0.930976932     -95.7220176
9.136                0.930793947     -95.8938949
9.137                0.930610533     -96.0662307
9.138                0.930426691      -96.239026
9.139                0.930242422      -96.412282
9.14                 0.930057727     -96.5859997
9.141                0.929872607     -96.7601802
9.142                0.929687063     -96.9348248
9.143                0.929501096     -97.1099344
9.144                0.929314707     -97.2855102
9.145                0.929127898     -97.4615532
9.146                0.928940669     -97.6380645
9.147                0.928753023     -97.8150453
9.148                0.928564959     -97.9924967
9.149                 0.92837648     -98.1704196
9.15                 0.928187587     -98.3488152
9.151                0.927998281     -98.5276846
9.152                0.927808564     -98.7070289
9.153                0.927618436      -98.886849
9.154                  0.9274279     -99.0671462
9.155                0.927236957     -99.2479213
9.156                0.927045608     -99.4291756
9.157                0.926853856     -99.6109101
9.158                0.926661701     -99.7931258
9.159                0.926469146     -99.9758238
9.16                 0.926276191     -100.159005
9.161                0.926082839     -100.342671
9.162                0.925889092     -100.526822
9.163                0.925694951     -100.711459
9.164                0.925500418     -100.896584
9.165                0.925305495     -101.082198
9.166                0.925110184     -101.268301
9.167                0.924914487     -101.454894
9.168                0.924718406     -101.641979
9.169                0.924521943     -101.829557
9.17                 0.924325099     -102.017628
9.171                0.924127878     -102.206194
9.172                0.923930281     -102.395255
9.173                 0.92373231     -102.584813
9.174                0.923533968     -102.774868
9.175                0.923335257     -102.965422
9.176                0.923136179     -103.156475
9.177                0.922936737     -103.348029
9.178                0.922736933     -103.540084
9.179                0.922536769     -103.732641
9.18                 0.922336248     -103.925702
9.181                0.922135373     -104.119267
9.182                0.921934145     -104.313337
9.183                0.921732569     -104.507913
9.184                0.921530646     -104.702996
9.185                0.921328378     -104.898587
9.186                 0.92112577     -105.094687
9.187                0.920922823     -105.291297
9.188                0.920719541     -105.488417
9.189                0.920515926     -105.686049
9.19                 0.920311982     -105.884194
9.191                 0.92010771     -106.082851
9.192                0.919903116     -106.282023
9.193                  0.9196982      -106.48171
9.194                0.919492968     -106.681913
9.195                0.919287421     -106.882632
9.196                0.919081563     -107.083869
9.197                0.918875397     -107.285624
9.198                0.918668927     -107.487899
9.199                0.918462156     -107.690693
9.2                  0.918255087     -107.894009
9.201                0.918047725     -108.097846
9.202                0.917840071     -108.302205
9.203                0.917632131     -108.507088
9.204                0.917423908     -108.712494
9.205                0.917215405     -108.918425
9.206                0.917006626     -109.124882
9.207                0.916797575     -109.331865
9.208                0.916588256     -109.539375
9.209                0.916378672     -109.747412
9.21                 0.916168828     -109.955978
9.211                0.915958727     -110.165073
9.212                0.915748375     -110.374697
9.213                0.915537774     -110.584852
9.214                0.915326929     -110.795538
9.215                0.915115844     -111.006756
9.216                0.914904524     -111.218506
9.217                0.914692972      -111.43079
9.218                0.914481193     -111.643607
9.219                0.914269193     -111.856958
9.22                 0.914056974     -112.070844
9.221                0.913844542     -112.285266
9.222                0.913631901     -112.500223
9.223                0.913419056     -112.715718
9.224                0.913206012     -112.931749
9.225                0.912992773     -113.148319
9.226                0.912779345     -113.365426
9.227                0.912565731     -113.583072
9.228                0.912351938     -113.801258
9.229                 0.91213797     -114.019983
9.23                 0.911923832     -114.239249
9.231                 0.91170953     -114.459056
9.232                0.911495068     -114.679403
9.233                0.911280452     -114.900293
9.234                0.911065687     -115.121724
9.235                0.910850778     -115.343698
9.236                0.910635731     -115.566214
9.237                0.910420552     -115.789274
9.238                0.910205245     -116.012878
9.239                0.909989817     -116.237026
9.24                 0.909774273     -116.461718
9.241                0.909558619     -116.686954
9.242                0.909342861     -116.912736
9.243                0.909127004     -117.139063
9.244                0.908911054     -117.365936
9.245                0.908695018     -117.593354
9.246                0.908478901     -117.821319
9.247                0.908262709      -118.04983
9.248                 0.90804645     -118.278887
9.249                0.907830128     -118.508491
9.25                  0.90761375     -118.738642
9.251                0.907397322     -118.969341
9.252                0.907180851     -119.200586
9.253                0.906964344     -119.432379
9.254                0.906747806      -119.66472
9.255                0.906531244     -119.897608
9.256                0.906314665     -120.131044
9.257                0.906098076     -120.365028
9.258                0.905881484     -120.599559
9.259                0.905664894     -120.834639
9.26                 0.905448314     -121.070266
9.261                0.905231752     -121.306441
9.262                0.905015213     -121.543165
9.263                0.904798706     -121.780436
9.264                0.904582236     -122.018254
9.265                0.904365812     -122.256621
9.266                0.904149441     -122.495535
9.267                0.903933129     -122.734997
9.268                0.903716884     -122.975006
9.269                0.903500715     -123.215562
9.27                 0.903284627     -123.456666
9.271                0.903068629     -123.698316
9.272                0.902852728     -123.940513
9.273                0.902636932     -124.183256
9.274                0.902421248     -124.426546
9.275                0.902205685     -124.670381
9.276                 0.90199025     -124.914762
9.277                0.901774951     -125.159688
9.278                0.901559796      -125.40516
9.279                0.901344794     -125.651175
9.28                 0.901129951     -125.897735
9.281                0.900915277     -126.144839
9.282                0.900700779     -126.392486
9.283                0.900486465     -126.640676
9.284                0.900272345     -126.889409
9.285                0.900058426     -127.138683
9.286                0.899844717     -127.388499
9.287                0.899631225     -127.638856
9.288                0.899417961     -127.889754
9.289                0.899204931     -128.141191
9.29                 0.898992146     -128.393167
9.291                0.898779613     -128.645682
9.292                0.898567342     -128.898735
9.293                 0.89835534     -129.152325
9.294                0.898143618     -129.406451
9.295                0.897932183     -129.661114
9.296                0.897721045     -129.916311
9.297                0.897510212     -130.172043
9.298                0.897299695     -130.428308
9.299                0.897089501     -130.685106
9.3                  0.896879641     -130.942436
9.301                0.896670123     -131.200296
9.302                0.896460956     -131.458687
9.303                 0.89625215     -131.717607
9.304                0.896043714     -131.977055
9.305                0.895835657     -132.237031
9.306                 0.89562799     -132.497533
9.307                 0.89542072      -132.75856
9.308                0.895213859     -133.020111
9.309                0.895007415     -133.282185
9.31                 0.894801399     -133.544781
9.311                0.894595819     -133.807898
9.312                0.894390685     -134.071535
9.313                0.894186008     -134.335691
9.314                0.893981797     -134.600364
9.315                0.893778061     -134.865553
9.316                0.893574811     -135.131256
9.317                0.893372057     -135.397474
9.318                0.893169808     -135.664203
9.319                0.892968075     -135.931444
9.32                 0.892766866     -136.199194
9.321                0.892566194     -136.467453
9.322                0.892366067     -136.736218
9.323                0.892166495     -137.005488
9.324                 0.89196749     -137.275262
9.325                 0.89176906     -137.545539
9.326                0.891571216     -137.816316
9.327                0.891373969     -138.087592
9.328                0.891177328     -138.359366
9.329                0.890981304     -138.631636
9.33                 0.890785908     -138.904401
9.331                0.890591149     -139.177658
9.332                0.890397038     -139.451406
9.333                0.890203585     -139.725643
9.334                0.890010801     -140.000368
9.335                0.889818696     -140.275579
9.336                 0.88962728     -140.551273
9.337                0.889436564     -140.827449
9.338                0.889246559     -141.104106
9.339                0.889057275     -141.381241
9.34                 0.888868723     -141.658852
9.341                0.888680912     -141.936937
9.342                0.888493854     -142.215495
9.343                0.888307559     -142.494523
9.344                0.888122038     -142.774019
9.345                0.887937301     -143.053982
9.346                0.887753359     -143.334409
9.347                0.887570222     -143.615297
9.348                0.887387901     -143.896645
9.349                0.887206407     -144.178451
9.35                 0.887025749     -144.460712
9.351                 0.88684594     -144.743427
9.352                0.886666989     -145.026592
9.353                0.886488907     -145.310205
9.354                0.886311704     -145.594265
9.355                0.886135392     -145.878769
9.356                 0.88595998     -146.163713
9.357                 0.88578548     -146.449097
9.358                0.885611902     -146.734917
9.359                0.885439256     -147.021171
9.36                 0.885267553     -147.307857
9.361                0.885096803     -147.594971
9.362                0.884927018     -147.882512
9.363                0.884758207     -148.170476
9.364                0.884590381     -148.458862
9.365                0.884423551     -148.747665
9.366                0.884257727     -149.036885
9.367                0.884092919     -149.326517
9.368                0.883929138     -149.616559
9.369                0.883766394     -149.907009
9.37                 0.883604698     -150.197864
9.371                 0.88344406      -150.48912
9.372                 0.88328449     -150.780775
9.373                0.883125998     -151.072826
9.374                0.882968595      -151.36527
9.375                0.882812292     -151.658103
9.376                0.882657097     -151.951324
9.377                0.882503022     -152.244929
9.378                0.882350076     -152.538915
9.379                 0.88219827     -152.833279
9.38                 0.882047613     -153.128018
9.381                0.881898115     -153.423128
9.382                0.881749787     -153.718607
9.383                0.881602638     -154.014452
9.384                0.881456679     -154.310658
9.385                0.881311918     -154.607223
9.386                0.881168367     -154.904144
9.387                0.881026033     -155.201417
9.388                0.880884928     -155.499039
9.389                 0.88074506     -155.797007
9.39                 0.880606439     -156.095316
9.391                0.880469075     -156.393965
9.392                0.880332978     -156.692949
9.393                0.880198155     -156.992265
9.394                0.880064617      -157.29191
9.395                0.879932374     -157.591879
9.396                0.879801433      -157.89217
