! TOUCHSTONE file generated by CST DESIGN STUDIO
! Date and time: Tue Feb  4 18:28:24 2025
! Project name: C:\Work\MatlabApps\UnitCellOptimizationMatlab\CST\unitcell.cst
! Tree item: Tasks\Sweep1\SPara1\S-Parameters
! Header version: 2024
! Port assignment regex: !\s*Touchstone port\s*([0-9]+)\s*=\s*(CST MWS port|CST DES external port|CST DES block port)\s*(.+)\s* \(\"(.*)\"\)(\s*mode\s*([0-9]+))?.*
! Touchstone port assignment:
! Touchstone port 1 = CST DES external port 1 ("")
# GHz S MA R 50
9                    0.953594448     -72.1554068
9.001                0.953478675     -72.2654056
9.002                0.953362538     -72.3756832
9.003                0.953246036     -72.4862402
9.004                0.953129168     -72.5970777
9.005                0.953011933     -72.7081965
9.006                0.952894329     -72.8195975
9.007                0.952776356     -72.9312816
9.008                0.952658013     -73.0432498
9.009                0.952539299     -73.1555029
9.01                 0.952420213     -73.2680417
9.011                0.952300754     -73.3808674
9.012                 0.95218092     -73.4939806
9.013                0.952060711     -73.6073824
9.014                0.951940127     -73.7210737
9.015                0.951819165     -73.8350554
9.016                0.951697825     -73.9493284
9.017                0.951576106     -74.0638936
9.018                0.951454007      -74.178752
9.019                0.951331527     -74.2939045
9.02                 0.951208665      -74.409352
9.021                0.951085419     -74.5250954
9.022                0.950961791     -74.6411358
9.023                0.950837777      -74.757474
9.024                0.950713377     -74.8741109
9.025                 0.95058859     -74.9910476
9.026                0.950463416     -75.1082849
9.027                0.950337853     -75.2258238
9.028                  0.9502119     -75.3436654
9.029                0.950085557     -75.4618104
9.03                 0.949958821     -75.5802599
9.031                0.949831694     -75.6990148
9.032                0.949704173     -75.8180762
9.033                0.949576257     -75.9374449
9.034                0.949447946     -76.0571219
9.035                0.949319238     -76.1771083
9.036                0.949190134     -76.2974049
9.037                0.949060631     -76.4180128
9.038                0.948930729     -76.5389329
9.039                0.948800427     -76.6601662
9.04                 0.948669724     -76.7817137
9.041                0.948538619     -76.9035763
9.042                0.948407111     -77.0257551
9.043                  0.9482752     -77.1482511
9.044                0.948142884     -77.2710652
9.045                0.948010162     -77.3941985
9.046                0.947877034     -77.5176519
9.047                0.947743499     -77.6414264
9.048                0.947609556      -77.765523
9.049                0.947475203     -77.8899428
9.05                 0.947340441     -78.0146868
9.051                0.947205268     -78.1397559
9.052                0.947069683     -78.2651511
9.053                0.946933685     -78.3908736
9.054                0.946797274     -78.5169242
9.055                0.946660449     -78.6433041
9.056                0.946523209     -78.7700142
9.057                0.946385553     -78.8970556
9.058                 0.94624748     -79.0244292
9.059                 0.94610899     -79.1521362
9.06                 0.945970081     -79.2801775
9.061                0.945830753     -79.4085542
9.062                0.945691005     -79.5372673
9.063                0.945550836     -79.6663179
9.064                0.945410245     -79.7957069
9.065                0.945269232     -79.9254355
9.066                0.945127795     -80.0555047
9.067                0.944985935     -80.1859155
9.068                 0.94484365     -80.3166689
9.069                0.944700939     -80.4477661
9.07                 0.944557802     -80.5792081
9.071                0.944414238     -80.7109959
9.072                0.944270246     -80.8431306
9.073                0.944125825     -80.9756132
9.074                0.943980976     -81.1084448
9.075                0.943835696     -81.2416265
9.076                0.943689986     -81.3751594
9.077                0.943543844     -81.5090444
9.078                 0.94339727     -81.6432827
9.079                0.943250263     -81.7778754
9.08                 0.943102823     -81.9128235
9.081                0.942954949     -82.0481281
9.082                0.942806639     -82.1837903
9.083                0.942657895     -82.3198111
9.084                0.942508714     -82.4561916
9.085                0.942359097      -82.592933
9.086                0.942209042     -82.7300363
9.087                 0.94205855     -82.8675025
9.088                0.941907618     -83.0053329
9.089                0.941756248     -83.1435284
9.09                 0.941604438     -83.2820902
9.091                0.941452187     -83.4210194
9.092                0.941299496      -83.560317
9.093                0.941146363     -83.6999841
9.094                0.940992789     -83.8400219
9.095                0.940838772     -83.9804315
9.096                0.940684311     -84.1212139
9.097                0.940529408     -84.2623703
9.098                 0.94037406     -84.4039018
9.099                0.940218268     -84.5458094
9.1                  0.940062031     -84.6880943
9.101                0.939905348     -84.8307577
9.102                 0.93974822     -84.9738005
9.103                0.939590645     -85.1172239
9.104                0.939432623     -85.2610291
9.105                0.939274155     -85.4052172
9.106                0.939115239     -85.5497892
9.107                0.938955874     -85.6947464
9.108                0.938796062     -85.8400897
9.109                0.938635801     -85.9858204
9.11                 0.938475091     -86.1319395
9.111                0.938313932     -86.2784483
9.112                0.938152323     -86.4253477
9.113                0.937990264      -86.572639
9.114                0.937827756     -86.7203233
9.115                0.937664796     -86.8684016
9.116                0.937501386     -87.0168752
9.117                0.937337525     -87.1657452
9.118                0.937173213     -87.3150126
9.119                0.937008449     -87.4646787
9.12                 0.936843234     -87.6147445
9.121                0.936677568     -87.7652113
9.122                0.936511449       -87.91608
9.123                0.936344878      -88.067352
9.124                0.936177855     -88.2190282
9.125                 0.93601038     -88.3711099
9.126                0.935842453     -88.5235982
9.127                0.935674073     -88.6764942
9.128                0.935505241      -88.829799
9.129                0.935335956     -88.9835139
9.13                 0.935166219     -89.1376399
9.131                 0.93499603     -89.2921782
9.132                0.934825388       -89.44713
9.133                0.934654293     -89.6024963
9.134                0.934482746     -89.7582784
9.135                0.934310747     -89.9144773
9.136                0.934138296     -90.0710942
9.137                0.933965393     -90.2281303
9.138                0.933792037     -90.3855866
9.139                 0.93361823     -90.5434644
9.14                 0.933443972     -90.7017648
9.141                0.933269262     -90.8604889
9.142                0.933094101     -91.0196379
9.143                0.932918489     -91.1792129
9.144                0.932742427     -91.3392151
9.145                0.932565914     -91.4996456
9.146                0.932388952     -91.6605055
9.147                0.932211539      -91.821796
9.148                0.932033678     -91.9835182
9.149                0.931855367     -92.1456734
9.15                 0.931676609     -92.3082625
9.151                0.931497402     -92.4712868
9.152                0.931317747     -92.6347474
9.153                0.931137645     -92.7986455
9.154                0.930957097     -92.9629821
9.155                0.930776103     -93.1277585
9.156                0.930594663     -93.2929757
9.157                0.930412779     -93.4586349
9.158                 0.93023045     -93.6247372
9.159                0.930047677     -93.7912838
9.16                 0.929864462     -93.9582758
9.161                0.929680804     -94.1257144
9.162                0.929496704     -94.2936006
9.163                0.929312164     -94.4619356
9.164                0.929127184     -94.6307206
9.165                0.928941764     -94.7999566
9.166                0.928755906     -94.9696447
9.167                 0.92856961     -95.1397862
9.168                0.928382878     -95.3103821
9.169                 0.92819571     -95.4814336
9.17                 0.928008107     -95.6529417
9.171                 0.92782007     -95.8249076
9.172                0.927631601     -95.9973324
9.173                  0.9274427     -96.1702173
9.174                0.927253368     -96.3435632
9.175                0.927063606     -96.5173715
9.176                0.926873416      -96.691643
9.177                0.926682798      -96.866379
9.178                0.926491755     -97.0415806
9.179                0.926300286     -97.2172488
9.18                 0.926108394     -97.3933848
9.181                 0.92591608     -97.5699896
9.182                0.925723345     -97.7470643
9.183                 0.92553019     -97.9246101
9.184                0.925336616      -98.102628
9.185                0.925142626     -98.2811191
9.186                0.924948221     -98.4600845
9.187                0.924753402     -98.6395253
9.188                 0.92455817     -98.8194425
9.189                0.924362528     -98.9998372
9.19                 0.924166477     -99.1807104
9.191                0.923970018     -99.3620634
9.192                0.923773154      -99.543897
9.193                0.923575885     -99.7262123
9.194                0.923378214     -99.9090105
9.195                0.923180143     -100.092293
9.196                0.922981673     -100.276059
9.197                0.922782806     -100.460312
9.198                0.922583544     -100.645052
9.199                 0.92238389      -100.83028
9.2                  0.922183844     -101.015997
9.201                 0.92198341     -101.202204
9.202                0.921782589     -101.388902
9.203                0.921581383     -101.576092
9.204                0.921379795     -101.763776
9.205                0.921177826     -101.951953
9.206                0.920975479     -102.140626
9.207                0.920772757     -102.329794
9.208                 0.92056966      -102.51946
9.209                0.920366193     -102.709624
9.21                 0.920162357     -102.900287
9.211                0.919958155      -103.09145
9.212                0.919753589     -103.283114
9.213                0.919548662      -103.47528
9.214                0.919343376     -103.667949
9.215                0.919137734     -103.861122
9.216                0.918931739       -104.0548
9.217                0.918725393     -104.248983
9.218                0.918518699     -104.443673
9.219                 0.91831166     -104.638871
9.22                 0.918104279     -104.834577
9.221                0.917896559     -105.030793
9.222                0.917688503     -105.227519
9.223                0.917480113     -105.424757
9.224                0.917271393     -105.622506
9.225                0.917062346     -105.820769
9.226                0.916852975     -106.019545
9.227                0.916643283     -106.218837
9.228                0.916433273     -106.418644
9.229                0.916222949     -106.618967
9.23                 0.916012314     -106.819808
9.231                0.915801372     -107.021167
9.232                0.915590126     -107.223045
9.233                0.915378579     -107.425443
9.234                0.915166735     -107.628362
9.235                0.914954597     -107.831802
9.236                 0.91474217     -108.035764
9.237                0.914529457     -108.240249
9.238                0.914316461     -108.445258
9.239                0.914103187     -108.650792
9.24                 0.913889638     -108.856851
9.241                0.913675819     -109.063437
9.242                0.913461732     -109.270549
9.243                0.913247383     -109.478188
9.244                0.913032776     -109.686356
9.245                0.912817913     -109.895053
9.246                0.912602801      -110.10428
9.247                0.912387442     -110.314038
9.248                0.912171842     -110.524326
9.249                0.911956004     -110.735146
9.25                 0.911739933     -110.946499
9.251                0.911523633     -111.158384
9.252                0.911307109     -111.370804
9.253                0.911090366     -111.583757
9.254                0.910873409     -111.797246
9.255                 0.91065624      -112.01127
9.256                0.910438867     -112.225831
9.257                0.910221293     -112.440928
9.258                0.910003523     -112.656563
9.259                0.909785563     -112.872735
9.26                 0.909567416     -113.089446
9.261                0.909349089     -113.306696
9.262                0.909130587     -113.524486
9.263                0.908911913     -113.742815
9.264                0.908693075     -113.961685
9.265                0.908474076     -114.181096
9.266                0.908254923     -114.401049
9.267                 0.90803562     -114.621543
9.268                0.907816174      -114.84258
9.269                 0.90759659     -115.064159
9.27                 0.907376872     -115.286282
9.271                0.907157028     -115.508949
9.272                0.906937062     -115.732159
9.273                0.906716981     -115.955914
9.274                 0.90649679     -116.180213
9.275                0.906276494     -116.405058
9.276                0.906056101     -116.630448
9.277                0.905835616     -116.856384
9.278                0.905615046     -117.082866
9.279                0.905394395     -117.309894
9.28                 0.905173671     -117.537469
9.281                0.904952879      -117.76559
9.282                0.904732027     -117.994259
9.283                0.904511119     -118.223475
9.284                0.904290164     -118.453238
9.285                0.904069167      -118.68355
9.286                0.903848135     -118.914409
9.287                0.903627074     -119.145816
9.288                0.903405991     -119.377771
9.289                0.903184894     -119.610275
9.29                 0.902963788     -119.843327
9.291                 0.90274268     -120.076927
9.292                0.902521579     -120.311076
9.293                0.902300489     -120.545774
9.294                 0.90207942      -120.78102
9.295                0.901858377     -121.016816
9.296                0.901637368     -121.253159
9.297                  0.9014164     -121.490052
9.298                 0.90119548     -121.727493
9.299                0.900974617     -121.965482
9.3                  0.900753816      -122.20402
9.301                0.900533087     -122.443107
9.302                0.900312435     -122.682741
9.303                 0.90009187     -122.922924
9.304                0.899871398     -123.163655
9.305                0.899651027     -123.404934
9.306                0.899430765      -123.64676
9.307                0.899210621     -123.889134
9.308                0.898990601     -124.132054
9.309                0.898770714     -124.375522
9.31                 0.898550968     -124.619537
9.311                0.898331371     -124.864097
9.312                0.898111931     -125.109204
9.313                0.897892656     -125.354857
9.314                0.897673555     -125.601055
9.315                0.897454636     -125.847798
9.316                0.897235907     -126.095085
9.317                0.897017377     -126.342917
9.318                0.896799054     -126.591292
9.319                0.896580948      -126.84021
9.32                 0.896363065     -127.089671
9.321                0.896145416     -127.339675
9.322                0.895928009      -127.59022
9.323                0.895710852     -127.841306
9.324                0.895493955     -128.092933
9.325                0.895277326       -128.3451
9.326                0.895060975     -128.597805
9.327                 0.89484491      -128.85105
9.328                 0.89462914     -129.104833
9.329                0.894413675     -129.359153
9.33                 0.894198524     -129.614009
9.331                0.893983695     -129.869401
9.332                0.893769199     -130.125329
9.333                0.893555045      -130.38179
9.334                0.893341241     -130.638785
9.335                0.893127798     -130.896313
9.336                0.892914724     -131.154372
9.337                 0.89270203     -131.412962
9.338                0.892489724     -131.672082
9.339                0.892277818     -131.931731
9.34                 0.892066319     -132.191908
9.341                0.891855238     -132.452611
9.342                0.891644585     -132.713841
9.343                0.891434369     -132.975596
9.344                0.891224601     -133.237874
9.345                 0.89101529     -133.500675
9.346                0.890806446     -133.763998
9.347                0.890598079     -134.027841
9.348                0.890390199     -134.292203
9.349                0.890182816     -134.557084
9.35                 0.889975941     -134.822481
9.351                0.889769583     -135.088394
9.352                0.889563752     -135.354821
9.353                0.889358459     -135.621761
9.354                0.889153715     -135.889212
9.355                0.888949528     -136.157174
9.356                 0.88874591     -136.425644
9.357                0.888542872     -136.694622
9.358                0.888340422     -136.964106
9.359                0.888138572     -137.234094
9.36                 0.887937332     -137.504586
9.361                0.887736713     -137.775578
9.362                0.887536726     -138.047071
9.363                0.887337379     -138.319061
9.364                0.887138686     -138.591549
9.365                0.886940654     -138.864531
9.366                0.886743297     -139.138006
9.367                0.886546623     -139.411974
9.368                0.886350644      -139.68643
9.369                0.886155371     -139.961375
9.37                 0.885960813     -140.236807
9.371                0.885766982     -140.512722
9.372                0.885573889     -140.789121
9.373                0.885381544     -141.065999
9.374                0.885189958     -141.343357
9.375                0.884999142     -141.621192
9.376                0.884809106     -141.899501
9.377                0.884619861     -142.178283
9.378                0.884431419     -142.457537
9.379                 0.88424379     -142.737258
9.38                 0.884056985     -143.017447
9.381                0.883871014       -143.2981
9.382                0.883685889     -143.579216
9.383                 0.88350162     -143.860792
9.384                0.883318218     -144.142825
9.385                0.883135694     -144.425315
9.386                0.882954059     -144.708258
9.387                0.882773323     -144.991653
9.388                0.882593499     -145.275496
9.389                0.882414595     -145.559786
9.39                 0.882236624      -145.84452
9.391                0.882059596     -146.129696
9.392                0.881883522     -146.415311
9.393                0.881708412     -146.701363
9.394                0.881534278     -146.987849
9.395                 0.88136113     -147.274767
9.396                0.881188978     -147.562114
