! TOUCHSTONE file generated by CST DESIGN STUDIO
! Date and time: Tue Feb  4 18:28:36 2025
! Project name: C:\Work\MatlabApps\UnitCellOptimizationMatlab\CST\unitcell.cst
! Tree item: Tasks\Sweep1\SPara1\S-Parameters
! Header version: 2024
! Port assignment regex: !\s*Touchstone port\s*([0-9]+)\s*=\s*(CST MWS port|CST DES external port|CST DES block port)\s*(.+)\s* \(\"(.*)\"\)(\s*mode\s*([0-9]+))?.*
! Touchstone port assignment:
! Touchstone port 1 = CST DES external port 1 ("")
# GHz S MA R 50
9                    0.967446159     -45.0412848
9.001                0.967394382     -45.0965652
9.002                0.967342449     -45.1519541
9.003                0.967290358      -45.207452
9.004                 0.96723811     -45.2630592
9.005                0.967185703     -45.3187759
9.006                0.967133137     -45.3746025
9.007                0.967080413     -45.4305393
9.008                0.967027528     -45.4865866
9.009                0.966974483     -45.5427449
9.01                 0.966921277     -45.5990143
9.011                 0.96686791     -45.6553953
9.012                0.966814381     -45.7118881
9.013                0.966760689     -45.7684932
9.014                0.966706835     -45.8252107
9.015                0.966652817     -45.8820412
9.016                0.966598635     -45.9389848
9.017                0.966544288      -45.996042
9.018                0.966489776      -46.053213
9.019                0.966435099     -46.1104983
9.02                 0.966380256     -46.1678981
9.021                0.966325245     -46.2254129
9.022                0.966270068     -46.2830429
9.023                0.966214723     -46.3407885
9.024                0.966159209       -46.39865
9.025                0.966103527     -46.4566278
9.026                0.966047675     -46.5147223
9.027                0.965991653     -46.5729337
9.028                 0.96593546     -46.6312625
9.029                0.965879097     -46.6897089
9.03                 0.965822561     -46.7482734
9.031                0.965765854     -46.8069563
9.032                0.965708974      -46.865758
9.033                 0.96565192     -46.9246788
9.034                0.965594692      -46.983719
9.035                 0.96553729     -47.0428791
9.036                0.965479712     -47.1021594
9.037                0.965421959     -47.1615602
9.038                 0.96536403      -47.221082
9.039                0.965305924      -47.280725
9.04                  0.96524764     -47.3404897
9.041                0.965189179     -47.4003765
9.042                0.965130539     -47.4603856
9.043                0.965071719     -47.5205175
9.044                 0.96501272     -47.5807725
9.045                0.964953541      -47.641151
9.046                 0.96489418     -47.7016535
9.047                0.964834638     -47.7622801
9.048                0.964774914     -47.8230315
9.049                0.964715007     -47.8839078
9.05                 0.964654917     -47.9449095
9.051                0.964594643     -48.0060371
9.052                0.964534184     -48.0672908
9.053                 0.96447354      -48.128671
9.054                 0.96441271     -48.1901782
9.055                0.964351693     -48.2518127
9.056                 0.96429049     -48.3135749
9.057                0.964229099     -48.3754652
9.058                0.964167519      -48.437484
9.059                0.964105751     -48.4996317
9.06                 0.964043793     -48.5619087
9.061                0.963981645     -48.6243154
9.062                0.963919306     -48.6868521
9.063                0.963856776     -48.7495193
9.064                0.963794053     -48.8123174
9.065                0.963731138     -48.8752468
9.066                0.963668029     -48.9383079
9.067                0.963604727      -49.001501
9.068                0.963541229     -49.0648267
9.069                0.963477537     -49.1282852
9.07                 0.963413648     -49.1918771
9.071                0.963349563     -49.2556027
9.072                 0.96328528     -49.3194624
9.073                  0.9632208     -49.3834567
9.074                0.963156121     -49.4475859
9.075                0.963091242     -49.5118506
9.076                0.963026164      -49.576251
9.077                0.962960885     -49.6407876
9.078                0.962895405     -49.7054609
9.079                0.962829723     -49.7702713
9.08                 0.962763838     -49.8352191
9.081                 0.96269775     -49.9003049
9.082                0.962631457      -49.965529
9.083                0.962564961     -50.0308919
9.084                0.962498258      -50.096394
9.085                 0.96243135     -50.1620357
9.086                0.962364235     -50.2278176
9.087                0.962296913     -50.2937399
9.088                0.962229382     -50.3598032
9.089                0.962161643     -50.4260078
9.09                 0.962093694     -50.4923543
9.091                0.962025534     -50.5588431
9.092                0.961957164     -50.6254745
9.093                0.961888582     -50.6922492
9.094                0.961819788     -50.7591674
9.095                0.961750781     -50.8262297
9.096                 0.96168156     -50.8934365
9.097                0.961612124     -50.9607883
9.098                0.961542473     -51.0282855
9.099                0.961472607     -51.0959285
9.1                  0.961402523     -51.1637179
9.101                0.961332222      -51.231654
9.102                0.961261703     -51.2997375
9.103                0.961190965     -51.3679686
9.104                0.961120007     -51.4363479
9.105                0.961048829     -51.5048758
9.106                 0.96097743     -51.5735528
9.107                0.960905809     -51.6423795
9.108                0.960833965     -51.7113561
9.109                0.960761898     -51.7804833
9.11                 0.960689607     -51.8497615
9.111                0.960617091     -51.9191912
9.112                 0.96054435     -51.9887728
9.113                0.960471382     -52.0585068
9.114                0.960398186     -52.1283937
9.115                0.960324763     -52.1984341
9.116                0.960251112     -52.2686283
9.117                 0.96017723     -52.3389769
9.118                0.960103119     -52.4094803
9.119                0.960028776     -52.4801391
9.12                 0.959954202     -52.5509538
9.121                0.959879395     -52.6219248
9.122                0.959804355     -52.6930526
9.123                0.959729081     -52.7643377
9.124                0.959653571     -52.8357807
9.125                0.959577826     -52.9073819
9.126                0.959501845     -52.9791421
9.127                0.959425626     -53.0510615
9.128                0.959349169     -53.1231409
9.129                0.959272473     -53.1953805
9.13                 0.959195537     -53.2677811
9.131                0.959118361      -53.340343
9.132                0.959040943     -53.4130668
9.133                0.958963283      -53.485953
9.134                 0.95888538     -53.5590022
9.135                0.958807234     -53.6322148
9.136                0.958728842     -53.7055914
9.137                0.958650206     -53.7791325
9.138                0.958571323     -53.8528386
9.139                0.958492192     -53.9267103
9.14                 0.958412814      -54.000748
9.141                0.958333187     -54.0749524
9.142                0.958253311      -54.149324
9.143                0.958173184     -54.2238632
9.144                0.958092805     -54.2985706
9.145                0.958012175     -54.3734468
9.146                0.957931291     -54.4484924
9.147                0.957850154     -54.5237078
9.148                0.957768762     -54.5990935
9.149                0.957687114     -54.6746503
9.15                  0.95760521     -54.7503785
9.151                0.957523048     -54.8262788
9.152                0.957440629     -54.9023517
9.153                 0.95735795     -54.9785978
9.154                0.957275011     -55.0550176
9.155                0.957191812     -55.1316116
9.156                0.957108351     -55.2083806
9.157                0.957024627     -55.2853249
9.158                 0.95694064     -55.3624452
9.159                0.956856389     -55.4397421
9.16                 0.956771872     -55.5172161
9.161                0.956687089     -55.5948677
9.162                0.956602039     -55.6726977
9.163                0.956516722     -55.7507065
9.164                0.956431135     -55.8288947
9.165                0.956345279      -55.907263
9.166                0.956259152     -55.9858118
9.167                0.956172754     -56.0645418
9.168                0.956086083     -56.1434536
9.169                0.955999139     -56.2225478
9.17                 0.955911921     -56.3018249
9.171                0.955824427     -56.3812855
9.172                0.955736658     -56.4609303
9.173                0.955648611     -56.5407599
9.174                0.955560286     -56.6207747
9.175                0.955471683     -56.7009756
9.176                  0.9553828      -56.781363
9.177                0.955293636     -56.8619376
9.178                 0.95520419     -56.9426999
9.179                0.955114462     -57.0236506
9.18                  0.95502445     -57.1047904
9.181                0.954934153     -57.1861198
9.182                0.954843572     -57.2676394
9.183                0.954752703     -57.3493498
9.184                0.954661548     -57.4312518
9.185                0.954570104     -57.5133459
9.186                 0.95447837     -57.5956327
9.187                0.954386347     -57.6781129
9.188                0.954294032     -57.7607872
9.189                0.954201425      -57.843656
9.19                 0.954108525     -57.9267202
9.191                0.954015331     -58.0099803
9.192                0.953921841      -58.093437
9.193                0.953828056     -58.1770908
9.194                0.953733973     -58.2609426
9.195                0.953639593     -58.3449928
9.196                0.953544913     -58.4292422
9.197                0.953449934     -58.5136915
9.198                0.953354653     -58.5983412
9.199                 0.95325907     -58.6831921
9.2                  0.953163185     -58.7682448
9.201                0.953066995     -58.8534999
9.202                  0.9529705     -58.9389582
9.203                  0.9528737     -59.0246203
9.204                0.952776592     -59.1104868
9.205                0.952679176     -59.1965585
9.206                0.952581451     -59.2828361
9.207                0.952483417     -59.3693201
9.208                0.952385071     -59.4560114
9.209                0.952286413     -59.5429105
9.21                 0.952187442     -59.6300182
9.211                0.952088156     -59.7173351
9.212                0.951988556      -59.804862
9.213                0.951888639     -59.8925995
9.214                0.951788406     -59.9805484
9.215                0.951687854     -60.0687093
9.216                0.951586982     -60.1570829
9.217                 0.95148579       -60.24567
9.218                0.951384277     -60.3344712
9.219                0.951282442     -60.4234873
9.22                 0.951180283      -60.512719
9.221                0.951077799     -60.6021669
9.222                 0.95097499     -60.6918319
9.223                0.950871854     -60.7817146
9.224                0.950768391     -60.8718158
9.225                0.950664599     -60.9621361
9.226                0.950560477     -61.0526763
9.227                0.950456024     -61.1434372
9.228                 0.95035124     -61.2344195
9.229                0.950246122     -61.3256238
9.23                  0.95014067      -61.417051
9.231                0.950034883     -61.5087018
9.232                 0.94992876     -61.6005769
9.233                  0.9498223     -61.6926772
9.234                0.949715501     -61.7850032
9.235                0.949608363     -61.8775558
9.236                0.949500884     -61.9703358
9.237                0.949393064     -62.0633438
9.238                0.949284901     -62.1565807
9.239                0.949176395     -62.2500473
9.24                 0.949067543     -62.3437442
9.241                0.948958346     -62.4376722
9.242                0.948848801     -62.5318322
9.243                0.948738908     -62.6262249
9.244                0.948628666     -62.7208511
9.245                0.948518074     -62.8157115
9.246                0.948407131      -62.910807
9.247                0.948295834     -63.0061383
9.248                0.948184184     -63.1017062
9.249                 0.94807218     -63.1975115
9.25                 0.947959819     -63.2935551
9.251                0.947847102     -63.3898376
9.252                0.947734026     -63.4863599
9.253                0.947620592     -63.5831228
9.254                0.947506797     -63.6801271
9.255                 0.94739264     -63.7773736
9.256                0.947278122     -63.8748632
9.257                0.947163239     -63.9725966
9.258                0.947047992     -64.0705746
9.259                0.946932378     -64.1687981
9.26                 0.946816398     -64.2672679
9.261                 0.94670005     -64.3659849
9.262                0.946583332     -64.4649498
9.263                0.946466244     -64.5641634
9.264                0.946348784     -64.6636267
9.265                0.946230952     -64.7633404
9.266                0.946112746     -64.8633054
9.267                0.945994165     -64.9635226
9.268                0.945875208     -65.0639927
9.269                0.945755874     -65.1647167
9.27                 0.945636162     -65.2656953
9.271                 0.94551607     -65.3669295
9.272                0.945395598     -65.4684201
9.273                0.945274743     -65.5701679
9.274                0.945153506     -65.6721739
9.275                0.945031885     -65.7744388
9.276                0.944909879     -65.8769636
9.277                0.944787487     -65.9797491
9.278                0.944664707     -66.0827962
9.279                0.944541538     -66.1861058
9.28                  0.94441798     -66.2896787
9.281                0.944294031     -66.3935159
9.282                 0.94416969     -66.4976183
9.283                0.944044956     -66.6019866
9.284                0.943919828     -66.7066219
9.285                0.943794304      -66.811525
9.286                0.943668384     -66.9166968
9.287                0.943542066     -67.0221382
9.288                0.943415349     -67.1278501
9.289                0.943288232     -67.2338335
9.29                 0.943160714     -67.3400892
9.291                0.943032794     -67.4466182
9.292                 0.94290447     -67.5534213
9.293                0.942775742     -67.6604996
9.294                0.942646608     -67.7678538
9.295                0.942517067     -67.8754851
9.296                0.942387118     -67.9833942
9.297                 0.94225676     -68.0915821
9.298                0.942125992     -68.2000497
9.299                0.941994812     -68.3087981
9.3                  0.941863219      -68.417828
9.301                0.941731213     -68.5271406
9.302                0.941598792     -68.6367367
9.303                0.941465956     -68.7466172
9.304                0.941332701     -68.8567832
9.305                0.941199029     -68.9672356
9.306                0.941064937     -69.0779753
9.307                0.940930425     -69.1890034
9.308                0.940795491     -69.3003207
9.309                0.940660135     -69.4119283
9.31                 0.940524354     -69.5238272
9.311                0.940388148     -69.6360182
9.312                0.940251516     -69.7485024
9.313                0.940114457     -69.8612808
9.314                0.939976969     -69.9743543
9.315                0.939839052      -70.087724
9.316                0.939700704     -70.2013909
9.317                0.939561924     -70.3153558
9.318                0.939422711     -70.4296199
9.319                0.939283064     -70.5441842
9.32                 0.939142982     -70.6590495
9.321                0.939002464     -70.7742171
9.322                0.938861508     -70.8896877
9.323                0.938720114     -71.0054626
9.324                 0.93857828     -71.1215427
9.325                0.938436005     -71.2379289
9.326                0.938293289     -71.3546224
9.327                 0.93815013     -71.4716242
9.328                0.938006527     -71.5889353
9.329                0.937862478     -71.7065567
9.33                 0.937717984     -71.8244895
9.331                0.937573042     -71.9427347
9.332                0.937427652     -72.0612933
9.333                0.937281812     -72.1801664
9.334                0.937135522     -72.2993551
9.335                0.936988781     -72.4188603
9.336                0.936841587     -72.5386833
9.337                0.936693939     -72.6588249
9.338                0.936545836     -72.7792863
9.339                0.936397277     -72.9000686
9.34                 0.936248262     -73.0211727
9.341                0.936098789     -73.1425999
9.342                0.935948857     -73.2643511
9.343                0.935798464     -73.3864274
9.344                0.935647611     -73.5088299
9.345                0.935496296     -73.6315597
9.346                0.935344517      -73.754618
9.347                0.935192275     -73.8780056
9.348                0.935039567     -74.0017239
9.349                0.934886394     -74.1257738
9.35                 0.934732753     -74.2501565
9.351                0.934578644      -74.374873
9.352                0.934424066     -74.4999245
9.353                0.934269018     -74.6253121
9.354                0.934113498     -74.7510369
9.355                0.933957507     -74.8770999
9.356                0.933801043     -75.0035024
9.357                0.933644105     -75.1302455
9.358                0.933486691     -75.2573302
9.359                0.933328802     -75.3847576
9.36                 0.933170436     -75.5125291
9.361                0.933011593     -75.6406455
9.362                 0.93285227     -75.7691082
9.363                0.932692468     -75.8979182
9.364                0.932532186     -76.0270766
9.365                0.932371422     -76.1565847
9.366                0.932210176     -76.2864435
9.367                0.932048446     -76.4166543
9.368                0.931886232     -76.5472181
9.369                0.931723534     -76.6781362
9.37                  0.93156035     -76.8094096
9.371                0.931396678     -76.9410396
9.372                 0.93123252     -77.0730272
9.373                0.931067873     -77.2053738
9.374                0.930902736     -77.3380804
9.375                 0.93073711     -77.4711483
9.376                0.930570993     -77.6045785
9.377                0.930404384     -77.7383723
9.378                0.930237283     -77.8725309
9.379                0.930069689     -78.0070555
9.38                   0.9299016     -78.1419471
9.381                0.929733017     -78.2772071
9.382                0.929563938     -78.4128367
9.383                0.929394363     -78.5488369
9.384                0.929224291     -78.6852091
9.385                0.929053722     -78.8219543
9.386                0.928882653     -78.9590739
9.387                0.928711086     -79.0965691
9.388                0.928539019     -79.2344409
9.389                0.928366452     -79.3726908
9.39                 0.928193383     -79.5113197
9.391                0.928019813     -79.6503291
9.392                 0.92784574     -79.7897201
9.393                0.927671164     -79.9294939
9.394                0.927496085     -80.0696518
9.395                0.927320501     -80.2101949
9.396                0.927144412     -80.3511246
