! TOUCHSTONE file generated by CST DESIGN STUDIO
! Date and time: Wed Feb  5 13:18:09 2025
! Project name: C:\Work\MatlabApps\UnitCellOptimizationMatlab\CST\unitcell.cst
! Tree item: Tasks\Sweep1\SPara1\S-Parameters
! Header version: 2024
! Port assignment regex: !\s*Touchstone port\s*([0-9]+)\s*=\s*(CST MWS port|CST DES external port|CST DES block port)\s*(.+)\s* \(\"(.*)\"\)(\s*mode\s*([0-9]+))?.*
! Touchstone port assignment:
! Touchstone port 1 = CST DES external port 1 ("")
# GHz S MA R 50
9                    0.979238499     -81.1853001
9.001                0.979184929     -81.3138363
9.002                0.979131199     -81.4426971
9.003                 0.97907731     -81.5718835
9.004                 0.97902326     -81.7013962
9.005                0.978969051     -81.8312364
9.006                 0.97891468     -81.9614049
9.007                0.978860149     -82.0919027
9.008                0.978805457     -82.2227307
9.009                0.978750603     -82.3538898
9.01                 0.978695588     -82.4853811
9.011                0.978640411     -82.6172054
9.012                0.978585072     -82.7493638
9.013                 0.97852957     -82.8818571
9.014                0.978473906     -83.0146863
9.015                0.978418079     -83.1478524
9.016                0.978362088     -83.2813564
9.017                0.978305935     -83.4151991
9.018                0.978249618     -83.5493815
9.019                0.978193137     -83.6839047
9.02                 0.978136492     -83.8187695
9.021                0.978079682      -83.953977
9.022                0.978022708      -84.089528
9.023                 0.97796557     -84.2254237
9.024                0.977908266     -84.3616648
9.025                0.977850798     -84.4982524
9.026                0.977793164     -84.6351875
9.027                0.977735365      -84.772471
9.028                0.977677399     -84.9101039
9.029                0.977619268     -85.0480872
9.03                 0.977560971     -85.1864218
9.031                0.977502508     -85.3251088
9.032                0.977443878     -85.4641491
9.033                0.977385081     -85.6035436
9.034                0.977326118     -85.7432933
9.035                0.977266987     -85.8833993
9.036                 0.97720769     -86.0238626
9.037                0.977148225     -86.1646839
9.038                0.977088592     -86.3058645
9.039                0.977028792     -86.4474052
9.04                 0.976968824     -86.5893071
9.041                0.976908689      -86.731571
9.042                0.976848385     -86.8741981
9.043                0.976787913     -87.0171892
9.044                0.976727273     -87.1605454
9.045                0.976666464     -87.3042677
9.046                0.976605487      -87.448357
9.047                0.976544341     -87.5928143
9.048                0.976483026     -87.7376406
9.049                0.976421543      -87.882837
9.05                  0.97635989     -88.0284043
9.051                0.976298069     -88.1743437
9.052                0.976236078      -88.320656
9.053                0.976173918     -88.4673422
9.054                0.976111589     -88.6144034
9.055                 0.97604909     -88.7618406
9.056                0.975986423     -88.9096547
9.057                0.975923585     -89.0578467
9.058                0.975860578     -89.2064177
9.059                0.975797402     -89.3553685
9.06                 0.975734056     -89.5047003
9.061                 0.97567054     -89.6544139
9.062                0.975606855     -89.8045105
9.063                   0.975543     -89.9549909
9.064                0.975478975     -90.1058562
9.065                 0.97541478     -90.2571073
9.066                0.975350416     -90.4087453
9.067                0.975285883     -90.5607712
9.068                0.975221179     -90.7131859
9.069                0.975156306     -90.8659904
9.07                 0.975091264     -91.0191858
9.071                0.975026051     -91.1727729
9.072                 0.97496067     -91.3267529
9.073                0.974895118     -91.4811266
9.074                0.974829398     -91.6358952
9.075                0.974763508     -91.7910595
9.076                0.974697448     -91.9466206
9.077                 0.97463122     -92.1025794
9.078                0.974564822     -92.2589369
9.079                0.974498256     -92.4156942
9.08                  0.97443152     -92.5728522
9.081                0.974364616     -92.7304119
9.082                0.974297543     -92.8883742
9.083                0.974230302     -93.0467403
9.084                0.974162892     -93.2055109
9.085                0.974095314     -93.3646873
9.086                0.974027567     -93.5242702
9.087                0.973959653     -93.6842607
9.088                0.973891571     -93.8446597
9.089                0.973823322     -94.0054683
9.09                 0.973754905     -94.1666875
9.091                 0.97368632     -94.3283181
9.092                0.973617569     -94.4903612
9.093                0.973548651     -94.6528177
9.094                0.973479567     -94.8156886
9.095                0.973410316      -94.978975
9.096                0.973340899     -95.1426776
9.097                0.973271317     -95.3067976
9.098                0.973201568     -95.4713359
9.099                0.973131655     -95.6362934
9.1                  0.973061576     -95.8016711
9.101                0.972991333       -95.96747
9.102                0.972920926     -96.1336909
9.103                0.972850354      -96.300335
9.104                0.972779619     -96.4674031
9.105                 0.97270872     -96.6348961
9.106                0.972637658     -96.8028151
9.107                0.972566433     -96.9711609
9.108                0.972495046     -97.1399346
9.109                0.972423498      -97.309137
9.11                 0.972351787     -97.4787691
9.111                0.972279915     -97.6488318
9.112                0.972207883     -97.8193261
9.113                 0.97213569     -97.9902529
9.114                0.972063338     -98.1616131
9.115                0.971990826     -98.3334076
9.116                0.971918155     -98.5056375
9.117                0.971845325     -98.6783035
9.118                0.971772337     -98.8514066
9.119                0.971699192     -99.0249477
9.12                  0.97162589     -99.1989278
9.121                0.971552431     -99.3733477
9.122                0.971478817     -99.5482084
9.123                0.971405046     -99.7235107
9.124                0.971331121     -99.8992555
9.125                0.971257042     -100.075444
9.126                0.971182809     -100.252076
9.127                0.971108423     -100.429154
9.128                0.971033884     -100.606678
9.129                0.970959193     -100.784649
9.13                 0.970884351     -100.963068
9.131                0.970809358     -101.141935
9.132                0.970734216     -101.321252
9.133                0.970658924      -101.50102
9.134                0.970583483     -101.681238
9.135                0.970507895     -101.861909
9.136                0.970432159     -102.043033
9.137                0.970356277     -102.224611
9.138                 0.97028025     -102.406643
9.139                0.970204077     -102.589131
9.14                  0.97012776     -102.772076
9.141                  0.9700513     -102.955477
9.142                0.969974697     -103.139337
9.143                0.969897953     -103.323655
9.144                0.969821067     -103.508433
9.145                0.969744042     -103.693671
9.146                0.969666877     -103.879371
9.147                0.969589574     -104.065532
9.148                0.969512133     -104.252157
9.149                0.969434556     -104.439245
9.15                 0.969356844     -104.626797
9.151                0.969278996     -104.814815
9.152                0.969201015     -105.003298
9.153                0.969122902     -105.192248
9.154                0.969044656     -105.381666
9.155                 0.96896628     -105.571551
9.156                0.968887774     -105.761906
9.157                 0.96880914      -105.95273
9.158                0.968730378     -106.144025
9.159                0.968651489      -106.33579
9.16                 0.968572475     -106.528028
9.161                0.968493337     -106.720738
9.162                0.968414075     -106.913921
9.163                0.968334691     -107.107578
9.164                0.968255187      -107.30171
9.165                0.968175563     -107.496317
9.166                 0.96809582       -107.6914
9.167                 0.96801596     -107.886959
9.168                0.967935983     -108.082996
9.169                0.967855892      -108.27951
9.17                 0.967775688     -108.476504
9.171                0.967695371     -108.673976
9.172                0.967614943     -108.871928
9.173                0.967534405     -109.070361
9.174                0.967453759     -109.269274
9.175                0.967373006     -109.468669
9.176                0.967292148     -109.668547
9.177                0.967211185     -109.868907
9.178                0.967130119     -110.069751
9.179                0.967048952     -110.271078
9.18                 0.966967686      -110.47289
9.181                 0.96688632     -110.675187
9.182                0.966804858      -110.87797
9.183                0.966723301     -111.081239
9.184                0.966641649     -111.284994
9.185                0.966559905     -111.489237
9.186                 0.96647807     -111.693967
9.187                0.966396147     -111.899185
9.188                0.966314135     -112.104892
9.189                0.966232038     -112.311088
9.19                 0.966149856     -112.517774
9.191                0.966067591     -112.724949
9.192                0.965985246     -112.932615
9.193                0.965902821     -113.140772
9.194                0.965820319      -113.34942
9.195                0.965737741      -113.55856
9.196                0.965655089     -113.768192
9.197                0.965572365     -113.978316
9.198                0.965489571     -114.188933
9.199                0.965406707     -114.400044
9.2                  0.965323778     -114.611648
9.201                0.965240783     -114.823745
9.202                0.965157725     -115.036337
9.203                0.965074606     -115.249424
9.204                0.964991429     -115.463005
9.205                0.964908194     -115.677082
9.206                0.964824903     -115.891653
9.207                 0.96474156     -116.106721
9.208                0.964658166     -116.322285
9.209                0.964574722     -116.538344
9.21                 0.964491232       -116.7549
9.211                0.964407696     -116.971953
9.212                0.964324118     -117.189502
9.213                0.964240498     -117.407549
9.214                0.964156841     -117.626093
9.215                0.964073147     -117.845134
9.216                0.963989418     -118.064672
9.217                0.963905658     -118.284708
9.218                0.963821868     -118.505242
9.219                 0.96373805     -118.726274
9.22                 0.963654208     -118.947804
9.221                0.963570342     -119.169832
9.222                0.963486456     -119.392358
9.223                0.963402551     -119.615382
9.224                0.963318631     -119.838904
9.225                0.963234697     -120.062924
9.226                0.963150752     -120.287443
9.227                0.963066798      -120.51246
9.228                0.962982839     -120.737975
9.229                0.962898875     -120.963989
9.23                  0.96281491       -121.1905
9.231                0.962730947      -121.41751
9.232                0.962646988     -121.645017
9.233                0.962563034     -121.873022
9.234                 0.96247909     -122.101525
9.235                0.962395158     -122.330526
9.236                0.962311239     -122.560024
9.237                0.962227338     -122.790019
9.238                0.962143456     -123.020512
9.239                0.962059597     -123.251501
9.24                 0.961975762     -123.482987
9.241                0.961891955      -123.71497
9.242                0.961808179     -123.947449
9.243                0.961724436     -124.180423
9.244                0.961640728     -124.413894
9.245                 0.96155706      -124.64786
9.246                0.961473434      -124.88232
9.247                0.961389852     -125.117276
9.248                0.961306317     -125.352726
9.249                0.961222833      -125.58867
9.25                 0.961139402     -125.825107
9.251                0.961056028     -126.062038
9.252                0.960972712     -126.299461
9.253                0.960889459     -126.537377
9.254                0.960806271     -126.775784
9.255                0.960723152     -127.014683
9.256                0.960640103     -127.254073
9.257                0.960557129     -127.493953
9.258                0.960474233     -127.734323
9.259                0.960391417     -127.975182
9.26                 0.960308685      -128.21653
9.261                 0.96022604     -128.458366
9.262                0.960143484     -128.700689
9.263                0.960061022     -128.943499
9.264                0.959978657     -129.186796
9.265                0.959896391     -129.430578
9.266                0.959814228     -129.674844
9.267                0.959732171     -129.919595
9.268                0.959650224     -130.164829
9.269                0.959568389     -130.410545
9.27                 0.959486671     -130.656744
9.271                0.959405072     -130.903423
9.272                0.959323596     -131.150583
9.273                0.959242246     -131.398222
9.274                0.959161026     -131.646339
9.275                0.959079938     -131.894934
9.276                0.958998987     -132.144006
9.277                0.958918176     -132.393553
9.278                0.958837508     -132.643576
9.279                0.958756987     -132.894072
9.28                 0.958676617     -133.145041
9.281                  0.9585964     -133.396482
9.282                 0.95851634     -133.648393
9.283                0.958436441     -133.900775
9.284                0.958356707     -134.153625
9.285                0.958277141     -134.406943
9.286                0.958197746     -134.660727
9.287                0.958118527     -134.914976
9.288                0.958039486      -135.16969
9.289                0.957960628     -135.424867
9.29                 0.957881956     -135.680505
9.291                0.957803474     -135.936604
9.292                0.957725185     -136.193163
9.293                0.957647093     -136.450179
9.294                0.957569202     -136.707652
9.295                0.957491516      -136.96558
9.296                0.957414038     -137.223963
9.297                0.957336771     -137.482798
9.298                0.957259721     -137.742084
9.299                 0.95718289      -138.00182
9.3                  0.957106282     -138.262005
9.301                0.957029901     -138.522637
9.302                0.956953751     -138.783714
9.303                0.956877835     -139.045235
9.304                0.956802158     -139.307198
9.305                0.956726723     -139.569602
9.306                0.956651534     -139.832446
9.307                0.956576595     -140.095727
9.308                0.956501909     -140.359444
9.309                0.956427482     -140.623596
9.31                 0.956353315     -140.888181
9.311                0.956279414     -141.153196
9.312                0.956205781     -141.418641
9.313                0.956132422     -141.684513
9.314                 0.95605934     -141.950811
9.315                0.955986538     -142.217534
9.316                0.955914021     -142.484678
9.317                0.955841792     -142.752243
9.318                0.955769856     -143.020226
9.319                0.955698216     -143.288625
9.32                 0.955626876      -143.55744
9.321                 0.95555584     -143.826667
9.322                0.955485112     -144.096305
9.323                0.955414696     -144.366352
9.324                0.955344596     -144.636805
9.325                0.955274815     -144.907663
9.326                0.955205358     -145.178924
9.327                0.955136229     -145.450586
9.328                0.955067431     -145.722646
9.329                0.954998968     -145.995102
9.33                 0.954930845     -146.267953
9.331                0.954863064     -146.541196
9.332                0.954795631     -146.814828
9.333                0.954728548     -147.088848
9.334                 0.95466182     -147.363254
9.335                0.954595451     -147.638042
9.336                0.954529445     -147.913212
9.337                0.954463804      -148.18876
9.338                0.954398534     -148.464684
9.339                0.954333639     -148.740981
9.34                 0.954269121      -149.01765
9.341                0.954204985     -149.294688
9.342                0.954141235     -149.572093
9.343                0.954077874     -149.849861
9.344                0.954014907     -150.127992
9.345                0.953952336     -150.406481
9.346                0.953890167     -150.685326
9.347                0.953828403     -150.964526
9.348                0.953767047     -151.244077
9.349                0.953706103     -151.523977
9.35                 0.953645575     -151.804223
9.351                0.953585468     -152.084812
9.352                0.953525783     -152.365743
9.353                0.953466527     -152.647011
9.354                0.953407701     -152.928615
9.355                0.953349309     -153.210551
9.356                0.953291356     -153.492818
9.357                0.953233846     -153.775411
9.358                 0.95317678     -154.058329
9.359                0.953120164     -154.341568
9.36                 0.953064001     -154.625126
9.361                0.953008295        -154.909
9.362                0.952953048     -155.193187
9.363                0.952898265     -155.477683
9.364                 0.95284395     -155.762487
9.365                0.952790105     -156.047595
9.366                0.952736734     -156.333003
9.367                 0.95268384      -156.61871
9.368                0.952631428     -156.904712
9.369                0.952579501     -157.191006
9.37                 0.952528061     -157.477589
9.371                0.952477112     -157.764457
9.372                0.952426659     -158.051609
9.373                0.952376703      -158.33904
9.374                0.952327248     -158.626747
9.375                0.952278299     -158.914728
9.376                0.952229857     -159.202979
9.377                0.952181926     -159.491497
9.378                0.952134509     -159.780278
9.379                 0.95208761      -160.06932
9.38                 0.952041231      -160.35862
9.381                0.951995377     -160.648173
9.382                0.951950049     -160.937976
9.383                0.951905251     -161.228027
9.384                0.951860985     -161.518322
9.385                0.951817256     -161.808858
9.386                0.951774066     -162.099631
9.387                0.951731417     -162.390637
9.388                0.951689314     -162.681874
9.389                0.951647757     -162.973338
9.39                 0.951606752     -163.265026
9.391                0.951566299     -163.556934
9.392                0.951526403     -163.849058
9.393                0.951487065     -164.141395
9.394                0.951448288     -164.433942
9.395                0.951410076     -164.726695
9.396                0.951372431     -165.019651
