! TOUCHSTONE file generated by CST DESIGN STUDIO
! Date and time: Wed Feb  5 13:18:17 2025
! Project name: C:\Work\MatlabApps\UnitCellOptimizationMatlab\CST\unitcell.cst
! Tree item: Tasks\Sweep1\SPara1\S-Parameters
! Header version: 2024
! Port assignment regex: !\s*Touchstone port\s*([0-9]+)\s*=\s*(CST MWS port|CST DES external port|CST DES block port)\s*(.+)\s* \(\"(.*)\"\)(\s*mode\s*([0-9]+))?.*
! Touchstone port assignment:
! Touchstone port 1 = CST DES external port 1 ("")
# GHz S MA R 50
9                    0.980428503     -72.9392467
9.001                0.980382283     -73.0480648
9.002                0.980335921     -73.1571496
9.003                0.980289418     -73.2665021
9.004                0.980242772     -73.3761231
9.005                0.980195984     -73.4860134
9.006                0.980149052     -73.5961738
9.007                0.980101978     -73.7066052
9.008                0.980054759     -73.8173083
9.009                0.980007397      -73.928284
9.01                  0.97995989     -74.0395331
9.011                0.979912238     -74.1510565
9.012                0.979864441     -74.2628549
9.013                0.979816499     -74.3749293
9.014                0.979768411     -74.4872804
9.015                0.979720176     -74.5999091
9.016                0.979671795     -74.7128162
9.017                0.979623268     -74.8260026
9.018                0.979574593     -74.9394691
9.019                 0.97952577     -75.0532166
9.02                   0.9794768     -75.1672459
9.021                0.979427681     -75.2815578
9.022                0.979378414     -75.3961533
9.023                0.979328998     -75.5110332
9.024                0.979279432     -75.6261983
9.025                0.979229717     -75.7416495
9.026                0.979179852     -75.8573876
9.027                0.979129837     -75.9734136
9.028                0.979079671     -76.0897282
9.029                0.979029354     -76.2063325
9.03                 0.978978886     -76.3232271
9.031                0.978928267     -76.4404131
9.032                0.978877495     -76.5578912
9.033                0.978826571     -76.6756624
9.034                0.978775495     -76.7937275
9.035                0.978724265     -76.9120874
9.036                0.978672882      -77.030743
9.037                0.978621346     -77.1496952
9.038                0.978569656     -77.2689449
9.039                0.978517812     -77.3884929
9.04                 0.978465813     -77.5083402
9.041                0.978413659     -77.6284876
9.042                 0.97836135      -77.748936
9.043                0.978308886     -77.8696864
9.044                0.978256265     -77.9907397
9.045                0.978203489     -78.1120966
9.046                0.978150556     -78.2337582
9.047                0.978097467     -78.3557253
9.048                 0.97804422     -78.4779989
9.049                0.977990817     -78.6005799
9.05                 0.977937255     -78.7234691
9.051                0.977883536     -78.8466675
9.052                0.977829658      -78.970176
9.053                0.977775622     -79.0939955
9.054                0.977721427      -79.218127
9.055                0.977667073     -79.3425713
9.056                 0.97761256     -79.4673293
9.057                0.977557886     -79.5924021
9.058                0.977503053     -79.7177905
9.059                 0.97744806     -79.8434955
9.06                 0.977392906     -79.9695179
9.061                0.977337591     -80.0958587
9.062                0.977282116     -80.2225189
9.063                0.977226479     -80.3494994
9.064                 0.97717068     -80.4768011
9.065                0.977114719      -80.604425
9.066                0.977058597     -80.7323719
9.067                0.977002312     -80.8606429
9.068                0.976945864     -80.9892389
9.069                0.976889253     -81.1181608
9.07                 0.976832479     -81.2474095
9.071                0.976775542     -81.3769861
9.072                0.976718441     -81.5068915
9.073                0.976661176     -81.6371266
9.074                0.976603747     -81.7676924
9.075                0.976546154     -81.8985898
9.076                0.976488396     -82.0298198
9.077                0.976430473     -82.1613833
9.078                0.976372385     -82.2932814
9.079                0.976314131     -82.4255149
9.08                 0.976255713     -82.5580849
9.081                0.976197128     -82.6909922
9.082                0.976138378     -82.8242379
9.083                0.976079461      -82.957823
9.084                0.976020378     -83.0917483
9.085                0.975961128     -83.2260149
9.086                0.975901712     -83.3606238
9.087                0.975842128     -83.4955758
9.088                0.975782378     -83.6308721
9.089                 0.97572246     -83.7665135
9.09                 0.975662375      -83.902501
9.091                0.975602121     -84.0388357
9.092                  0.9755417     -84.1755184
9.093                0.975481111     -84.3125502
9.094                0.975420354     -84.4499321
9.095                0.975359428     -84.5876651
9.096                0.975298334       -84.72575
9.097                0.975237071      -84.864188
9.098                 0.97517564     -85.0029799
9.099                0.975114039     -85.1421268
9.1                  0.975052269     -85.2816297
9.101                 0.97499033     -85.4214896
9.102                0.974928221     -85.5617074
9.103                0.974865943     -85.7022842
9.104                0.974803496     -85.8432208
9.105                0.974740878     -85.9845184
9.106                0.974678091      -86.126178
9.107                0.974615134     -86.2682004
9.108                0.974552006     -86.4105868
9.109                0.974488709     -86.5533381
9.11                 0.974425241     -86.6964552
9.111                0.974361603     -86.8399393
9.112                0.974297795     -86.9837913
9.113                0.974233816     -87.1280122
9.114                0.974169666      -87.272603
9.115                0.974105346     -87.4175647
9.116                0.974040855     -87.5628983
9.117                0.973976194     -87.7086048
9.118                0.973911362     -87.8546852
9.119                0.973846359     -88.0011405
9.12                 0.973781185     -88.1479717
9.121                 0.97371584     -88.2951799
9.122                0.973650325      -88.442766
9.123                0.973584638      -88.590731
9.124                0.973518781      -88.739076
9.125                0.973452753     -88.8878018
9.126                0.973386554     -89.0369097
9.127                0.973320184     -89.1864005
9.128                0.973253643     -89.3362752
9.129                0.973186932     -89.4865349
9.13                  0.97312005     -89.6371806
9.131                0.973052997     -89.7882132
9.132                0.972985773     -89.9396339
9.133                0.972918379     -90.0914435
9.134                0.972850814     -90.2436431
9.135                0.972783079     -90.3962337
9.136                0.972715173     -90.5492163
9.137                0.972647097     -90.7025919
9.138                0.972578851     -90.8563616
9.139                0.972510435     -91.0105262
9.14                 0.972441848     -91.1650869
9.141                0.972373092     -91.3200446
9.142                0.972304166     -91.4754004
9.143                0.972235071     -91.6311552
9.144                0.972165806       -91.78731
9.145                0.972096371     -91.9438659
9.146                0.972026768     -92.1008238
9.147                0.971956996     -92.2581847
9.148                0.971887054     -92.4159497
9.149                0.971816944     -92.5741198
9.15                 0.971746666     -92.7326958
9.151                 0.97167622      -92.891679
9.152                0.971605605     -93.0510701
9.153                0.971534823     -93.2108703
9.154                0.971463873     -93.3710806
9.155                0.971392756     -93.5317018
9.156                0.971321472     -93.6927351
9.157                0.971250021     -93.8541813
9.158                0.971178403     -94.0160416
9.159                 0.97110662     -94.1783169
9.16                  0.97103467     -94.3410081
9.161                0.970962555     -94.5041163
9.162                0.970890274     -94.6676424
9.163                0.970817829     -94.8315875
9.164                0.970745218     -94.9959524
9.165                0.970672444     -95.1607383
9.166                0.970599505      -95.325946
9.167                0.970526403     -95.4915766
9.168                0.970453137      -95.657631
9.169                0.970379709     -95.8241101
9.17                 0.970306118     -95.9910151
9.171                0.970232365     -96.1583468
9.172                0.970158451     -96.3261061
9.173                0.970084375     -96.4942942
9.174                0.970010139     -96.6629118
9.175                0.969935742     -96.8319601
9.176                0.969861186     -97.0014398
9.177                 0.96978647     -97.1713521
9.178                0.969711595     -97.3416979
9.179                0.969636562      -97.512478
9.18                 0.969561371     -97.6836935
9.181                0.969486023     -97.8553452
9.182                0.969410518     -98.0274342
9.183                0.969334856     -98.1999614
9.184                0.969259039     -98.3729277
9.185                0.969183067      -98.546334
9.186                0.969106941     -98.7201814
9.187                 0.96903066     -98.8944706
9.188                0.968954227     -99.0692026
9.189                 0.96887764     -99.2443784
9.19                 0.968800902     -99.4199988
9.191                0.968724012     -99.5960648
9.192                0.968646971     -99.7725773
9.193                0.968569781     -99.9495372
9.194                0.968492441     -100.126945
9.195                0.968414953     -100.304803
9.196                0.968337317      -100.48311
9.197                0.968259533     -100.661869
9.198                0.968181604     -100.841079
9.199                0.968103528     -101.020742
9.2                  0.968025308     -101.200859
9.201                0.967946944      -101.38143
9.202                0.967868437     -101.562457
9.203                0.967789787      -101.74394
9.204                0.967710996     -101.925879
9.205                0.967632064     -102.108277
9.206                0.967552992     -102.291134
9.207                0.967473781      -102.47445
9.208                0.967394433     -102.658227
9.209                0.967314947     -102.842466
9.21                 0.967235325     -103.027166
9.211                0.967155568     -103.212329
9.212                0.967075677     -103.397957
9.213                0.966995652     -103.584048
9.214                0.966915495     -103.770606
9.215                0.966835207     -103.957629
9.216                0.966754789      -104.14512
9.217                0.966674242     -104.333078
9.218                0.966593566     -104.521505
9.219                0.966512764     -104.710402
9.22                 0.966431836     -104.899768
9.221                0.966350782     -105.089606
9.222                0.966269606     -105.279916
9.223                0.966188307     -105.470697
9.224                0.966106886     -105.661952
9.225                0.966025346     -105.853682
9.226                0.965943686     -106.045885
9.227                0.965861909     -106.238565
9.228                0.965780015      -106.43172
9.229                0.965698006     -106.625352
9.23                 0.965615884     -106.819462
9.231                0.965533649      -107.01405
9.232                0.965451302     -107.209118
9.233                0.965368845     -107.404664
9.234                 0.96528628     -107.600692
9.235                0.965203608       -107.7972
9.236                 0.96512083      -107.99419
9.237                0.965037947     -108.191662
9.238                0.964954961     -108.389618
9.239                0.964871874     -108.588057
9.24                 0.964788687      -108.78698
9.241                0.964705401     -108.986388
9.242                0.964622018     -109.186282
9.243                 0.96453854     -109.386662
9.244                0.964454967     -109.587528
9.245                0.964371302     -109.788882
9.246                0.964287546     -109.990724
9.247                0.964203701     -110.193054
9.248                0.964119768     -110.395874
9.249                 0.96403575     -110.599183
9.25                 0.963951647     -110.802982
9.251                0.963867461     -111.007271
9.252                0.963783194     -111.212052
9.253                0.963698849     -111.417325
9.254                0.963614425      -111.62309
9.255                0.963529926     -111.829347
9.256                0.963445354     -112.036098
9.257                0.963360709     -112.243343
9.258                0.963275994     -112.451081
9.259                 0.96319121     -112.659314
9.26                  0.96310636     -112.868042
9.261                0.963021446     -113.077266
9.262                0.962936468     -113.286986
9.263                 0.96285143     -113.497201
9.264                0.962766333     -113.707914
9.265                 0.96268118     -113.919124
9.266                0.962595971     -114.130831
9.267                 0.96251071     -114.343036
9.268                0.962425398     -114.555739
9.269                0.962340037      -114.76894
9.27                  0.96225463     -114.982641
9.271                0.962169178      -115.19684
9.272                0.962083684      -115.41154
9.273                 0.96199815     -115.626739
9.274                0.961912578     -115.842437
9.275                 0.96182697     -116.058637
9.276                0.961741329     -116.275337
9.277                0.961655656     -116.492537
9.278                0.961569954     -116.710239
9.279                0.961484226     -116.928442
9.28                 0.961398473     -117.147146
9.281                0.961312698     -117.366353
9.282                0.961226903     -117.586061
9.283                0.961141091      -117.80627
9.284                0.961055263     -118.026983
9.285                0.960969424     -118.248197
9.286                0.960883574     -118.469914
9.287                0.960797717     -118.692133
9.288                0.960711854     -118.914855
9.289                0.960625989     -119.138079
9.29                 0.960540124     -119.361807
9.291                0.960454262     -119.586037
9.292                0.960368404      -119.81077
9.293                0.960282555     -120.036005
9.294                0.960196715     -120.261744
9.295                0.960110889     -120.487985
9.296                0.960025078      -120.71473
9.297                0.959939286     -120.941976
9.298                0.959853514     -121.169726
9.299                0.959767767     -121.397978
9.3                  0.959682046     -121.626733
9.301                0.959596354      -121.85599
9.302                0.959510695      -122.08575
9.303                0.959425071     -122.316012
9.304                0.959339484     -122.546775
9.305                0.959253938     -122.778041
9.306                0.959168436     -123.009808
9.307                0.959082981     -123.242076
9.308                0.958997575     -123.474846
9.309                0.958912222     -123.708117
9.31                 0.958826923     -123.941888
9.311                0.958741684      -124.17616
9.312                0.958656506     -124.410932
9.313                0.958571392     -124.646204
9.314                0.958486347     -124.881975
9.315                0.958401371     -125.118245
9.316                 0.95831647     -125.355015
9.317                0.958231646     -125.592282
9.318                0.958146902     -125.830048
9.319                0.958062241     -126.068311
9.32                 0.957977667     -126.307071
9.321                0.957893182     -126.546328
9.322                0.957808791     -126.786081
9.323                0.957724495     -127.026329
9.324                  0.9576403     -127.267073
9.325                0.957556207     -127.508312
9.326                 0.95747222     -127.750044
9.327                0.957388343      -127.99227
9.328                0.957304579     -128.234989
9.329                0.957220931     -128.478201
9.33                 0.957137403     -128.721903
9.331                0.957053997     -128.966097
9.332                0.956970719     -129.210782
9.333                 0.95688757     -129.455955
9.334                0.956804555     -129.701618
9.335                0.956721677     -129.947769
9.336                0.956638939     -130.194407
9.337                0.956556345     -130.441532
9.338                0.956473899     -130.689143
9.339                0.956391604     -130.937239
9.34                 0.956309464     -131.185818
9.341                0.956227483     -131.434882
9.342                0.956145663     -131.684427
9.343                0.956064009     -131.934454
9.344                0.955982524     -132.184962
9.345                0.955901212     -132.435949
9.346                0.955820077     -132.687415
9.347                0.955739122     -132.939359
9.348                0.955658351     -133.191779
9.349                0.955577769     -133.444675
9.35                 0.955497377     -133.698046
9.351                0.955417181     -133.951889
9.352                0.955337184     -134.206206
9.353                0.955257391     -134.460993
9.354                0.955177803     -134.716251
9.355                0.955098427     -134.971977
9.356                0.955019265     -135.228172
9.357                0.954940321     -135.484832
9.358                0.954861599     -135.741958
9.359                0.954783103     -135.999548
9.36                 0.954704837     -136.257601
9.361                0.954626805     -136.516115
9.362                0.954549011     -136.775089
9.363                0.954471458     -137.034522
9.364                0.954394151     -137.294412
9.365                0.954317093     -137.554758
9.366                0.954240289     -137.815558
9.367                0.954163742     -138.076812
9.368                0.954087456     -138.338517
9.369                0.954011436     -138.600672
9.37                 0.953935686     -138.863276
9.371                0.953860208     -139.126327
9.372                0.953785008     -139.389823
9.373                 0.95371009     -139.653763
9.374                0.953635457     -139.918145
9.375                0.953561113     -140.182967
9.376                0.953487062     -140.448229
9.377                 0.95341331     -140.713928
9.378                0.953339858     -140.980062
9.379                0.953266713      -141.24663
9.38                 0.953193877      -141.51363
9.381                0.953121355      -141.78106
9.382                 0.95304915     -142.048919
9.383                0.952977267     -142.317204
9.384                0.952905711     -142.585913
9.385                0.952834484     -142.855046
9.386                0.952763591     -143.124599
9.387                0.952693036     -143.394572
9.388                0.952622824     -143.664961
9.389                0.952552958     -143.935766
9.39                 0.952483442     -144.206983
9.391                0.952414281     -144.478611
9.392                0.952345478     -144.750649
9.393                0.952277037     -145.023093
9.394                0.952208963     -145.295941
9.395                 0.95214126     -145.569193
9.396                0.952073932     -145.842845
