! TOUCHSTONE file generated by CST DESIGN STUDIO
! Date and time: Wed Feb  5 13:18:26 2025
! Project name: C:\Work\MatlabApps\UnitCellOptimizationMatlab\CST\unitcell.cst
! Tree item: Tasks\Sweep1\SPara1\S-Parameters
! Header version: 2024
! Port assignment regex: !\s*Touchstone port\s*([0-9]+)\s*=\s*(CST MWS port|CST DES external port|CST DES block port)\s*(.+)\s* \(\"(.*)\"\)(\s*mode\s*([0-9]+))?.*
! Touchstone port assignment:
! Touchstone port 1 = CST DES external port 1 ("")
# GHz S MA R 50
9                    0.981813185     -63.8022484
9.001                0.981775667     -63.8916479
9.002                0.981738032     -63.9812565
9.003                 0.98170028     -64.0710747
9.004                0.981662411     -64.1611032
9.005                0.981624424     -64.2513427
9.006                 0.98158632     -64.3417938
9.007                0.981548097     -64.4324572
9.008                0.981509756     -64.5233335
9.009                0.981471296     -64.6144235
9.01                 0.981432717     -64.7057277
9.011                0.981394018     -64.7972469
9.012                  0.9813552     -64.8889816
9.013                0.981316261     -64.9809327
9.014                0.981277201     -65.0731007
9.015                 0.98123802     -65.1654864
9.016                0.981198718     -65.2580903
9.017                0.981159295     -65.3509133
9.018                0.981119749     -65.4439559
9.019                0.981080081     -65.5372189
9.02                  0.98104029      -65.630703
9.021                0.981000376     -65.7244088
9.022                0.980960339      -65.818337
9.023                0.980920178     -65.9124884
9.024                0.980879892     -66.0068635
9.025                0.980839483     -66.1014633
9.026                0.980798948     -66.1962882
9.027                0.980758288     -66.2913391
9.028                0.980717503     -66.3866165
9.029                0.980676591     -66.4821214
9.03                 0.980635553     -66.5778543
9.031                0.980594389     -66.6738159
9.032                0.980553098     -66.7700071
9.033                0.980511679     -66.8664284
9.034                0.980470132     -66.9630806
9.035                0.980428458     -67.0599645
9.036                0.980386655     -67.1570808
9.037                0.980344723     -67.2544301
9.038                0.980302662     -67.3520132
9.039                0.980260471     -67.4498309
9.04                 0.980218151     -67.5478839
9.041                  0.9801757     -67.6461729
9.042                0.980133119     -67.7446986
9.043                0.980090406     -67.8434618
9.044                0.980047563     -67.9424633
9.045                0.980004587     -68.0417037
9.046                 0.97996148     -68.1411838
9.047                 0.97991824     -68.2409044
9.048                0.979874867     -68.3408663
9.049                0.979831362     -68.4410701
9.05                 0.979787722     -68.5415166
9.051                0.979743949     -68.6422067
9.052                0.979700042     -68.7431409
9.053                   0.979656     -68.8443202
9.054                0.979611823     -68.9457453
9.055                0.979567511     -69.0474169
9.056                0.979523063     -69.1493359
9.057                0.979478479     -69.2515029
9.058                0.979433759     -69.3539188
9.059                0.979388902     -69.4565843
9.06                 0.979343907     -69.5595002
9.061                0.979298776     -69.6626674
9.062                0.979253506     -69.7660865
9.063                0.979208098     -69.8697584
9.064                0.979162552     -69.9736838
9.065                0.979116866     -70.0778636
9.066                0.979071042     -70.1822985
9.067                0.979025077     -70.2869894
9.068                0.978978973      -70.391937
9.069                0.978932728     -70.4971421
9.07                 0.978886343     -70.6026056
9.071                0.978839816     -70.7083282
9.072                0.978793148     -70.8143107
9.073                0.978746338      -70.920554
9.074                0.978699386     -71.0270589
9.075                0.978652291     -71.1338262
9.076                0.978605054     -71.2408566
9.077                0.978557673     -71.3481511
9.078                0.978510149     -71.4557104
9.079                 0.97846248     -71.5635354
9.08                 0.978414667     -71.6716269
9.081                 0.97836671     -71.7799856
9.082                0.978318607     -71.8886126
9.083                 0.97827036     -71.9975085
9.084                0.978221966     -72.1066742
9.085                0.978173426     -72.2161106
9.086                 0.97812474     -72.3258185
9.087                0.978075907     -72.4357987
9.088                0.978026926     -72.5460521
9.089                0.977977799     -72.6565795
9.09                 0.977928523     -72.7673818
9.091                0.977879099     -72.8784598
9.092                0.977829526     -72.9898144
9.093                0.977779805     -73.1014464
9.094                0.977729934     -73.2133568
9.095                0.977679914     -73.3255463
9.096                0.977629744     -73.4380158
9.097                0.977579423     -73.5507662
9.098                0.977528952     -73.6637983
9.099                0.977478329     -73.7771131
9.1                  0.977427556     -73.8907114
9.101                 0.97737663      -74.004594
9.102                0.977325553     -74.1187619
9.103                0.977274323     -74.2332159
9.104                0.977222941      -74.347957
9.105                0.977171405     -74.4629859
9.106                0.977119717     -74.5783036
9.107                0.977067874      -74.693911
9.108                0.977015877     -74.8098089
9.109                0.976963726     -74.9259983
9.11                 0.976911421       -75.04248
9.111                 0.97685896      -75.159255
9.112                0.976806344     -75.2763241
9.113                0.976753572     -75.3936883
9.114                0.976700644     -75.5113484
9.115                 0.97664756     -75.6293054
9.116                0.976594319     -75.7475602
9.117                0.976540921     -75.8661136
9.118                0.976487366     -75.9849666
9.119                0.976433654     -76.1041202
9.12                 0.976379783     -76.2235751
9.121                0.976325754     -76.3433324
9.122                0.976271566      -76.463393
9.123                 0.97621722     -76.5837578
9.124                0.976162715     -76.7044276
9.125                 0.97610805     -76.8254036
9.126                0.976053225     -76.9466865
9.127                 0.97599824     -77.0682773
9.128                0.975943095      -77.190177
9.129                0.975887789     -77.3123864
9.13                 0.975832322     -77.4349066
9.131                0.975776693     -77.5577384
9.132                0.975720904     -77.6808829
9.133                0.975664952     -77.8043408
9.134                0.975608838     -77.9281133
9.135                0.975552562     -78.0522013
9.136                0.975496123     -78.1766057
9.137                0.975439521     -78.3013274
9.138                0.975382756     -78.4263674
9.139                0.975325827     -78.5517267
9.14                 0.975268734     -78.6774062
9.141                0.975211477      -78.803407
9.142                0.975154056     -78.9297299
9.143                0.975096471     -79.0563759
9.144                 0.97503872      -79.183346
9.145                0.974980804     -79.3106411
9.146                0.974922723     -79.4382624
9.147                0.974864476     -79.5662106
9.148                0.974806064     -79.6944868
9.149                0.974747485     -79.8230919
9.15                  0.97468874     -79.9520271
9.151                0.974629828     -80.0812931
9.152                0.974570749      -80.210891
9.153                0.974511503     -80.3408219
9.154                 0.97445209     -80.4710866
9.155                0.974392509     -80.6016862
9.156                 0.97433276     -80.7326217
9.157                0.974272844      -80.863894
9.158                0.974212759     -80.9955041
9.159                0.974152506     -81.1274532
9.16                 0.974092084      -81.259742
9.161                0.974031493     -81.3923717
9.162                0.973970733     -81.5253432
9.163                0.973909804     -81.6586576
9.164                0.973848705     -81.7923159
9.165                0.973787437      -81.926319
9.166                0.973725999     -82.0606679
9.167                0.973664391     -82.1953638
9.168                0.973602612     -82.3304075
9.169                0.973540664     -82.4658001
9.17                 0.973478544     -82.6015426
9.171                0.973416254     -82.7376361
9.172                0.973353794     -82.8740815
9.173                0.973291162     -83.0108799
9.174                0.973228359     -83.1480323
9.175                0.973165384     -83.2855397
9.176                0.973102238     -83.4234031
9.177                0.973038921     -83.5616236
9.178                0.972975432     -83.7002021
9.179                0.972911771     -83.8391398
9.18                 0.972847937     -83.9784376
9.181                0.972783932     -84.1180965
9.182                0.972719755     -84.2581177
9.183                0.972655405     -84.3985021
9.184                0.972590883     -84.5392507
9.185                0.972526188     -84.6803647
9.186                0.972461321      -84.821845
9.187                 0.97239628     -84.9636927
9.188                0.972331068     -85.1059087
9.189                0.972265682     -85.2484943
9.19                 0.972200123     -85.3914503
9.191                0.972134391     -85.5347778
9.192                0.972068486      -85.678478
9.193                0.972002408     -85.8225517
9.194                0.971936157     -85.9670001
9.195                0.971869733     -86.1118242
9.196                0.971803135     -86.2570251
9.197                0.971736365     -86.4026037
9.198                 0.97166942     -86.5485612
9.199                0.971602303     -86.6948986
9.2                  0.971535012     -86.8416169
9.201                0.971467548     -86.9887173
9.202                0.971399911     -87.1362007
9.203                  0.9713321     -87.2840681
9.204                0.971264116     -87.4323207
9.205                0.971195959     -87.5809596
9.206                0.971127629     -87.7299856
9.207                0.971059125        -87.8794
9.208                0.970990449     -88.0292037
9.209                0.970921599     -88.1793978
9.21                 0.970852576     -88.3299834
9.211                 0.97078338     -88.4809616
9.212                0.970714012     -88.6323333
9.213                0.970644471     -88.7840996
9.214                0.970574757     -88.9362616
9.215                 0.97050487     -89.0888204
9.216                0.970434811     -89.2417769
9.217                 0.97036458     -89.3951323
9.218                0.970294176     -89.5488876
9.219                  0.9702236     -89.7030439
9.22                 0.970152853     -89.8576022
9.221                0.970081933     -90.0125636
9.222                0.970010842     -90.1679291
9.223                 0.96993958     -90.3236998
9.224                0.969868146     -90.4798767
9.225                0.969796541     -90.6364609
9.226                0.969724765     -90.7934535
9.227                0.969652818     -90.9508555
9.228                0.969580701     -91.1086679
9.229                0.969508414     -91.2668919
9.23                 0.969435957     -91.4255284
9.231                 0.96936333     -91.5845785
9.232                0.969290533     -91.7440433
9.233                0.969217567     -91.9039238
9.234                0.969144432     -92.0642211
9.235                0.969071129     -92.2249362
9.236                0.968997657     -92.3860702
9.237                0.968924016      -92.547624
9.238                0.968850209     -92.7095989
9.239                0.968776233     -92.8719957
9.24                  0.96870209     -93.0348156
9.241                0.968627781     -93.1980595
9.242                0.968553305     -93.3617286
9.243                0.968478663     -93.5258239
9.244                0.968403856     -93.6903464
9.245                0.968328883     -93.8552971
9.246                0.968253745     -94.0206771
9.247                0.968178442     -94.1864875
9.248                0.968102976     -94.3527292
9.249                0.968027346     -94.5194033
9.25                 0.967951553     -94.6865108
9.251                0.967875596     -94.8540527
9.252                0.967799478     -95.0220301
9.253                0.967723198      -95.190444
9.254                0.967646757     -95.3592955
9.255                0.967570154     -95.5285854
9.256                0.967493392     -95.6983149
9.257                 0.96741647      -95.868485
9.258                0.967339388     -96.0390967
9.259                0.967262148      -96.210151
9.26                  0.96718475     -96.3816489
9.261                0.967107195     -96.5535914
9.262                0.967029483     -96.7259796
9.263                0.966951614     -96.8988143
9.264                 0.96687359     -97.0720967
9.265                 0.96679541     -97.2458277
9.266                0.966717077     -97.4200083
9.267                0.966638589     -97.5946395
9.268                0.966559949     -97.7697223
9.269                0.966481156     -97.9452577
9.27                 0.966402212     -98.1212466
9.271                0.966323117     -98.2976901
9.272                0.966243872     -98.4745891
9.273                0.966164477     -98.6519445
9.274                0.966084934     -98.8297574
9.275                0.966005242     -99.0080287
9.276                0.965925404     -99.1867594
9.277                 0.96584542     -99.3659505
9.278                 0.96576529     -99.5456028
9.279                0.965685016     -99.7257173
9.28                 0.965604598     -99.9062951
9.281                0.965524037     -100.087337
9.282                0.965443334     -100.268844
9.283                 0.96536249     -100.450817
9.284                0.965281506     -100.633257
9.285                0.965200383     -100.816164
9.286                0.965119121     -100.999541
9.287                0.965037723     -101.183387
9.288                0.964956188     -101.367704
9.289                0.964874517     -101.552492
9.29                 0.964792713     -101.737752
9.291                0.964710775     -101.923486
9.292                0.964628706     -102.109694
9.293                0.964546505     -102.296378
9.294                0.964464174     -102.483537
9.295                0.964381714     -102.671173
9.296                0.964299127     -102.859286
9.297                0.964216413     -103.047879
9.298                0.964133573      -103.23695
9.299                 0.96405061     -103.426502
9.3                  0.963967523     -103.616535
9.301                0.963884314      -103.80705
9.302                0.963800985     -103.998048
9.303                0.963717536     -104.189529
9.304                 0.96363397     -104.381495
9.305                0.963550286     -104.573946
9.306                0.963466487     -104.766883
9.307                0.963382574     -104.960307
9.308                0.963298548     -105.154219
9.309                 0.96321441     -105.348619
9.31                 0.963130163     -105.543508
9.311                0.963045807     -105.738888
9.312                0.962961343     -105.934758
9.313                0.962876774     -106.131119
9.314                0.962792101     -106.327973
9.315                0.962707324      -106.52532
9.316                0.962622447     -106.723161
9.317                0.962537469     -106.921496
9.318                0.962452394     -107.120327
9.319                0.962367221     -107.319653
9.32                 0.962281954     -107.519476
9.321                0.962196593     -107.719797
9.322                 0.96211114     -107.920615
9.323                0.962025597     -108.121932
9.324                0.961939965     -108.323748
9.325                0.961854247     -108.526065
9.326                0.961768444     -108.728882
9.327                0.961682557     -108.932201
9.328                0.961596588     -109.136021
9.329                 0.96151054     -109.340344
9.33                 0.961424413     -109.545171
9.331                 0.96133821     -109.750501
9.332                0.961251933     -109.956335
9.333                0.961165584     -110.162675
9.334                0.961079163      -110.36952
9.335                0.960992674     -110.576871
9.336                0.960906119     -110.784729
9.337                0.960819498     -110.993094
9.338                0.960732815     -111.201967
9.339                 0.96064607     -111.411349
9.34                 0.960559267     -111.621239
9.341                0.960472407     -111.831638
9.342                0.960385493     -112.042548
9.343                0.960298525     -112.253967
9.344                0.960211508     -112.465898
9.345                0.960124442     -112.678339
9.346                0.960037329     -112.891293
9.347                0.959950173     -113.104758
9.348                0.959862975     -113.318736
9.349                0.959775737     -113.533227
9.35                 0.959688462     -113.748231
9.351                0.959601152      -113.96375
9.352                0.959513809     -114.179782
9.353                0.959426436     -114.396329
9.354                0.959339035      -114.61339
9.355                0.959251608     -114.830967
9.356                0.959164157     -115.049059
9.357                0.959076686     -115.267667
9.358                0.958989197     -115.486791
9.359                0.958901691     -115.706432
9.36                 0.958814172     -115.926589
9.361                0.958726642     -116.147263
9.362                0.958639104     -116.368455
9.363                0.958551559     -116.590164
9.364                0.958464012      -116.81239
9.365                0.958376464     -117.035134
9.366                0.958288918     -117.258396
9.367                0.958201376     -117.482177
9.368                0.958113842     -117.706475
9.369                0.958026318     -117.931293
9.37                 0.957938807     -118.156628
9.371                0.957851311     -118.382483
9.372                0.957763834     -118.608856
9.373                0.957676377     -118.835749
9.374                0.957588945      -119.06316
9.375                 0.95750154      -119.29109
9.376                0.957414164     -119.519539
9.377                0.957326821     -119.748508
9.378                0.957239513     -119.977995
9.379                0.957152244     -120.208001
9.38                 0.957065016     -120.438527
9.381                0.956977833     -120.669571
9.382                0.956890697     -120.901135
9.383                0.956803612     -121.133217
9.384                 0.95671658     -121.365818
9.385                0.956629605     -121.598937
9.386                 0.95654269     -121.832575
9.387                0.956455838     -122.066732
9.388                0.956369052     -122.301406
9.389                0.956282335     -122.536599
9.39                 0.956195691     -122.772309
9.391                0.956109122     -123.008537
9.392                0.956022633     -123.245282
9.393                0.955936226     -123.482544
9.394                0.955849904     -123.720323
9.395                0.955763671     -123.958618
9.396                0.955677531      -124.19743
