! TOUCHSTONE file generated by CST DESIGN STUDIO
! Date and time: Wed Feb  5 13:18:16 2025
! Project name: C:\Work\MatlabApps\UnitCellOptimizationMatlab\CST\unitcell.cst
! Tree item: Tasks\Sweep1\SPara1\S-Parameters
! Header version: 2024
! Port assignment regex: !\s*Touchstone port\s*([0-9]+)\s*=\s*(CST MWS port|CST DES external port|CST DES block port)\s*(.+)\s* \(\"(.*)\"\)(\s*mode\s*([0-9]+))?.*
! Touchstone port assignment:
! Touchstone port 1 = CST DES external port 1 ("")
# GHz S MA R 50
9                    0.980167758      -74.706593
9.001                0.980119868     -74.8194695
9.002                0.980071832     -74.9326249
9.003                 0.98002365       -75.04606
9.004                0.979975322     -75.1597758
9.005                0.979926848     -75.2737729
9.006                0.979878226     -75.3880524
9.007                0.979829457      -75.502615
9.008                0.979780541     -75.6174616
9.009                0.979731476     -75.7325931
9.01                 0.979682263     -75.8480102
9.011                0.979632902     -75.9637139
9.012                0.979583391     -76.0797051
9.013                0.979533732     -76.1959845
9.014                0.979483922     -76.3125531
9.015                0.979433963     -76.4294117
9.016                0.979383853     -76.5465612
9.017                0.979333592     -76.6640024
9.018                0.979283181     -76.7817363
9.019                0.979232618     -76.8997637
9.02                 0.979181903     -77.0180855
9.021                0.979131036     -77.1367026
9.022                0.979080017     -77.2556158
9.023                0.979028846     -77.3748261
9.024                0.978977521     -77.4943342
9.025                0.978926043     -77.6141412
9.026                0.978874411     -77.7342479
9.027                0.978822626     -77.8546552
9.028                0.978770686      -77.975364
9.029                0.978718591     -78.0963751
9.03                 0.978666342     -78.2176895
9.031                0.978613938     -78.3393081
9.032                0.978561377     -78.4612318
9.033                0.978508662     -78.5834615
9.034                0.978455789     -78.7059981
9.035                0.978402761     -78.8288424
9.036                0.978349576     -78.9519955
9.037                0.978296233     -79.0754582
9.038                0.978242734     -79.1992314
9.039                0.978189076      -79.323316
9.04                 0.978135261      -79.447713
9.041                0.978081287     -79.5724233
9.042                0.978027155     -79.6974478
9.043                0.977972864     -79.8227875
9.044                0.977918414     -79.9484431
9.045                0.977863805     -80.0744158
9.046                0.977809036     -80.2007063
9.047                0.977754107     -80.3273157
9.048                0.977699017     -80.4542448
9.049                0.977643768     -80.5814947
9.05                 0.977588357     -80.7090661
9.051                0.977532785     -80.8369602
9.052                0.977477052     -80.9651777
9.053                0.977421158     -81.0937197
9.054                0.977365101      -81.222587
9.055                0.977308883     -81.3517807
9.056                0.977252502     -81.4813016
9.057                0.977195959     -81.6111508
9.058                0.977139252     -81.7413292
9.059                0.977082383     -81.8718376
9.06                  0.97702535     -82.0026771
9.061                0.976968154     -82.1338487
9.062                0.976910793     -82.2653532
9.063                0.976853269     -82.3971916
9.064                 0.97679558      -82.529365
9.065                0.976737727     -82.6618741
9.066                 0.97667971     -82.7947201
9.067                0.976621527     -82.9279038
9.068                0.976563179     -83.0614263
9.069                0.976504665     -83.1952885
9.07                 0.976445986     -83.3294913
9.071                0.976387142     -83.4640358
9.072                0.976328131     -83.5989228
9.073                0.976268954     -83.7341534
9.074                 0.97620961     -83.8697286
9.075                  0.9761501     -84.0056492
9.076                0.976090423     -84.1419163
9.077                0.976030579     -84.2785309
9.078                0.975970568     -84.4154939
9.079                 0.97591039     -84.5528064
9.08                 0.975850044     -84.6904692
9.081                0.975789531     -84.8284834
9.082                 0.97572885     -84.9668499
9.083                   0.975668     -85.1055698
9.084                0.975606983      -85.244644
9.085                0.975545797     -85.3840734
9.086                0.975484443     -85.5238592
9.087                0.975422921     -85.6640022
9.088                0.975361229     -85.8045035
9.089                0.975299369      -85.945364
9.09                  0.97523734     -86.0865847
9.091                0.975175142     -86.2281667
9.092                0.975112774     -86.3701109
9.093                0.975050238     -86.5124182
9.094                0.974987532     -86.6550898
9.095                0.974924656     -86.7981266
9.096                0.974861611     -86.9415295
9.097                0.974798396     -87.0852996
9.098                0.974735011     -87.2294379
9.099                0.974671457     -87.3739453
9.1                  0.974607733     -87.5188229
9.101                0.974543838     -87.6640717
9.102                0.974479774     -87.8096926
9.103                 0.97441554     -87.9556866
9.104                0.974351135     -88.1020548
9.105                 0.97428656     -88.2487982
9.106                0.974221815     -88.3959177
9.107                  0.9741569     -88.5434143
9.108                0.974091815     -88.6912891
9.109                0.974026559     -88.8395431
9.11                 0.973961133     -88.9881772
9.111                0.973895537     -89.1371924
9.112                 0.97382977     -89.2865898
9.113                0.973763833     -89.4363703
9.114                0.973697726      -89.586535
9.115                0.973631449     -89.7370848
9.116                0.973565002     -89.8880208
9.117                0.973498384     -90.0393439
9.118                0.973431596     -90.1910552
9.119                0.973364638     -90.3431556
9.12                  0.97329751     -90.4956462
9.121                0.973230212      -90.648528
9.122                0.973162745     -90.8018019
9.123                0.973095107     -90.9554689
9.124                  0.9730273     -91.1095301
9.125                0.972959323     -91.2639865
9.126                0.972891177      -91.418839
9.127                0.972822861     -91.5740887
9.128                0.972754377     -91.7297365
9.129                0.972685723     -91.8857835
9.13                   0.9726169     -92.0422306
9.131                0.972547908     -92.1990788
9.132                0.972478747     -92.3563292
9.133                0.972409418     -92.5139827
9.134                0.972339921     -92.6720404
9.135                0.972270255     -92.8305032
9.136                0.972200422      -92.989372
9.137                 0.97213042      -93.148648
9.138                0.972060251     -93.3083321
9.139                0.971989915     -93.4684252
9.14                 0.971919412     -93.6289284
9.141                0.971848741     -93.7898427
9.142                0.971777904      -93.951169
9.143                0.971706901     -94.1129084
9.144                0.971635732     -94.2750617
9.145                0.971564396     -94.4376301
9.146                0.971492895     -94.6006144
9.147                0.971421229     -94.7640157
9.148                0.971349398     -94.9278349
9.149                0.971277402      -95.092073
9.15                 0.971205242      -95.256731
9.151                0.971132918     -95.4218099
9.152                 0.97106043     -95.5873106
9.153                0.970987779      -95.753234
9.154                0.970914965     -95.9195813
9.155                0.970841989     -96.0863532
9.156                 0.97076885     -96.2535509
9.157                 0.97069555     -96.4211752
9.158                0.970622088     -96.5892271
9.159                0.970548465     -96.7577075
9.16                 0.970474682     -96.9266175
9.161                0.970400739      -97.095958
9.162                0.970326636     -97.2657298
9.163                0.970252374     -97.4359341
9.164                0.970177953     -97.6065716
9.165                0.970103375     -97.7776434
9.166                0.970028638     -97.9491504
9.167                0.969953745     -98.1210936
9.168                0.969878695     -98.2934737
9.169                0.969803489     -98.4662919
9.17                 0.969728127      -98.639549
9.171                0.969652611      -98.813246
9.172                 0.96957694     -98.9873837
9.173                0.969501115     -99.1619631
9.174                0.969425137      -99.336985
9.175                0.969349007     -99.5124505
9.176                0.969272725     -99.6883605
9.177                0.969196292     -99.8647157
9.178                0.969119708     -100.041517
9.179                0.969042974     -100.218766
9.18                 0.968966091     -100.396462
9.181                0.968889059     -100.574608
9.182                 0.96881188     -100.753203
9.183                0.968734553     -100.932249
9.184                0.968657081     -101.111747
9.185                0.968579462     -101.291696
9.186                0.968501699       -101.4721
9.187                0.968423792     -101.652957
9.188                0.968345742     -101.834269
9.189                0.968267549     -102.016038
9.19                 0.968189215     -102.198262
9.191                 0.96811074     -102.380945
9.192                0.968032125     -102.564086
9.193                0.967953371     -102.747686
9.194                0.967874479     -102.931746
9.195                 0.96779545     -103.116267
9.196                0.967716285      -103.30125
9.197                0.967636985     -103.486696
9.198                 0.96755755     -103.672604
9.199                0.967477982     -103.858977
9.2                  0.967398281     -104.045815
9.201                0.967318449     -104.233119
9.202                0.967238487     -104.420889
9.203                0.967158395     -104.609126
9.204                0.967078175     -104.797832
9.205                0.966997828     -104.987006
9.206                0.966917355      -105.17665
9.207                0.966836757     -105.366764
9.208                0.966756035      -105.55735
9.209                0.966675191     -105.748407
9.21                 0.966594224     -105.939937
9.211                0.966513138     -106.131941
9.212                0.966431932     -106.324418
9.213                0.966350608     -106.517371
9.214                0.966269168     -106.710798
9.215                0.966187611     -106.904702
9.216                0.966105941     -107.099083
9.217                0.966024158     -107.293942
9.218                0.965942263     -107.489278
9.219                0.965860258     -107.685094
9.22                 0.965778144     -107.881389
9.221                0.965695922     -108.078165
9.222                0.965613594     -108.275422
9.223                0.965531161      -108.47316
9.224                0.965448624      -108.67138
9.225                0.965365986     -108.870083
9.226                0.965283247      -109.06927
9.227                0.965200409     -109.268941
9.228                0.965117473     -109.469096
9.229                0.965034441     -109.669737
9.23                 0.964951315     -109.870863
9.231                0.964868095     -110.072476
9.232                0.964784785     -110.274576
9.233                0.964701384     -110.477163
9.234                0.964617895     -110.680239
9.235                0.964534319     -110.883803
9.236                0.964450659     -111.087857
9.237                0.964366915       -111.2924
9.238                 0.96428309     -111.497433
9.239                0.964199185     -111.702957
9.24                 0.964115201     -111.908972
9.241                0.964031141     -112.115479
9.242                0.963947007     -112.322478
9.243                0.963862799     -112.529969
9.244                0.963778521     -112.737954
9.245                0.963694174     -112.946432
9.246                0.963609759     -113.155404
9.247                0.963525278      -113.36487
9.248                0.963440734     -113.574831
9.249                0.963356129     -113.785288
9.25                 0.963271464     -113.996239
9.251                0.963186741     -114.207687
9.252                0.963101962     -114.419631
9.253                 0.96301713     -114.632071
9.254                0.962932246     -114.845009
9.255                0.962847312     -115.058443
9.256                0.962762331     -115.272376
9.257                0.962677304     -115.486806
9.258                0.962592234     -115.701734
9.259                0.962507122     -115.917161
9.26                 0.962421972     -116.133086
9.261                0.962336784     -116.349511
9.262                0.962251562     -116.566434
9.263                0.962166307     -116.783857
9.264                0.962081023      -117.00178
9.265                 0.96199571     -117.220202
9.266                0.961910371     -117.439125
9.267                 0.96182501     -117.658548
9.268                0.961739627     -117.878471
9.269                0.961654225     -118.098894
9.27                 0.961568808     -118.319819
9.271                0.961483376     -118.541243
9.272                0.961397933     -118.763169
9.273                0.961312481     -118.985596
9.274                0.961227023     -119.208524
9.275                 0.96114156     -119.431953
9.276                0.961056096     -119.655882
9.277                0.960970633     -119.880314
9.278                0.960885174     -120.105246
9.279                 0.96079972     -120.330679
9.28                 0.960714276     -120.556614
9.281                0.960628843     -120.783049
9.282                0.960543424     -121.009986
9.283                0.960458022     -121.237424
9.284                0.960372639     -121.465363
9.285                0.960287278     -121.693802
9.286                0.960201942     -121.922742
9.287                0.960116634     -122.152183
9.288                0.960031356     -122.382125
9.289                0.959946112     -122.612566
9.29                 0.959860903     -122.843508
9.291                0.959775733      -123.07495
9.292                0.959690606     -123.306891
9.293                0.959605522     -123.539332
9.294                0.959520487     -123.772272
9.295                0.959435502     -124.005711
9.296                 0.95935057     -124.239649
9.297                0.959265695     -124.474085
9.298                0.959180879      -124.70902
9.299                0.959096126     -124.944452
9.3                  0.959011438     -125.180381
9.301                0.958926819     -125.416808
9.302                0.958842272     -125.653731
9.303                  0.9587578     -125.891151
9.304                0.958673405     -126.129066
9.305                0.958589091     -126.367477
9.306                0.958504862     -126.606382
9.307                 0.95842072     -126.845783
9.308                0.958336669     -127.085677
9.309                0.958252712     -127.326064
9.31                 0.958168851     -127.566945
9.311                0.958085092     -127.808318
9.312                0.958001436     -128.050182
9.313                0.957917887     -128.292538
9.314                0.957834448     -128.535385
9.315                0.957751123     -128.778721
9.316                0.957667915     -129.022547
9.317                0.957584827     -129.266861
9.318                0.957501864     -129.511663
9.319                0.957419028     -129.756952
9.32                 0.957336322     -130.002728
9.321                0.957253751     -130.248989
9.322                0.957171317     -130.495736
9.323                0.957089025     -130.742966
9.324                0.957006877      -130.99068
9.325                0.956924878     -131.238876
9.326                 0.95684303     -131.487554
9.327                0.956761338     -131.736713
9.328                0.956679805     -131.986351
9.329                0.956598434     -132.236469
9.33                  0.95651723     -132.487064
9.331                0.956436195     -132.738136
9.332                0.956355334     -132.989685
9.333                 0.95627465     -133.241708
9.334                0.956194147     -133.494205
9.335                0.956113829     -133.747175
9.336                0.956033699     -134.000617
9.337                0.955953761     -134.254529
9.338                0.955874018     -134.508912
9.339                0.955794475     -134.763762
9.34                 0.955715136      -135.01908
9.341                0.955636003     -135.274864
9.342                0.955557082     -135.531113
9.343                0.955478375     -135.787825
9.344                0.955399886        -136.045
9.345                 0.95532162     -136.302636
9.346                 0.95524358     -136.560731
9.347                0.955165771     -136.819285
9.348                0.955088195     -137.078296
9.349                0.955010857     -137.337763
9.35                  0.95493376     -137.597685
9.351                 0.95485691     -137.858059
9.352                0.954780309     -138.118884
9.353                0.954703961      -138.38016
9.354                0.954627871     -138.641884
9.355                0.954552042     -138.904055
9.356                0.954476478     -139.166671
9.357                0.954401184     -139.429731
9.358                0.954326162     -139.693234
9.359                0.954251418     -139.957177
9.36                 0.954176955     -140.221559
9.361                0.954102778     -140.486379
9.362                0.954028889     -140.751634
9.363                0.953955294     -141.017324
9.364                0.953881995     -141.283445
9.365                0.953808998     -141.549997
9.366                0.953736306     -141.816978
9.367                0.953663923     -142.084386
9.368                0.953591853     -142.352219
9.369                0.953520101     -142.620475
9.37                  0.95344867     -142.889152
9.371                0.953377564     -143.158249
9.372                0.953306787     -143.427763
9.373                0.953236344     -143.697693
9.374                0.953166238     -143.968037
9.375                0.953096473     -144.238792
9.376                0.953027054     -144.509956
9.377                0.952957985     -144.781528
9.378                0.952889268     -145.053506
9.379                 0.95282091     -145.325887
9.38                 0.952752912     -145.598669
9.381                0.952685281     -145.871851
9.382                0.952618018     -146.145429
9.383                 0.95255113     -146.419402
9.384                0.952484619     -146.693768
9.385                0.952418489     -146.968524
9.386                0.952352746     -147.243667
9.387                0.952287391     -147.519197
9.388                0.952222431      -147.79511
9.389                0.952157868     -148.071404
9.39                 0.952093706     -148.348077
9.391                 0.95202995     -148.625126
9.392                0.951966603     -148.902549
9.393                 0.95190367     -149.180343
9.394                0.951841154     -149.458507
9.395                0.951779059     -149.737037
9.396                0.951717389     -150.015931
