! TOUCHSTONE file generated by CST DESIGN STUDIO
! Date and time: Wed Feb  5 13:18:24 2025
! Project name: C:\Work\MatlabApps\UnitCellOptimizationMatlab\CST\unitcell.cst
! Tree item: Tasks\Sweep1\SPara1\S-Parameters
! Header version: 2024
! Port assignment regex: !\s*Touchstone port\s*([0-9]+)\s*=\s*(CST MWS port|CST DES external port|CST DES block port)\s*(.+)\s* \(\"(.*)\"\)(\s*mode\s*([0-9]+))?.*
! Touchstone port assignment:
! Touchstone port 1 = CST DES external port 1 ("")
# GHz S MA R 50
9                    0.981529463     -65.6478757
9.001                0.981490142     -65.7409606
9.002                0.981450698     -65.8342656
9.003                0.981411133     -65.9277914
9.004                0.981371446     -66.0215386
9.005                0.981331636     -66.1155079
9.006                0.981291703     -66.2097001
9.007                0.981251647     -66.3041158
9.008                0.981211468     -66.3987558
9.009                0.981171164     -66.4936206
9.01                 0.981130736     -66.5887111
9.011                0.981090184     -66.6840279
9.012                0.981049506     -66.7795717
9.013                0.981008703     -66.8753432
9.014                0.980967775     -66.9713432
9.015                 0.98092672     -67.0675723
9.016                0.980885539     -67.1640313
9.017                0.980844231     -67.2607209
9.018                0.980802796     -67.3576417
9.019                0.980761233     -67.4547946
9.02                 0.980719543     -67.5521802
9.021                0.980677724     -67.6497992
9.022                0.980635777     -67.7476525
9.023                  0.9805937     -67.8457406
9.024                0.980551494     -67.9440644
9.025                0.980509159     -68.0426245
9.026                0.980466694     -68.1414218
9.027                0.980424098     -68.2404569
9.028                0.980381371     -68.3397306
9.029                0.980338513     -68.4392436
9.03                 0.980295524     -68.5389967
9.031                0.980252403     -68.6389906
9.032                 0.98020915      -68.739226
9.033                0.980165764     -68.8397038
9.034                0.980122245     -68.9404247
9.035                0.980078593     -69.0413894
9.036                0.980034807     -69.1425986
9.037                0.979990887     -69.2440532
9.038                0.979946833     -69.3457539
9.039                0.979902644     -69.4477015
9.04                 0.979858319     -69.5498967
9.041                 0.97981386     -69.6523404
9.042                0.979769264     -69.7550332
9.043                0.979724532     -69.8579759
9.044                0.979679664     -69.9611694
9.045                0.979634659     -70.0646144
9.046                0.979589516     -70.1683117
9.047                0.979544236      -70.272262
9.048                0.979498818     -70.3764662
9.049                0.979453261     -70.4809251
9.05                 0.979407566     -70.5856394
9.051                0.979361731     -70.6906099
9.052                0.979315757     -70.7958374
9.053                0.979269644     -70.9013227
9.054                 0.97922339     -71.0070667
9.055                0.979176995       -71.11307
9.056                 0.97913046     -71.2193336
9.057                0.979083783     -71.3258582
9.058                0.979036964     -71.4326447
9.059                0.978990004     -71.5396938
9.06                 0.978942901     -71.6470064
9.061                0.978895656     -71.7545832
9.062                0.978848267     -71.8624251
9.063                0.978800736      -71.970533
9.064                 0.97875306     -72.0789075
9.065                 0.97870524     -72.1875497
9.066                0.978657276     -72.2964602
9.067                0.978609167     -72.4056399
9.068                0.978560912     -72.5150897
9.069                0.978512512     -72.6248103
9.07                 0.978463966     -72.7348027
9.071                0.978415274     -72.8450676
9.072                0.978366435     -72.9556059
9.073                 0.97831745     -73.0664185
9.074                0.978268317     -73.1775061
9.075                0.978219036     -73.2888697
9.076                0.978169607       -73.40051
9.077                 0.97812003      -73.512428
9.078                0.978070304     -73.6246245
9.079                 0.97802043     -73.7371003
9.08                 0.977970405     -73.8498563
9.081                0.977920231     -73.9628934
9.082                0.977869907     -74.0762124
9.083                0.977819433     -74.1898142
9.084                0.977768807     -74.3036996
9.085                0.977718031     -74.4178696
9.086                0.977667103      -74.532325
9.087                0.977616023     -74.6470666
9.088                0.977564791     -74.7620954
9.089                0.977513407     -74.8774123
9.09                  0.97746187     -74.9930181
9.091                 0.97741018     -75.1089136
9.092                0.977358336     -75.2250999
9.093                0.977306338     -75.3415777
9.094                0.977254187      -75.458348
9.095                0.977201881     -75.5754116
9.096                 0.97714942     -75.6927695
9.097                0.977096804     -75.8104225
9.098                0.977044032     -75.9283716
9.099                0.976991105     -76.0466176
9.1                  0.976938021     -76.1651615
9.101                0.976884782     -76.2840042
9.102                0.976831385     -76.4031465
9.103                0.976777832     -76.5225893
9.104                0.976724121     -76.6423337
9.105                0.976670252     -76.7623805
9.106                0.976616226     -76.8827305
9.107                0.976562041     -77.0033849
9.108                0.976507698     -77.1243443
9.109                0.976453195     -77.2456099
9.11                 0.976398534     -77.3671825
9.111                0.976343713      -77.489063
9.112                0.976288732     -77.6112523
9.113                0.976233591     -77.7337515
9.114                 0.97617829     -77.8565613
9.115                0.976122828     -77.9796829
9.116                0.976067205      -78.103117
9.117                0.976011421     -78.2268647
9.118                0.975955475     -78.3509268
9.119                0.975899368     -78.4753044
9.12                 0.975843098     -78.5999983
9.121                0.975786666     -78.7250096
9.122                0.975730071     -78.8503391
9.123                0.975673313     -78.9759878
9.124                0.975616392     -79.1019567
9.125                0.975559308     -79.2282468
9.126                 0.97550206     -79.3548589
9.127                0.975444648     -79.4817941
9.128                0.975387071     -79.6090532
9.129                 0.97532933     -79.7366374
9.13                 0.975271424     -79.8645474
9.131                0.975213354     -79.9927844
9.132                0.975155118     -80.1213492
9.133                0.975096716     -80.2502429
9.134                0.975038149     -80.3794663
9.135                0.974979415     -80.5090206
9.136                0.974920515     -80.6389066
9.137                0.974861449     -80.7691254
9.138                0.974802216     -80.8996778
9.139                0.974742817      -81.030565
9.14                  0.97468325     -81.1617878
9.141                0.974623515     -81.2933474
9.142                0.974563613     -81.4252445
9.143                0.974503543     -81.5574803
9.144                0.974443306     -81.6900558
9.145                  0.9743829     -81.8229718
9.146                0.974322325     -81.9562295
9.147                0.974261582     -82.0898298
9.148                 0.97420067     -82.2237737
9.149                0.974139589     -82.3580622
9.15                 0.974078339     -82.4926963
9.151                 0.97401692      -82.627677
9.152                0.973955331     -82.7630053
9.153                0.973893572     -82.8986822
9.154                0.973831643     -83.0347087
9.155                0.973769544     -83.1710859
9.156                0.973707276     -83.3078146
9.157                0.973644836     -83.4448961
9.158                0.973582226     -83.5823311
9.159                0.973519446     -83.7201209
9.16                 0.973456495     -83.8582663
9.161                0.973393372     -83.9967684
9.162                0.973330079     -84.1356282
9.163                0.973266615     -84.2748467
9.164                0.973202979      -84.414425
9.165                0.973139171     -84.5543641
9.166                0.973075193     -84.6946649
9.167                0.973011042     -84.8353285
9.168                 0.97294672      -84.976356
9.169                0.972882226     -85.1177483
9.17                  0.97281756     -85.2595065
9.171                0.972752722     -85.4016316
9.172                0.972687711     -85.5441247
9.173                0.972622529     -85.6869867
9.174                0.972557174     -85.8302187
9.175                0.972491647     -85.9738217
9.176                0.972425948     -86.1177968
9.177                0.972360076      -86.262145
9.178                0.972294032     -86.4068673
9.179                0.972227815     -86.5519647
9.18                 0.972161426     -86.6974384
9.181                0.972094864     -86.8432892
9.182                0.972028129     -86.9895183
9.183                0.971961222     -87.1361268
9.184                0.971894143     -87.2831155
9.185                0.971826891     -87.4304856
9.186                0.971759466     -87.5782382
9.187                0.971691868     -87.7263742
9.188                0.971624098     -87.8748946
9.189                0.971556156     -88.0238007
9.19                 0.971488041     -88.1730932
9.191                0.971419754     -88.3227734
9.192                0.971351294     -88.4728423
9.193                0.971282662     -88.6233008
9.194                0.971213857     -88.7741501
9.195                0.971144881     -88.9253911
9.196                0.971075732      -89.077025
9.197                0.971006411     -89.2290527
9.198                0.970936918     -89.3814754
9.199                0.970867254      -89.534294
9.2                  0.970797417     -89.6875095
9.201                0.970727409     -89.8411232
9.202                 0.97065723     -89.9951358
9.203                0.970586879     -90.1495486
9.204                0.970516357     -90.3043626
9.205                0.970445664     -90.4595788
9.206                0.970374801     -90.6151982
9.207                0.970303766     -90.7712218
9.208                0.970232561     -90.9276509
9.209                0.970161185     -91.0844862
9.21                  0.97008964      -91.241729
9.211                0.970017924     -91.3993802
9.212                0.969946039     -91.5574409
9.213                0.969873984     -91.7159122
9.214                 0.96980176      -91.874795
9.215                0.969729367     -92.0340904
9.216                0.969656805     -92.1937994
9.217                0.969584075     -92.3539231
9.218                0.969511177     -92.5144625
9.219                 0.96943811     -92.6754186
9.22                 0.969364876     -92.8367925
9.221                0.969291474     -92.9985852
9.222                0.969217906     -93.1607978
9.223                0.969144171     -93.3234312
9.224                0.969070269     -93.4864865
9.225                0.968996201     -93.6499647
9.226                0.968921968     -93.8138669
9.227                 0.96884757      -93.978194
9.228                0.968773006     -94.1429471
9.229                0.968698278     -94.3081272
9.23                 0.968623386     -94.4737354
9.231                 0.96854833     -94.6397726
9.232                0.968473111     -94.8062399
9.233                0.968397729     -94.9731383
9.234                0.968322184     -95.1404688
9.235                0.968246478     -95.3082324
9.236                 0.96817061     -95.4764301
9.237                0.968094581     -95.6450629
9.238                0.968018392     -95.8141319
9.239                0.967942042     -95.9836379
9.24                 0.967865533     -96.1535822
9.241                0.967788865     -96.3239655
9.242                0.967712039      -96.494789
9.243                0.967635055     -96.6660536
9.244                0.967557914     -96.8377603
9.245                0.967480616     -97.0099102
9.246                0.967403162     -97.1825041
9.247                0.967325552     -97.3555431
9.248                0.967247788     -97.5290281
9.249                0.967169869     -97.7029602
9.25                 0.967091797     -97.8773403
9.251                0.967013572     -98.0521694
9.252                0.966935195     -98.2274484
9.253                0.966856666     -98.4031783
9.254                0.966777986     -98.5793601
9.255                0.966699157     -98.7559947
9.256                0.966620178     -98.9330832
9.257                 0.96654105     -99.1106263
9.258                0.966461774     -99.2886252
9.259                0.966382352     -99.4670807
9.26                 0.966302783     -99.6459937
9.261                0.966223069     -99.8253653
9.262                 0.96614321     -100.005196
9.263                0.966063207     -100.185488
9.264                0.965983061      -100.36624
9.265                0.965902774     -100.547455
9.266                0.965822345     -100.729133
9.267                0.965741776     -100.911276
9.268                0.965661067     -101.093883
9.269                 0.96558022     -101.276956
9.27                 0.965499236     -101.460495
9.271                0.965418115     -101.644503
9.272                0.965336859     -101.828979
9.273                0.965255468     -102.013924
9.274                0.965173944      -102.19934
9.275                0.965092287     -102.385226
9.276                0.965010499     -102.571585
9.277                 0.96492858     -102.758417
9.278                0.964846533     -102.945723
9.279                0.964764357     -103.133503
9.28                 0.964682054     -103.321759
9.281                0.964599625     -103.510491
9.282                0.964517072       -103.6997
9.283                0.964434395     -103.889387
9.284                0.964351595     -104.079553
9.285                0.964268675     -104.270198
9.286                0.964185634     -104.461324
9.287                0.964102475     -104.652931
9.288                0.964019199     -104.845021
9.289                0.963935806     -105.037593
9.29                 0.963852299     -105.230649
9.291                0.963768678     -105.424189
9.292                0.963684945     -105.618214
9.293                0.963601102     -105.812725
9.294                0.963517148     -106.007723
9.295                0.963433087     -106.203208
9.296                0.963348919     -106.399182
9.297                0.963264647     -106.595644
9.298                 0.96318027     -106.792596
9.299                0.963095791     -106.990039
9.3                  0.963011212     -107.187972
9.301                0.962926533     -107.386398
9.302                0.962841757     -107.585315
9.303                0.962756885     -107.784726
9.304                0.962671918     -107.984631
9.305                0.962586858     -108.185031
9.306                0.962501707     -108.385925
9.307                0.962416466     -108.587315
9.308                0.962331138     -108.789202
9.309                0.962245723     -108.991586
9.31                 0.962160223     -109.194468
9.311                0.962074641     -109.397848
9.312                0.961988977     -109.601727
9.313                0.961903234     -109.806106
9.314                0.961817414     -110.010985
9.315                0.961731518     -110.216364
9.316                0.961645548     -110.422245
9.317                0.961559506     -110.628628
9.318                0.961473393     -110.835513
9.319                0.961387213     -111.042901
9.32                 0.961300966     -111.250793
9.321                0.961214655     -111.459189
9.322                0.961128281     -111.668089
9.323                0.961041846     -111.877495
9.324                0.960955354     -112.087405
9.325                0.960868805     -112.297822
9.326                0.960782201     -112.508746
9.327                0.960695545     -112.720176
9.328                 0.96060884     -112.932114
9.329                0.960522086     -113.144559
9.33                 0.960435286     -113.357513
9.331                0.960348442     -113.570976
9.332                0.960261557     -113.784947
9.333                0.960174632     -113.999428
9.334                0.960087671     -114.214419
9.335                0.960000674     -114.429919
9.336                0.959913645     -114.645931
9.337                0.959826586     -114.862453
9.338                0.959739499     -115.079486
9.339                0.959652387     -115.297031
9.34                 0.959565251     -115.515088
9.341                0.959478094     -115.733656
9.342                0.959390919     -115.952737
9.343                0.959303729     -116.172331
9.344                0.959216524     -116.392438
9.345                0.959129309     -116.613057
9.346                0.959042086      -116.83419
9.347                0.958954857     -117.055836
9.348                0.958867624     -117.277996
9.349                0.958780391      -117.50067
9.35                 0.958693159     -117.723858
9.351                0.958605932      -117.94756
9.352                0.958518713     -118.171776
9.353                0.958431503     -118.396507
9.354                0.958344306     -118.621752
9.355                0.958257125     -118.847512
9.356                0.958169961     -119.073786
9.357                0.958082818     -119.300575
9.358                0.957995699     -119.527879
9.359                0.957908607     -119.755698
9.36                 0.957821544     -119.984031
9.361                0.957734513     -120.212879
9.362                0.957647518     -120.442242
9.363                 0.95756056      -120.67212
9.364                0.957473644     -120.902512
9.365                0.957386771     -121.133419
9.366                0.957299946      -121.36484
9.367                0.957213171     -121.596776
9.368                0.957126448     -121.829226
9.369                0.957039782      -122.06219
9.37                 0.956953175     -122.295668
9.371                0.956866631     -122.529659
9.372                0.956780152     -122.764165
9.373                0.956693741     -122.999183
9.374                0.956607402     -123.234715
9.375                0.956521139      -123.47076
9.376                0.956434953     -123.707317
9.377                0.956348849     -123.944386
9.378                 0.95626283     -124.181968
9.379                0.956176899     -124.420061
9.38                 0.956091059     -124.658666
9.381                0.956005314     -124.897781
9.382                0.955919667     -125.137408
9.383                0.955834122     -125.377544
9.384                0.955748681      -125.61819
9.385                0.955663349     -125.859346
9.386                0.955578128      -126.10101
9.387                0.955493023     -126.343183
9.388                0.955408036     -126.585864
9.389                0.955323171     -126.829052
9.39                 0.955238433     -127.072747
9.391                0.955153823     -127.316949
9.392                0.955069347     -127.561656
9.393                0.954985006     -127.806868
9.394                0.954900806     -128.052585
9.395                 0.95481675     -128.298806
9.396                0.954732841     -128.545529
