! TOUCHSTONE file generated by CST DESIGN STUDIO
! Date and time: Wed Feb  5 13:38:13 2025
! Project name: C:\Work\MatlabApps\UnitCellOptimizationMatlab\CST\unitcell.cst
! Tree item: Tasks\Sweep1\SPara1\S-Parameters
! Header version: 2024
! Port assignment regex: !\s*Touchstone port\s*([0-9]+)\s*=\s*(CST MWS port|CST DES external port|CST DES block port)\s*(.+)\s* \(\"(.*)\"\)(\s*mode\s*([0-9]+))?.*
! Touchstone port assignment:
! Touchstone port 1 = CST DES external port 1 ("")
# GHz S MA R 50
9                    0.955152955     -76.1046003
9.001                0.955037199     -76.2239601
9.002                0.954921084     -76.3436268
9.003                0.954804609     -76.4636011
9.004                0.954687773     -76.5838842
9.005                0.954570576      -76.704477
9.006                0.954453015     -76.8253804
9.007                0.954335091     -76.9465954
9.008                0.954216803      -77.068123
9.009                0.954098149     -77.1899641
9.01                 0.953979129     -77.3121197
9.011                0.953859743     -77.4345909
9.012                0.953739988     -77.5573785
9.013                0.953619865     -77.6804835
9.014                0.953499373      -77.803907
9.015                0.953378511     -77.9276499
9.016                0.953257277     -78.0517133
9.017                0.953135672      -78.176098
9.018                0.953013694     -78.3008051
9.019                0.952891343     -78.4258356
9.02                 0.952768618     -78.5511905
9.021                0.952645517     -78.6768708
9.022                0.952522041     -78.8028775
9.023                0.952398188     -78.9292115
9.024                0.952273958      -79.055874
9.025                 0.95214935     -79.1828658
9.026                0.952024363     -79.3101881
9.027                0.951898996     -79.4378419
9.028                0.951773249      -79.565828
9.029                0.951647121     -79.6941477
9.03                  0.95152061     -79.8228018
9.031                0.951393717     -79.9517914
9.032                0.951266441     -80.0811175
9.033                0.951138781     -80.2107813
9.034                0.951010735     -80.3407836
9.035                0.950882305     -80.4711255
9.036                0.950753487      -80.601808
9.037                0.950624283     -80.7328323
9.038                0.950494692     -80.8641992
9.039                0.950364711       -80.99591
9.04                 0.950234342     -81.1279655
9.041                0.950103583     -81.2603669
9.042                0.949972434     -81.3931151
9.043                0.949840894     -81.5262113
9.044                0.949708961     -81.6596565
9.045                0.949576637     -81.7934517
9.046                0.949443919      -81.927598
9.047                0.949310808     -82.0620964
9.048                0.949177302     -82.1969481
9.049                0.949043402      -82.332154
9.05                 0.948909106     -82.4677152
9.051                0.948774414     -82.6036328
9.052                0.948639325     -82.7399079
9.053                0.948503839     -82.8765414
9.054                0.948367955     -83.0135346
9.055                0.948231672     -83.1508883
9.056                0.948094991     -83.2886038
9.057                 0.94795791     -83.4266821
9.058                0.947820428     -83.5651243
9.059                0.947682546     -83.7039314
9.06                 0.947544263     -83.8431045
9.061                0.947405578     -83.9826448
9.062                0.947266491     -84.1225532
9.063                0.947127002     -84.2628308
9.064                0.946987109     -84.4034789
9.065                0.946846812     -84.5444983
9.066                0.946706111     -84.6858903
9.067                0.946565006     -84.8276559
9.068                0.946423496     -84.9697962
9.069                 0.94628158     -85.1123123
9.07                 0.946139258     -85.2552052
9.071                 0.94599653     -85.3984762
9.072                0.945853395     -85.5421262
9.073                0.945709853     -85.6861564
9.074                0.945565904     -85.8305679
9.075                0.945421547     -85.9753617
9.076                0.945276782     -86.1205391
9.077                0.945131608     -86.2661009
9.078                0.944986026     -86.4120485
9.079                0.944840034     -86.5583829
9.08                 0.944693633     -86.7051051
9.081                0.944546822     -86.8522163
9.082                0.944399601     -86.9997177
9.083                 0.94425197     -87.1476102
9.084                0.944103928     -87.2958951
9.085                0.943955475     -87.4445734
9.086                0.943806612     -87.5936462
9.087                0.943657337     -87.7431147
9.088                0.943507651     -87.8929799
9.089                0.943357553     -88.0432431
9.09                 0.943207044     -88.1939052
9.091                0.943056123     -88.3449674
9.092                 0.94290479     -88.4964309
9.093                0.942753044     -88.6482967
9.094                0.942600887     -88.8005659
9.095                0.942448317     -88.9532398
9.096                0.942295335     -89.1063193
9.097                 0.94214194     -89.2598056
9.098                0.941988133     -89.4136999
9.099                0.941833914     -89.5680032
9.1                  0.941679282     -89.7227167
9.101                0.941524238     -89.8778415
9.102                0.941368781     -90.0333786
9.103                0.941212912     -90.1893294
9.104                 0.94105663     -90.3456947
9.105                0.940899937     -90.5024758
9.106                0.940742831     -90.6596739
9.107                0.940585313     -90.8172899
9.108                0.940427384     -90.9753251
9.109                0.940269042     -91.1337805
9.11                  0.94011029     -91.2926572
9.111                0.939951126     -91.4519565
9.112                0.939791551     -91.6116794
9.113                0.939631565      -91.771827
9.114                0.939471168     -91.9324005
9.115                0.939310361     -92.0934009
9.116                0.939149145     -92.2548294
9.117                0.938987518     -92.4166872
9.118                0.938825483     -92.5789752
9.119                0.938663038     -92.7416947
9.12                 0.938500185     -92.9048467
9.121                0.938336923     -93.0684324
9.122                0.938173254     -93.2324529
9.123                0.938009178     -93.3969093
9.124                0.937844694     -93.5618026
9.125                0.937679805     -93.7271341
9.126                 0.93751451     -93.8929049
9.127                0.937348809     -94.0591159
9.128                0.937182704     -94.2257684
9.129                0.937016195     -94.3928635
9.13                 0.936849283     -94.5604022
9.131                0.936681967     -94.7283857
9.132                 0.93651425      -94.896815
9.133                0.936346131     -95.0656914
9.134                0.936177611     -95.2350157
9.135                0.936008692     -95.4047893
9.136                0.935839373     -95.5750131
9.137                0.935669656     -95.7456882
9.138                0.935499541     -95.9168158
9.139                 0.93532903     -96.0883969
9.14                 0.935158123     -96.2604327
9.141                0.934986821     -96.4329241
9.142                0.934815125     -96.6058724
9.143                0.934643036     -96.7792785
9.144                0.934470555     -96.9531436
9.145                0.934297682     -97.1274687
9.146                 0.93412442     -97.3022549
9.147                0.933950769     -97.4775033
9.148                0.933776731     -97.6532149
9.149                0.933602305     -97.8293909
9.15                 0.933427495     -98.0060323
9.151                  0.9332523       -98.18314
9.152                0.933076722     -98.3607153
9.153                0.932900762     -98.5387592
9.154                0.932724421     -98.7172726
9.155                0.932547702     -98.8962567
9.156                0.932370604     -99.0757125
9.157                0.932193131     -99.2556411
9.158                0.932015282     -99.4360434
9.159                 0.93183706     -99.6169206
9.16                 0.931658465     -99.7982736
9.161                0.931479501     -99.9801034
9.162                0.931300167     -100.162411
9.163                0.931120465     -100.345198
9.164                0.930940398     -100.528465
9.165                0.930759967     -100.712212
9.166                0.930579174     -100.896442
9.167                0.930398019     -101.081154
9.168                0.930216506     -101.266351
9.169                0.930034636     -101.452032
9.17                  0.92985241     -101.638199
9.171                0.929669831     -101.824854
9.172                  0.9294869     -102.011996
9.173                 0.92930362     -102.199627
9.174                0.929119992     -102.387748
9.175                0.928936018      -102.57636
9.176                0.928751701     -102.765463
9.177                0.928567043     -102.955059
9.178                0.928382045     -103.145149
9.179                0.928196711     -103.335734
9.18                 0.928011041     -103.526814
9.181                0.927825038     -103.718391
9.182                0.927638706     -103.910465
9.183                0.927452045     -104.103037
9.184                0.927265059     -104.296109
9.185                0.927077749     -104.489681
9.186                0.926890119     -104.683754
9.187                 0.92670217     -104.878328
9.188                0.926513905     -105.073406
9.189                0.926325328     -105.268987
9.19                  0.92613644     -105.465074
9.191                0.925947244     -105.661665
9.192                0.925757743     -105.858763
9.193                0.925567939     -106.056368
9.194                0.925377836     -106.254481
9.195                0.925187436     -106.453103
9.196                0.924996742     -106.652235
9.197                0.924805757     -106.851877
9.198                0.924614485      -107.05203
9.199                0.924422927     -107.252696
9.2                  0.924231088     -107.453875
9.201                0.924038969     -107.655567
9.202                0.923846575     -107.857774
9.203                0.923653909     -108.060496
9.204                0.923460974     -108.263735
9.205                0.923267772      -108.46749
9.206                0.923074308     -108.671763
9.207                0.922880585     -108.876554
9.208                0.922686607     -109.081864
9.209                0.922492376     -109.287694
9.21                 0.922297896     -109.494044
9.211                0.922103171     -109.700916
9.212                0.921908205     -109.908309
9.213                0.921713001     -110.116225
9.214                0.921517563     -110.324664
9.215                0.921321895     -110.533628
9.216                   0.921126     -110.743115
9.217                0.920929883     -110.953128
9.218                0.920733547     -111.163667
9.219                0.920536997     -111.374732
9.22                 0.920340236     -111.586324
9.221                0.920143268     -111.798444
9.222                0.919946098     -112.011093
9.223                 0.91974873      -112.22427
9.224                0.919551168     -112.437976
9.225                0.919353416     -112.652212
9.226                0.919155479     -112.866979
9.227                0.918957361     -113.082277
9.228                0.918759066     -113.298106
9.229                  0.9185606     -113.514468
9.23                 0.918361966     -113.731362
9.231                0.918163169     -113.948789
9.232                0.917964213     -114.166749
9.233                0.917765105     -114.385244
9.234                0.917565847     -114.604273
9.235                0.917366446     -114.823836
9.236                0.917166906     -115.043935
9.237                0.916967232      -115.26457
9.238                0.916767428      -115.48574
9.239                0.916567501     -115.707447
9.24                 0.916367454     -115.929691
9.241                0.916167294     -116.152472
9.242                0.915967025      -116.37579
9.243                0.915766652     -116.599646
9.244                0.915566182      -116.82404
9.245                0.915365619     -117.048973
9.246                0.915164968     -117.274444
9.247                0.914964236     -117.500454
9.248                0.914763427     -117.727003
9.249                0.914562548     -117.954092
9.25                 0.914361603      -118.18172
9.251                0.914160599     -118.409888
9.252                0.913959542     -118.638596
9.253                0.913758437     -118.867844
9.254                0.913557289     -119.097632
9.255                0.913356106     -119.327961
9.256                0.913154893      -119.55883
9.257                0.912953656      -119.79024
9.258                0.912752401     -120.022191
9.259                0.912551134     -120.254682
9.26                 0.912349861     -120.487715
9.261                0.912148589     -120.721288
9.262                0.911947324     -120.955402
9.263                0.911746073     -121.190057
9.264                0.911544841     -121.425253
9.265                0.911343635      -121.66099
9.266                0.911142463     -121.897267
9.267                0.910941329     -122.134085
9.268                0.910740242     -122.371444
9.269                0.910539207     -122.609343
9.27                 0.910338232     -122.847782
9.271                0.910137323     -123.086762
9.272                0.909936488     -123.326282
9.273                0.909735732     -123.566342
9.274                0.909535063     -123.806941
9.275                0.909334489      -124.04808
9.276                0.909134016     -124.289757
9.277                0.908933651     -124.531974
9.278                0.908733401     -124.774729
9.279                0.908533275     -125.018023
9.28                 0.908333278     -125.261854
9.281                0.908133419     -125.506224
9.282                0.907933704      -125.75113
9.283                0.907734142     -125.996573
9.284                 0.90753474     -126.242553
9.285                0.907335505     -126.489069
9.286                0.907136445      -126.73612
9.287                0.906937567     -126.983706
9.288                 0.90673888     -127.231827
9.289                0.906540391     -127.480482
9.29                 0.906342109      -127.72967
9.291                0.906144039     -127.979391
9.292                0.905946192     -128.229645
9.293                0.905748575      -128.48043
9.294                0.905551195     -128.731746
9.295                0.905354061     -128.983593
9.296                0.905157181      -129.23597
9.297                0.904960563     -129.488875
9.298                0.904764216     -129.742309
9.299                0.904568147     -129.996271
9.3                  0.904372365     -130.250759
9.301                0.904176878     -130.505773
9.302                0.903981695     -130.761313
9.303                0.903786824     -131.017376
9.304                0.903592274     -131.273964
9.305                0.903398053     -131.531073
9.306                 0.90320417     -131.788705
9.307                0.903010633     -132.046857
9.308                0.902817451     -132.305529
9.309                0.902624633     -132.564719
9.31                 0.902432188     -132.824427
9.311                0.902240124     -133.084652
9.312                 0.90204845     -133.345393
9.313                0.901857175     -133.606647
9.314                0.901666308     -133.868416
9.315                0.901475857     -134.130696
9.316                0.901285833     -134.393488
9.317                0.901096244     -134.656789
9.318                0.900907098     -134.920599
9.319                0.900718406     -135.184916
9.32                 0.900530176      -135.44974
9.321                0.900342417     -135.715068
9.322                0.900155139       -135.9809
9.323                 0.89996835     -136.247233
9.324                0.899782061     -136.514068
9.325                 0.89959628     -136.781402
9.326                0.899411017     -137.049233
9.327                 0.89922628     -137.317561
9.328                 0.89904208     -137.586384
9.329                0.898858426       -137.8557
9.33                 0.898675327     -138.125508
9.331                0.898492793     -138.395807
9.332                0.898310833     -138.666593
9.333                0.898129457     -138.937867
9.334                0.897948674     -139.209627
9.335                0.897768494      -139.48187
9.336                0.897588927     -139.754594
9.337                0.897409981       -140.0278
9.338                0.897231667     -140.301483
9.339                0.897053994     -140.575643
9.34                 0.896876972     -140.850278
9.341                 0.89670061     -141.125386
9.342                0.896524919     -141.400965
9.343                0.896349908     -141.677013
9.344                0.896175586     -141.953529
9.345                0.896001964     -142.230509
9.346                 0.89582905     -142.507953
9.347                0.895656856     -142.785858
9.348                 0.89548539     -143.064223
9.349                0.895314662     -143.343044
9.35                 0.895144683      -143.62232
9.351                0.894975461     -143.902049
9.352                0.894807007     -144.182229
9.353                 0.89463933     -144.462858
9.354                0.894472441     -144.743932
9.355                0.894306348     -145.025451
9.356                0.894141062     -145.307411
9.357                0.893976593      -145.58981
9.358                0.893812949     -145.872647
9.359                0.893650142     -146.155918
9.36                 0.893488181     -146.439622
9.361                0.893327075     -146.723756
9.362                0.893166834     -147.008316
9.363                0.893007468     -147.293302
9.364                0.892848987      -147.57871
9.365                  0.8926914     -147.864538
9.366                0.892534717     -148.150784
9.367                0.892378948     -148.437444
9.368                0.892224102     -148.724516
9.369                 0.89207019     -149.011997
9.37                  0.89191722     -149.299885
9.371                0.891765202     -149.588178
9.372                0.891614146     -149.876871
9.373                0.891464062     -150.165963
9.374                0.891314958     -150.455451
9.375                0.891166845     -150.745331
9.376                0.891019732     -151.035602
9.377                0.890873628     -151.326259
9.378                0.890728543     -151.617301
9.379                0.890584486     -151.908725
9.38                 0.890441466     -152.200526
9.381                0.890299493     -152.492703
9.382                0.890158577     -152.785252
9.383                0.890018726      -153.07817
9.384                0.889879949     -153.371455
9.385                0.889742256     -153.665103
9.386                0.889605656      -153.95911
9.387                0.889470157     -154.253475
9.388                 0.88933577     -154.548193
9.389                0.889202502     -154.843261
9.39                 0.889070364     -155.138677
9.391                0.888939363     -155.434436
9.392                0.888809509     -155.730537
9.393                 0.88868081     -156.026974
9.394                0.888553275     -156.323746
9.395                0.888426914     -156.620848
9.396                0.888301733     -156.918277
