! TOUCHSTONE file generated by CST DESIGN STUDIO
! Date and time: Wed Feb  5 13:38:23 2025
! Project name: C:\Work\MatlabApps\UnitCellOptimizationMatlab\CST\unitcell.cst
! Tree item: Tasks\Sweep1\SPara1\S-Parameters
! Header version: 2024
! Port assignment regex: !\s*Touchstone port\s*([0-9]+)\s*=\s*(CST MWS port|CST DES external port|CST DES block port)\s*(.+)\s* \(\"(.*)\"\)(\s*mode\s*([0-9]+))?.*
! Touchstone port assignment:
! Touchstone port 1 = CST DES external port 1 ("")
# GHz S MA R 50
9                    0.965263636     -53.5241203
9.001                0.965197171     -53.5936479
9.002                0.965130502     -53.6633267
9.003                 0.96506363     -53.7331571
9.004                0.964996554     -53.8031397
9.005                0.964929272     -53.8732748
9.006                0.964861784      -53.943563
9.007                0.964794089     -54.0140048
9.008                0.964726188     -54.0846005
9.009                0.964658078     -54.1553508
9.01                  0.96458976      -54.226256
9.011                0.964521232     -54.2973166
9.012                0.964452494     -54.3685332
9.013                0.964383546     -54.4399062
9.014                0.964314386     -54.5114361
9.015                0.964245014     -54.5831234
9.016                0.964175429     -54.6549685
9.017                 0.96410563     -54.7269721
9.018                0.964035617     -54.7991345
9.019                0.963965389     -54.8714562
9.02                 0.963894945     -54.9439378
9.021                0.963824285     -55.0165798
9.022                0.963753408     -55.0893826
9.023                0.963682312     -55.1623467
9.024                0.963610998     -55.2354728
9.025                0.963539465     -55.3087611
9.026                0.963467711     -55.3822124
9.027                0.963395737      -55.455827
9.028                0.963323541     -55.5296056
9.029                0.963251123     -55.6035485
9.03                 0.963178481     -55.6776564
9.031                0.963105616     -55.7519297
9.032                0.963032527     -55.8263689
9.033                0.962959212     -55.9009747
9.034                0.962885671     -55.9757474
9.035                0.962811903     -56.0506877
9.036                0.962737907      -56.125796
9.037                0.962663684     -56.2010728
9.038                0.962589231     -56.2765188
9.039                0.962514548     -56.3521345
9.04                 0.962439635     -56.4279203
9.041                 0.96236449     -56.5038768
9.042                0.962289113     -56.5800046
9.043                0.962213503     -56.6563042
9.044                 0.96213766      -56.732776
9.045                0.962061582     -56.8094208
9.046                0.961985269      -56.886239
9.047                 0.96190872     -56.9632311
9.048                0.961831934     -57.0403978
9.049                 0.96175491     -57.1177395
9.05                 0.961677648     -57.1952569
9.051                0.961600147     -57.2729504
9.052                0.961522406     -57.3508207
9.053                0.961444424     -57.4288683
9.054                  0.9613662     -57.5070937
9.055                0.961287734     -57.5854975
9.056                0.961209025     -57.6640804
9.057                0.961130072     -57.7428427
9.058                0.961050874     -57.8217852
9.059                0.960971431     -57.9009084
9.06                 0.960891741     -57.9802129
9.061                0.960811804     -58.0596992
9.062                0.960731619     -58.1393679
9.063                0.960651185     -58.2192197
9.064                0.960570501      -58.299255
9.065                0.960489567     -58.3794745
9.066                0.960408381     -58.4598787
9.067                0.960326944     -58.5404683
9.068                0.960245253     -58.6212438
9.069                0.960163309     -58.7022059
9.07                  0.96008111      -58.783355
9.071                0.959998655     -58.8646919
9.072                0.959915944     -58.9462171
9.073                0.959832976     -59.0279313
9.074                 0.95974975     -59.1098349
9.075                0.959666265     -59.1919287
9.076                 0.95958252     -59.2742132
9.077                0.959498515     -59.3566891
9.078                0.959414249     -59.4393569
9.079                 0.95932972     -59.5222173
9.08                 0.959244928     -59.6052708
9.081                0.959159872     -59.6885182
9.082                0.959074551       -59.77196
9.083                0.958988964     -59.8555969
9.084                0.958903111     -59.9394294
9.085                0.958816991     -60.0234583
9.086                0.958730602      -60.107684
9.087                0.958643944     -60.1921074
9.088                0.958557015     -60.2767289
9.089                0.958469816     -60.3615493
9.09                 0.958382345     -60.4465691
9.091                0.958294602     -60.5317891
9.092                0.958206585     -60.6172098
9.093                0.958118293      -60.702832
9.094                0.958029726     -60.7886562
9.095                0.957940883     -60.8746831
9.096                0.957851762     -60.9609133
9.097                0.957762364     -61.0473476
9.098                0.957672687     -61.1339865
9.099                 0.95758273     -61.2208308
9.1                  0.957492492      -61.307881
9.101                0.957401972     -61.3951379
9.102                 0.95731117     -61.4826021
9.103                0.957220085     -61.5702743
9.104                0.957128715     -61.6581552
9.105                 0.95703706     -61.7462454
9.106                0.956945119     -61.8345456
9.107                 0.95685289     -61.9230566
9.108                0.956760374     -62.0117788
9.109                0.956667569     -62.1007132
9.11                 0.956574474     -62.1898602
9.111                0.956481088     -62.2792207
9.112                 0.95638741     -62.3687953
9.113                 0.95629344     -62.4585848
9.114                0.956199177     -62.5485897
9.115                0.956104619     -62.6388108
9.116                0.956009765     -62.7292489
9.117                0.955914615     -62.8199045
9.118                0.955819168     -62.9107785
9.119                0.955723423     -63.0018714
9.12                 0.955627379     -63.0931841
9.121                0.955531034     -63.1847173
9.122                0.955434389     -63.2764715
9.123                0.955337442     -63.3684477
9.124                0.955240191     -63.4606465
9.125                0.955142637     -63.5530685
9.126                0.955044778     -63.6457147
9.127                0.954946613     -63.7385855
9.128                0.954848142     -63.8316819
9.129                0.954749363     -63.9250045
9.13                 0.954650275     -64.0185541
9.131                0.954550878     -64.1123313
9.132                0.954451171     -64.2063371
9.133                0.954351151      -64.300572
9.134                 0.95425082     -64.3950368
9.135                0.954150175     -64.4897323
9.136                0.954049215     -64.5846592
9.137                0.953947941     -64.6798183
9.138                 0.95384635     -64.7752104
9.139                0.953744441     -64.8708361
9.14                 0.953642215     -64.9666963
9.141                0.953539669     -65.0627917
9.142                0.953436804     -65.1591231
9.143                0.953333617     -65.2556913
9.144                0.953230108      -65.352497
9.145                0.953126275     -65.4495409
9.146                0.953022119      -65.546824
9.147                0.952917638     -65.6443469
9.148                0.952812831     -65.7421104
9.149                0.952707696     -65.8401153
9.15                 0.952602234     -65.9383625
9.151                0.952496443     -66.0368526
9.152                0.952390322     -66.1355865
9.153                 0.95228387      -66.234565
9.154                0.952177086     -66.3337889
9.155                0.952069969      -66.433259
9.156                0.951962518      -66.532976
9.157                0.951854733     -66.6329408
9.158                0.951746611     -66.7331543
9.159                0.951638153     -66.8336171
9.16                 0.951529357     -66.9343301
9.161                0.951420222     -67.0352942
9.162                0.951310747     -67.1365101
9.163                0.951200932     -67.2379787
9.164                0.951090775     -67.3397008
9.165                0.950980275     -67.4416773
9.166                0.950869431     -67.5439088
9.167                0.950758242     -67.6463964
9.168                0.950646708     -67.7491408
9.169                0.950534827     -67.8521429
9.17                 0.950422598     -67.9554034
9.171                0.950310021     -68.0589233
9.172                0.950197094     -68.1627034
9.173                0.950083816     -68.2667445
9.174                0.949970186     -68.3710476
9.175                0.949856204     -68.4756133
9.176                0.949741868     -68.5804427
9.177                0.949627177     -68.6855366
9.178                0.949512131     -68.7908957
9.179                0.949396728     -68.8965211
9.18                 0.949280967     -69.0024135
9.181                0.949164848     -69.1085738
9.182                0.949048369      -69.215003
9.183                 0.94893153     -69.3217018
9.184                0.948814328     -69.4286712
9.185                0.948696764      -69.535912
9.186                0.948578837     -69.6434252
9.187                0.948460545     -69.7512116
9.188                0.948341887      -69.859272
9.189                0.948222863     -69.9676075
9.19                 0.948103471     -70.0762189
9.191                0.947983711     -70.1851071
9.192                0.947863581     -70.2942729
9.193                0.947743081     -70.4037174
9.194                0.947622209     -70.5134413
9.195                0.947500965     -70.6234457
9.196                0.947379347     -70.7337314
9.197                0.947257355     -70.8442994
9.198                0.947134987     -70.9551505
9.199                0.947012243     -71.0662857
9.2                  0.946889121     -71.1777059
9.201                0.946765622     -71.2894121
9.202                0.946641742     -71.4014051
9.203                0.946517483     -71.5136859
9.204                0.946392842     -71.6262555
9.205                0.946267819     -71.7391147
9.206                0.946142413     -71.8522645
9.207                0.946016623     -71.9657059
9.208                0.945890447     -72.0794398
9.209                0.945763886     -72.1934672
9.21                 0.945636937     -72.3077889
9.211                0.945509601      -72.422406
9.212                0.945381875     -72.5373194
9.213                 0.94525376     -72.6525301
9.214                0.945125253     -72.7680391
9.215                0.944996355     -72.8838472
9.216                0.944867064     -72.9999556
9.217                 0.94473738      -73.116365
9.218                  0.9446073     -73.2330766
9.219                0.944476825     -73.3500913
9.22                 0.944345954     -73.4674101
9.221                0.944214685      -73.585034
9.222                0.944083018     -73.7029639
9.223                0.943950952     -73.8212008
9.224                0.943818485     -73.9397458
9.225                0.943685618     -74.0585997
9.226                0.943552348     -74.1777637
9.227                0.943418675     -74.2972388
9.228                0.943284599     -74.4170258
9.229                0.943150118     -74.5371259
9.23                 0.943015231       -74.65754
9.231                0.942879937     -74.7782691
9.232                0.942744237     -74.8993144
9.233                0.942608127     -75.0206766
9.234                0.942471609      -75.142357
9.235                0.942334681     -75.2643565
9.236                0.942197341     -75.3866762
9.237                 0.94205959      -75.509317
9.238                0.941921426       -75.63228
9.239                0.941782849     -75.7555662
9.24                 0.941643857     -75.8791767
9.241                 0.94150445     -76.0031125
9.242                0.941364627     -76.1273746
9.243                0.941224387     -76.2519642
9.244                0.941083729     -76.3768821
9.245                0.940942653     -76.5021296
9.246                0.940801157     -76.6277075
9.247                0.940659242     -76.7536171
9.248                0.940516905     -76.8798593
9.249                0.940374146     -77.0064352
9.25                 0.940230965     -77.1333459
9.251                 0.94008736     -77.2605924
9.252                0.939943331     -77.3881758
9.253                0.939798877     -77.5160971
9.254                0.939653997     -77.6443575
9.255                0.939508691      -77.772958
9.256                0.939362958     -77.9018997
9.257                0.939216796     -78.0311837
9.258                0.939070206      -78.160811
9.259                0.938923187     -78.2907828
9.26                 0.938775737        -78.4211
9.261                0.938627856     -78.5517639
9.262                0.938479544     -78.6827755
9.263                0.938330799     -78.8141359
9.264                0.938181621     -78.9458462
9.265                0.938032009     -79.0779075
9.266                0.937881963     -79.2103209
9.267                0.937731482     -79.3430874
9.268                0.937580565     -79.4762083
9.269                0.937429212     -79.6096847
9.27                 0.937277422     -79.7435175
9.271                0.937125194      -79.877708
9.272                0.936972528     -80.0122573
9.273                0.936819422     -80.1471664
9.274                0.936665878     -80.2824365
9.275                0.936511893     -80.4180688
9.276                0.936357467     -80.5540643
9.277                  0.9362026     -80.6904242
9.278                0.936047292     -80.8271496
9.279                 0.93589154     -80.9642417
9.28                 0.935735346     -81.1017015
9.281                0.935578709     -81.2395302
9.282                0.935421627      -81.377729
9.283                0.935264101      -81.516299
9.284                 0.93510613     -81.6552413
9.285                0.934947713      -81.794557
9.286                 0.93478885     -81.9342474
9.287                0.934629541     -82.0743136
9.288                0.934469785     -82.2147567
9.289                0.934309582     -82.3555779
9.29                 0.934148931     -82.4967783
9.291                0.933987831     -82.6383592
9.292                0.933826283     -82.7803215
9.293                0.933664286     -82.9226666
9.294                 0.93350184     -83.0653955
9.295                0.933338944     -83.2085095
9.296                0.933175598     -83.3520097
9.297                0.933011801     -83.4958973
9.298                0.932847554     -83.6401734
9.299                0.932682856     -83.7848392
9.3                  0.932517706     -83.9298959
9.301                0.932352105     -84.0753447
9.302                0.932186052     -84.2211867
9.303                0.932019547     -84.3674231
9.304                 0.93185259     -84.5140551
9.305                 0.93168518     -84.6610839
9.306                0.931517317     -84.8085107
9.307                0.931349001     -84.9563366
9.308                0.931180232     -85.1045628
9.309                 0.93101101     -85.2531905
9.31                 0.930841335      -85.402221
9.311                0.930671206     -85.5516554
9.312                0.930500623     -85.7014948
9.313                0.930329587     -85.8517405
9.314                0.930158097     -86.0023937
9.315                0.929986154     -86.1534556
9.316                0.929813756     -86.3049273
9.317                0.929640905     -86.4568101
9.318                  0.9294676     -86.6091052
9.319                0.929293841     -86.7618137
9.32                 0.929119628     -86.9149368
9.321                0.928944962     -87.0684759
9.322                0.928769842      -87.222432
9.323                0.928594268     -87.3768063
9.324                0.928418242     -87.5316002
9.325                0.928241762     -87.6868147
9.326                0.928064829     -87.8424511
9.327                0.927887443     -87.9985105
9.328                0.927709605     -88.1549943
9.329                0.927531314     -88.3119036
9.33                 0.927352572     -88.4692395
9.331                0.927173377     -88.6270034
9.332                0.926993731     -88.7851965
9.333                0.926813633     -88.9438198
9.334                0.926633085     -89.1028747
9.335                0.926452086     -89.2623624
9.336                0.926270637      -89.422284
9.337                0.926088739     -89.5826408
9.338                0.925906391      -89.743434
9.339                0.925723594     -89.9046647
9.34                  0.92554035     -90.0663343
9.341                0.925356657     -90.2284439
9.342                0.925172517     -90.3909948
9.343                 0.92498793      -90.553988
9.344                0.924802898     -90.7174249
9.345                 0.92461742     -90.8813067
9.346                0.924431497     -91.0456346
9.347                 0.92424513     -91.2104097
9.348                 0.92405832     -91.3756333
9.349                0.923871066     -91.5413067
9.35                 0.923683371     -91.7074309
9.351                0.923495235     -91.8740072
9.352                0.923306659     -92.0410369
9.353                0.923117642     -92.2085211
9.354                0.922928188      -92.376461
9.355                0.922738295     -92.5448578
9.356                0.922547966     -92.7137128
9.357                0.922357201     -92.8830271
9.358                0.922166001      -93.052802
9.359                0.921974367     -93.2230386
9.36                   0.9217823     -93.3937382
9.361                0.921589802     -93.5649019
9.362                0.921396873     -93.7365309
9.363                0.921203515     -93.9086265
9.364                0.921009728     -94.0811898
9.365                0.920815515      -94.254222
9.366                0.920620875     -94.4277243
9.367                0.920425811     -94.6016979
9.368                0.920230324      -94.776144
9.369                0.920034415     -94.9510638
9.37                 0.919838085     -95.1264584
9.371                0.919641337      -95.302329
9.372                 0.91944417     -95.4786769
9.373                0.919246588     -95.6555031
9.374                0.919048591     -95.8328089
9.375                0.918850181     -96.0105954
9.376                0.918651359     -96.1888638
9.377                0.918452128     -96.3676153
9.378                0.918252489     -96.5468511
9.379                0.918052443     -96.7265722
9.38                 0.917851992     -96.9067798
9.381                0.917651138     -97.0874752
9.382                0.917449884     -97.2686594
9.383                 0.91724823     -97.4503337
9.384                0.917046179     -97.6324991
9.385                0.916843732     -97.8151568
9.386                0.916640892     -97.9983079
9.387                0.916437661     -98.1819536
9.388                 0.91623404      -98.366095
9.389                0.916030032     -98.5507332
9.39                 0.915825639     -98.7358694
9.391                0.915620863     -98.9215047
9.392                0.915415706     -99.1076402
9.393                0.915210171      -99.294277
9.394                 0.91500426     -99.4814162
9.395                0.914797975     -99.6690589
9.396                0.914591319     -99.8572063
