! TOUCHSTONE file generated by CST DESIGN STUDIO
! Date and time: Wed Feb  5 13:38:26 2025
! Project name: C:\Work\MatlabApps\UnitCellOptimizationMatlab\CST\unitcell.cst
! Tree item: Tasks\Sweep1\SPara1\S-Parameters
! Header version: 2024
! Port assignment regex: !\s*Touchstone port\s*([0-9]+)\s*=\s*(CST MWS port|CST DES external port|CST DES block port)\s*(.+)\s* \(\"(.*)\"\)(\s*mode\s*([0-9]+))?.*
! Touchstone port assignment:
! Touchstone port 1 = CST DES external port 1 ("")
# GHz S MA R 50
9                      0.9685436     -46.5970559
9.001                0.968491831      -46.654853
9.002                0.968439907      -46.712766
9.003                0.968387827      -46.770795
9.004                0.968335591     -46.8289405
9.005                0.968283197     -46.8872028
9.006                0.968230647     -46.9455822
9.007                0.968177938     -47.0040792
9.008                0.968125071     -47.0626939
9.009                0.968072044     -47.1214269
9.01                 0.968018859     -47.1802784
9.011                0.967965513     -47.2392489
9.012                0.967912006     -47.2983386
9.013                0.967858339     -47.3575479
9.014                 0.96780451     -47.4168773
9.015                0.967750519     -47.4763269
9.016                0.967696365     -47.5358973
9.017                0.967642047     -47.5955888
9.018                0.967587566     -47.6554017
9.019                0.967532921     -47.7153364
9.02                 0.967478111     -47.7753933
9.021                0.967423135     -47.8355727
9.022                0.967367994      -47.895875
9.023                0.967312686     -47.9563006
9.024                0.967257211     -48.0168499
9.025                0.967201568     -48.0775231
9.026                0.967145757     -48.1383208
9.027                0.967089778     -48.1992433
9.028                0.967033629     -48.2602909
9.029                 0.96697731     -48.3214641
9.03                 0.966920821     -48.3827632
9.031                0.966864161     -48.4441886
9.032                 0.96680733     -48.5057407
9.033                0.966750326     -48.5674199
9.034                 0.96669315     -48.6292265
9.035                  0.9666358      -48.691161
9.036                0.966578277     -48.7532237
9.037                0.966520579      -48.815415
9.038                0.966462706     -48.8777353
9.039                0.966404658     -48.9401851
9.04                 0.966346433     -49.0027647
9.041                0.966288032     -49.0654745
9.042                0.966229453     -49.1283148
9.043                0.966170697     -49.1912862
9.044                0.966111762      -49.254389
9.045                0.966052648     -49.3176236
9.046                0.965993354     -49.3809904
9.047                 0.96593388     -49.4444898
9.048                0.965874225     -49.5081223
9.049                0.965814389     -49.5718881
9.05                  0.96575437     -49.6357878
9.051                0.965694169     -49.6998218
9.052                0.965633784     -49.7639904
9.053                0.965573216     -49.8282941
9.054                0.965512462     -49.8927333
9.055                0.965451524     -49.9573084
9.056                  0.9653904     -50.0220199
9.057                 0.96532909     -50.0868681
9.058                0.965267592     -50.1518534
9.059                0.965205907     -50.2169764
9.06                 0.965144033     -50.2822374
9.061                0.965081971     -50.3476368
9.062                0.965019719     -50.4131751
9.063                0.964957276     -50.4788527
9.064                0.964894643     -50.5446701
9.065                0.964831819     -50.6106276
9.066                0.964768802     -50.6767257
9.067                0.964705593     -50.7429649
9.068                 0.96464219     -50.8093456
9.069                0.964578593     -50.8758681
9.07                 0.964514802     -50.9425331
9.071                0.964450815     -51.0093408
9.072                0.964386632     -51.0762917
9.073                0.964322252     -51.1433864
9.074                0.964257675     -51.2106252
9.075                  0.9641929     -51.2780086
9.076                0.964127927      -51.345537
9.077                0.964062754     -51.4132109
9.078                0.963997381     -51.4810308
9.079                0.963931807     -51.5489971
9.08                 0.963866032     -51.6171102
9.081                0.963800055     -51.6853706
9.082                0.963733875     -51.7537789
9.083                0.963667492     -51.8223353
9.084                0.963600905     -51.8910405
9.085                0.963534113     -51.9598948
9.086                0.963467116     -52.0288988
9.087                0.963399912     -52.0980529
9.088                0.963332502     -52.1673575
9.089                0.963264884     -52.2368132
9.09                 0.963197058     -52.3064204
9.091                0.963129023     -52.3761797
9.092                0.963060778     -52.4460914
9.093                0.962992323     -52.5161561
9.094                0.962923657     -52.5863742
9.095                0.962854779     -52.6567462
9.096                0.962785689     -52.7272727
9.097                0.962716385      -52.797954
9.098                0.962646868     -52.8687907
9.099                0.962577136     -52.9397833
9.1                  0.962507189     -53.0109323
9.101                0.962437025     -53.0822382
9.102                0.962366645     -53.1537013
9.103                0.962296047     -53.2253224
9.104                0.962225231     -53.2971018
9.105                0.962154196     -53.3690401
9.106                0.962082942     -53.4411377
9.107                0.962011466     -53.5133952
9.108                 0.96193977      -53.585813
9.109                0.961867852     -53.6583918
9.11                 0.961795711     -53.7311319
9.111                0.961723346     -53.8040339
9.112                0.961650757     -53.8770984
9.113                0.961577943     -53.9503258
9.114                0.961504904     -54.0237166
9.115                0.961431638     -54.0972714
9.116                0.961358145     -54.1709907
9.117                0.961284424     -54.2448751
9.118                0.961210474     -54.3189249
9.119                0.961136294     -54.3931409
9.12                 0.961061884     -54.4675234
9.121                0.960987244     -54.5420731
9.122                0.960912371     -54.6167905
9.123                0.960837265     -54.6916761
9.124                0.960761926     -54.7667304
9.125                0.960686353      -54.841954
9.126                0.960610545     -54.9173474
9.127                0.960534501     -54.9929112
9.128                0.960458221     -55.0686459
9.129                0.960381703      -55.144552
9.13                 0.960304947     -55.2206302
9.131                0.960227952     -55.2968809
9.132                0.960150717     -55.3733048
9.133                0.960073242     -55.4499023
9.134                0.959995525     -55.5266741
9.135                0.959917566     -55.6036206
9.136                0.959839364     -55.6807426
9.137                0.959760919     -55.7580404
9.138                0.959682228     -55.8355147
9.139                0.959603292      -55.913166
9.14                  0.95952411      -55.990995
9.141                0.959444681     -56.0690022
9.142                0.959365004     -56.1471882
9.143                0.959285078     -56.2255535
9.144                0.959204902     -56.3040987
9.145                0.959124476     -56.3828244
9.146                0.959043799     -56.4617312
9.147                 0.95896287     -56.5408197
9.148                0.958881688     -56.6200905
9.149                0.958800252     -56.6995441
9.15                 0.958718561     -56.7791811
9.151                0.958636615     -56.8590022
9.152                0.958554412     -56.9390079
9.153                0.958471952     -57.0191989
9.154                0.958389235     -57.0995757
9.155                0.958306258     -57.1801389
9.156                0.958223021     -57.2608891
9.157                0.958139524     -57.3418271
9.158                0.958055766     -57.4229532
9.159                0.957971745     -57.5042683
9.16                 0.957887461     -57.5857728
9.161                0.957802912     -57.6674674
9.162                0.957718099     -57.7493527
9.163                 0.95763302     -57.8314294
9.164                0.957547674      -57.913698
9.165                 0.95746206     -57.9961592
9.166                0.957376178     -58.0788137
9.167                0.957290027     -58.1616619
9.168                0.957203605     -58.2447047
9.169                0.957116912     -58.3279425
9.17                 0.957029947     -58.4113761
9.171                0.956942709     -58.4950061
9.172                0.956855197     -58.5788331
9.173                0.956767411     -58.6628578
9.174                0.956679348     -58.7470808
9.175                0.956591009     -58.8315028
9.176                0.956502393     -58.9161243
9.177                0.956413498     -59.0009462
9.178                0.956324324      -59.085969
9.179                0.956234869     -59.1711933
9.18                 0.956145133     -59.2566199
9.181                0.956055116     -59.3422494
9.182                0.955964815     -59.4280825
9.183                 0.95587423     -59.5141198
9.184                0.955783361      -59.600362
9.185                0.955692205     -59.6868098
9.186                0.955600763     -59.7734639
9.187                0.955509033     -59.8603249
9.188                0.955417015     -59.9473935
9.189                0.955324707     -60.0346704
9.19                 0.955232109     -60.1221562
9.191                0.955139219     -60.2098518
9.192                0.955046037     -60.2977577
9.193                0.954952561     -60.3858746
9.194                0.954858791     -60.4742033
9.195                0.954764726     -60.5627445
9.196                0.954670365     -60.6514987
9.197                0.954575707     -60.7404668
9.198                 0.95448075     -60.8296495
9.199                0.954385495     -60.9190474
9.2                  0.954289939     -61.0086613
9.201                0.954194083     -61.0984919
9.202                0.954097924     -61.1885398
9.203                0.954001463     -61.2788059
9.204                0.953904698     -61.3692908
9.205                0.953807628     -61.4599952
9.206                0.953710252       -61.55092
9.207                0.953612569     -61.6420657
9.208                0.953514579     -61.7334332
9.209                0.953416279     -61.8250231
9.21                  0.95331767     -61.9168363
9.211                0.953218751     -62.0088733
9.212                0.953119519     -62.1011351
9.213                0.953019975     -62.1936223
9.214                0.952920117     -62.2863357
9.215                0.952819944      -62.379276
9.216                0.952719456      -62.472444
9.217                0.952618651     -62.5658404
9.218                0.952517529      -62.659466
9.219                0.952416087     -62.7533215
9.22                 0.952314326     -62.8474078
9.221                0.952212245     -62.9417255
9.222                0.952109841     -63.0362755
9.223                0.952007115     -63.1310585
9.224                0.951904066     -63.2260752
9.225                0.951800691     -63.3213266
9.226                0.951696991     -63.4168132
9.227                0.951592964      -63.512536
9.228                0.951488609     -63.6084957
9.229                0.951383926     -63.7046931
9.23                 0.951278913      -63.801129
9.231                0.951173569     -63.8978041
9.232                0.951067893     -63.9947194
9.233                0.950961885     -64.0918755
9.234                0.950855542     -64.1892732
9.235                0.950748865     -64.2869135
9.236                0.950641852      -64.384797
9.237                0.950534502     -64.4829246
9.238                0.950426814     -64.5812971
9.239                0.950318787     -64.6799153
9.24                  0.95021042       -64.77878
9.241                0.950101712     -64.8778922
9.242                0.949992662     -64.9772524
9.243                0.949883269     -65.0768617
9.244                0.949773531     -65.1767208
9.245                0.949663449     -65.2768306
9.246                 0.94955302     -65.3771919
9.247                0.949442244     -65.4778055
9.248                 0.94933112     -65.5786723
9.249                0.949219647     -65.6797932
9.25                 0.949107823     -65.7811688
9.251                0.948995648     -65.8828003
9.252                 0.94888312     -65.9846882
9.253                0.948770239     -66.0868336
9.254                0.948657004     -66.1892373
9.255                0.948543413     -66.2919001
9.256                0.948429465     -66.3948229
9.257                 0.94831516     -66.4980066
9.258                0.948200496     -66.6014521
9.259                0.948085473     -66.7051601
9.26                 0.947970088     -66.8091317
9.261                0.947854342     -66.9133676
9.262                0.947738233     -67.0178688
9.263                 0.94762176     -67.1226361
9.264                0.947504922     -67.2276704
9.265                0.947387719     -67.3329726
9.266                0.947270148     -67.4385436
9.267                0.947152209     -67.5443844
9.268                0.947033901     -67.6504957
9.269                0.946915223     -67.7568785
9.27                 0.946796174     -67.8635338
9.271                0.946676752     -67.9704623
9.272                0.946556957     -68.0776651
9.273                0.946436788     -68.1851431
9.274                0.946316244      -68.292897
9.275                0.946195323      -68.400928
9.276                0.946074025     -68.5092368
9.277                0.945952348     -68.6178245
9.278                0.945830291      -68.726692
9.279                0.945707855     -68.8358401
9.28                 0.945585036     -68.9452698
9.281                0.945461835     -69.0549822
9.282                 0.94533825      -69.164978
9.283                0.945214281     -69.2752582
9.284                0.945089925     -69.3858239
9.285                0.944965183     -69.4966759
9.286                0.944840053     -69.6078152
9.287                0.944714535     -69.7192427
9.288                0.944588626     -69.8309594
9.289                0.944462326     -69.9429664
9.29                 0.944335635     -70.0552644
9.291                0.944208551     -70.1678546
9.292                0.944081072     -70.2807379
9.293                0.943953199     -70.3939152
9.294                0.943824929     -70.5073875
9.295                0.943696263     -70.6211559
9.296                0.943567198     -70.7352212
9.297                0.943437734     -70.8495845
9.298                0.943307871     -70.9642468
9.299                0.943177606     -71.0792091
9.3                  0.943046939     -71.1944723
9.301                0.942915869     -71.3100375
9.302                0.942784394     -71.4259057
9.303                0.942652515     -71.5420778
9.304                0.942520229     -71.6585549
9.305                0.942387537     -71.7753379
9.306                0.942254436      -71.892428
9.307                0.942120926     -72.0098261
9.308                0.941987006     -72.1275332
9.309                0.941852675     -72.2455504
9.31                 0.941717932     -72.3638787
9.311                0.941582776     -72.4825191
9.312                0.941447206     -72.6014726
9.313                 0.94131122     -72.7207403
9.314                0.941174819     -72.8403233
9.315                0.941038001     -72.9602225
9.316                0.940900765      -73.080439
9.317                 0.94076311     -73.2009739
9.318                0.940625036     -73.3218281
9.319                 0.94048654     -73.4430029
9.32                 0.940347623     -73.5644991
9.321                0.940208284     -73.6863179
9.322                 0.94006852     -73.8084604
9.323                0.939928332     -73.9309276
9.324                0.939787719     -74.0537205
9.325                 0.93964668     -74.1768403
9.326                0.939505213      -74.300288
9.327                0.939363318     -74.4240647
9.328                0.939220994     -74.5481714
9.329                0.939078239     -74.6726093
9.33                 0.938935054     -74.7973795
9.331                0.938791437      -74.922483
9.332                0.938647388      -75.047921
9.333                0.938502905     -75.1736944
9.334                0.938357987     -75.2998045
9.335                0.938212634     -75.4262523
9.336                0.938066845     -75.5530389
9.337                0.937920619     -75.6801655
9.338                0.937773955     -75.8076331
9.339                0.937626853     -75.9354428
9.34                  0.93747931     -76.0635958
9.341                0.937331328     -76.1920932
9.342                0.937182904     -76.3209362
9.343                0.937034038     -76.4501257
9.344                0.936884729      -76.579663
9.345                0.936734977     -76.7095492
9.346                 0.93658478     -76.8397855
9.347                0.936434138     -76.9703729
9.348                 0.93628305     -77.1013126
9.349                0.936131515     -77.2326057
9.35                 0.935979533     -77.3642534
9.351                0.935827102     -77.4962568
9.352                0.935674222     -77.6286172
9.353                0.935520893     -77.7613355
9.354                0.935367112      -77.894413
9.355                0.935212881     -78.0278509
9.356                0.935058198     -78.1616503
9.357                0.934903062     -78.2958123
9.358                0.934747472     -78.4303382
9.359                0.934591429     -78.5652291
9.36                 0.934434931     -78.7004862
9.361                0.934277977     -78.8361106
9.362                0.934120568     -78.9721035
9.363                0.933962702     -79.1084661
9.364                0.933804378     -79.2451996
9.365                0.933645596     -79.3823051
9.366                0.933486356      -79.519784
9.367                0.933326657     -79.6576372
9.368                0.933166498     -79.7958661
9.369                0.933005879     -79.9344718
9.37                 0.932844799     -80.0734555
9.371                0.932683257     -80.2128185
9.372                0.932521253     -80.3525618
9.373                0.932358787     -80.4926868
9.374                0.932195858     -80.6331947
9.375                0.932032465     -80.7740865
9.376                0.931868608     -80.9153636
9.377                0.931704287     -81.0570272
9.378                  0.9315395     -81.1990785
9.379                0.931374248     -81.3415186
9.38                  0.93120853     -81.4843489
9.381                0.931042346     -81.6275705
9.382                0.930875695     -81.7711846
9.383                0.930708577     -81.9151926
9.384                0.930540991     -82.0595955
9.385                0.930372938     -82.2043947
9.386                0.930204416     -82.3495914
9.387                0.930035426     -82.4951868
9.388                0.929865966     -82.6411821
9.389                0.929696038     -82.7875787
9.39                 0.929525639     -82.9343776
9.391                0.929354771     -83.0815802
9.392                0.929183433     -83.2291878
9.393                0.929011625     -83.3772015
9.394                0.928839346     -83.5256226
9.395                0.928666596     -83.6744524
9.396                0.928493375      -83.823692
