! TOUCHSTONE file generated by CST DESIGN STUDIO
! Date and time: Wed Feb  5 13:38:21 2025
! Project name: C:\Work\MatlabApps\UnitCellOptimizationMatlab\CST\unitcell.cst
! Tree item: Tasks\Sweep1\SPara1\S-Parameters
! Header version: 2024
! Port assignment regex: !\s*Touchstone port\s*([0-9]+)\s*=\s*(CST MWS port|CST DES external port|CST DES block port)\s*(.+)\s* \(\"(.*)\"\)(\s*mode\s*([0-9]+))?.*
! Touchstone port assignment:
! Touchstone port 1 = CST DES external port 1 ("")
# GHz S MA R 50
9                    0.963565887     -57.1446039
9.001                0.963491427     -57.2210046
9.002                0.963416738     -57.2975775
9.003                0.963341817     -57.3743231
9.004                0.963266666      -57.451242
9.005                0.963191282     -57.5283348
9.006                0.963115666     -57.6056019
9.007                0.963039816      -57.683044
9.008                0.962963732     -57.7606615
9.009                0.962887412     -57.8384551
9.01                 0.962810857     -57.9164252
9.011                0.962734065     -57.9945725
9.012                0.962657036     -58.0728975
9.013                0.962579768     -58.1514007
9.014                0.962502261     -58.2300827
9.015                0.962424515     -58.3089442
9.016                0.962346527     -58.3879855
9.017                0.962268299     -58.4672074
9.018                0.962189828     -58.5466103
9.019                0.962111114     -58.6261949
9.02                 0.962032156     -58.7059617
9.021                0.961952954     -58.7859113
9.022                0.961873506     -58.8660443
9.023                0.961793812     -58.9463613
9.024                0.961713871     -59.0268627
9.025                0.961633682     -59.1075494
9.026                0.961553244     -59.1884217
9.027                0.961472557     -59.2694803
9.028                0.961391619     -59.3507258
9.029                0.961310431     -59.4321587
9.03                  0.96122899     -59.5137798
9.031                0.961147296     -59.5955895
9.032                0.961065349     -59.6775885
9.033                0.960983148     -59.7597773
9.034                0.960900691     -59.8421566
9.035                0.960817978      -59.924727
9.036                0.960735007     -60.0074891
9.037                 0.96065178     -60.0904435
9.038                0.960568293     -60.1735907
9.039                0.960484547     -60.2569315
9.04                  0.96040054     -60.3404664
9.041                0.960316273     -60.4241961
9.042                0.960231743     -60.5081211
9.043                 0.96014695     -60.5922421
9.044                0.960061894     -60.6765598
9.045                0.959976573     -60.7610746
9.046                0.959890986     -60.8457874
9.047                0.959805133     -60.9306986
9.048                0.959719013      -61.015809
9.049                0.959632625     -61.1011192
9.05                 0.959545968     -61.1866298
9.051                0.959459041     -61.2723414
9.052                0.959371843     -61.3582547
9.053                0.959284374     -61.4443703
9.054                0.959196632      -61.530689
9.055                0.959108617     -61.6172112
9.056                0.959020328     -61.7039377
9.057                0.958931764     -61.7908692
9.058                0.958842924     -61.8780063
9.059                0.958753806     -61.9653496
9.06                 0.958664412     -62.0528998
9.061                0.958574738     -62.1406576
9.062                0.958484785     -62.2286237
9.063                0.958394552     -62.3167986
9.064                0.958304037     -62.4051831
9.065                 0.95821324     -62.4937779
9.066                 0.95812216     -62.5825836
9.067                0.958030796     -62.6716008
9.068                0.957939147     -62.7608304
9.069                0.957847212     -62.8502729
9.07                  0.95775499     -62.9399291
9.071                0.957662481     -63.0297996
9.072                0.957569683     -63.1198851
9.073                0.957476596     -63.2101863
9.074                0.957383218     -63.3007039
9.075                0.957289549     -63.3914386
9.076                0.957195588     -63.4823911
9.077                0.957101334     -63.5735621
9.078                0.957006785     -63.6649523
9.079                0.956911942     -63.7565624
9.08                 0.956816803     -63.8483932
9.081                0.956721367     -63.9404452
9.082                0.956625633     -64.0327193
9.083                  0.9565296     -64.1252161
9.084                0.956433268     -64.2179364
9.085                0.956336636     -64.3108809
9.086                0.956239702     -64.4040503
9.087                0.956142465     -64.4974453
9.088                0.956044925     -64.5910667
9.089                0.955947081     -64.6849151
9.09                 0.955848931     -64.7789914
9.091                0.955750476     -64.8732963
9.092                0.955651713     -64.9678305
9.093                0.955552642     -65.0625947
9.094                0.955453262     -65.1575896
9.095                0.955353573     -65.2528161
9.096                0.955253572     -65.3482749
9.097                0.955153259     -65.4439667
9.098                0.955052634     -65.5398923
9.099                0.954951695     -65.6360523
9.1                  0.954850441     -65.7324477
9.101                0.954748872     -65.8290791
9.102                0.954646986     -65.9259474
9.103                0.954544782     -66.0230532
9.104                 0.95444226     -66.1203973
9.105                0.954339418     -66.2179806
9.106                0.954236256     -66.3158037
9.107                0.954132773     -66.4138675
9.108                0.954028967     -66.5121728
9.109                0.953924838     -66.6107202
9.11                 0.953820384     -66.7095107
9.111                0.953715605     -66.8085449
9.112                  0.9536105     -66.9078238
9.113                0.953505068      -67.007348
9.114                0.953399308     -67.1071183
9.115                0.953293218     -67.2071356
9.116                0.953186799     -67.3074007
9.117                0.953080048     -67.4079143
9.118                0.952972965     -67.5086773
9.119                 0.95286555     -67.6096904
9.12                   0.9527578     -67.7109546
9.121                0.952649716     -67.8124705
9.122                0.952541295      -67.914239
9.123                0.952432538     -68.0162609
9.124                0.952323442     -68.1185371
9.125                0.952214008     -68.2210684
9.126                0.952104235     -68.3238555
9.127                 0.95199412     -68.4268993
9.128                0.951883663     -68.5302007
9.129                0.951772864     -68.6337605
9.13                 0.951661722     -68.7375795
9.131                0.951550234     -68.8416585
9.132                0.951438401     -68.9459985
9.133                0.951326221     -69.0506002
9.134                0.951213694     -69.1554644
9.135                0.951100818     -69.2605921
9.136                0.950987592     -69.3659841
9.137                0.950874016     -69.4716412
9.138                0.950760089     -69.5775644
9.139                0.950645809     -69.6837543
9.14                 0.950531176      -69.790212
9.141                0.950416188     -69.8969383
9.142                0.950300845     -70.0039341
9.143                0.950185145     -70.1112002
9.144                0.950069089     -70.2187374
9.145                0.949952674     -70.3265468
9.146                0.949835899     -70.4346291
9.147                0.949718765     -70.5429852
9.148                0.949601269     -70.6516161
9.149                0.949483411     -70.7605226
9.15                  0.94936519     -70.8697055
9.151                0.949246605     -70.9791659
9.152                0.949127655     -71.0889045
9.153                0.949008339     -71.1989224
9.154                0.948888656     -71.3092203
9.155                0.948768604     -71.4197992
9.156                0.948648185     -71.5306599
9.157                0.948527395     -71.6418035
9.158                0.948406234     -71.7532308
9.159                0.948284702     -71.8649428
9.16                 0.948162796     -71.9769403
9.161                0.948040518     -72.0892242
9.162                0.947917864     -72.2017955
9.163                0.947794835     -72.3146552
9.164                 0.94767143      -72.427804
9.165                0.947547647     -72.5412431
9.166                0.947423485     -72.6549733
9.167                0.947298945     -72.7689954
9.168                0.947174024     -72.8833106
9.169                0.947048721     -72.9979197
9.17                 0.946923037     -73.1128237
9.171                 0.94679697     -73.2280234
9.172                0.946670518       -73.34352
9.173                0.946543682     -73.4593142
9.174                0.946416459     -73.5754071
9.175                 0.94628885     -73.6917997
9.176                0.946160854     -73.8084928
9.177                0.946032468     -73.9254875
9.178                0.945903693     -74.0427847
9.179                0.945774528     -74.1603853
9.18                 0.945644971     -74.2782905
9.181                0.945515022      -74.396501
9.182                 0.94538468      -74.515018
9.183                0.945253944     -74.6338423
9.184                0.945122813      -74.752975
9.185                0.944991286     -74.8724171
9.186                0.944859362     -74.9921695
9.187                0.944727041     -75.1122332
9.188                0.944594321     -75.2326093
9.189                0.944461202     -75.3532986
9.19                 0.944327682     -75.4743023
9.191                0.944193762     -75.5956213
9.192                0.944059439     -75.7172566
9.193                0.943924714     -75.8392092
9.194                0.943789585     -75.9614802
9.195                0.943654052     -76.0840705
9.196                0.943518113     -76.2069812
9.197                0.943381768     -76.3302132
9.198                0.943245016     -76.4537676
9.199                0.943107856     -76.5776454
9.2                  0.942970287     -76.7018477
9.201                0.942832309     -76.8263754
9.202                0.942693921     -76.9512297
9.203                0.942555121     -77.0764114
9.204                 0.94241591     -77.2019217
9.205                0.942276285     -77.3277616
9.206                0.942136248     -77.4539321
9.207                0.941995796     -77.5804343
9.208                0.941854928     -77.7072693
9.209                0.941713645     -77.8344379
9.21                 0.941571946     -77.9619414
9.211                0.941429829     -78.0897808
9.212                0.941287293     -78.2179571
9.213                0.941144339     -78.3464714
9.214                0.941000966     -78.4753247
9.215                0.940857171     -78.6045181
9.216                0.940712956     -78.7340526
9.217                0.940568319     -78.8639294
9.218                 0.94042326     -78.9941495
9.219                0.940277777     -79.1247139
9.22                  0.94013187     -79.2556238
9.221                0.939985539     -79.3868802
9.222                0.939838783     -79.5184842
9.223                  0.9396916     -79.6504369
9.224                0.939543991     -79.7827393
9.225                0.939395954     -79.9153926
9.226                 0.93924749     -80.0483978
9.227                0.939098597      -80.181756
9.228                0.938949275     -80.3154684
9.229                0.938799523     -80.4495359
9.23                 0.938649341     -80.5839598
9.231                0.938498727      -80.718741
9.232                0.938347682     -80.8538807
9.233                0.938196205     -80.9893801
9.234                0.938044295     -81.1252401
9.235                0.937891951      -81.261462
9.236                0.937739174     -81.3980468
9.237                0.937585962     -81.5349956
9.238                0.937432316     -81.6723096
9.239                0.937278233     -81.8099899
9.24                 0.937123715     -81.9480375
9.241                 0.93696876     -82.0864536
9.242                0.936813369     -82.2252393
9.243                0.936657539     -82.3643958
9.244                0.936501272     -82.5039242
9.245                0.936344567     -82.6438255
9.246                0.936187422      -82.784101
9.247                0.936029839     -82.9247518
9.248                0.935871815     -83.0657789
9.249                0.935713352     -83.2071835
9.25                 0.935554448     -83.3489668
9.251                0.935395103     -83.4911299
9.252                0.935235317      -83.633674
9.253                0.935075089     -83.7766001
9.254                 0.93491442     -83.9199095
9.255                0.934753308     -84.0636032
9.256                0.934591754     -84.2076824
9.257                0.934429756     -84.3521483
9.258                0.934267316      -84.497002
9.259                0.934104432     -84.6422447
9.26                 0.933941105     -84.7878774
9.261                0.933777333     -84.9339015
9.262                0.933613118      -85.080318
9.263                0.933448458      -85.227128
9.264                0.933283353     -85.3743328
9.265                0.933117804     -85.5219335
9.266                 0.93295181     -85.6699312
9.267                0.932785371     -85.8183272
9.268                0.932618487     -85.9671226
9.269                0.932451157     -86.1163185
9.27                 0.932283382     -86.2659161
9.271                0.932115162     -86.4159166
9.272                0.931946496     -86.5663212
9.273                0.931777384      -86.717131
9.274                0.931607827     -86.8683471
9.275                0.931437824     -87.0199709
9.276                0.931267376     -87.1720033
9.277                0.931096482     -87.3244457
9.278                0.930925143     -87.4772992
9.279                0.930753358     -87.6305649
9.28                 0.930581128      -87.784244
9.281                0.930408452     -87.9383378
9.282                0.930235332     -88.0928473
9.283                0.930061766     -88.2477738
9.284                0.929887756     -88.4031185
9.285                0.929713301     -88.5588824
9.286                0.929538401     -88.7150669
9.287                0.929363058      -88.871673
9.288                 0.92918727      -89.028702
9.289                0.929011039     -89.1861551
9.29                 0.928834364     -89.3440333
9.291                0.928657246      -89.502338
9.292                0.928479686     -89.6610702
9.293                0.928301683     -89.8202312
9.294                0.928123238     -89.9798222
9.295                0.927944351     -90.1398443
9.296                0.927765024     -90.3002987
9.297                0.927585255     -90.4611866
9.298                0.927405046     -90.6225091
9.299                0.927224398     -90.7842675
9.3                   0.92704331      -90.946463
9.301                0.926861784     -91.1090966
9.302                 0.92667982     -91.2721697
9.303                0.926497418     -91.4356834
9.304                0.926314579     -91.5996388
9.305                0.926131304     -91.7640371
9.306                0.925947594     -91.9288796
9.307                0.925763448     -92.0941673
9.308                0.925578869     -92.2599016
9.309                0.925393856     -92.4260835
9.31                 0.925208411     -92.5927142
9.311                0.925022534     -92.7597949
9.312                0.924836226     -92.9273268
9.313                0.924649488      -93.095311
9.314                0.924462322     -93.2637488
9.315                0.924274726     -93.4326413
9.316                0.924086704     -93.6019896
9.317                0.923898256      -93.771795
9.318                0.923709382     -93.9420586
9.319                0.923520084     -94.1127815
9.32                 0.923330363      -94.283965
9.321                0.923140221     -94.4556101
9.322                0.922949657     -94.6277182
9.323                0.922758674     -94.8002902
9.324                0.922567272     -94.9733274
9.325                0.922375453      -95.146831
9.326                0.922183219      -95.320802
9.327                0.921990569     -95.4952417
9.328                0.921797507     -95.6701511
9.329                0.921604032     -95.8455315
9.33                 0.921410147      -96.021384
9.331                0.921215853     -96.1977097
9.332                0.921021152     -96.3745098
9.333                0.920826044     -96.5517854
9.334                0.920630532     -96.7295376
9.335                0.920434618     -96.9077676
9.336                0.920238301     -97.0864765
9.337                0.920041586     -97.2656655
9.338                0.919844472     -97.4453356
9.339                0.919646962     -97.6254879
9.34                 0.919449058     -97.8061237
9.341                0.919250761      -97.987244
9.342                0.919052073     -98.1688499
9.343                0.918852996     -98.3509426
9.344                0.918653533     -98.5335231
9.345                0.918453684     -98.7165925
9.346                0.918253452      -98.900152
9.347                 0.91805284     -99.0842026
9.348                0.917851848     -99.2687455
9.349                 0.91765048     -99.4537817
9.35                 0.917448737     -99.6393122
9.351                0.917246621     -99.8253383
9.352                0.917044136     -100.011861
9.353                0.916841282     -100.198881
9.354                0.916638063       -100.3864
9.355                0.916434481     -100.574419
9.356                0.916230538     -100.762938
9.357                0.916026237     -100.951959
9.358                 0.91582158     -101.141483
9.359                 0.91561657     -101.331512
9.36                 0.915411209     -101.522045
9.361                  0.9152055     -101.713084
9.362                0.914999446      -101.90463
9.363                0.914793049     -102.096684
9.364                0.914586312     -102.289247
9.365                0.914379239     -102.482321
9.366                0.914171831     -102.675905
9.367                0.913964092     -102.870001
9.368                0.913756024     -103.064611
9.369                0.913547632     -103.259735
9.37                 0.913338917     -103.455373
9.371                0.913129883     -103.651528
9.372                0.912920533     -103.848199
9.373                 0.91271087     -104.045389
9.374                0.912500898     -104.243097
9.375                 0.91229062     -104.441326
9.376                0.912080039     -104.640074
9.377                0.911869158     -104.839345
9.378                0.911657982     -105.039138
9.379                0.911446513     -105.239455
9.38                 0.911234755     -105.440296
9.381                0.911022711     -105.641663
9.382                0.910810386     -105.843556
9.383                0.910597783     -106.045976
9.384                0.910384906     -106.248924
9.385                0.910171759       -106.4524
9.386                0.909958345     -106.656407
9.387                0.909744669     -106.860944
9.388                0.909530734     -107.066013
9.389                0.909316544     -107.271613
9.39                 0.909102104     -107.477747
9.391                0.908887418     -107.684415
9.392                0.908672489     -107.891617
9.393                0.908457323     -108.099355
9.394                0.908241923     -108.307629
9.395                0.908026294     -108.516441
9.396                 0.90781044      -108.72579
