! TOUCHSTONE file generated by CST DESIGN STUDIO
! Date and time: Wed Feb  5 13:38:18 2025
! Project name: C:\Work\MatlabApps\UnitCellOptimizationMatlab\CST\unitcell.cst
! Tree item: Tasks\Sweep1\SPara1\S-Parameters
! Header version: 2024
! Port assignment regex: !\s*Touchstone port\s*([0-9]+)\s*=\s*(CST MWS port|CST DES external port|CST DES block port)\s*(.+)\s* \(\"(.*)\"\)(\s*mode\s*([0-9]+))?.*
! Touchstone port assignment:
! Touchstone port 1 = CST DES external port 1 ("")
# GHz S MA R 50
9                     0.96012627     -64.6317209
9.001                0.960035145     -64.7237902
9.002                0.959943734     -64.8160805
9.003                0.959852037     -64.9085924
9.004                0.959760051     -65.0013267
9.005                0.959667778      -65.094284
9.006                0.959575215     -65.1874652
9.007                0.959482362     -65.2808708
9.008                0.959389218     -65.3745016
9.009                0.959295781     -65.4683584
9.01                 0.959202052     -65.5624417
9.011                0.959108029     -65.6567525
9.012                0.959013711     -65.7512914
9.013                0.958919097      -65.846059
9.014                0.958824187     -65.9410562
9.015                0.958728979     -66.0362837
9.016                0.958633473     -66.1317423
9.017                0.958537667     -66.2274325
9.018                0.958441561     -66.3233553
9.019                0.958345154     -66.4195113
9.02                 0.958248445     -66.5159013
9.021                0.958151433      -66.612526
9.022                0.958054117     -66.7093862
9.023                0.957956495     -66.8064827
9.024                0.957858568     -66.9038161
9.025                0.957760335     -67.0013873
9.026                0.957661793     -67.0991969
9.027                0.957562943     -67.1972459
9.028                0.957463784     -67.2955349
9.029                0.957364314     -67.3940646
9.03                 0.957264532      -67.492836
9.031                0.957164439     -67.5918496
9.032                0.957064032     -67.6911064
9.033                 0.95696331     -67.7906071
9.034                0.956862274     -67.8903524
9.035                0.956760922     -67.9903432
9.036                0.956659252     -68.0905803
9.037                0.956557265     -68.1910643
9.038                0.956454958     -68.2917962
9.039                0.956352332     -68.3927767
9.04                 0.956249385     -68.4940066
9.041                0.956146117     -68.5954867
9.042                0.956042526     -68.6972178
9.043                0.955938611     -68.7992007
9.044                0.955834371     -68.9014362
9.045                0.955729807     -69.0039251
9.046                0.955624915     -69.1066682
9.047                0.955519697     -69.2096664
9.048                 0.95541415     -69.3129204
9.049                0.955308273     -69.4164311
9.05                 0.955202067     -69.5201992
9.051                 0.95509553     -69.6242257
9.052                 0.95498866     -69.7285114
9.053                0.954881457     -69.8330569
9.054                0.954773921     -69.9378633
9.055                0.954666049     -70.0429314
9.056                0.954557842     -70.1482618
9.057                0.954449298     -70.2538556
9.058                0.954340416     -70.3597136
9.059                0.954231195     -70.4658365
9.06                 0.954121635     -70.5722252
9.061                0.954011734     -70.6788807
9.062                0.953901492     -70.7858037
9.063                0.953790907      -70.892995
9.064                0.953679979     -71.0004556
9.065                0.953568707     -71.1081863
9.066                0.953457089      -71.216188
9.067                0.953345125     -71.3244615
9.068                0.953232814     -71.4330077
9.069                0.953120155     -71.5418275
9.07                 0.953007147     -71.6509217
9.071                0.952893788     -71.7602912
9.072                0.952780079     -71.8699369
9.073                0.952666018     -71.9798597
9.074                0.952551605     -72.0900604
9.075                0.952436837       -72.20054
9.076                0.952321715     -72.3112993
9.077                0.952206237     -72.4223392
9.078                0.952090403     -72.5336606
9.079                0.951974212     -72.6452644
9.08                 0.951857662     -72.7571515
9.081                0.951740752     -72.8693228
9.082                0.951623483     -72.9817792
9.083                0.951505852     -73.0945217
9.084                 0.95138786      -73.207551
9.085                0.951269504     -73.3208682
9.086                0.951150785     -73.4344741
9.087                  0.9510317     -73.5483697
9.088                0.950912251     -73.6625559
9.089                0.950792434     -73.7770335
9.09                  0.95067225     -73.8918036
9.091                0.950551697      -74.006867
9.092                0.950430775     -74.1222248
9.093                0.950309483     -74.2378777
9.094                 0.95018782     -74.3538268
9.095                0.950065784     -74.4700729
9.096                0.949943376     -74.5866171
9.097                0.949820594     -74.7034602
9.098                0.949697437     -74.8206033
9.099                0.949573904     -74.9380472
9.1                  0.949449995     -75.0557929
9.101                0.949325709     -75.1738413
9.102                0.949201044     -75.2921935
9.103                0.949076001     -75.4108503
9.104                0.948950577     -75.5298128
9.105                0.948824772     -75.6490819
9.106                0.948698586     -75.7686585
9.107                0.948572017     -75.8885436
9.108                0.948445064     -76.0087382
9.109                0.948317727     -76.1292433
9.11                 0.948190005     -76.2500599
9.111                0.948061897     -76.3711888
9.112                0.947933403     -76.4926312
9.113                 0.94780452     -76.6143879
9.114                0.947675249       -76.73646
9.115                0.947545588     -76.8588484
9.116                0.947415538     -76.9815542
9.117                0.947285096     -77.1045783
9.118                0.947154262     -77.2279217
9.119                0.947023036     -77.3515855
9.12                 0.946891416     -77.4755706
9.121                0.946759403      -77.599878
9.122                0.946626994     -77.7245088
9.123                0.946494189     -77.8494638
9.124                0.946360987     -77.9747443
9.125                0.946227388     -78.1003511
9.126                0.946093391     -78.2262852
9.127                0.945958995     -78.3525478
9.128                0.945824199     -78.4791397
9.129                0.945689003     -78.6060621
9.13                 0.945553405     -78.7333159
9.131                0.945417405     -78.8609022
9.132                0.945281003      -78.988822
9.133                0.945144197     -79.1170764
9.134                0.945006987     -79.2456663
9.135                0.944869372     -79.3745928
9.136                0.944731351     -79.5038569
9.137                0.944592923     -79.6334598
9.138                0.944454089     -79.7634023
9.139                0.944314847     -79.8936856
9.14                 0.944175197     -80.0243107
9.141                0.944035137     -80.1552787
9.142                0.943894667     -80.2865906
9.143                0.943753787     -80.4182474
9.144                0.943612496     -80.5502503
9.145                0.943470793     -80.6826002
9.146                0.943328678     -80.8152982
9.147                0.943186149     -80.9483455
9.148                0.943043207      -81.081743
9.149                 0.94289985     -81.2154918
9.15                 0.942756078      -81.349593
9.151                0.942611891     -81.4840476
9.152                0.942467288     -81.6188568
9.153                0.942322268     -81.7540216
9.154                 0.94217683      -81.889543
9.155                0.942030975     -82.0254222
9.156                0.941884701     -82.1616602
9.157                0.941738009     -82.2982582
9.158                0.941590896     -82.4352171
9.159                0.941443364     -82.5725381
9.16                 0.941295411     -82.7102223
9.161                0.941147037     -82.8482707
9.162                0.940998242     -82.9866845
9.163                0.940849024     -83.1254647
9.164                0.940699384     -83.2646124
9.165                0.940549321     -83.4041287
9.166                0.940398834     -83.5440148
9.167                0.940247923     -83.6842717
9.168                0.940096589     -83.8249005
9.169                0.939944829     -83.9659023
9.17                 0.939792644     -84.1072783
9.171                0.939640034     -84.2490295
9.172                0.939486997      -84.391157
9.173                0.939333535      -84.533662
9.174                0.939179645     -84.6765455
9.175                0.939025329     -84.8198087
9.176                0.938870585     -84.9634527
9.177                0.938715414     -85.1074785
9.178                0.938559815     -85.2518874
9.179                0.938403787     -85.3966804
9.18                 0.938247331     -85.5418587
9.181                0.938090446     -85.6874233
9.182                0.937933132     -85.8333754
9.183                0.937775388     -85.9797161
9.184                0.937617215     -86.1264466
9.185                0.937458613     -86.2735679
9.186                 0.93729958     -86.4210811
9.187                0.937140117     -86.5689875
9.188                0.936980224     -86.7172882
9.189                0.936819901     -86.8659842
9.19                 0.936659147     -87.0150767
9.191                0.936497962     -87.1645668
9.192                0.936336346     -87.3144557
9.193                  0.9361743     -87.4647444
9.194                0.936011823     -87.6154342
9.195                0.935848914     -87.7665262
9.196                0.935685575     -87.9180215
9.197                0.935521805     -88.0699211
9.198                0.935357603     -88.2222264
9.199                0.935192971     -88.3749384
9.2                  0.935027908     -88.5280582
9.201                0.934862413     -88.6815869
9.202                0.934696488     -88.8355258
9.203                0.934530132      -88.989876
9.204                0.934363346     -89.1446386
9.205                0.934196129     -89.2998147
9.206                0.934028482     -89.4554054
9.207                0.933860404      -89.611412
9.208                0.933691897     -89.7678356
9.209                0.933522959     -89.9246773
9.21                 0.933353592     -90.0819382
9.211                0.933183796     -90.2396195
9.212                0.933013571     -90.3977223
9.213                0.932842917     -90.5562479
9.214                0.932671835     -90.7151972
9.215                0.932500324     -90.8745715
9.216                0.932328386     -91.0343718
9.217                 0.93215602     -91.1945994
9.218                0.931983228     -91.3552554
9.219                0.931810009      -91.516341
9.22                 0.931636364     -91.6778571
9.221                0.931462293     -91.8398051
9.222                0.931287797      -92.002186
9.223                0.931112877      -92.165001
9.224                0.930937532     -92.3282512
9.225                0.930761765     -92.4919378
9.226                0.930585574     -92.6560619
9.227                0.930408961     -92.8206246
9.228                0.930231926     -92.9856271
9.229                 0.93005447     -93.1510704
9.23                 0.929876595     -93.3169559
9.231                0.929698299     -93.4832844
9.232                0.929519585     -93.6500573
9.233                0.929340453     -93.8172756
9.234                0.929160903     -93.9849405
9.235                0.928980937      -94.153053
9.236                0.928800556     -94.3216144
9.237                 0.92861976     -94.4906257
9.238                 0.92843855     -94.6600881
9.239                0.928256928     -94.8300027
9.24                 0.928074893     -95.0003706
9.241                0.927892448     -95.1711929
9.242                0.927709593     -95.3424708
9.243                0.927526329     -95.5142053
9.244                0.927342658     -95.6863976
9.245                 0.92715858     -95.8590488
9.246                0.926974096       -96.03216
9.247                0.926789208     -96.2057323
9.248                0.926603918     -96.3797668
9.249                0.926418225     -96.5542646
9.25                 0.926232132     -96.7292268
9.251                 0.92604564     -96.9046546
9.252                 0.92585875      -97.080549
9.253                0.925671464      -97.256911
9.254                0.925483782     -97.4337419
9.255                0.925295707     -97.6110427
9.256                0.925107239     -97.7888144
9.257                0.924918381     -97.9670581
9.258                0.924729134      -98.145775
9.259                0.924539499     -98.3249662
9.26                 0.924349478     -98.5046325
9.261                0.924159073     -98.6847753
9.262                0.923968285     -98.8653954
9.263                0.923777116     -99.0464941
9.264                0.923585568     -99.2280723
9.265                0.923393643      -99.410131
9.266                0.923201342     -99.5926714
9.267                0.923008668     -99.7756945
9.268                0.922815621     -99.9592014
9.269                0.922622205     -100.143193
9.27                 0.922428421      -100.32767
9.271                0.922234271     -100.512635
9.272                0.922039757     -100.698087
9.273                0.921844882     -100.884028
9.274                0.921649647     -101.070459
9.275                0.921454054     -101.257381
9.276                0.921258106     -101.444795
9.277                0.921061806     -101.632701
9.278                0.920865154     -101.821102
9.279                0.920668155     -102.009998
9.28                 0.920470809     -102.199389
9.281                 0.92027312     -102.389278
9.282                 0.92007509     -102.579664
9.283                0.919876721      -102.77055
9.284                0.919678016     -102.961935
9.285                0.919478978     -103.153821
9.286                0.919279609     -103.346208
9.287                0.919079912     -103.539099
9.288                0.918879889     -103.732493
9.289                0.918679544     -103.926391
9.29                 0.918478879     -104.120795
9.291                0.918277897     -104.315706
9.292                0.918076601     -104.511124
9.293                0.917874994      -104.70705
9.294                0.917673079     -104.903485
9.295                0.917470858     -105.100431
9.296                0.917268336     -105.297887
9.297                0.917065515     -105.495855
9.298                0.916862398     -105.694336
9.299                0.916658989     -105.893331
9.3                   0.91645529      -106.09284
9.301                0.916251306     -106.292864
9.302                0.916047039     -106.493404
9.303                0.915842493     -106.694462
9.304                0.915637672     -106.896037
9.305                0.915432578     -107.098131
9.306                0.915227216     -107.300745
9.307                 0.91502159     -107.503878
9.308                0.914815702     -107.707533
9.309                0.914609556      -107.91171
9.31                 0.914403157     -108.116409
9.311                0.914196508     -108.321632
9.312                0.913989613     -108.527379
9.313                0.913782476     -108.733651
9.314                0.913575101     -108.940448
9.315                0.913367492     -109.147772
9.316                0.913159653     -109.355623
9.317                0.912951589     -109.564002
9.318                0.912743302      -109.77291
9.319                0.912534798     -109.982346
9.32                 0.912326082     -110.192313
9.321                0.912117156      -110.40281
9.322                0.911908026     -110.613839
9.323                0.911698697     -110.825399
9.324                0.911489172     -111.037492
9.325                0.911279456     -111.250118
9.326                0.911069554     -111.463278
9.327                0.910859471     -111.676973
9.328                0.910649211     -111.891202
9.329                0.910438779     -112.105967
9.33                  0.91022818     -112.321268
9.331                0.910017419     -112.537106
9.332                0.909806501     -112.753481
9.333                0.909595431     -112.970394
9.334                0.909384214     -113.187846
9.335                0.909172855     -113.405836
9.336                0.908961359     -113.624366
9.337                0.908749731     -113.843435
9.338                0.908537978     -114.063045
9.339                0.908326103     -114.283195
9.34                 0.908114114     -114.503887
9.341                0.907902014     -114.725121
9.342                 0.90768981     -114.946896
9.343                0.907477508     -115.169214
9.344                0.907265112     -115.392075
9.345                0.907052629     -115.615479
9.346                0.906840064     -115.839427
9.347                0.906627424     -116.063919
9.348                0.906414714     -116.288955
9.349                0.906201939     -116.514535
9.35                 0.905989107     -116.740661
9.351                0.905776224     -116.967332
9.352                0.905563294     -117.194548
9.353                0.905350325      -117.42231
9.354                0.905137323     -117.650618
9.355                0.904924294     -117.879472
9.356                0.904711244     -118.108873
9.357                 0.90449818      -118.33882
9.358                0.904285109     -118.569314
9.359                0.904072036     -118.800356
9.36                  0.90385897     -119.031944
9.361                0.903645915     -119.264079
9.362                0.903432879     -119.496762
9.363                0.903219869     -119.729992
9.364                0.903006891      -119.96377
9.365                0.902793953     -120.198095
9.366                0.902581062     -120.432968
9.367                0.902368224     -120.668388
9.368                0.902155446     -120.904357
9.369                0.901942737     -121.140872
9.37                 0.901730102     -121.377936
9.371                0.901517549     -121.615547
9.372                0.901305086     -121.853705
9.373                 0.90109272     -122.092411
9.374                0.900880458     -122.331664
9.375                0.900668308     -122.571464
9.376                0.900456277     -122.811811
9.377                0.900244374     -123.052705
9.378                0.900032605     -123.294146
9.379                0.899820978     -123.536133
9.38                 0.899609502     -123.778666
9.381                0.899398184     -124.021746
9.382                0.899187032     -124.265371
9.383                0.898976053     -124.509541
9.384                0.898765257     -124.754257
9.385                0.898554651     -124.999517
9.386                0.898344243     -125.245322
9.387                0.898134041     -125.491671
9.388                0.897924054     -125.738563
9.389                 0.89771429     -125.985999
9.39                 0.897504757     -126.233977
9.391                0.897295464     -126.482498
9.392                0.897086419     -126.731561
9.393                 0.89687763     -126.981165
9.394                0.896669107      -127.23131
9.395                0.896460858     -127.481995
9.396                0.896252891      -127.73322
