! TOUCHSTONE file generated by CST DESIGN STUDIO
! Date and time: Wed Feb  5 13:38:11 2025
! Project name: C:\Work\MatlabApps\UnitCellOptimizationMatlab\CST\unitcell.cst
! Tree item: Tasks\Sweep1\SPara1\S-Parameters
! Header version: 2024
! Port assignment regex: !\s*Touchstone port\s*([0-9]+)\s*=\s*(CST MWS port|CST DES external port|CST DES block port)\s*(.+)\s* \(\"(.*)\"\)(\s*mode\s*([0-9]+))?.*
! Touchstone port assignment:
! Touchstone port 1 = CST DES external port 1 ("")
# GHz S MA R 50
9                    0.953645538     -79.8236676
9.001                0.953522505     -79.9526089
9.002                0.953399096     -80.0818867
9.003                0.953275309     -80.2115019
9.004                0.953151143     -80.3414555
9.005                0.953026599     -80.4717487
9.006                0.952901675     -80.6023824
9.007                0.952776371     -80.7333577
9.008                0.952650685     -80.8646756
9.009                0.952524618     -80.9963372
9.01                 0.952398168     -81.1283434
9.011                0.952271334     -81.2606954
9.012                0.952144117     -81.3933941
9.013                0.952016515     -81.5264407
9.014                0.951888528     -81.6598361
9.015                0.951760155     -81.7935814
9.016                0.951631396     -81.9276778
9.017                0.951502249     -82.0621261
9.018                0.951372714     -82.1969276
9.019                0.951242791     -82.3320832
9.02                 0.951112478      -82.467594
9.021                0.950981776     -82.6034611
9.022                0.950850683     -82.7396855
9.023                0.950719199     -82.8762683
9.024                0.950587324     -83.0132105
9.025                0.950455056     -83.1505134
9.026                0.950322395     -83.2881778
9.027                0.950189341     -83.4262049
9.028                0.950055894     -83.5645957
9.029                0.949922051     -83.7033514
9.03                 0.949787814      -83.842473
9.031                0.949653181     -83.9819616
9.032                0.949518152     -84.1218183
9.033                0.949382726     -84.2620441
9.034                0.949246903     -84.4026401
9.035                0.949110682     -84.5436075
9.036                0.948974063     -84.6849473
9.037                0.948837046     -84.8266606
9.038                0.948699629     -84.9687485
9.039                0.948561813     -85.1112121
9.04                 0.948423597     -85.2540524
9.041                 0.94828498     -85.3972706
9.042                0.948145962     -85.5408678
9.043                0.948006544     -85.6848451
9.044                0.947866723     -85.8292035
9.045                  0.9477265     -85.9739442
9.046                0.947585875     -86.1190682
9.047                0.947444847     -86.2645767
9.048                0.947303416     -86.4104708
9.049                0.947161581     -86.5567516
9.05                 0.947019342     -86.7034201
9.051                0.946876699     -86.8504776
9.052                0.946733652      -86.997925
9.053                0.946590199     -87.1457635
9.054                0.946446342     -87.2939943
9.055                0.946302079     -87.4426183
9.056                 0.94615741     -87.5916368
9.057                0.946012336     -87.7410509
9.058                0.945866855     -87.8908616
9.059                0.945720968     -88.0410701
9.06                 0.945574675     -88.1916775
9.061                0.945427975     -88.3426849
9.062                0.945280868     -88.4940934
9.063                0.945133354     -88.6459041
9.064                0.944985432     -88.7981182
9.065                0.944837103     -88.9507368
9.066                0.944688367      -89.103761
9.067                0.944539224     -89.2571918
9.068                0.944389672     -89.4110305
9.069                0.944239713     -89.5652782
9.07                 0.944089347     -89.7199359
9.071                0.943938572     -89.8750048
9.072                 0.94378739      -90.030486
9.073                  0.9436358     -90.1863807
9.074                0.943483802     -90.3426899
9.075                0.943331396     -90.4994148
9.076                0.943178583     -90.6565564
9.077                0.943025362      -90.814116
9.078                0.942871734     -90.9720946
9.079                0.942717698     -91.1304934
9.08                 0.942563255     -91.2893134
9.081                0.942408405     -91.4485559
9.082                0.942253148     -91.6082218
9.083                0.942097484     -91.7683124
9.084                0.941941414     -91.9288287
9.085                0.941784937      -92.089772
9.086                0.941628054     -92.2511432
9.087                0.941470766     -92.4129435
9.088                0.941313071      -92.575174
9.089                0.941154972     -92.7378359
9.09                 0.940996467     -92.9009303
9.091                0.940837558     -93.0644582
9.092                0.940678245     -93.2284208
9.093                0.940518528     -93.3928192
9.094                0.940358408     -93.5576546
9.095                0.940197884      -93.722928
9.096                0.940036958     -93.8886405
9.097                 0.93987563     -94.0547932
9.098                0.939713901     -94.2213874
9.099                 0.93955177     -94.3884239
9.1                  0.939389239     -94.5559041
9.101                0.939226308     -94.7238289
9.102                0.939062978     -94.8921995
9.103                 0.93889925      -95.061017
9.104                0.938735123     -95.2302825
9.105                0.938570599     -95.3999971
9.106                0.938405678     -95.5701618
9.107                0.938240361     -95.7407778
9.108                0.938074649     -95.9118461
9.109                0.937908543      -96.083368
9.11                 0.937742043     -96.2553443
9.111                0.937575151     -96.4277763
9.112                0.937407866      -96.600665
9.113                 0.93724019     -96.7740115
9.114                0.937072125     -96.9478169
9.115                 0.93690367     -97.1220823
9.116                0.936734827     -97.2968086
9.117                0.936565597     -97.4719971
9.118                 0.93639598     -97.6476488
9.119                0.936225978     -97.8237647
9.12                 0.936055593     -98.0003459
9.121                0.935884824     -98.1773934
9.122                0.935713673     -98.3549084
9.123                0.935542142     -98.5328919
9.124                0.935370231      -98.711345
9.125                0.935197942     -98.8902686
9.126                0.935025277     -99.0696638
9.127                0.934852235     -99.2495318
9.128                0.934678819     -99.4298734
9.129                 0.93450503     -99.6106898
9.13                  0.93433087      -99.791982
9.131                0.934156339      -99.973751
9.132                0.933981439     -100.155998
9.133                0.933806173     -100.338724
9.134                 0.93363054     -100.521929
9.135                0.933454544     -100.705616
9.136                0.933278185     -100.889784
9.137                0.933101464     -101.074435
9.138                0.932924385      -101.25957
9.139                0.932746948      -101.44519
9.14                 0.932569155     -101.631296
9.141                0.932391008     -101.817889
9.142                0.932212508      -102.00497
9.143                0.932033658      -102.19254
9.144                 0.93185446     -102.380599
9.145                0.931674914     -102.569149
9.146                0.931495024     -102.758191
9.147                0.931314791     -102.947725
9.148                0.931134217     -103.137753
9.149                0.930953305     -103.328276
9.15                 0.930772056     -103.519294
9.151                0.930590472     -103.710809
9.152                0.930408556     -103.902821
9.153                 0.93022631     -104.095332
9.154                0.930043736     -104.288341
9.155                0.929860837     -104.481851
9.156                0.929677614     -104.675862
9.157                0.929494071     -104.870375
9.158                0.929310209      -105.06539
9.159                0.929126031     -105.260909
9.16                 0.928941539     -105.456933
9.161                0.928756737     -105.653463
9.162                0.928571626     -105.850498
9.163                0.928386209     -106.048041
9.164                0.928200489     -106.246092
9.165                0.928014469     -106.444651
9.166                0.927828151     -106.643721
9.167                0.927641538       -106.8433
9.168                0.927454633     -107.043392
9.169                0.927267439     -107.243995
9.17                 0.927079959     -107.445111
9.171                0.926892196     -107.646741
9.172                0.926704152     -107.848885
9.173                0.926515831     -108.051545
9.174                0.926327236     -108.254721
9.175                0.926138371     -108.458414
9.176                0.925949237     -108.662624
9.177                0.925759839     -108.867353
9.178                 0.92557018       -109.0726
9.179                0.925380263     -109.278368
9.18                 0.925190091     -109.484655
9.181                0.924999668     -109.691465
9.182                0.924808998     -109.898796
9.183                0.924618084     -110.106649
9.184                0.924426929     -110.315026
9.185                0.924235537     -110.523927
9.186                0.924043912     -110.733352
9.187                0.923852058     -110.943302
9.188                0.923659978     -111.153779
9.189                0.923467676     -111.364781
9.19                 0.923275156     -111.576311
9.191                0.923082422     -111.788369
9.192                0.922889478     -112.000955
9.193                0.922696328     -112.214069
9.194                0.922502976     -112.427713
9.195                0.922309425     -112.641887
9.196                0.922115682     -112.856592
9.197                0.921921748     -113.071828
9.198                0.921727629     -113.287595
9.199                 0.92153333     -113.503894
9.2                  0.921338854     -113.720726
9.201                0.921144205     -113.938091
9.202                0.920949389     -114.155989
9.203                 0.92075441     -114.374422
9.204                0.920559273     -114.593389
9.205                0.920363981     -114.812891
9.206                0.920168541     -115.032928
9.207                0.919972956     -115.253501
9.208                0.919777231     -115.474609
9.209                0.919581371     -115.696255
9.21                 0.919385382     -115.918437
9.211                0.919189268     -116.141156
9.212                0.918993033     -116.364413
9.213                0.918796684     -116.588208
9.214                0.918600225     -116.812541
9.215                0.918403662     -117.037412
9.216                0.918206999     -117.262822
9.217                0.918010242     -117.488771
9.218                0.917813397     -117.715259
9.219                0.917616468     -117.942287
9.22                 0.917419461     -118.169854
9.221                0.917222382     -118.397961
9.222                0.917025236     -118.626609
9.223                0.916828029     -118.855796
9.224                0.916630766     -119.085524
9.225                0.916433454     -119.315793
9.226                0.916236097     -119.546602
9.227                0.916038702     -119.777952
9.228                0.915841275     -120.009842
9.229                0.915643822     -120.242274
9.23                 0.915446348     -120.475246
9.231                 0.91524886      -120.70876
9.232                0.915051363     -120.942814
9.233                0.914853865      -121.17741
9.234                 0.91465637     -121.412546
9.235                0.914458886     -121.648224
9.236                0.914261419     -121.884442
9.237                0.914063975     -122.121201
9.238                 0.91386656     -122.358501
9.239                0.913669182     -122.596342
9.24                 0.913471846     -122.834723
9.241                0.913274559     -123.073644
9.242                0.913077329     -123.313106
9.243                 0.91288016     -123.553108
9.244                0.912683061     -123.793649
9.245                0.912486039      -124.03473
9.246                0.912289099      -124.27635
9.247                0.912092249      -124.51851
9.248                0.911895496     -124.761208
9.249                0.911698847     -125.004444
9.25                 0.911502309     -125.248219
9.251                0.911305889     -125.492532
9.252                0.911109594     -125.737382
9.253                0.910913432     -125.982769
9.254                 0.91071741     -126.228692
9.255                0.910521535     -126.475152
9.256                0.910325815     -126.722147
9.257                0.910130257     -126.969678
9.258                0.909934868     -127.217744
9.259                0.909739657     -127.466344
9.26                  0.90954463     -127.715477
9.261                0.909349796     -127.965144
9.262                0.909155162     -128.215343
9.263                0.908960735     -128.466074
9.264                0.908766524     -128.717337
9.265                0.908572537      -128.96913
9.266                0.908378781     -129.221453
9.267                0.908185264     -129.474305
9.268                0.907991995     -129.727686
9.269                0.907798981     -129.981595
9.27                 0.907606231     -130.236031
9.271                0.907413752     -130.490993
9.272                0.907221553      -130.74648
9.273                0.907029642     -131.002493
9.274                0.906838027     -131.259028
9.275                0.906646717     -131.516087
9.276                0.906455719     -131.773668
9.277                0.906265043     -132.031769
9.278                0.906074697     -132.290391
9.279                0.905884689     -132.549531
9.28                 0.905695028      -132.80919
9.281                0.905505722     -133.069365
9.282                 0.90531678     -133.330057
9.283                0.905128211     -133.591263
9.284                0.904940023     -133.852983
9.285                0.904752226     -134.115215
9.286                0.904564827     -134.377959
9.287                0.904377835     -134.641213
9.288                 0.90419126     -134.904976
9.289                0.904005111     -135.169247
9.29                 0.903819395     -135.434024
9.291                0.903634123     -135.699306
9.292                0.903449303     -135.965092
9.293                0.903264945     -136.231381
9.294                0.903081056      -136.49817
9.295                0.902897647     -136.765459
9.296                0.902714726     -137.033247
9.297                0.902532302     -137.301531
9.298                0.902350386      -137.57031
9.299                0.902168985     -137.839584
9.3                  0.901988109     -138.109349
9.301                0.901807768     -138.379605
9.302                 0.90162797      -138.65035
9.303                0.901448726     -138.921583
9.304                0.901270043     -139.193301
9.305                0.901091932     -139.465504
9.306                0.900914402     -139.738188
9.307                0.900737463     -140.011354
9.308                0.900561123     -140.284998
9.309                0.900385392     -140.559119
9.31                  0.90021028     -140.833716
9.311                0.900035796     -141.108786
9.312                 0.89986195     -141.384328
9.313                 0.89968875     -141.660339
9.314                0.899516207     -141.936818
9.315                0.899344331     -142.213762
9.316                0.899173129     -142.491171
9.317                0.899002613     -142.769041
9.318                0.898832792     -143.047371
9.319                0.898663675     -143.326158
9.32                 0.898495271     -143.605401
9.321                0.898327591     -143.885097
9.322                0.898160644     -144.165244
9.323                0.897994439      -144.44584
9.324                0.897828987     -144.726883
9.325                0.897664296     -145.008371
9.326                0.897500376     -145.290301
9.327                0.897337238     -145.572671
9.328                0.897174889     -145.855478
9.329                0.897013341     -146.138721
9.33                 0.896852602     -146.422396
9.331                0.896692683     -146.706502
9.332                0.896533592     -146.991036
9.333                0.896375339     -147.275995
9.334                0.896217934     -147.561377
9.335                0.896061387      -147.84718
9.336                0.895905706     -148.133401
9.337                0.895750902     -148.420037
9.338                0.895596983     -148.707085
9.339                 0.89544396     -148.994544
9.34                 0.895291842      -149.28241
9.341                0.895140638      -149.57068
9.342                0.894990357     -149.859353
9.343                 0.89484101     -150.148424
9.344                0.894692605     -150.437892
9.345                0.894545151     -150.727754
9.346                0.894398659     -151.018006
9.347                0.894253137     -151.308646
9.348                0.894108595     -151.599671
9.349                0.893965042     -151.891078
9.35                 0.893822486     -152.182863
9.351                0.893680938     -152.475025
9.352                0.893540407      -152.76756
9.353                0.893400901     -153.060465
9.354                 0.89326243     -153.353736
9.355                0.893125002     -153.647372
9.356                0.892988627     -153.941368
9.357                0.892853313     -154.235721
9.358                 0.89271907     -154.530429
9.359                0.892585907     -154.825488
9.36                 0.892453831     -155.120895
9.361                0.892322853     -155.416647
9.362                 0.89219298      -155.71274
9.363                0.892064222     -156.009171
9.364                0.891936587     -156.305937
9.365                0.891810083     -156.603034
9.366                0.891684719     -156.900459
9.367                0.891560504     -157.198209
9.368                0.891437447      -157.49628
9.369                0.891315554     -157.794668
9.37                 0.891194835     -158.093371
9.371                0.891075298     -158.392384
9.372                0.890956951     -158.691705
9.373                0.890839803     -158.991329
9.374                 0.89072386     -159.291253
9.375                0.890609132     -159.591473
9.376                0.890495626     -159.891986
9.377                 0.89038335     -160.192789
9.378                0.890272312     -160.493876
9.379                0.890162519     -160.795246
9.38                 0.890053979     -161.096893
9.381                  0.8899467     -161.398815
9.382                0.889840689     -161.701007
9.383                0.889735954     -162.003466
9.384                0.889632502     -162.306187
9.385                 0.88953034     -162.609168
9.386                0.889429475     -162.912404
9.387                0.889329914     -163.215891
9.388                0.889231665     -163.519625
9.389                0.889134734     -163.823604
9.39                 0.889039129     -164.127821
9.391                0.888944855     -164.432274
9.392                 0.88885192     -164.736959
9.393                 0.88876033     -165.041871
9.394                0.888670092     -165.347007
9.395                0.888581212     -165.652363
9.396                0.888493696     -165.957934
