! TOUCHSTONE file generated by CST DESIGN STUDIO
! Date and time: Tue Feb  4 13:53:31 2025
! Project name: C:\Work\MatlabApps\UnitCellOptimizationMatlab\CST\unitcell.cst
! Tree item: Tasks\Sweep1\SPara1\S-Parameters
! Header version: 2024
! Port assignment regex: !\s*Touchstone port\s*([0-9]+)\s*=\s*(CST MWS port|CST DES external port|CST DES block port)\s*(.+)\s* \(\"(.*)\"\)(\s*mode\s*([0-9]+))?.*
! Touchstone port assignment:
! Touchstone port 1 = CST DES external port 1 ("")
# GHz S MA R 50
9                    0.920989442     -101.585785
9.001                0.920630587     -101.808786
9.002                0.920269807     -102.032469
9.003                0.919907102     -102.256834
9.004                0.919542471     -102.481884
9.005                0.919175914     -102.707618
9.006                0.918807433      -102.93404
9.007                0.918437027     -103.161149
9.008                0.918064697     -103.388949
9.009                0.917690444     -103.617439
9.01                 0.917314269     -103.846622
9.011                0.916936173       -104.0765
9.012                0.916556158     -104.307072
9.013                0.916174223     -104.538341
9.014                0.915790372     -104.770309
9.015                0.915404606     -105.002976
9.016                0.915016926     -105.236343
9.017                0.914627335     -105.470413
9.018                0.914235835     -105.705187
9.019                0.913842429     -105.940665
9.02                 0.913447118     -106.176849
9.021                0.913049906     -106.413741
9.022                0.912650795     -106.651341
9.023                 0.91224979     -106.889651
9.024                0.911846891     -107.128672
9.025                0.911442105     -107.368406
9.026                0.911035433     -107.608853
9.027                 0.91062688     -107.850015
9.028                0.910216449     -108.091893
9.029                0.909804145     -108.334488
9.03                 0.909389973     -108.577802
9.031                0.908973936     -108.821834
9.032                 0.90855604     -109.066587
9.033                 0.90813629     -109.312062
9.034                 0.90771469      -109.55826
9.035                0.907291246     -109.805181
9.036                0.906865963     -110.052827
9.037                0.906438848     -110.301199
9.038                0.906009907     -110.550298
9.039                0.905579144     -110.800124
9.04                 0.905146568     -111.050679
9.041                0.904712184     -111.301965
9.042                0.904275999      -111.55398
9.043                0.903838021     -111.806728
9.044                0.903398256     -112.060208
9.045                0.902956712     -112.314421
9.046                0.902513396     -112.569369
9.047                0.902068318     -112.825051
9.048                0.901621484      -113.08147
9.049                0.901172902     -113.338625
9.05                 0.900722583     -113.596518
9.051                0.900270534     -113.855149
9.052                0.899816765     -114.114518
9.053                0.899361284     -114.374628
9.054                0.898904101     -114.635478
9.055                0.898445227     -114.897068
9.056                0.897984671     -115.159401
9.057                0.897522442     -115.422475
9.058                0.897058553     -115.686292
9.059                0.896593013     -115.950853
9.06                 0.896125834     -116.216158
9.061                0.895657026     -116.482207
9.062                0.895186601     -116.749001
9.063                0.894714571      -117.01654
9.064                0.894240948     -117.284825
9.065                0.893765744     -117.553856
9.066                0.893288971     -117.823634
9.067                0.892810642     -118.094159
9.068                 0.89233077     -118.365431
9.069                0.891849369      -118.63745
9.07                 0.891366452     -118.910217
9.071                0.890882032     -119.183733
9.072                0.890396124     -119.457996
9.073                0.889908741     -119.733008
9.074                0.889419899     -120.008769
9.075                0.888929613     -120.285278
9.076                0.888437896     -120.562536
9.077                0.887944766     -120.840543
9.078                0.887450236     -121.119299
9.079                0.886954324     -121.398804
9.08                 0.886457044     -121.679057
9.081                0.885958415      -121.96006
9.082                0.885458452     -122.241811
9.083                0.884957172      -122.52431
9.084                0.884454593     -122.807558
9.085                0.883950731     -123.091554
9.086                0.883445606     -123.376298
9.087                0.882939234      -123.66179
9.088                0.882431635     -123.948029
9.089                0.881922826     -124.235015
9.09                 0.881412827     -124.522748
9.091                0.880901657     -124.811227
9.092                0.880389336     -125.100451
9.093                0.879875882     -125.390421
9.094                0.879361316     -125.681136
9.095                0.878845658     -125.972595
9.096                0.878328929     -126.264798
9.097                 0.87781115     -126.557744
9.098                0.877292341     -126.851432
9.099                0.876772524     -127.145862
9.1                  0.876251721     -127.441032
9.101                0.875729953     -127.736943
9.102                0.875207243     -128.033593
9.103                0.874683614     -128.330981
9.104                0.874159087     -128.629107
9.105                0.873633687      -128.92797
9.106                0.873107435     -129.227568
9.107                0.872580357       -129.5279
9.108                0.872052475     -129.828966
9.109                0.871523814     -130.130764
9.11                 0.870994398     -130.433294
9.111                0.870464252     -130.736553
9.112                0.869933401     -131.040541
9.113                0.869401869     -131.345257
9.114                0.868869683     -131.650698
9.115                0.868336869     -131.956865
9.116                0.867803451     -132.263754
9.117                0.867269456     -132.571366
9.118                0.866734912     -132.879698
9.119                0.866199844     -133.188748
9.12                 0.865664279     -133.498516
9.121                0.865128246     -133.808999
9.122                0.864591771     -134.120196
9.123                0.864054882     -134.432105
9.124                0.863517607     -134.744725
9.125                0.862979975     -135.058053
9.126                0.862442014     -135.372087
9.127                0.861903753     -135.686827
9.128                0.861365221     -136.002268
9.129                0.860826447     -136.318411
9.13                  0.86028746     -136.635252
9.131                0.859748291     -136.952789
9.132                0.859208969     -137.271021
9.133                0.858669525     -137.589945
9.134                0.858129988     -137.909558
9.135                 0.85759039     -138.229859
9.136                0.857050762     -138.550845
9.137                0.856511134     -138.872514
9.138                0.855971538     -139.194863
9.139                0.855432005     -139.517889
9.14                 0.854892567     -139.841591
9.141                0.854353255     -140.165965
9.142                0.853814103     -140.491008
9.143                0.853275143     -140.816719
9.144                0.852736406     -141.143094
9.145                0.852197925      -141.47013
9.146                0.851659735     -141.797825
9.147                0.851121866     -142.126175
9.148                0.850584354     -142.455177
9.149                 0.85004723      -142.78483
9.15                 0.849510529     -143.115128
9.151                0.848974285      -143.44607
9.152                0.848438531     -143.777652
9.153                0.847903302     -144.109871
9.154                0.847368632     -144.442723
9.155                0.846834555     -144.776205
9.156                0.846301105     -145.110314
9.157                0.845768318     -145.445045
9.158                0.845236227     -145.780397
9.159                0.844704869     -146.116365
9.16                 0.844174278     -146.452944
9.161                0.843644489     -146.790133
9.162                0.843115538     -147.127927
9.163                 0.84258746     -147.466321
9.164                 0.84206029     -147.805313
9.165                0.841534065     -148.144899
9.166                0.841008819     -148.485073
9.167                0.840484588     -148.825833
9.168                0.839961409     -149.167174
9.169                0.839439318     -149.509093
9.17                 0.838918349     -149.851584
9.171                0.838398541     -150.194644
9.172                0.837879927     -150.538269
9.173                0.837362546     -150.882453
9.174                0.836846433     -151.227193
9.175                0.836331624     -151.572485
9.176                0.835818155     -151.918323
9.177                0.835306064     -152.264703
9.178                0.834795386      -152.61162
9.179                0.834286158     -152.959071
9.18                 0.833778416     -153.307049
9.181                0.833272196     -153.655551
9.182                0.832767536     -154.004571
9.183                0.832264471     -154.354104
9.184                0.831763037     -154.704146
9.185                0.831263272     -155.054692
9.186                0.830765212     -155.405736
9.187                0.830268892     -155.757274
9.188                 0.82977435       -156.1093
9.189                0.829281621     -156.461808
9.19                 0.828790741     -156.814795
9.191                0.828301747     -157.168254
9.192                0.827814675      -157.52218
9.193                0.827329561     -157.876568
9.194                 0.82684644     -158.231412
9.195                0.826365348     -158.586707
9.196                0.825886322     -158.942447
9.197                0.825409396     -159.298626
9.198                0.824934607     -159.655239
9.199                 0.82446199      -160.01228
9.2                  0.823991579     -160.369744
9.201                0.823523411     -160.727624
9.202                 0.82305752     -161.085915
9.203                0.822593941      -161.44461
9.204                0.822132709     -161.803705
9.205                0.821673858     -162.163192
9.206                0.821217423     -162.523065
9.207                0.820763438      -162.88332
9.208                0.820311938     -163.243949
9.209                0.819862955     -163.604946
9.21                 0.819416525     -163.966305
9.211                0.818972679      -164.32802
9.212                0.818531453     -164.690084
9.213                0.818092878     -165.052492
9.214                0.817656988     -165.415236
9.215                0.817223815      -165.77831
9.216                0.816793393     -166.141708
9.217                0.816365752     -166.505424
9.218                0.815940926      -166.86945
9.219                0.815518945      -167.23378
9.22                 0.815099841     -167.598407
9.221                0.814683647     -167.963326
9.222                0.814270391     -168.328528
9.223                0.813860106     -168.694007
9.224                0.813452822     -169.059757
9.225                0.813048568      -169.42577
9.226                0.812647375     -169.792041
9.227                0.812249272     -170.158561
9.228                0.811854288     -170.525324
9.229                0.811462453     -170.892323
9.23                 0.811073795      -171.25955
9.231                0.810688341        -171.627
9.232                0.810306122     -171.994665
9.233                0.809927162     -172.362537
9.234                0.809551492      -172.73061
9.235                0.809179136     -173.098877
9.236                0.808810122      -173.46733
9.237                0.808444476     -173.835962
9.238                0.808082224     -174.204766
9.239                0.807723391     -174.573734
9.24                 0.807368003      -174.94286
9.241                0.807016085     -175.312137
9.242                 0.80666766     -175.681556
9.243                0.806322754      -176.05111
9.244                0.805981388     -176.420793
9.245                0.805643588     -176.790596
9.246                0.805309376     -177.160512
9.247                0.804978774     -177.530535
9.248                0.804651804     -177.900656
9.249                0.804328488     -178.270868
9.25                 0.804008847     -178.641164
9.251                0.803692902     -179.011536
9.252                0.803380674     -179.381976
9.253                0.803072182     -179.752478
9.254                0.802767446      179.876967
9.255                0.802466485      179.506366
9.256                0.802169318      179.135726
9.257                0.801875964      178.765055
9.258                0.801586439      178.394361
9.259                0.801300761       178.02365
9.26                 0.801018947      177.652932
9.261                0.800741014      177.282212
9.262                0.800466978      176.911499
9.263                0.800196854      176.540801
9.264                0.799930658      176.170124
9.265                0.799668404      175.799477
9.266                0.799410105      175.428866
9.267                0.799155777      175.058301
9.268                0.798905433      174.687787
9.269                0.798659084      174.317333
9.27                 0.798416744      173.946947
9.271                0.798178424      173.576635
9.272                0.797944135      173.206406
9.273                 0.79771389      172.836266
9.274                0.797487697      172.466224
9.275                0.797265568      172.096287
9.276                0.797047512      171.726462
9.277                0.796833537      171.356757
9.278                0.796623652       170.98718
9.279                0.796417865      170.617737
9.28                 0.796216185      170.248437
9.281                0.796018618      169.879287
9.282                 0.79582517      169.510294
9.283                0.795635848      169.141465
9.284                0.795450658      168.772809
9.285                0.795269605      168.404331
9.286                0.795092694      168.036041
9.287                0.794919929      167.667945
9.288                0.794751313       167.30005
9.289                0.794586851      166.932364
9.29                 0.794426544      166.564893
9.291                0.794270396      166.197646
9.292                0.794118409       165.83063
9.293                0.793970583       165.46385
9.294                 0.79382692      165.097316
9.295                0.793687421      164.731033
9.296                0.793552085       164.36501
9.297                0.793420912      163.999252
9.298                0.793293901      163.633768
9.299                0.793171052      163.268564
9.3                  0.793052362      162.903646
9.301                0.792937829      162.539023
9.302                 0.79282745      162.174701
9.303                0.792721223      161.810687
9.304                0.792619143      161.446987
9.305                0.792521208      161.083608
9.306                0.792427411      160.720558
9.307                 0.79233775      160.357843
9.308                0.792252218       159.99547
9.309                0.792170809      159.633445
9.31                 0.792093518      159.271774
9.311                0.792020338      158.910466
9.312                0.791951261      158.549525
9.313                0.791886282      158.188959
9.314                0.791825391      157.828773
9.315                 0.79176858      157.468975
9.316                0.791715842      157.109571
9.317                0.791667167      156.750567
9.318                0.791622545      156.391969
9.319                0.791581967      156.033784
9.32                 0.791545422      155.676017
9.321                  0.7915129      155.318675
9.322                0.791484391      154.961764
9.323                0.791459882       154.60529
9.324                0.791439362      154.249259
9.325                0.791422819      153.893677
9.326                0.791410241      153.538549
9.327                0.791401614      153.183882
9.328                0.791396926      152.829681
9.329                0.791396163      152.475952
9.33                 0.791399312      152.122701
9.331                0.791406357      151.769934
9.332                0.791417285      151.417655
9.333                0.791432081      151.065871
9.334                0.791450729      150.714587
9.335                0.791473215      150.363808
9.336                0.791499521      150.013539
9.337                0.791529633      149.663787
9.338                0.791563534      149.314556
9.339                0.791601207      148.965851
9.34                 0.791642635      148.617678
9.341                0.791687801      148.270041
9.342                0.791736688      147.922946
9.343                0.791789276      147.576398
9.344                0.791845549      147.230401
9.345                0.791905488      146.884961
9.346                0.791969074      146.540082
9.347                0.792036288      146.195768
9.348                0.792107112      145.852025
9.349                0.792181525      145.508858
9.35                 0.792259508       145.16627
9.351                0.792341042      144.824266
9.352                0.792426105      144.482851
9.353                0.792514678       144.14203
9.354                0.792606741      143.801805
9.355                0.792702272      143.462183
9.356                 0.79280125      143.123166
9.357                0.792903654      142.784759
9.358                0.793009463      142.446966
9.359                0.793118655      142.109792
9.36                 0.793231209      141.773239
9.361                0.793347102      141.437313
9.362                0.793466312      141.102017
9.363                0.793588817      140.767354
9.364                0.793714595      140.433328
9.365                0.793843622      140.099944
9.366                0.793975877      139.767205
9.367                0.794111335      139.435113
9.368                0.794249975      139.103674
9.369                0.794391772      138.772889
9.37                 0.794536704      138.442764
9.371                0.794684746        138.1133
9.372                0.794835876      137.784501
9.373                0.794990069       137.45637
9.374                0.795147301      137.128911
9.375                0.795307549      136.802127
9.376                0.795470789       136.47602
9.377                0.795636995      136.150594
9.378                0.795806145      135.825851
9.379                0.795978214      135.501795
9.38                 0.796153176      135.178428
9.381                0.796331008      134.855752
9.382                0.796511685      134.533771
9.383                0.796695182      134.212487
9.384                0.796881474      133.891903
9.385                0.797070537      133.572021
9.386                0.797262346      133.252844
9.387                0.797456876      132.934374
9.388                0.797654101      132.616613
9.389                0.797853997      132.299564
9.39                 0.798056538      131.983229
9.391                  0.7982617       131.66761
9.392                0.798469457      131.352709
9.393                0.798679785      131.038528
9.394                0.798892657      130.725069
9.395                0.799108049      130.412335
9.396                0.799325935      130.100327
