! TOUCHSTONE file generated by CST DESIGN STUDIO
! Date and time: Tue Feb  4 13:53:37 2025
! Project name: C:\Work\MatlabApps\UnitCellOptimizationMatlab\CST\unitcell.cst
! Tree item: Tasks\Sweep1\SPara1\S-Parameters
! Header version: 2024
! Port assignment regex: !\s*Touchstone port\s*([0-9]+)\s*=\s*(CST MWS port|CST DES external port|CST DES block port)\s*(.+)\s* \(\"(.*)\"\)(\s*mode\s*([0-9]+))?.*
! Touchstone port assignment:
! Touchstone port 1 = CST DES external port 1 ("")
# GHz S MA R 50
9                    0.950359149     -69.8696306
9.001                0.950135291     -69.9852253
9.002                0.949910468     -70.1011206
9.003                0.949684677     -70.2173175
9.004                0.949457915     -70.3338171
9.005                 0.94923018     -70.4506203
9.006                0.949001469     -70.5677282
9.007                0.948771779     -70.6851419
9.008                0.948541109     -70.8028623
9.009                0.948309455     -70.9208905
9.01                 0.948076815     -71.0392275
9.011                0.947843186     -71.1578744
9.012                0.947608566     -71.2768322
9.013                0.947372952      -71.396102
9.014                0.947136342     -71.5156848
9.015                0.946898732     -71.6355817
9.016                0.946660122     -71.7557938
9.017                0.946420507      -71.876322
9.018                0.946179886     -71.9971676
9.019                0.945938256     -72.1183314
9.02                 0.945695614     -72.2398147
9.021                0.945451958     -72.3616186
9.022                0.945207285      -72.483744
9.023                0.944961594     -72.6061921
9.024                 0.94471488     -72.7289639
9.025                0.944467143     -72.8520607
9.026                0.944218379     -72.9754833
9.027                0.943968586     -73.0992331
9.028                0.943717761      -73.223311
9.029                0.943465902     -73.3477182
9.03                 0.943213007     -73.4724558
9.031                0.942959073     -73.5975249
9.032                0.942704097     -73.7229267
9.033                0.942448077     -73.8486621
9.034                0.942191012     -73.9747325
9.035                0.941932897     -74.1011389
9.036                0.941673731     -74.2278824
9.037                0.941413512     -74.3549643
9.038                0.941152237     -74.4823855
9.039                0.940889904     -74.6101474
9.04                  0.94062651     -74.7382509
9.041                0.940362052     -74.8666974
9.042                 0.94009653     -74.9954879
9.043                 0.93982994     -75.1246236
9.044                0.939562279     -75.2541056
9.045                0.939293546     -75.3839352
9.046                0.939023739     -75.5141135
9.047                0.938752854     -75.6446417
9.048                 0.93848089      -75.775521
9.049                0.938207844     -75.9067525
9.05                 0.937933715     -76.0383375
9.051                0.937658499      -76.170277
9.052                0.937382195     -76.3025724
9.053                0.937104801     -76.4352249
9.054                0.936826313     -76.5682355
9.055                0.936546731     -76.7016056
9.056                0.936266051     -76.8353363
9.057                0.935984272     -76.9694289
9.058                0.935701391     -77.1038846
9.059                0.935417406     -77.2387045
9.06                 0.935132316       -77.37389
9.061                0.934846118     -77.5094422
9.062                0.934558809     -77.6453624
9.063                0.934270389     -77.7816518
9.064                0.933980854     -77.9183117
9.065                0.933690203     -78.0553433
9.066                0.933398433     -78.1927478
9.067                0.933105543     -78.3305265
9.068                0.932811531     -78.4686807
9.069                0.932516395     -78.6072115
9.07                 0.932220132     -78.7461204
9.071                0.931922741     -78.8854085
9.072                 0.93162422     -79.0250771
9.073                0.931324567     -79.1651274
9.074                 0.93102378     -79.3055608
9.075                0.930721857     -79.4463786
9.076                0.930418796     -79.5875819
9.077                0.930114596     -79.7291722
9.078                0.929809254     -79.8711507
9.079                 0.92950277     -80.0135186
9.08                  0.92919514     -80.1562773
9.081                0.928886364     -80.2994282
9.082                 0.92857644     -80.4429724
9.083                0.928265365     -80.5869113
9.084                0.927953139     -80.7312462
9.085                 0.92763976     -80.8759784
9.086                0.927325225     -81.0211093
9.087                0.927009534     -81.1666402
9.088                0.926692685     -81.3125723
9.089                0.926374677     -81.4589071
9.09                 0.926055507     -81.6056458
9.091                0.925735174     -81.7527898
9.092                0.925413677     -81.9003404
9.093                0.925091015      -82.048299
9.094                0.924767186      -82.196667
9.095                0.924442188     -82.3454456
9.096                 0.92411602     -82.4946362
9.097                0.923788682     -82.6442401
9.098                0.923460171     -82.7942588
9.099                0.923130486     -82.9446936
9.1                  0.922799627     -83.0955459
9.101                0.922467592      -83.246817
9.102                0.922134379     -83.3985083
9.103                0.921799988     -83.5506212
9.104                0.921464417      -83.703157
9.105                0.921127666     -83.8561172
9.106                0.920789733     -84.0095031
9.107                0.920450618     -84.1633161
9.108                0.920110319     -84.3175576
9.109                0.919768835      -84.472229
9.11                 0.919426166     -84.6273317
9.111                0.919082311      -84.782867
9.112                0.918737269     -84.9388365
9.113                0.918391039     -85.0952415
9.114                 0.91804362     -85.2520834
9.115                0.917695012     -85.4093636
9.116                0.917345213     -85.5670835
9.117                0.916994224     -85.7252446
9.118                0.916642044     -85.8838482
9.119                0.916288672     -86.0428959
9.12                 0.915934107     -86.2023889
9.121                 0.91557835     -86.3623288
9.122                0.915221399      -86.522717
9.123                0.914863255     -86.6835549
9.124                0.914503916     -86.8448439
9.125                0.914143384     -87.0065856
9.126                0.913781657     -87.1687812
9.127                0.913418735     -87.3314323
9.128                0.913054618     -87.4945404
9.129                0.912689306     -87.6581068
9.13                 0.912322799      -87.822133
9.131                0.911955097     -87.9866204
9.132                0.911586199     -88.1515706
9.133                0.911216107      -88.316985
9.134                 0.91084482      -88.482865
9.135                0.910472338     -88.6492121
9.136                0.910098661     -88.8160278
9.137                0.909723791     -88.9833135
9.138                0.909347726     -89.1510706
9.139                0.908970468     -89.3193008
9.14                 0.908592016     -89.4880054
9.141                0.908212373     -89.6571859
9.142                0.907831537     -89.8268438
9.143                0.907449509     -89.9969805
9.144                0.907066291     -90.1675976
9.145                0.906681883     -90.3386965
9.146                0.906296286     -90.5102787
9.147                  0.9059095     -90.6823457
9.148                0.905521526     -90.8548989
9.149                0.905132366     -91.0279399
9.15                 0.904742021     -91.2014702
9.151                 0.90435049     -91.3754912
9.152                0.903957777     -91.5500044
9.153                0.903563881     -91.7250113
9.154                0.903168804     -91.9005134
9.155                0.902772548     -92.0765123
9.156                0.902375113     -92.2530093
9.157                0.901976502      -92.430006
9.158                0.901576716     -92.6075039
9.159                0.901175756     -92.7855045
9.16                 0.900773624     -92.9640092
9.161                0.900370322     -93.1430196
9.162                0.899965851     -93.3225373
9.163                0.899560214     -93.5025635
9.164                0.899153412        -93.6831
9.165                0.898745448     -93.8641481
9.166                0.898336323     -94.0457094
9.167                 0.89792604     -94.2277854
9.168                0.897514601     -94.4103775
9.169                0.897102008     -94.5934874
9.17                 0.896688264     -94.7771164
9.171                0.896273371     -94.9612661
9.172                0.895857332     -95.1459379
9.173                0.895440149     -95.3311334
9.174                0.895021824     -95.5168542
9.175                0.894602362     -95.7031015
9.176                0.894181764     -95.8898771
9.177                0.893760034     -96.0771823
9.178                0.893337175     -96.2650187
9.179                0.892913189     -96.4533878
9.18                  0.89248808      -96.642291
9.181                0.892061852     -96.8317299
9.182                0.891634507     -97.0217059
9.183                0.891206049     -97.2122206
9.184                0.890776482     -97.4032754
9.185                0.890345809     -97.5948718
9.186                0.889914034     -97.7870113
9.187                0.889481161     -97.9796955
9.188                0.889047194     -98.1729257
9.189                0.888612136     -98.3667034
9.19                 0.888175992     -98.5610302
9.191                0.887738767     -98.7559075
9.192                0.887300464     -98.9513368
9.193                0.886861087     -99.1473196
9.194                0.886420642     -99.3438573
9.195                0.885979132     -99.5409514
9.196                0.885536563     -99.7386034
9.197                 0.88509294     -99.9368147
9.198                0.884648266     -100.135587
9.199                0.884202548     -100.334921
9.2                   0.88375579     -100.534819
9.201                0.883307997     -100.735282
9.202                0.882859175     -100.936312
9.203                 0.88240933      -101.13791
9.204                0.881958466     -101.340078
9.205                0.881506589     -101.542816
9.206                0.881053705     -101.746127
9.207                 0.88059982     -101.950011
9.208                 0.88014494     -102.154471
9.209                 0.87968907     -102.359507
9.21                 0.879232218     -102.565121
9.211                0.878774389     -102.771315
9.212                 0.87831559      -102.97809
9.213                0.877855826     -103.185447
9.214                0.877395106     -103.393388
9.215                0.876933435     -103.601913
9.216                0.876470821     -103.811025
9.217                 0.87600727     -104.020725
9.218                 0.87554279     -104.231014
9.219                0.875077387     -104.441894
9.22                 0.874611069     -104.653366
9.221                0.874143844     -104.865431
9.222                0.873675719      -105.07809
9.223                0.873206702     -105.291346
9.224                  0.8727368     -105.505198
9.225                0.872266022      -105.71965
9.226                0.871794376     -105.934701
9.227                0.871321869     -106.150354
9.228                0.870848511     -106.366609
9.229                 0.87037431     -106.583468
9.23                 0.869899274     -106.800933
9.231                0.869423412     -107.019003
9.232                0.868946733     -107.237682
9.233                0.868469245      -107.45697
9.234                0.867990959     -107.676867
9.235                0.867511883     -107.897377
9.236                0.867032027     -108.118499
9.237                  0.8665514     -108.340235
9.238                0.866070012     -108.562586
9.239                0.865587873     -108.785554
9.24                 0.865104992     -109.009139
9.241                 0.86462138     -109.233343
9.242                0.864137047     -109.458168
9.243                0.863652003     -109.683613
9.244                0.863166259     -109.909681
9.245                0.862679826     -110.136372
9.246                0.862192714     -110.363688
9.247                0.861704934      -110.59163
9.248                0.861216497     -110.820198
9.249                0.860727415     -111.049395
9.25                 0.860237699     -111.279221
9.251                 0.85974736     -111.509676
9.252                0.859256411     -111.740764
9.253                0.858764862     -111.972483
9.254                0.858272726     -112.204836
9.255                0.857780015     -112.437823
9.256                0.857286741     -112.671446
9.257                0.856792917     -112.905705
9.258                0.856298555     -113.140602
9.259                0.855803668     -113.376137
9.26                 0.855308269     -113.612311
9.261                 0.85481237     -113.849126
9.262                0.854315986     -114.086582
9.263                0.853819129      -114.32468
9.264                0.853321812     -114.563421
9.265                 0.85282405     -114.802806
9.266                0.852325856     -115.042836
9.267                0.851827245     -115.283512
9.268                0.851328229     -115.524834
9.269                0.850828824     -115.766804
9.27                 0.850329044     -116.009422
9.271                0.849828903     -116.252689
9.272                0.849328417     -116.496605
9.273                0.848827599     -116.741173
9.274                0.848326466     -116.986391
9.275                0.847825032     -117.232262
9.276                0.847323313     -117.478785
9.277                0.846821324     -117.725961
9.278                0.846319081     -117.973792
9.279                  0.8458166     -118.222277
9.28                 0.845313896     -118.471418
9.281                0.844810987     -118.721215
9.282                0.844307887     -118.971668
9.283                0.843804615     -119.222778
9.284                0.843301186     -119.474546
9.285                0.842797616     -119.726972
9.286                0.842293924     -119.980057
9.287                0.841790127     -120.233801
9.288                 0.84128624     -120.488205
9.289                0.840782283     -120.743268
9.29                 0.840278272     -120.998992
9.291                0.839774226     -121.255378
9.292                0.839270162     -121.512424
9.293                0.838766098     -121.770132
9.294                0.838262053     -122.028502
9.295                0.837758045     -122.287534
9.296                0.837254092     -122.547229
9.297                0.836750214     -122.807586
9.298                0.836246429     -123.068607
9.299                0.835742756     -123.330291
9.3                  0.835239214     -123.592638
9.301                0.834735823     -123.855649
9.302                0.834232602     -124.119323
9.303                0.833729572     -124.383661
9.304                 0.83322675     -124.648663
9.305                0.832724159     -124.914329
9.306                0.832221818     -125.180659
9.307                0.831719746     -125.447653
9.308                0.831217965     -125.715311
9.309                0.830716495     -125.983633
9.31                 0.830215357     -126.252618
9.311                0.829714572     -126.522267
9.312                0.829214161      -126.79258
9.313                0.828714145     -127.063556
9.314                0.828214545     -127.335195
9.315                0.827715383     -127.607496
9.316                 0.82721668     -127.880461
9.317                0.826718459     -128.154087
9.318                 0.82622074     -128.428376
9.319                0.825723547     -128.703326
9.32                 0.825226902     -128.978938
9.321                0.824730826      -129.25521
9.322                0.824235343     -129.532143
9.323                0.823740474     -129.809735
9.324                0.823246243     -130.087987
9.325                0.822752673     -130.366898
9.326                0.822259787     -130.646466
9.327                0.821767607     -130.926693
9.328                0.821276157     -131.207576
9.329                0.820785461     -131.489115
9.33                 0.820295542      -131.77131
9.331                0.819806424      -132.05416
9.332                 0.81931813     -132.337664
9.333                0.818830685      -132.62182
9.334                0.818344113     -132.906629
9.335                0.817858437     -133.192089
9.336                0.817373683       -133.4782
9.337                0.816889873      -133.76496
9.338                0.816407034     -134.052369
9.339                 0.81592519     -134.340424
9.34                 0.815444365     -134.629127
9.341                0.814964584     -134.918474
9.342                0.814485873     -135.208465
9.343                0.814008256     -135.499099
9.344                0.813531758     -135.790374
9.345                0.813056405      -136.08229
9.346                0.812582222     -136.374844
9.347                0.812109234     -136.668036
9.348                0.811637468     -136.961865
9.349                0.811166949     -137.256328
9.35                 0.810697701     -137.551424
9.351                0.810229753     -137.847152
9.352                0.809763128      -138.14351
9.353                0.809297854     -138.440496
9.354                0.808833955     -138.738109
9.355                0.808371459     -139.036348
9.356                0.807910392      -139.33521
9.357                0.807450779     -139.634694
9.358                0.806992648     -139.934797
9.359                0.806536024     -140.235519
9.36                 0.806080934     -140.536856
9.361                0.805627404     -140.838808
9.362                0.805175462     -141.141372
9.363                0.804725133     -141.444546
9.364                0.804276445     -141.748328
9.365                0.803829423     -142.052716
9.366                0.803384095     -142.357707
9.367                0.802940488       -142.6633
9.368                0.802498628     -142.969493
9.369                0.802058542     -143.276282
9.37                 0.801620258     -143.583667
9.371                0.801183801     -143.891643
9.372                0.800749199     -144.200209
9.373                0.800316479     -144.509363
9.374                0.799885668     -144.819101
9.375                0.799456792     -145.129421
9.376                0.799029879     -145.440322
9.377                0.798604956     -145.751799
9.378                0.798182049      -146.06385
9.379                0.797761186     -146.376473
9.38                 0.797342393     -146.689664
9.381                0.796925698     -147.003421
9.382                0.796511127     -147.317742
9.383                0.796098708     -147.632622
9.384                0.795688466     -147.948059
9.385                 0.79528043      -148.26405
9.386                0.794874625     -148.580592
9.387                0.794471078     -148.897681
9.388                0.794069817     -149.215315
9.389                0.793670868     -149.533491
9.39                 0.793274258     -149.852204
9.391                0.792880012     -150.171453
9.392                0.792488159     -150.491232
9.393                0.792098723      -150.81154
9.394                0.791711732     -151.132372
9.395                0.791327212     -151.453724
9.396                0.790945189     -151.775595
