! TOUCHSTONE file generated by CST DESIGN STUDIO
! Date and time: Tue Feb  4 12:25:24 2025
! Project name: C:\Work\MatlabApps\UnitCellOptimizationMatlab\CST\unitcell.cst
! Tree item: Tasks\Sweep1\SPara1\S-Parameters
! Header version: 2024
! Port assignment regex: !\s*Touchstone port\s*([0-9]+)\s*=\s*(CST MWS port|CST DES external port|CST DES block port)\s*(.+)\s* \(\"(.*)\"\)(\s*mode\s*([0-9]+))?.*
! Touchstone port assignment:
! Touchstone port 1 = CST DES external port 1 ("")
# GHz S MA R 50
9                    0.989911509     -72.5609551
9.001                0.989888745     -72.6669014
9.002                0.989865912     -72.7731016
9.003                0.989843011     -72.8795562
9.004                 0.98982004     -72.9862662
9.005                   0.989797     -73.0932322
9.006                0.989773891     -73.2004551
9.007                0.989750712     -73.3079356
9.008                0.989727464     -73.4156744
9.009                0.989704146     -73.5236723
9.01                 0.989680757     -73.6319301
9.011                0.989657299     -73.7404486
9.012                 0.98963377     -73.8492285
9.013                 0.98961017     -73.9582706
9.014                  0.9895865     -74.0675757
9.015                0.989562759     -74.1771446
9.016                0.989538947      -74.286978
9.017                0.989515064     -74.3970768
9.018                 0.98949111     -74.5074417
9.019                0.989467084     -74.6180735
9.02                 0.989442986      -74.728973
9.021                0.989418816     -74.8401409
9.022                0.989394575     -74.9515782
9.023                0.989370261     -75.0632855
9.024                0.989345875     -75.1752637
9.025                0.989321417     -75.2875136
9.026                0.989296886     -75.4000359
9.027                0.989272282     -75.5128315
9.028                0.989247605     -75.6259012
9.029                0.989222855     -75.7392458
9.03                 0.989198032      -75.852866
9.031                0.989173135     -75.9667628
9.032                0.989148165     -76.0809369
9.033                0.989123121     -76.1953891
9.034                0.989098003     -76.3101203
9.035                0.989072811     -76.4251312
9.036                0.989047545     -76.5404227
9.037                0.989022205     -76.6559956
9.038                 0.98899679     -76.7718508
9.039                  0.9889713      -76.887989
9.04                 0.988945736      -77.004411
9.041                0.988920096     -77.1211178
9.042                0.988894382     -77.2381102
9.043                0.988868592     -77.3553889
9.044                0.988842727     -77.4729548
9.045                0.988816786     -77.5908087
9.046                 0.98879077     -77.7089516
9.047                0.988764678     -77.8273841
9.048                0.988738509     -77.9461073
9.049                0.988712265     -78.0651218
9.05                 0.988685944     -78.1844286
9.051                0.988659547     -78.3040285
9.052                0.988633074     -78.4239224
9.053                0.988606523      -78.544111
9.054                0.988579896     -78.6645953
9.055                0.988553192     -78.7853761
9.056                0.988526411     -78.9064543
9.057                0.988499552     -79.0278307
9.058                0.988472617     -79.1495061
9.059                0.988445603     -79.2714815
9.06                 0.988418512     -79.3937578
9.061                0.988391343     -79.5163356
9.062                0.988364097      -79.639216
9.063                0.988336772     -79.7623999
9.064                0.988309369     -79.8858879
9.065                0.988281888     -80.0096812
9.066                0.988254328     -80.1337804
9.067                 0.98822669     -80.2581865
9.068                0.988198973     -80.3829004
9.069                0.988171177     -80.5079229
9.07                 0.988143303      -80.633255
9.071                0.988115349     -80.7588974
9.072                0.988087316     -80.8848511
9.073                0.988059204      -81.011117
9.074                0.988031013     -81.1376959
9.075                0.988002742     -81.2645888
9.076                0.987974391     -81.3917965
9.077                0.987945961     -81.5193199
9.078                 0.98791745     -81.6471599
9.079                 0.98788886     -81.7753174
9.08                  0.98786019     -81.9037933
9.081                 0.98783144     -82.0325884
9.082                0.987802609     -82.1617038
9.083                0.987773698     -82.2911402
9.084                0.987744707     -82.4208986
9.085                0.987715635     -82.5509798
9.086                0.987686482     -82.6813849
9.087                0.987657249     -82.8121146
9.088                0.987627935     -82.9431699
9.089                0.987598539     -83.0745517
9.09                 0.987569063     -83.2062609
9.091                0.987539506     -83.3382984
9.092                0.987509867     -83.4706651
9.093                0.987480148     -83.6033619
9.094                0.987450346     -83.7363898
9.095                0.987420464     -83.8697496
9.096                0.987390499     -84.0034422
9.097                0.987360454     -84.1374687
9.098                0.987330326     -84.2718298
9.099                0.987300117     -84.4065266
9.1                  0.987269826     -84.5415598
9.101                0.987239453     -84.6769306
9.102                0.987208998     -84.8126396
9.103                0.987178461      -84.948688
9.104                0.987147842     -85.0850766
9.105                0.987117141     -85.2218063
9.106                0.987086357     -85.3588781
9.107                0.987055492     -85.4962928
9.108                0.987024544     -85.6340515
9.109                0.986993514     -85.7721549
9.11                 0.986962401     -85.9106042
9.111                0.986931206     -86.0494001
9.112                0.986899928     -86.1885436
9.113                0.986868568     -86.3280357
9.114                0.986837125     -86.4678773
9.115                  0.9868056     -86.6080692
9.116                0.986773992     -86.7486125
9.117                0.986742301     -86.8895081
9.118                0.986710527     -87.0307569
9.119                0.986678671     -87.1723598
9.12                 0.986646732     -87.3143178
9.121                0.986614711     -87.4566317
9.122                0.986582606     -87.5993027
9.123                0.986550419     -87.7423314
9.124                0.986518149      -87.885719
9.125                0.986485796     -88.0294664
9.126                 0.98645336     -88.1735744
9.127                0.986420842      -88.318044
9.128                0.986388241     -88.4628762
9.129                0.986355557     -88.6080719
9.13                  0.98632279      -88.753632
9.131                 0.98628994     -88.8995574
9.132                0.986257008     -89.0458492
9.133                0.986223992     -89.1925082
9.134                0.986190894     -89.3395354
9.135                0.986157714     -89.4869317
9.136                 0.98612445     -89.6346981
9.137                0.986091104     -89.7828354
9.138                0.986057676     -89.9313447
9.139                0.986024164     -90.0802268
9.14                 0.985990571     -90.2294828
9.141                0.985956894     -90.3791135
9.142                0.985923136     -90.5291198
9.143                0.985889294     -90.6795028
9.144                0.985855371     -90.8302634
9.145                0.985821365     -90.9814024
9.146                0.985787277     -91.1329208
9.147                0.985753107     -91.2848197
9.148                0.985718855     -91.4370998
9.149                0.985684521     -91.5897621
9.15                 0.985650105     -91.7428076
9.151                0.985615607     -91.8962372
9.152                0.985581027     -92.0500518
9.153                0.985546366     -92.2042524
9.154                0.985511623     -92.3588399
9.155                0.985476798     -92.5138152
9.156                0.985441893     -92.6691793
9.157                0.985406906      -92.824933
9.158                0.985371838     -92.9810773
9.159                0.985336688     -93.1376132
9.16                 0.985301458     -93.2945416
9.161                0.985266148     -93.4518633
9.162                0.985230756     -93.6095794
9.163                0.985195284     -93.7676907
9.164                0.985159732     -93.9261981
9.165                0.985124099     -94.0851026
9.166                0.985088387     -94.2444051
9.167                0.985052594     -94.4041066
9.168                0.985016722     -94.5642078
9.169                 0.98498077     -94.7247098
9.17                 0.984944739     -94.8856135
9.171                0.984908628     -95.0469197
9.172                0.984872439     -95.2086294
9.173                 0.98483617     -95.3707435
9.174                0.984799823     -95.5332629
9.175                0.984763397     -95.6961885
9.176                0.984726893     -95.8595212
9.177                0.984690311     -96.0232619
9.178                0.984653651     -96.1874115
9.179                0.984616914     -96.3519709
9.18                 0.984580098      -96.516941
9.181                0.984543206     -96.6823227
9.182                0.984506237     -96.8481168
9.183                0.984469191     -97.0143243
9.184                0.984432068     -97.1809461
9.185                0.984394869      -97.347983
9.186                0.984357595      -97.515436
9.187                0.984320244     -97.6833058
9.188                0.984282818     -97.8515934
9.189                0.984245317     -98.0202997
9.19                 0.984207741     -98.1894254
9.191                 0.98417009     -98.3589716
9.192                0.984132365      -98.528939
9.193                0.984094565     -98.6993285
9.194                0.984056693      -98.870141
9.195                0.984018746     -99.0413773
9.196                0.983980727     -99.2130384
9.197                0.983942634     -99.3851249
9.198                 0.98390447     -99.5576378
9.199                0.983866233      -99.730578
9.2                  0.983827924     -99.9039462
9.201                0.983789544     -100.077743
9.202                0.983751093      -100.25197
9.203                0.983712571     -100.426628
9.204                0.983673978     -100.601716
9.205                0.983635316     -100.777237
9.206                0.983596584     -100.953191
9.207                0.983557783     -101.129579
9.208                0.983518913     -101.306402
9.209                0.983479975      -101.48366
9.21                 0.983440969     -101.661354
9.211                0.983401895     -101.839485
9.212                0.983362754     -102.018054
9.213                0.983323546     -102.197062
9.214                0.983284272     -102.376509
9.215                0.983244932     -102.556397
9.216                0.983205527     -102.736725
9.217                0.983166057     -102.917496
9.218                0.983126522     -103.098708
9.219                0.983086923     -103.280364
9.22                 0.983047261     -103.462464
9.221                0.983007536     -103.645009
9.222                0.982967749     -103.827999
9.223                0.982927899     -104.011436
9.224                0.982887988      -104.19532
9.225                0.982848016     -104.379651
9.226                0.982807984     -104.564431
9.227                0.982767891      -104.74966
9.228                 0.98272774     -104.935339
9.229                0.982687529     -105.121468
9.23                 0.982647261     -105.308049
9.231                0.982606934     -105.495082
9.232                0.982566551     -105.682567
9.233                0.982526112     -105.870506
9.234                0.982485616     -106.058899
9.235                0.982445065     -106.247747
9.236                 0.98240446      -106.43705
9.237                  0.9823638     -106.626809
9.238                0.982323087     -106.817024
9.239                0.982282322     -107.007698
9.24                 0.982241504     -107.198829
9.241                0.982200635     -107.390418
9.242                0.982159715     -107.582467
9.243                0.982118745     -107.774976
9.244                0.982077725     -107.967945
9.245                0.982036657     -108.161375
9.246                0.981995541     -108.355267
9.247                0.981954378     -108.549622
9.248                0.981913168     -108.744439
9.249                0.981871912     -108.939719
9.25                 0.981830611     -109.135463
9.251                0.981789266     -109.331672
9.252                0.981747877     -109.528346
9.253                0.981706445     -109.725486
9.254                0.981664972     -109.923091
9.255                0.981623457     -110.121164
9.256                0.981581901     -110.319703
9.257                0.981540306     -110.518711
9.258                0.981498672     -110.718186
9.259                0.981457001      -110.91813
9.26                 0.981415291     -111.118543
9.261                0.981373546     -111.319426
9.262                0.981331765     -111.520779
9.263                 0.98128995     -111.722602
9.264                0.981248101     -111.924897
9.265                0.981206219     -112.127663
9.266                0.981164305       -112.3309
9.267                0.981122359      -112.53461
9.268                0.981080384     -112.738793
9.269                 0.98103838     -112.943448
9.27                 0.980996347     -113.148577
9.271                0.980954287      -113.35418
9.272                0.980912201     -113.560257
9.273                0.980870089     -113.766809
9.274                0.980827953     -113.973835
9.275                0.980785794     -114.181337
9.276                0.980743612     -114.389314
9.277                0.980701408     -114.597767
9.278                0.980659184     -114.806696
9.279                0.980616941     -115.016102
9.28                 0.980574679     -115.225984
9.281                  0.9805324     -115.436344
9.282                0.980490105      -115.64718
9.283                0.980447795     -115.858494
9.284                 0.98040547     -116.070286
9.285                0.980363133     -116.282556
9.286                0.980320784     -116.495304
9.287                0.980278423      -116.70853
9.288                0.980236054     -116.922234
9.289                0.980193675     -117.136418
9.29                 0.980151289      -117.35108
9.291                0.980108897     -117.566221
9.292                  0.9800665     -117.781842
9.293                0.980024099     -117.997941
9.294                0.979981696      -118.21452
9.295                 0.97993929     -118.431579
9.296                0.979896885     -118.649117
9.297                 0.97985448     -118.867135
9.298                0.979812078     -119.085632
9.299                0.979769679     -119.304609
9.3                  0.979727284     -119.524066
9.301                0.979684895     -119.744002
9.302                0.979642514     -119.964419
9.303                0.979600141     -120.185315
9.304                0.979557778     -120.406691
9.305                0.979515425     -120.628546
9.306                0.979473085     -120.850881
9.307                0.979430759     -121.073696
9.308                0.979388448      -121.29699
9.309                0.979346153     -121.520764
9.31                 0.979303876     -121.745017
9.311                0.979261617     -121.969749
9.312                 0.97921938      -122.19496
9.313                0.979177164      -122.42065
9.314                0.979134971     -122.646819
9.315                0.979092803     -122.873466
9.316                0.979050661     -123.100591
9.317                0.979008547     -123.328195
9.318                0.978966461     -123.556276
9.319                0.978924406     -123.784835
9.32                 0.978882382     -124.013871
9.321                0.978840392     -124.243384
9.322                0.978798437     -124.473374
9.323                0.978756518      -124.70384
9.324                0.978714637     -124.934782
9.325                0.978672795       -125.1662
9.326                0.978630994     -125.398094
9.327                0.978589235     -125.630462
9.328                 0.97854752     -125.863305
9.329                 0.97850585     -126.096622
9.33                 0.978464228     -126.330413
9.331                0.978422654     -126.564677
9.332                 0.97838113     -126.799414
9.333                0.978339657     -127.034623
9.334                0.978298239     -127.270304
9.335                0.978256875     -127.506457
9.336                0.978215567      -127.74308
9.337                0.978174318     -127.980173
9.338                0.978133129     -128.217736
9.339                0.978092001     -128.455767
9.34                 0.978050936     -128.694268
9.341                0.978009936     -128.933236
9.342                0.977969002     -129.172671
9.343                0.977928137     -129.412572
9.344                0.977887341      -129.65294
9.345                0.977846617     -129.893772
9.346                0.977805966     -130.135069
9.347                 0.97776539     -130.376829
9.348                 0.97772489     -130.619052
9.349                0.977684469     -130.861738
9.35                 0.977644129     -131.104884
9.351                 0.97760387     -131.348491
9.352                0.977563694     -131.592557
9.353                0.977523604     -131.837082
9.354                0.977483601     -132.082065
9.355                0.977443688     -132.327505
9.356                0.977403865     -132.573401
9.357                0.977364134     -132.819752
9.358                0.977324498     -133.066557
9.359                0.977284958     -133.313815
9.36                 0.977245516     -133.561526
9.361                0.977206173     -133.809687
9.362                0.977166933     -134.058299
9.363                0.977127795     -134.307359
9.364                0.977088763     -134.556868
9.365                0.977049838     -134.806823
9.366                0.977011022     -135.057224
9.367                0.976972317      -135.30807
9.368                0.976933725     -135.559359
9.369                0.976895247      -135.81109
9.37                 0.976856886     -136.063262
9.371                0.976818643     -136.315874
9.372                0.976780521     -136.568925
9.373                 0.97674252     -136.822412
9.374                0.976704644     -137.076336
9.375                0.976666893     -137.330694
9.376                0.976629271     -137.585486
9.377                0.976591778     -137.840709
9.378                0.976554416     -138.096363
9.379                0.976517189     -138.352447
9.38                 0.976480097     -138.608957
9.381                0.976443142     -138.865895
9.382                0.976406327     -139.123257
9.383                0.976369653     -139.381042
9.384                0.976333122      -139.63925
9.385                0.976296736     -139.897877
9.386                0.976260498     -140.156924
9.387                0.976224409     -140.416387
9.388                 0.97618847     -140.676266
9.389                0.976152685     -140.936559
9.39                 0.976117055     -141.197265
9.391                0.976081581     -141.458381
9.392                0.976046267     -141.719906
9.393                0.976011113     -141.981838
9.394                0.975976122     -142.244176
9.395                0.975941295     -142.506917
9.396                0.975906636     -142.770061
