! TOUCHSTONE file generated by CST DESIGN STUDIO
! Date and time: Tue Feb  4 12:25:14 2025
! Project name: C:\Work\MatlabApps\UnitCellOptimizationMatlab\CST\unitcell.cst
! Tree item: Tasks\Sweep1\SPara1\S-Parameters
! Header version: 2024
! Port assignment regex: !\s*Touchstone port\s*([0-9]+)\s*=\s*(CST MWS port|CST DES external port|CST DES block port)\s*(.+)\s* \(\"(.*)\"\)(\s*mode\s*([0-9]+))?.*
! Touchstone port assignment:
! Touchstone port 1 = CST DES external port 1 ("")
# GHz S MA R 50
9                    0.988615736     -78.7710538
9.001                0.988587615     -78.8910897
9.002                0.988559411     -79.0114194
9.003                0.988531123     -79.1320437
9.004                0.988502751     -79.2529635
9.005                0.988474294     -79.3741796
9.006                0.988445754     -79.4956929
9.007                 0.98841713     -79.6175042
9.008                0.988388421     -79.7396144
9.009                0.988359627     -79.8620243
9.01                 0.988330748     -79.9847347
9.011                0.988301785     -80.1077467
9.012                0.988272736     -80.2310609
9.013                0.988243602     -80.3546782
9.014                0.988214382     -80.4785996
9.015                0.988185077     -80.6028258
9.016                0.988155687     -80.7273577
9.017                 0.98812621     -80.8521963
9.018                0.988096647     -80.9773423
9.019                0.988066998     -81.1027966
9.02                 0.988037263     -81.2285601
9.021                0.988007441     -81.3546337
9.022                0.987977533     -81.4810182
9.023                0.987947538     -81.6077145
9.024                0.987917456     -81.7347235
9.025                0.987887287      -81.862046
9.026                 0.98785703      -81.989683
9.027                0.987826687     -82.1176353
9.028                0.987796256     -82.2459038
9.029                0.987765737     -82.3744894
9.03                 0.987735131     -82.5033929
9.031                0.987704436     -82.6326152
9.032                0.987673654     -82.7621573
9.033                0.987642784       -82.89202
9.034                0.987611825     -83.0222042
9.035                0.987580778     -83.1527107
9.036                0.987549643     -83.2835405
9.037                0.987518419     -83.4146945
9.038                0.987487106     -83.5461736
9.039                0.987455705     -83.6779786
9.04                 0.987424214     -83.8101104
9.041                0.987392635       -83.94257
9.042                0.987360966     -84.0753582
9.043                0.987329208      -84.208476
9.044                0.987297361     -84.3419242
9.045                0.987265424     -84.4757037
9.046                0.987233397     -84.6098154
9.047                0.987201281     -84.7442603
9.048                0.987169075     -84.8790392
9.049                0.987136779     -85.0141531
9.05                 0.987104394     -85.1496028
9.051                0.987071918     -85.2853893
9.052                0.987039352     -85.4215134
9.053                0.987006695     -85.5579761
9.054                0.986973948     -85.6947782
9.055                0.986941111     -85.8319207
9.056                0.986908184     -85.9694046
9.057                0.986875165     -86.1072306
9.058                0.986842057     -86.2453998
9.059                0.986808857     -86.3839129
9.06                 0.986775566      -86.522771
9.061                0.986742185      -86.661975
9.062                0.986708713     -86.8015257
9.063                 0.98667515     -86.9414241
9.064                0.986641495     -87.0816711
9.065                 0.98660775     -87.2222676
9.066                0.986573913     -87.3632146
9.067                0.986539985     -87.5045128
9.068                0.986505966     -87.6461634
9.069                0.986471855     -87.7881671
9.07                 0.986437653     -87.9305249
9.071                 0.98640336     -88.0732378
9.072                0.986368975     -88.2163065
9.073                0.986334499     -88.3597321
9.074                0.986299931     -88.5035155
9.075                0.986265272     -88.6476576
9.076                0.986230521     -88.7921593
9.077                0.986195678     -88.9370215
9.078                0.986160744     -89.0822452
9.079                0.986125718     -89.2278313
9.08                 0.986090601     -89.3737806
9.081                0.986055391     -89.5200941
9.082                0.986020091     -89.6667728
9.083                0.985984698     -89.8138176
9.084                0.985949214     -89.9612293
9.085                0.985913638     -90.1090089
9.086                 0.98587797     -90.2571573
9.087                0.985842211     -90.4056755
9.088                 0.98580636     -90.5545643
9.089                0.985770418     -90.7038247
9.09                 0.985734383     -90.8534576
9.091                0.985698258     -91.0034638
9.092                 0.98566204     -91.1538445
9.093                0.985625732     -91.3046003
9.094                0.985589331     -91.4557324
9.095                0.985552839     -91.6072415
9.096                0.985516256     -91.7591286
9.097                0.985479582     -91.9113947
9.098                0.985442816     -92.0640405
9.099                0.985405959     -92.2170672
9.1                   0.98536901     -92.3704755
9.101                0.985331971     -92.5242663
9.102                0.985294841     -92.6784407
9.103                0.985257619     -92.8329994
9.104                0.985220307     -92.9879435
9.105                0.985182904     -93.1432738
9.106                 0.98514541     -93.2989912
9.107                0.985107825     -93.4550967
9.108                 0.98507015     -93.6115911
9.109                0.985032384     -93.7684754
9.11                 0.984994528     -93.9257504
9.111                0.984956582     -94.0834171
9.112                0.984918546     -94.2414763
9.113                 0.98488042     -94.3999291
9.114                0.984842203     -94.5587762
9.115                0.984803898     -94.7180185
9.116                0.984765502     -94.8776571
9.117                0.984727017     -95.0376926
9.118                0.984688443     -95.1981262
9.119                0.984649779     -95.3589586
9.12                 0.984611026     -95.5201907
9.121                0.984572185     -95.6818234
9.122                0.984533255     -95.8438577
9.123                0.984494236     -96.0062943
9.124                0.984455129     -96.1691343
9.125                0.984415934     -96.3323784
9.126                0.984376651     -96.4960275
9.127                0.984337279     -96.6600826
9.128                0.984297821     -96.8245445
9.129                0.984258275      -96.989414
9.13                 0.984218641     -97.1546921
9.131                0.984178921     -97.3203796
9.132                0.984139114     -97.4864774
9.133                 0.98409922     -97.6529863
9.134                0.984059241     -97.8199072
9.135                0.984019175      -97.987241
9.136                0.983979023     -98.1549885
9.137                0.983938786     -98.3231506
9.138                0.983898463     -98.4917281
9.139                0.983858055     -98.6607219
9.14                 0.983817563     -98.8301328
9.141                0.983776986     -98.9999617
9.142                0.983736325     -99.1702094
9.143                0.983695579     -99.3408767
9.144                0.983654751     -99.5119645
9.145                0.983613838     -99.6834735
9.146                0.983572843     -99.8554048
9.147                0.983531765     -100.027759
9.148                0.983490605     -100.200537
9.149                0.983449363     -100.373739
9.15                 0.983408039     -100.547367
9.151                0.983366633     -100.721422
9.152                0.983325147     -100.895903
9.153                 0.98328358     -101.070812
9.154                0.983241932     -101.246149
9.155                0.983200205     -101.421916
9.156                0.983158398     -101.598114
9.157                0.983116511     -101.774742
9.158                0.983074546     -101.951802
9.159                0.983032503     -102.129294
9.16                 0.982990382      -102.30722
9.161                0.982948183      -102.48558
9.162                0.982905907     -102.664375
9.163                0.982863554     -102.843606
9.164                0.982821125     -103.023273
9.165                 0.98277862     -103.203377
9.166                 0.98273604     -103.383919
9.167                0.982693384     -103.564899
9.168                0.982650655     -103.746319
9.169                0.982607851     -103.928179
9.17                 0.982564974      -104.11048
9.171                0.982522024     -104.293222
9.172                0.982479002     -104.476406
9.173                0.982435907     -104.660034
9.174                0.982392741     -104.844105
9.175                0.982349504     -105.028621
9.176                0.982306197     -105.213581
9.177                 0.98226282     -105.398988
9.178                0.982219373      -105.58484
9.179                0.982175858      -105.77114
9.18                 0.982132275     -105.957888
9.181                0.982088624     -106.145084
9.182                0.982044906     -106.332729
9.183                0.982001122     -106.520824
9.184                0.981957272      -106.70937
9.185                0.981913357     -106.898366
9.186                0.981869377     -107.087814
9.187                0.981825334     -107.277715
9.188                0.981781227     -107.468068
9.189                0.981737057     -107.658875
9.19                 0.981692826     -107.850136
9.191                0.981648533     -108.041852
9.192                0.981604179     -108.234023
9.193                0.981559766      -108.42665
9.194                0.981515294     -108.619733
9.195                0.981470763     -108.813274
9.196                0.981426174     -109.007272
9.197                0.981381528     -109.201728
9.198                0.981336826     -109.396643
9.199                0.981292068     -109.592018
9.2                  0.981247255     -109.787852
9.201                0.981202389     -109.984146
9.202                0.981157469     -110.180902
9.203                0.981112496     -110.378118
9.204                0.981067472     -110.575797
9.205                0.981022397     -110.773937
9.206                0.980977272     -110.972541
9.207                0.980932097     -111.171608
9.208                0.980886875     -111.371139
9.209                0.980841604     -111.571133
9.21                 0.980796287     -111.771593
9.211                0.980750924     -111.972517
9.212                0.980705517     -112.173907
9.213                0.980660065     -112.375763
9.214                 0.98061457     -112.578086
9.215                0.980569032     -112.780875
9.216                0.980523454     -112.984131
9.217                0.980477835     -113.187855
9.218                0.980432176     -113.392046
9.219                0.980386479     -113.596706
9.22                 0.980340745     -113.801835
9.221                0.980294974     -114.007432
9.222                0.980249167     -114.213499
9.223                0.980203326     -114.420035
9.224                0.980157451     -114.627041
9.225                0.980111543     -114.834517
9.226                0.980065604     -115.042464
9.227                0.980019635     -115.250882
9.228                0.979973636      -115.45977
9.229                0.979927609      -115.66913
9.23                 0.979881554     -115.878961
9.231                0.979835474     -116.089265
9.232                0.979789368      -116.30004
9.233                0.979743238     -116.511287
9.234                0.979697085     -116.723006
9.235                 0.97965091     -116.935199
9.236                0.979604715     -117.147864
9.237                0.979558501     -117.361001
9.238                0.979512268     -117.574612
9.239                0.979466017     -117.788696
9.24                 0.979419751     -118.003254
9.241                 0.97937347     -118.218284
9.242                0.979327176     -118.433789
9.243                0.979280869     -118.649767
9.244                0.979234552     -118.866218
9.245                0.979188224     -119.083144
9.246                0.979141888     -119.300543
9.247                0.979095544     -119.518416
9.248                0.979049194     -119.736762
9.249                 0.97900284     -119.955583
9.25                 0.978956482     -120.174878
9.251                0.978910122     -120.394646
9.252                0.978863761     -120.614888
9.253                0.978817401     -120.835604
9.254                0.978771042     -121.056793
9.255                0.978724687     -121.278457
9.256                0.978678336     -121.500593
9.257                0.978631991     -121.723203
9.258                0.978585654     -121.946287
9.259                0.978539325     -122.169844
9.26                 0.978493006     -122.393873
9.261                0.978446699     -122.618376
9.262                0.978400405     -122.843351
9.263                0.978354125     -123.068799
9.264                0.978307862     -123.294718
9.265                0.978261615      -123.52111
9.266                0.978215388     -123.747974
9.267                0.978169181      -123.97531
9.268                0.978122996     -124.203116
9.269                0.978076834     -124.431394
9.27                 0.978030697     -124.660142
9.271                0.977984587     -124.889361
9.272                0.977938504      -125.11905
9.273                0.977892451     -125.349209
9.274                0.977846429     -125.579837
9.275                 0.97780044     -125.810933
9.276                0.977754485     -126.042499
9.277                0.977708566     -126.274532
9.278                0.977662685     -126.507034
9.279                0.977616843     -126.740002
9.28                 0.977571041     -126.973437
9.281                0.977525282     -127.207339
9.282                0.977479567     -127.441706
9.283                0.977433897     -127.676539
9.284                0.977388275     -127.911837
9.285                0.977342702     -128.147598
9.286                 0.97729718     -128.383824
9.287                 0.97725171     -128.620512
9.288                0.977206295     -128.857663
9.289                0.977160935     -129.095275
9.29                 0.977115634     -129.333349
9.291                0.977070391     -129.571883
9.292                 0.97702521     -129.810877
9.293                0.976980091      -130.05033
9.294                0.976935038     -130.290241
9.295                0.976890051     -130.530611
9.296                0.976845132     -130.771437
9.297                0.976800283     -131.012719
9.298                0.976755506     -131.254456
9.299                0.976710803     -131.496649
9.3                  0.976666175     -131.739294
9.301                0.976621625     -131.982393
9.302                0.976577154     -132.225944
9.303                0.976532764     -132.469945
9.304                0.976488457     -132.714397
9.305                0.976444235     -132.959298
9.306                  0.9764001     -133.204648
9.307                0.976356053     -133.450445
9.308                0.976312097     -133.696688
9.309                0.976268233     -133.943376
9.31                 0.976224463     -134.190509
9.311                 0.97618079     -134.438085
9.312                0.976137215     -134.686104
9.313                 0.97609374     -134.934563
9.314                0.976050367     -135.183463
9.315                0.976007098     -135.432801
9.316                0.975963935     -135.682577
9.317                 0.97592088      -135.93279
9.318                0.975877935     -136.183438
9.319                0.975835101      -136.43452
9.32                 0.975792382     -136.686036
9.321                0.975749778     -136.937983
9.322                0.975707293      -137.19036
9.323                0.975664927     -137.443166
9.324                0.975622683     -137.696401
9.325                0.975580563     -137.950062
9.326                0.975538568     -138.204148
9.327                0.975496702     -138.458657
9.328                0.975454966      -138.71359
9.329                0.975413361     -138.968943
9.33                 0.975371891     -139.224715
9.331                0.975330556     -139.480906
9.332                 0.97528936     -139.737513
9.333                0.975248304     -139.994535
9.334                 0.97520739     -140.251971
9.335                 0.97516662     -140.509819
9.336                0.975125997     -140.768077
9.337                0.975085522     -141.026744
9.338                0.975045197     -141.285818
9.339                0.975005025     -141.545298
9.34                 0.974965008     -141.805182
9.341                0.974925147     -142.065467
9.342                0.974885445     -142.326154
9.343                0.974845904     -142.587239
9.344                0.974806526     -142.848722
9.345                0.974767312       -143.1106
9.346                0.974728266     -143.372871
9.347                0.974689389     -143.635534
9.348                0.974650683     -143.898587
9.349                0.974612151     -144.162028
9.35                 0.974573793     -144.425856
9.351                0.974535614     -144.690067
9.352                0.974497614     -144.954661
9.353                0.974459795     -145.219636
9.354                0.974422161     -145.484989
9.355                0.974384712     -145.750718
9.356                0.974347451     -146.016822
9.357                 0.97431038     -146.283298
9.358                0.974273501     -146.550145
9.359                0.974236817     -146.817361
9.36                 0.974200328     -147.084942
9.361                0.974164038     -147.352888
9.362                0.974127948     -147.621196
9.363                0.974092061     -147.889864
9.364                0.974056378     -148.158889
9.365                0.974020902      -148.42827
9.366                0.973985635     -148.698004
9.367                0.973950578      -148.96809
9.368                0.973915734     -149.238524
9.369                0.973881104     -149.509305
9.37                 0.973846692      -149.78043
9.371                0.973812498     -150.051897
9.372                0.973778525     -150.323704
9.373                0.973744776     -150.595847
9.374                0.973711251     -150.868326
9.375                0.973677953     -151.141137
9.376                0.973644884     -151.414278
9.377                0.973612046     -151.687746
9.378                 0.97357944      -151.96154
9.379                 0.97354707     -152.235656
9.38                 0.973514937     -152.510092
9.381                0.973483043     -152.784846
9.382                0.973451389     -153.059915
9.383                0.973419978     -153.335296
9.384                0.973388812     -153.610987
9.385                0.973357893     -153.886986
9.386                0.973327222     -154.163289
9.387                0.973296802     -154.439893
9.388                0.973266635     -154.716798
9.389                0.973236721     -154.993998
9.39                 0.973207064     -155.271493
9.391                0.973177665     -155.549279
9.392                0.973148526     -155.827353
9.393                0.973119649     -156.105712
9.394                0.973091035     -156.384355
9.395                0.973062687     -156.663278
9.396                0.973034607     -156.942477
