! TOUCHSTONE file generated by CST DESIGN STUDIO
! Date and time: Tue Feb  4 15:41:42 2025
! Project name: C:\Work\MatlabApps\UnitCellOptimizationMatlab\CST\unitcell.cst
! Tree item: Tasks\Sweep1\SPara1\S-Parameters
! Header version: 2024
! Port assignment regex: !\s*Touchstone port\s*([0-9]+)\s*=\s*(CST MWS port|CST DES external port|CST DES block port)\s*(.+)\s* \(\"(.*)\"\)(\s*mode\s*([0-9]+))?.*
! Touchstone port assignment:
! Touchstone port 1 = CST DES external port 1 ("")
# GHz S MA R 50
9                    0.970947904     -73.9526948
9.001                 0.97087656     -74.0661713
9.002                 0.97080503     -74.1799363
9.003                0.970733313     -74.2939905
9.004                0.970661409      -74.408335
9.005                0.970589317     -74.5229706
9.006                0.970517036     -74.6378982
9.007                0.970444567     -74.7531189
9.008                0.970371908     -74.8686334
9.009                 0.97029906     -74.9844427
9.01                 0.970226021     -75.1005478
9.011                0.970152791     -75.2169496
9.012                 0.97007937     -75.3336489
9.013                0.970005757     -75.4506469
9.014                0.969931951     -75.5679443
9.015                0.969857953     -75.6855422
9.016                0.969783761     -75.8034414
9.017                0.969709376      -75.921643
9.018                0.969634796     -76.0401478
9.019                0.969560021     -76.1589569
9.02                 0.969485051     -76.2780711
9.021                0.969409885     -76.3974914
9.022                0.969334523     -76.5172189
9.023                0.969258964     -76.6372544
9.024                0.969183208     -76.7575989
9.025                0.969107253     -76.8782533
9.026                0.969031101     -76.9992188
9.027                 0.96895475     -77.1204961
9.028                  0.9688782     -77.2420863
9.029                 0.96880145     -77.3639904
9.03                   0.9687245     -77.4862093
9.031                0.968647349      -77.608744
9.032                0.968569997     -77.7315956
9.033                0.968492444     -77.8547649
9.034                0.968414688      -77.978253
9.035                0.968336731     -78.1020608
9.036                 0.96825857     -78.2261894
9.037                0.968180206     -78.3506398
9.038                0.968101638     -78.4754128
9.039                0.968022865     -78.6005096
9.04                 0.967943888     -78.7259312
9.041                0.967864706     -78.8516785
9.042                0.967785318     -78.9777525
9.043                0.967705724     -79.1041543
9.044                0.967625924     -79.2308848
9.045                0.967545916     -79.3579451
9.046                0.967465701     -79.4853362
9.047                0.967385279     -79.6130591
9.048                0.967304648     -79.7411148
9.049                0.967223809     -79.8695043
9.05                  0.96714276     -79.9982287
9.051                0.967061502     -80.1272889
9.052                0.966980034     -80.2566861
9.053                0.966898356     -80.3864212
9.054                0.966816468     -80.5164953
9.055                0.966734368     -80.6469094
9.056                0.966652056     -80.7776645
9.057                0.966569533     -80.9087617
9.058                0.966486798     -81.0402019
9.059                0.966403849     -81.1719864
9.06                 0.966320688      -81.304116
9.061                0.966237314     -81.4365918
9.062                0.966153725      -81.569415
9.063                0.966069923     -81.7025864
9.064                0.965985906     -81.8361073
9.065                0.965901674     -81.9699786
9.066                0.965817227     -82.1042013
9.067                0.965732564     -82.2387766
9.068                0.965647685     -82.3737055
9.069                0.965562591     -82.5089891
9.07                 0.965477279     -82.6446284
9.071                0.965391751     -82.7806244
9.072                0.965306005     -82.9169783
9.073                0.965220042     -83.0536912
9.074                0.965133861      -83.190764
9.075                0.965047462     -83.3281978
9.076                0.964960844     -83.4659938
9.077                0.964874008      -83.604153
9.078                0.964786953     -83.7426764
9.079                0.964699678     -83.8815652
9.08                 0.964612183     -84.0208205
9.081                0.964524469     -84.1604432
9.082                0.964436535     -84.3004345
9.083                 0.96434838     -84.4407955
9.084                0.964260004     -84.5815272
9.085                0.964171407     -84.7226308
9.086                 0.96408259     -84.8641073
9.087                 0.96399355     -85.0059578
9.088                 0.96390429     -85.1481834
9.089                0.963814807     -85.2907852
9.09                 0.963725102     -85.4337643
9.091                0.963635175     -85.5771218
9.092                0.963545026     -85.7208588
9.093                0.963454653     -85.8649763
9.094                0.963364058     -86.0094755
9.095                 0.96327324     -86.1543574
9.096                0.963182199     -86.2996232
9.097                0.963090934      -86.445274
9.098                0.962999446     -86.5913109
9.099                0.962907734     -86.7377349
9.1                  0.962815798     -86.8845472
9.101                0.962723638     -87.0317489
9.102                0.962631254     -87.1793411
9.103                0.962538646     -87.3273248
9.104                0.962445813     -87.4757013
9.105                0.962352756     -87.6244715
9.106                0.962259475     -87.7736367
9.107                0.962165969     -87.9231979
9.108                0.962072238     -88.0731562
9.109                0.961978283     -88.2235128
9.11                 0.961884103     -88.3742687
9.111                0.961789698     -88.5254251
9.112                0.961695068     -88.6769831
9.113                0.961600213     -88.8289438
9.114                0.961505133     -88.9813082
9.115                0.961409829     -89.1340776
9.116                0.961314299     -89.2872531
9.117                0.961218545     -89.4408357
9.118                0.961122565     -89.5948265
9.119                0.961026361     -89.7492267
9.12                 0.960929932     -89.9040375
9.121                0.960833278     -90.0592598
9.122                  0.9607364     -90.2148949
9.123                0.960639297     -90.3709438
9.124                0.960541969     -90.5274077
9.125                0.960444417     -90.6842876
9.126                0.960346641     -90.8415847
9.127                0.960248641     -90.9993002
9.128                0.960150416      -91.157435
9.129                0.960051968     -91.3159904
9.13                 0.959953296     -91.4749675
9.131                  0.9598544     -91.6343673
9.132                0.959755281      -91.794191
9.133                0.959655938     -91.9544397
9.134                0.959556373     -92.1151144
9.135                0.959456585     -92.2762164
9.136                0.959356574     -92.4377468
9.137                0.959256341     -92.5997065
9.138                0.959155886     -92.7620969
9.139                0.959055209     -92.9249189
9.14                 0.958954311     -93.0881736
9.141                0.958853191     -93.2518622
9.142                0.958751851     -93.4159859
9.143                 0.95865029     -93.5805456
9.144                0.958548508     -93.7455425
9.145                0.958446507     -93.9109777
9.146                0.958344287     -94.0768523
9.147                0.958241847     -94.2431674
9.148                0.958139189     -94.4099241
9.149                0.958036312     -94.5771235
9.15                 0.957933217     -94.7447667
9.151                0.957829905     -94.9128548
9.152                0.957726376     -95.0813889
9.153                 0.95762263       -95.25037
9.154                0.957518669     -95.4197994
9.155                0.957414492     -95.5896779
9.156                  0.9573101     -95.7600069
9.157                0.957205493     -95.9307872
9.158                0.957100673     -96.1020201
9.159                0.956995639     -96.2737065
9.16                 0.956890393     -96.4458477
9.161                0.956784934     -96.6184446
9.162                0.956679264     -96.7914982
9.163                0.956573383     -96.9650098
9.164                0.956467291     -97.1389804
9.165                0.956360991     -97.3134109
9.166                0.956254481     -97.4883026
9.167                0.956147763     -97.6636564
9.168                0.956040838     -97.8394734
9.169                0.955933706     -98.0157547
9.17                 0.955826368     -98.1925013
9.171                0.955718825     -98.3697143
9.172                0.955611078     -98.5473946
9.173                0.955503127     -98.7255435
9.174                0.955394974     -98.9041618
9.175                0.955286619     -99.0832506
9.176                0.955178063      -99.262811
9.177                0.955069307      -99.442844
9.178                0.954960351     -99.6233506
9.179                0.954851198     -99.8043319
9.18                 0.954741847     -99.9857888
9.181                0.954632301     -100.167722
9.182                0.954522559     -100.350134
9.183                0.954412622     -100.533024
9.184                0.954302493     -100.716393
9.185                0.954192172     -100.900243
9.186                0.954081659     -101.084575
9.187                0.953970957      -101.26939
9.188                0.953860066     -101.454688
9.189                0.953748987     -101.640471
9.19                 0.953637722      -101.82674
9.191                0.953526272     -102.013495
9.192                0.953414637     -102.200737
9.193                 0.95330282     -102.388468
9.194                0.953190822     -102.576689
9.195                0.953078643       -102.7654
9.196                0.952966285     -102.954602
9.197                 0.95285375     -103.144297
9.198                0.952741038     -103.334484
9.199                0.952628152     -103.525166
9.2                  0.952515092     -103.716343
9.201                 0.95240186     -103.908016
9.202                0.952288458     -104.100186
9.203                0.952174887     -104.292853
9.204                0.952061148      -104.48602
9.205                0.951947243     -104.679685
9.206                0.951833174     -104.873851
9.207                0.951718942     -105.068519
9.208                0.951604548     -105.263689
9.209                0.951489995     -105.459361
9.21                 0.951375284     -105.655538
9.211                0.951260417     -105.852219
9.212                0.951145395     -106.049406
9.213                 0.95103022       -106.2471
9.214                0.950914894       -106.4453
9.215                0.950799419     -106.644009
9.216                0.950683797     -106.843227
9.217                0.950568029     -107.042954
9.218                0.950452117     -107.243192
9.219                0.950336063      -107.44394
9.22                  0.95021987     -107.645201
9.221                0.950103538     -107.846975
9.222                0.949987071     -108.049263
9.223                 0.94987047     -108.252064
9.224                0.949753736     -108.455381
9.225                0.949636873     -108.659214
9.226                0.949519883     -108.863563
9.227                0.949402766     -109.068429
9.228                0.949285527     -109.273813
9.229                0.949168166     -109.479716
9.23                 0.949050686     -109.686138
9.231                0.948933089      -109.89308
9.232                0.948815378     -110.100543
9.233                0.948697554     -110.308528
9.234                0.948579621     -110.517034
9.235                 0.94846158     -110.726063
9.236                0.948343434     -110.935615
9.237                0.948225186     -111.145691
9.238                0.948106837     -111.356291
9.239                 0.94798839     -111.567416
9.24                 0.947869849     -111.779067
9.241                0.947751215     -111.991245
9.242                 0.94763249     -112.203949
9.243                0.947513679      -112.41718
9.244                0.947394782     -112.630939
9.245                0.947275804     -112.845227
9.246                0.947156746     -113.060044
9.247                0.947037611      -113.27539
9.248                0.946918403     -113.491265
9.249                0.946799123     -113.707672
9.25                 0.946679775     -113.924609
9.251                0.946560362     -114.142077
9.252                0.946440886     -114.360077
9.253                0.946321351      -114.57861
9.254                 0.94620176     -114.797674
9.255                0.946082115     -115.017272
9.256                0.945962419     -115.237403
9.257                0.945842676     -115.458068
9.258                0.945722888     -115.679267
9.259                 0.94560306     -115.901001
9.26                 0.945483193     -116.123269
9.261                0.945363291     -116.346072
9.262                0.945243358     -116.569411
9.263                0.945123397     -116.793285
9.264                 0.94500341     -117.017696
9.265                0.944883402     -117.242642
9.266                0.944763376     -117.468125
9.267                0.944643334     -117.694145
9.268                0.944523281     -117.920701
9.269                 0.94440322     -118.147795
9.27                 0.944283155     -118.375426
9.271                0.944163088     -118.603594
9.272                0.944043024       -118.8323
9.273                0.943922967     -119.061544
9.274                0.943802919     -119.291326
9.275                0.943682884     -119.521645
9.276                0.943562867     -119.752503
9.277                0.943442871     -119.983898
9.278                  0.9433229     -120.215832
9.279                0.943202957     -120.448304
9.28                 0.943083046     -120.681314
9.281                0.942963172     -120.914862
9.282                0.942843338     -121.148949
9.283                0.942723548     -121.383573
9.284                0.942603806     -121.618736
9.285                0.942484116     -121.854437
9.286                0.942364482     -122.090675
9.287                0.942244908     -122.327452
9.288                0.942125399     -122.564766
9.289                0.942005958     -122.802617
9.29                  0.94188659     -123.041006
9.291                0.941767299     -123.279932
9.292                0.941648089     -123.519396
9.293                0.941528964     -123.759395
9.294                0.941409929     -123.999932
9.295                0.941290988     -124.241004
9.296                0.941172146     -124.482613
9.297                0.941053406     -124.724757
9.298                0.940934773     -124.967437
9.299                0.940816252     -125.210651
9.3                  0.940697848       -125.4544
9.301                0.940579564     -125.698684
9.302                0.940461406     -125.943501
9.303                0.940343377     -126.188851
9.304                0.940225483     -126.434735
9.305                0.940107729     -126.681151
9.306                0.939990118     -126.928099
9.307                0.939872656     -127.175578
9.308                0.939755348     -127.423589
9.309                0.939638197     -127.672129
9.31                  0.93952121       -127.9212
9.311                0.939404391       -128.1708
9.312                0.939287744     -128.420928
9.313                0.939171275     -128.671584
9.314                0.939054989     -128.922768
9.315                 0.93893889     -129.174478
9.316                0.938822984     -129.426714
9.317                0.938707275     -129.679475
9.318                0.938591769      -129.93276
9.319                0.938476471     -130.186569
9.32                 0.938361385     -130.440901
9.321                0.938246518     -130.695754
9.322                0.938131874     -130.951129
9.323                0.938017458     -131.207024
9.324                0.937903276     -131.463438
9.325                0.937789332      -131.72037
9.326                0.937675633      -131.97782
9.327                0.937562182     -132.235786
9.328                0.937448987     -132.494268
9.329                0.937336052     -132.753264
9.33                 0.937223382     -133.012773
9.331                0.937110982     -133.272795
9.332                0.936998859     -133.533327
9.333                0.936887018      -133.79437
9.334                0.936775463     -134.055922
9.335                0.936664202     -134.317981
9.336                0.936553238     -134.580547
9.337                0.936442578     -134.843618
9.338                0.936332227     -135.107193
9.339                0.936222191     -135.371271
9.34                 0.936112475      -135.63585
9.341                0.936003085     -135.900929
9.342                0.935894026     -136.166507
9.343                0.935785305     -136.432582
9.344                0.935676926     -136.699153
9.345                0.935568896     -136.966219
9.346                 0.93546122     -137.233777
9.347                0.935353905     -137.501827
9.348                0.935246954     -137.770367
9.349                0.935140376     -138.039396
9.35                 0.935034174     -138.308911
9.351                0.934928355     -138.578911
9.352                0.934822925     -138.849396
9.353                 0.93471789     -139.120362
9.354                0.934613254     -139.391808
9.355                0.934509025     -139.663733
9.356                0.934405208     -139.936135
9.357                0.934301809     -140.209012
9.358                0.934198833     -140.482362
9.359                0.934096287     -140.756183
9.36                 0.933994176     -141.030474
9.361                0.933892507     -141.305233
9.362                0.933791284     -141.580458
9.363                0.933690515     -141.856146
9.364                0.933590204     -142.132297
9.365                0.933490359     -142.408907
9.366                0.933390984     -142.685975
9.367                0.933292086       -142.9635
9.368                 0.93319367     -143.241478
9.369                0.933095743     -143.519907
9.37                  0.93299831     -143.798786
9.371                0.932901378     -144.078113
9.372                0.932804951     -144.357885
9.373                0.932709037       -144.6381
9.374                0.932613641     -144.918755
9.375                0.932518769     -145.199849
9.376                0.932424427     -145.481379
9.377                 0.93233062     -145.763344
9.378                0.932237356     -146.045739
9.379                0.932144638     -146.328564
9.38                 0.932052475     -146.611816
9.381                 0.93196087     -146.895491
9.382                0.931869831     -147.179589
9.383                0.931779363     -147.464106
9.384                0.931689472      -147.74904
9.385                0.931600164     -148.034388
9.386                0.931511444     -148.320147
9.387                0.931423319     -148.606316
9.388                0.931335794     -148.892891
9.389                0.931248875      -149.17987
9.39                 0.931162568      -149.46725
9.391                0.931076878     -149.755028
9.392                0.930991812     -150.043202
9.393                0.930907375     -150.331769
9.394                0.930823572     -150.620726
9.395                0.930740411      -150.91007
9.396                0.930657895     -151.199798
