! TOUCHSTONE file generated by CST DESIGN STUDIO
! Date and time: Tue Feb  4 15:41:39 2025
! Project name: C:\Work\MatlabApps\UnitCellOptimizationMatlab\CST\unitcell.cst
! Tree item: Tasks\Sweep1\SPara1\S-Parameters
! Header version: 2024
! Port assignment regex: !\s*Touchstone port\s*([0-9]+)\s*=\s*(CST MWS port|CST DES external port|CST DES block port)\s*(.+)\s* \(\"(.*)\"\)(\s*mode\s*([0-9]+))?.*
! Touchstone port assignment:
! Touchstone port 1 = CST DES external port 1 ("")
# GHz S MA R 50
9                    0.969341356     -79.0374153
9.001                0.969261671     -79.1633873
9.002                0.969181783     -79.2896858
9.003                0.969101693     -79.4163119
9.004                  0.9690214     -79.5432666
9.005                0.968940903     -79.6705508
9.006                0.968860202     -79.7981656
9.007                0.968779297      -79.926112
9.008                0.968698187      -80.054391
9.009                0.968616873     -80.1830036
9.01                 0.968535352     -80.3119509
9.011                0.968453626     -80.4412338
9.012                0.968371694     -80.5708534
9.013                0.968289554     -80.7008107
9.014                0.968207208     -80.8311068
9.015                0.968124655     -80.9617426
9.016                0.968041893     -81.0927192
9.017                0.967958923     -81.2240376
9.018                0.967875745     -81.3556989
9.019                0.967792358     -81.4877041
9.02                 0.967708762     -81.6200542
9.021                0.967624955     -81.7527504
9.022                0.967540939     -81.8857935
9.023                0.967456713     -82.0191847
9.024                0.967372276     -82.1529251
9.025                0.967287628     -82.2870156
9.026                0.967202768     -82.4214573
9.027                0.967117697     -82.5562513
9.028                0.967032414     -82.6913986
9.029                0.966946919     -82.8269003
9.03                  0.96686121     -82.9627574
9.031                0.966775289      -83.098971
9.032                0.966689155     -83.2355422
9.033                0.966602807      -83.372472
9.034                0.966516245     -83.5097614
9.035                 0.96642947     -83.6474117
9.036                0.966342479     -83.7854237
9.037                0.966255274     -83.9237986
9.038                0.966167854     -84.0625375
9.039                0.966080219     -84.2016414
9.04                 0.965992368     -84.3411114
9.041                0.965904302     -84.4809486
9.042                0.965816019     -84.6211541
9.043                 0.96572752     -84.7617288
9.044                0.965638805      -84.902674
9.045                0.965549873     -85.0439907
9.046                0.965460724       -85.18568
9.047                0.965371358     -85.3277429
9.048                0.965281774     -85.4701806
9.049                0.965191973     -85.6129941
9.05                 0.965101954     -85.7561845
9.051                0.965011717      -85.899753
9.052                0.964921262     -86.0437005
9.053                0.964830588     -86.1880283
9.054                0.964739696     -86.3327373
9.055                0.964648585     -86.4778287
9.056                0.964557256     -86.6233035
9.057                0.964465707      -86.769163
9.058                 0.96437394     -86.9154081
9.059                0.964281953     -87.0620399
9.06                 0.964189746     -87.2090596
9.061                0.964097321     -87.3564683
9.062                0.964004675     -87.5042671
9.063                 0.96391181      -87.652457
9.064                0.963818725     -87.8010392
9.065                 0.96372542     -87.9500147
9.066                0.963631895     -88.0993847
9.067                 0.96353815     -88.2491503
9.068                0.963444185     -88.3993125
9.069                    0.96335     -88.5498726
9.07                 0.963255595     -88.7008315
9.071                0.963160969     -88.8521905
9.072                0.963066123     -89.0039505
9.073                0.962971057     -89.1561128
9.074                0.962875771     -89.3086783
9.075                0.962780264     -89.4616484
9.076                0.962684537     -89.6150239
9.077                 0.96258859     -89.7688061
9.078                0.962492423      -89.922996
9.079                0.962396035     -90.0775948
9.08                 0.962299428     -90.2326036
9.081                  0.9622026     -90.3880235
9.082                0.962105553     -90.5438555
9.083                0.962008285     -90.7001009
9.084                0.961910798     -90.8567607
9.085                0.961813092      -91.013836
9.086                0.961715165     -91.1713279
9.087                 0.96161702     -91.3292376
9.088                0.961518655     -91.4875661
9.089                0.961420071     -91.6463146
9.09                 0.961321268     -91.8054841
9.091                0.961222247     -91.9650758
9.092                0.961123007     -92.1250908
9.093                0.961023548     -92.2855302
9.094                0.960923871     -92.4463951
9.095                0.960823977     -92.6076866
9.096                0.960723865     -92.7694058
9.097                0.960623535     -92.9315537
9.098                0.960522988     -93.0941317
9.099                0.960422225     -93.2571406
9.1                  0.960321245     -93.4205816
9.101                0.960220048     -93.5844559
9.102                0.960118636     -93.7487644
9.103                0.960017008     -93.9135084
9.104                0.959915165     -94.0786889
9.105                0.959813106      -94.244307
9.106                0.959710834     -94.4103639
9.107                0.959608347     -94.5768605
9.108                0.959505646      -94.743798
9.109                0.959402732     -94.9111775
9.11                 0.959299606         -95.079
9.111                0.959196266     -95.2472668
9.112                0.959092715     -95.4159787
9.113                0.958988952      -95.585137
9.114                0.958884979     -95.7547427
9.115                0.958780794     -95.9247969
9.116                  0.9586764     -96.0953007
9.117                0.958571797     -96.2662551
9.118                0.958466984     -96.4376612
9.119                0.958361963     -96.6095201
9.12                 0.958256735     -96.7818329
9.121                0.958151299     -96.9546006
9.122                0.958045657     -97.1278244
9.123                0.957939809     -97.3015051
9.124                0.957833756      -97.475644
9.125                0.957727499     -97.6502421
9.126                0.957621037     -97.8253004
9.127                0.957514373       -98.00082
9.128                0.957407506     -98.1768019
9.129                0.957300437     -98.3532472
9.13                 0.957193168     -98.5301569
9.131                0.957085698     -98.7075321
9.132                 0.95697803     -98.8853738
9.133                0.956870162      -99.063683
9.134                0.956762098     -99.2424608
9.135                0.956653836     -99.4217081
9.136                0.956545379     -99.6014261
9.137                0.956436726     -99.7816157
9.138                 0.95632788      -99.962278
9.139                 0.95621884     -100.143414
9.14                 0.956109608     -100.325025
9.141                0.956000185     -100.507111
9.142                0.955890572     -100.689674
9.143                0.955780769     -100.872714
9.144                0.955670779     -101.056234
9.145                0.955560601     -101.240233
9.146                0.955450238     -101.424712
9.147                0.955339689     -101.609673
9.148                0.955228957     -101.795117
9.149                0.955118042     -101.981044
9.15                 0.955006945     -102.167456
9.151                0.954895668     -102.354353
9.152                0.954784212     -102.541737
9.153                0.954672579     -102.729608
9.154                0.954560769     -102.917967
9.155                0.954448783     -103.106816
9.156                0.954336623     -103.296155
9.157                0.954224291     -103.485985
9.158                0.954111788     -103.676307
9.159                0.953999114     -103.867122
9.16                 0.953886272      -104.05843
9.161                0.953773263     -104.250234
9.162                0.953660088     -104.442533
9.163                0.953546748     -104.635329
9.164                0.953433246     -104.828622
9.165                0.953319583     -105.022414
9.166                 0.95320576     -105.216704
9.167                 0.95309178     -105.411495
9.168                0.952977642     -105.606787
9.169                 0.95286335      -105.80258
9.17                 0.952748904     -105.998876
9.171                0.952634307     -106.195675
9.172                 0.95251956     -106.392979
9.173                0.952404664     -106.590788
9.174                0.952289622     -106.789102
9.175                0.952174436     -106.987924
9.176                0.952059107     -107.187253
9.177                0.951943636      -107.38709
9.178                0.951828027     -107.587436
9.179                 0.95171228     -107.788292
9.18                 0.951596398     -107.989659
9.181                0.951480382     -108.191537
9.182                0.951364235     -108.393927
9.183                0.951247958      -108.59683
9.184                0.951131554     -108.800247
9.185                0.951015025     -109.004177
9.186                0.950898372     -109.208623
9.187                0.950781597     -109.413585
9.188                0.950664704     -109.619063
9.189                0.950547694     -109.825058
9.19                 0.950430568     -110.031571
9.191                0.950313331     -110.238603
9.192                0.950195983     -110.446153
9.193                0.950078527     -110.654223
9.194                0.949960965     -110.862814
9.195                  0.9498433     -111.071926
9.196                0.949725533     -111.281559
9.197                0.949607669     -111.491715
9.198                0.949489707     -111.702393
9.199                0.949371653     -111.913595
9.2                  0.949253507      -112.12532
9.201                0.949135272      -112.33757
9.202                0.949016951     -112.550346
9.203                0.948898546     -112.763647
9.204                 0.94878006     -112.977474
9.205                0.948661496     -113.191827
9.206                0.948542857     -113.406708
9.207                0.948424144     -113.622117
9.208                0.948305361     -113.838053
9.209                 0.94818651     -114.054518
9.21                 0.948067595     -114.271513
9.211                0.947948618     -114.489036
9.212                0.947829582      -114.70709
9.213                 0.94771049     -114.925674
9.214                0.947591344     -115.144788
9.215                0.947472149     -115.364434
9.216                0.947352906     -115.584611
9.217                0.947233619      -115.80532
9.218                0.947114291     -116.026561
9.219                0.946994924     -116.248335
9.22                 0.946875523     -116.470641
9.221                 0.94675609     -116.693481
9.222                0.946636628     -116.916854
9.223                0.946517141     -117.140761
9.224                0.946397631     -117.365201
9.225                0.946278103     -117.590176
9.226                0.946158559     -117.815685
9.227                0.946039003     -118.041729
9.228                0.945919439     -118.268308
9.229                0.945799868     -118.495422
9.23                 0.945680296     -118.723071
9.231                0.945560725     -118.951255
9.232                0.945441159     -119.179975
9.233                0.945321602      -119.40923
9.234                0.945202057     -119.639021
9.235                0.945082528     -119.869348
9.236                0.944963018     -120.100211
9.237                0.944843531     -120.331609
9.238                0.944724071     -120.563544
9.239                0.944604641     -120.796014
9.24                 0.944485246     -121.029021
9.241                0.944365889     -121.262563
9.242                0.944246573     -121.496641
9.243                0.944127304     -121.731255
9.244                0.944008084     -121.966405
9.245                0.943888918     -122.202091
9.246                 0.94376981     -122.438312
9.247                0.943650763     -122.675069
9.248                0.943531782     -122.912361
9.249                0.943412871     -123.150188
9.25                 0.943294034      -123.38855
9.251                0.943175275     -123.627447
9.252                0.943056597     -123.866879
9.253                0.942938007     -124.106845
9.254                0.942819507     -124.347345
9.255                0.942701102     -124.588378
9.256                0.942582796     -124.829945
9.257                0.942464593     -125.072046
9.258                0.942346498     -125.314679
9.259                0.942228516     -125.557845
9.26                  0.94211065     -125.801543
9.261                0.941992906     -126.045772
9.262                0.941875287     -126.290533
9.263                0.941757799     -126.535825
9.264                0.941640445     -126.781647
9.265                 0.94152323     -127.027999
9.266                0.941406159      -127.27488
9.267                0.941289237      -127.52229
9.268                0.941172468     -127.770228
9.269                0.941055857     -128.018695
9.27                 0.940939409     -128.267688
9.271                0.940823128     -128.517208
9.272                0.940707019     -128.767254
9.273                0.940591087     -129.017825
9.274                0.940475337      -129.26892
9.275                0.940359774     -129.520539
9.276                0.940244402     -129.772682
9.277                0.940129227     -130.025347
9.278                0.940014253     -130.278533
9.279                0.939899486      -130.53224
9.28                 0.939784931     -130.786468
9.281                0.939670592     -131.041214
9.282                0.939556474     -131.296478
9.283                0.939442584      -131.55226
9.284                0.939328925     -131.808559
9.285                0.939215503     -132.065373
9.286                0.939102323     -132.322701
9.287                0.938989391     -132.580543
9.288                0.938876711     -132.838897
9.289                0.938764289     -133.097763
9.29                 0.938652129      -133.35714
9.291                0.938540239     -133.617025
9.292                0.938428621     -133.877419
9.293                0.938317283      -134.13832
9.294                0.938206229     -134.399727
9.295                0.938095465     -134.661639
9.296                0.937984996     -134.924054
9.297                0.937874827     -135.186971
9.298                0.937764965     -135.450389
9.299                0.937655413     -135.714307
9.3                  0.937546179     -135.978724
9.301                0.937437267     -136.243637
9.302                0.937328682     -136.509046
9.303                0.937220431      -136.77495
9.304                0.937112519     -137.041346
9.305                0.937004952     -137.308233
9.306                0.936897735     -137.575611
9.307                0.936790873     -137.843477
9.308                0.936684372      -138.11183
9.309                0.936578239     -138.380668
9.31                 0.936472478      -138.64999
9.311                0.936367095     -138.919794
9.312                0.936262096     -139.190078
9.313                0.936157487     -139.460841
9.314                0.936053273     -139.732082
9.315                 0.93594946     -140.003797
9.316                0.935846053     -140.275987
9.317                0.935743059     -140.548648
9.318                0.935640483     -140.821779
9.319                 0.93553833     -141.095379
9.32                 0.935436607     -141.369445
9.321                 0.93533532     -141.643976
9.322                0.935234474     -141.918969
9.323                0.935134074     -142.194422
9.324                0.935034127     -142.470335
9.325                0.934934639     -142.746704
9.326                0.934835614     -143.023528
9.327                 0.93473706     -143.300804
9.328                0.934638981     -143.578531
9.329                0.934541384     -143.856707
9.33                 0.934444274     -144.135328
9.331                0.934347658     -144.414394
9.332                 0.93425154     -144.693902
9.333                0.934155927     -144.973849
9.334                0.934060824     -145.254234
9.335                0.933966238     -145.535054
9.336                0.933872173     -145.816307
9.337                0.933778637     -146.097991
9.338                0.933685633     -146.380103
9.339                 0.93359317      -146.66264
9.34                 0.933501251     -146.945601
9.341                0.933409883     -147.228983
9.342                0.933319072     -147.512784
9.343                0.933228823     -147.797001
9.344                0.933139143     -148.081631
9.345                0.933050036     -148.366671
9.346                0.932961508     -148.652121
9.347                0.932873566     -148.937976
9.348                0.932786214     -149.224234
9.349                0.932699459     -149.510892
9.35                 0.932613307     -149.797949
9.351                0.932527761       -150.0854
9.352                 0.93244283     -150.373244
9.353                0.932358517     -150.661477
9.354                0.932274829     -150.950097
9.355                0.932191771       -151.2391
9.356                0.932109349     -151.528485
9.357                0.932027568     -151.818248
9.358                0.931946434     -152.108386
9.359                0.931865952     -152.398897
9.36                 0.931786128     -152.689776
9.361                0.931706967     -152.981023
9.362                0.931628475     -153.272632
9.363                0.931550656     -153.564602
9.364                0.931473517     -153.856929
9.365                0.931397062      -154.14961
9.366                0.931321297     -154.442643
9.367                0.931246228     -154.736023
9.368                0.931171859     -155.029748
9.369                0.931098195     -155.323814
9.37                 0.931025243     -155.618219
9.371                0.930953006     -155.912959
9.372                0.930881491      -156.20803
9.373                0.930810701      -156.50343
9.374                0.930740643     -156.799155
9.375                0.930671322     -157.095202
9.376                0.930602741     -157.391568
9.377                0.930534907     -157.688248
9.378                0.930467824     -157.985241
9.379                0.930401496     -158.282541
9.38                  0.93033593     -158.580146
9.381                0.930271129     -158.878052
9.382                0.930207098     -159.176256
9.383                0.930143842     -159.474755
9.384                0.930081366     -159.773543
9.385                0.930019674     -160.072619
9.386                 0.92995877     -160.371979
9.387                0.929898661     -160.671618
9.388                0.929839348     -160.971533
9.389                0.929780838     -161.271721
9.39                 0.929723135     -161.572178
9.391                0.929666242       -161.8729
9.392                0.929610165     -162.173883
9.393                0.929554907     -162.475124
9.394                0.929500472     -162.776618
9.395                0.929446866     -163.078363
9.396                0.929394091     -163.380353
