! TOUCHSTONE file generated by CST DESIGN STUDIO
! Date and time: Tue Feb  4 15:41:50 2025
! Project name: C:\Work\MatlabApps\UnitCellOptimizationMatlab\CST\unitcell.cst
! Tree item: Tasks\Sweep1\SPara1\S-Parameters
! Header version: 2024
! Port assignment regex: !\s*Touchstone port\s*([0-9]+)\s*=\s*(CST MWS port|CST DES external port|CST DES block port)\s*(.+)\s* \(\"(.*)\"\)(\s*mode\s*([0-9]+))?.*
! Touchstone port assignment:
! Touchstone port 1 = CST DES external port 1 ("")
# GHz S MA R 50
9                    0.975094313     -61.3048146
9.001                0.975043918     -61.3904118
9.002                 0.97499339     -61.4762112
9.003                0.974942727     -61.5622137
9.004                0.974891931     -61.6484197
9.005                   0.974841     -61.7348299
9.006                0.974789933     -61.8214451
9.007                0.974738731     -61.9082658
9.008                0.974687391     -61.9952928
9.009                0.974635915     -62.0825266
9.01                 0.974584302     -62.1699679
9.011                 0.97453255     -62.2576175
9.012                0.974480659     -62.3454759
9.013                0.974428629     -62.4335439
9.014                0.974376459     -62.5218221
9.015                0.974324149     -62.6103112
9.016                0.974271698     -62.6990119
9.017                0.974219105     -62.7879248
9.018                 0.97416637     -62.8770506
9.019                0.974113492     -62.9663901
9.02                 0.974060471     -63.0559438
9.021                0.974007307     -63.1457126
9.022                0.973953998     -63.2356971
9.023                0.973900544     -63.3258979
9.024                0.973846944     -63.4163158
9.025                0.973793199     -63.5069514
9.026                0.973739306     -63.5978056
9.027                0.973685267     -63.6888789
9.028                 0.97363108     -63.7801721
9.029                0.973576744     -63.8716859
9.03                 0.973522259      -63.963421
9.031                0.973467625     -64.0553781
9.032                 0.97341284     -64.1475579
9.033                0.973357905     -64.2399612
9.034                0.973302819     -64.3325887
9.035                0.973247581      -64.425441
9.036                 0.97319219     -64.5185189
9.037                0.973136646     -64.6118232
9.038                0.973080949     -64.7053546
9.039                0.973025097     -64.7991138
9.04                 0.972969091     -64.8931015
9.041                0.972912929     -64.9873185
9.042                0.972856611     -65.0817655
9.043                0.972800136     -65.1764433
9.044                0.972743505     -65.2713525
9.045                0.972686716      -65.366494
9.046                0.972629768     -65.4618686
9.047                0.972572661     -65.5574768
9.048                0.972515395     -65.6533196
9.049                0.972457969     -65.7493977
9.05                 0.972400382     -65.8457117
9.051                0.972342634     -65.9422626
9.052                0.972284724      -66.039051
9.053                0.972226651     -66.1360777
9.054                0.972168415     -66.2333436
9.055                0.972110016     -66.3308492
9.056                0.972051452     -66.4285955
9.057                0.971992723     -66.5265833
9.058                0.971933829     -66.6248132
9.059                0.971874769     -66.7232861
9.06                 0.971815541     -66.8220028
9.061                0.971756147      -66.920964
9.062                0.971696585     -67.0201705
9.063                0.971636854     -67.1196232
9.064                0.971576954     -67.2193228
9.065                0.971516885     -67.3192702
9.066                0.971456645      -67.419466
9.067                0.971396234     -67.5199112
9.068                0.971335652     -67.6206065
9.069                0.971274897     -67.7215528
9.07                  0.97121397     -67.8227508
9.071                0.971152869     -67.9242014
9.072                0.971091594     -68.0259054
9.073                0.971030145     -68.1278636
9.074                0.970968521     -68.2300768
9.075                0.970906721     -68.3325459
9.076                0.970844744     -68.4352716
9.077                0.970782591     -68.5382549
9.078                0.970720259     -68.6414964
9.079                 0.97065775     -68.7449972
9.08                 0.970595062      -68.848758
9.081                0.970532194     -68.9527796
9.082                0.970469146     -69.0570629
9.083                0.970405918     -69.1616087
9.084                0.970342508     -69.2664179
9.085                0.970278917     -69.3714914
9.086                0.970215143     -69.4768299
9.087                0.970151186     -69.5824344
9.088                0.970087045     -69.6883057
9.089                 0.97002272     -69.7944447
9.09                  0.96995821     -69.9008521
9.091                0.969893514      -70.007529
9.092                0.969828632     -70.1144761
9.093                0.969763564     -70.2216944
9.094                0.969698308     -70.3291847
9.095                0.969632864     -70.4369479
9.096                0.969567232     -70.5449848
9.097                 0.96950141     -70.6532964
9.098                0.969435398     -70.7618835
9.099                0.969369197      -70.870747
9.1                  0.969302804     -70.9798878
9.101                0.969236219     -71.0893069
9.102                0.969169442      -71.199005
9.103                0.969102473     -71.3089832
9.104                 0.96903531     -71.4192422
9.105                0.968967953      -71.529783
9.106                0.968900401     -71.6406066
9.107                0.968832654     -71.7517138
9.108                0.968764711     -71.8631055
9.109                0.968696572     -71.9747826
9.11                 0.968628235     -72.0867461
9.111                0.968559701     -72.1989969
9.112                0.968490969     -72.3115359
9.113                0.968422038      -72.424364
9.114                0.968352907     -72.5374822
9.115                0.968283577     -72.6508913
9.116                0.968214045     -72.7645924
9.117                0.968144313     -72.8785864
9.118                0.968074378     -72.9928741
9.119                0.968004241     -73.1074566
9.12                 0.967933902     -73.2223347
9.121                0.967863358     -73.3375095
9.122                 0.96779261     -73.4529818
9.123                0.967721658     -73.5687527
9.124                  0.9676505     -73.6848231
9.125                0.967579136     -73.8011939
9.126                0.967507565     -73.9178661
9.127                0.967435788     -74.0348406
9.128                0.967363802     -74.1521185
9.129                0.967291609     -74.2697007
9.13                 0.967219206     -74.3875881
9.131                0.967146594     -74.5057818
9.132                0.967073772     -74.6242827
9.133                0.967000739     -74.7430918
9.134                0.966927496       -74.86221
9.135                 0.96685404     -74.9816384
9.136                0.966780372      -75.101378
9.137                0.966706491     -75.2214297
9.138                0.966632397     -75.3417944
9.139                0.966558089     -75.4624733
9.14                 0.966483566     -75.5834674
9.141                0.966408828     -75.7047775
9.142                0.966333874     -75.8264047
9.143                0.966258704     -75.9483501
9.144                0.966183318     -76.0706145
9.145                0.966107714     -76.1931991
9.146                0.966031892     -76.3161049
9.147                0.965955851     -76.4393328
9.148                0.965879592     -76.5628838
9.149                0.965803113     -76.6867591
9.15                 0.965726414     -76.8109596
9.151                0.965649495     -76.9354863
9.152                0.965572354     -77.0603402
9.153                0.965494992     -77.1855225
9.154                0.965417408     -77.3110341
9.155                0.965339601      -77.436876
9.156                0.965261571     -77.5630494
9.157                0.965183317     -77.6895551
9.158                0.965104838     -77.8163944
9.159                0.965026136     -77.9435681
9.16                 0.964947207     -78.0710775
9.161                0.964868054     -78.1989234
9.162                0.964788673      -78.327107
9.163                0.964709067     -78.4556293
9.164                0.964629232     -78.5844914
9.165                0.964549171     -78.7136944
9.166                0.964468881     -78.8432392
9.167                0.964388362      -78.973127
9.168                0.964307614     -79.1033587
9.169                0.964226637     -79.2339356
9.17                 0.964145429     -79.3648587
9.171                0.964063991     -79.4961289
9.172                0.963982322     -79.6277475
9.173                0.963900422     -79.7597154
9.174                0.963818289     -79.8920338
9.175                0.963735924     -80.0247038
9.176                0.963653327     -80.1577263
9.177                0.963570496     -80.2911026
9.178                0.963487431     -80.4248336
9.179                0.963404133     -80.5589205
9.18                 0.963320599     -80.6933644
9.181                0.963236831     -80.8281664
9.182                0.963152828     -80.9633275
9.183                0.963068589     -81.0988489
9.184                0.962984113     -81.2347317
9.185                0.962899402     -81.3709769
9.186                0.962814453     -81.5075856
9.187                0.962729267     -81.6445591
9.188                0.962643843     -81.7818983
9.189                0.962558181     -81.9196044
9.19                 0.962472281     -82.0576785
9.191                0.962386141     -82.1961217
9.192                0.962299763     -82.3349351
9.193                0.962213145     -82.4741199
9.194                0.962126288     -82.6136771
9.195                 0.96203919     -82.7536079
9.196                0.961951852     -82.8939134
9.197                0.961864272     -83.0345948
9.198                0.961776452     -83.1756531
9.199                 0.96168839     -83.3170895
9.2                  0.961600087     -83.4589051
9.201                0.961511541      -83.601101
9.202                0.961422753     -83.7436784
9.203                0.961333723     -83.8866384
9.204                0.961244449     -84.0299822
9.205                0.961154933     -84.1737108
9.206                0.961065173     -84.3178255
9.207                0.960975169     -84.4623273
9.208                0.960884921     -84.6072174
9.209                 0.96079443      -84.752497
9.21                 0.960703694     -84.8981671
9.211                0.960612713      -85.044229
9.212                0.960521487     -85.1906837
9.213                0.960430017     -85.3375325
9.214                0.960338301     -85.4847765
9.215                 0.96024634     -85.6324168
9.216                0.960154134     -85.7804545
9.217                0.960061681     -85.9288909
9.218                0.959968983     -86.0777271
9.219                0.959876039     -86.2269642
9.22                 0.959782848     -86.3766034
9.221                0.959689412     -86.5266459
9.222                0.959595729     -86.6770928
9.223                0.959501799     -86.8279453
9.224                0.959407623     -86.9792044
9.225                  0.9593132     -87.1308715
9.226                 0.95921853     -87.2829476
9.227                0.959123614      -87.435434
9.228                 0.95902845     -87.5883317
9.229                 0.95893304      -87.741642
9.23                 0.958837382     -87.8953659
9.231                0.958741478     -88.0495048
9.232                0.958645326     -88.2040596
9.233                0.958548928     -88.3590317
9.234                0.958452282     -88.5144222
9.235                0.958355389     -88.6702321
9.236                 0.95825825     -88.8264628
9.237                0.958160863     -88.9831153
9.238                 0.95806323     -89.1401909
9.239                0.957965349     -89.2976907
9.24                 0.957867222     -89.4556158
9.241                0.957768849     -89.6139675
9.242                0.957670229     -89.7727469
9.243                0.957571362     -89.9319552
9.244                0.957472249     -90.0915935
9.245                 0.95737289      -90.251663
9.246                0.957273285     -90.4121649
9.247                0.957173434     -90.5731004
9.248                0.957073337     -90.7344706
9.249                0.956972995     -90.8962766
9.25                 0.956872408     -91.0585197
9.251                0.956771575      -91.221201
9.252                0.956670498     -91.3843217
9.253                0.956569176     -91.5478829
9.254                 0.95646761     -91.7118858
9.255                  0.9563658     -91.8763317
9.256                0.956263747     -92.0412215
9.257                 0.95616145     -92.2065565
9.258                0.956058909     -92.3723379
9.259                0.955956127     -92.5385669
9.26                 0.955853101     -92.7052445
9.261                0.955749834     -92.8723719
9.262                0.955646325     -93.0399503
9.263                0.955542575     -93.2079809
9.264                0.955438585     -93.3764648
9.265                0.955334354     -93.5454032
9.266                0.955229883     -93.7147971
9.267                0.955125172     -93.8846478
9.268                0.955020223     -94.0549565
9.269                0.954915036     -94.2257242
9.27                  0.95480961     -94.3969521
9.271                0.954703947     -94.5686413
9.272                0.954598048     -94.7407931
9.273                0.954491912     -94.9134084
9.274                 0.95438554     -95.0864886
9.275                0.954278934     -95.2600346
9.276                0.954172093     -95.4340477
9.277                0.954065019      -95.608529
9.278                0.953957711     -95.7834796
9.279                0.953850171     -95.9589006
9.28                   0.9537424     -96.1347931
9.281                0.953634397     -96.3111583
9.282                0.953526165     -96.4879974
9.283                0.953417703     -96.6653113
9.284                0.953309012     -96.8431013
9.285                0.953200093     -97.0213684
9.286                0.953090948     -97.2001137
9.287                0.952981577     -97.3793385
9.288                 0.95287198     -97.5590436
9.289                0.952762159     -97.7392303
9.29                 0.952652114     -97.9198997
9.291                0.952541847     -98.1010528
9.292                0.952431358     -98.2826908
9.293                0.952320649     -98.4648146
9.294                 0.95220972     -98.6474255
9.295                0.952098573     -98.8305244
9.296                0.951987208     -99.0141125
9.297                0.951875627     -99.1981908
9.298                 0.95176383     -99.3827603
9.299                 0.95165182     -99.5678223
9.3                  0.951539596     -99.7533776
9.301                 0.95142716     -99.9394273
9.302                0.951314513     -100.125973
9.303                0.951201657     -100.313014
9.304                0.951088593     -100.500554
9.305                0.950975321     -100.688592
9.306                0.950861844      -100.87713
9.307                0.950748162     -101.066168
9.308                0.950634278     -101.255708
9.309                0.950520191     -101.445751
9.31                 0.950405904     -101.636297
9.311                0.950291418     -101.827348
9.312                0.950176735     -102.018905
9.313                0.950061856     -102.210969
9.314                0.949946782      -102.40354
9.315                0.949831515      -102.59662
9.316                0.949716056     -102.790209
9.317                0.949600408      -102.98431
9.318                0.949484571     -103.178921
9.319                0.949368548     -103.374046
9.32                 0.949252339     -103.569683
9.321                0.949135947     -103.765835
9.322                0.949019374     -103.962503
9.323                 0.94890262     -104.159687
9.324                0.948785688     -104.357388
9.325                 0.94866858     -104.555607
9.326                0.948551298     -104.754345
9.327                0.948433842     -104.953603
9.328                0.948316216     -105.153382
9.329                0.948198421     -105.353682
9.33                 0.948080459     -105.554505
9.331                0.947962332     -105.755852
9.332                0.947844042     -105.957723
9.333                0.947725591     -106.160119
9.334                0.947606981     -106.363041
9.335                0.947488214     -106.566489
9.336                0.947369293     -106.770466
9.337                0.947250219     -106.974971
9.338                0.947130995     -107.180005
9.339                0.947011622     -107.385569
9.34                 0.946892104     -107.591664
9.341                0.946772442     -107.798291
9.342                0.946652639      -108.00545
9.343                0.946532697     -108.213142
9.344                0.946412618     -108.421369
9.345                0.946292405      -108.63013
9.346                0.946172061     -108.839426
9.347                0.946051587     -109.049258
9.348                0.945930987     -109.259628
9.349                0.945810262     -109.470535
9.35                 0.945689416      -109.68198
9.351                 0.94556845     -109.893964
9.352                0.945447369     -110.106487
9.353                0.945326173     -110.319551
9.354                0.945204867     -110.533156
9.355                0.945083452     -110.747302
9.356                0.944961933      -110.96199
9.357                 0.94484031     -111.177221
9.358                0.944718588     -111.392996
9.359                0.944596768     -111.609314
9.36                 0.944474855     -111.826177
9.361                0.944352851     -112.043585
9.362                0.944230759     -112.261539
9.363                0.944108581     -112.480039
9.364                0.943986322     -112.699085
9.365                0.943863984     -112.918679
9.366                 0.94374157      -113.13882
9.367                0.943619084      -113.35951
9.368                0.943496529     -113.580748
9.369                0.943373907     -113.802535
9.37                 0.943251222     -114.024872
9.371                0.943128478     -114.247759
9.372                0.943005678     -114.471196
9.373                0.942882825     -114.695184
9.374                0.942759923     -114.919723
9.375                0.942636975     -115.144814
9.376                0.942513985     -115.370457
9.377                0.942390955     -115.596652
9.378                0.942267891       -115.8234
9.379                0.942144794       -116.0507
9.38                  0.94202167     -116.278554
9.381                0.941898522     -116.506961
9.382                0.941775352     -116.735922
9.383                0.941652166     -116.965437
9.384                0.941528967     -117.195506
9.385                0.941405759     -117.426129
9.386                0.941282545     -117.657308
9.387                 0.94115933     -117.889041
9.388                0.941036118     -118.121329
9.389                0.940912912     -118.354172
9.39                 0.940789716      -118.58757
9.391                0.940666535     -118.821524
9.392                0.940543373     -119.056033
9.393                0.940420233     -119.291098
9.394                 0.94029712     -119.526719
9.395                0.940174039     -119.762895
9.396                0.940050993     -119.999626
