! TOUCHSTONE file generated by CST DESIGN STUDIO
! Date and time: Tue Feb  4 15:41:41 2025
! Project name: C:\Work\MatlabApps\UnitCellOptimizationMatlab\CST\unitcell.cst
! Tree item: Tasks\Sweep1\SPara1\S-Parameters
! Header version: 2024
! Port assignment regex: !\s*Touchstone port\s*([0-9]+)\s*=\s*(CST MWS port|CST DES external port|CST DES block port)\s*(.+)\s* \(\"(.*)\"\)(\s*mode\s*([0-9]+))?.*
! Touchstone port assignment:
! Touchstone port 1 = CST DES external port 1 ("")
# GHz S MA R 50
9                    0.970134611       -76.50805
9.001                0.970059021     -76.6277628
9.002                0.969983232     -76.7477825
9.003                0.969907243     -76.8681101
9.004                0.969831056     -76.9887465
9.005                0.969754668     -77.1096927
9.006                0.969678081     -77.2309497
9.007                0.969601292     -77.3525185
9.008                0.969524303     -77.4743999
9.009                0.969447112      -77.596595
9.01                 0.969369719     -77.7191048
9.011                0.969292123     -77.8419303
9.012                0.969214325     -77.9650723
9.013                0.969136324      -78.088532
9.014                0.969058119     -78.2123103
9.015                0.968979711     -78.3364081
9.016                0.968901098     -78.4608265
9.017                 0.96882228     -78.5855665
9.018                0.968743258      -78.710629
9.019                 0.96866403     -78.8360151
9.02                 0.968584596     -78.9617257
9.021                0.968504955     -79.0877619
9.022                0.968425108     -79.2141247
9.023                0.968345055      -79.340815
9.024                0.968264793     -79.4678339
9.025                0.968184324     -79.5951824
9.026                0.968103647     -79.7228615
9.027                0.968022762     -79.8508721
9.028                0.967941667     -79.9792155
9.029                0.967860364     -80.1078925
9.03                 0.967778851     -80.2369041
9.031                0.967697128     -80.3662514
9.032                0.967615195     -80.4959355
9.033                0.967533051     -80.6259573
9.034                0.967450696     -80.7563179
9.035                 0.96736813     -80.8870183
9.036                0.967285353     -81.0180596
9.037                0.967202363     -81.1494427
9.038                0.967119161     -81.2811687
9.039                0.967035747     -81.4132387
9.04                  0.96695212     -81.5456537
9.041                0.966868279     -81.6784148
9.042                0.966784225     -81.8115229
9.043                0.966699958     -81.9449791
9.044                0.966615476     -82.0787846
9.045                 0.96653078     -82.2129403
9.046                0.966445869     -82.3474472
9.047                0.966360743     -82.4823066
9.048                0.966275401     -82.6175193
9.049                0.966189845     -82.7530865
9.05                 0.966104072     -82.8890092
9.051                0.966018083     -83.0252884
9.052                0.965931878     -83.1619254
9.053                0.965845456      -83.298921
9.054                0.965758818     -83.4362764
9.055                0.965671962     -83.5739927
9.056                0.965584889     -83.7120709
9.057                0.965497598     -83.8505121
9.058                0.965410089     -83.9893173
9.059                0.965322362     -84.1284877
9.06                 0.965234417     -84.2680243
9.061                0.965146254     -84.4079282
9.062                0.965057872     -84.5482005
9.063                 0.96496927     -84.6888422
9.064                 0.96488045     -84.8298545
9.065                 0.96479141     -84.9712384
9.066                0.964702151      -85.112995
9.067                0.964612672     -85.2551254
9.068                0.964522974     -85.3976307
9.069                0.964433055     -85.5405119
9.07                 0.964342916     -85.6837703
9.071                0.964252557     -85.8274068
9.072                0.964161977     -85.9714225
9.073                0.964071176     -86.1158186
9.074                0.963980155     -86.2605961
9.075                0.963888913     -86.4057562
9.076                 0.96379745     -86.5512999
9.077                0.963705766     -86.6972284
9.078                0.963613861     -86.8435426
9.079                0.963521734     -86.9902439
9.08                 0.963429386     -87.1373331
9.081                0.963336816     -87.2848115
9.082                0.963244025     -87.4326802
9.083                0.963151012     -87.5809402
9.084                0.963057778     -87.7295926
9.085                0.962964321     -87.8786387
9.086                0.962870643     -88.0280794
9.087                0.962776744     -88.1779158
9.088                0.962682622     -88.3281492
9.089                0.962588279     -88.4787805
9.09                 0.962493713      -88.629811
9.091                0.962398926     -88.7812417
9.092                0.962303917     -88.9330737
9.093                0.962208687     -89.0853081
9.094                0.962113234     -89.2379461
9.095                 0.96201756     -89.3909887
9.096                0.961921664     -89.5444372
9.097                0.961825547     -89.6982925
9.098                0.961729208     -89.8525558
9.099                0.961632648     -90.0072282
9.1                  0.961535866     -90.1623108
9.101                0.961438863     -90.3178048
9.102                0.961341639     -90.4737112
9.103                0.961244194     -90.6300312
9.104                0.961146528     -90.7867659
9.105                0.961048641     -90.9439164
9.106                0.960950533     -91.1014837
9.107                0.960852206     -91.2594691
9.108                0.960753658     -91.4178736
9.109                 0.96065489     -91.5766984
9.11                 0.960555902     -91.7359445
9.111                0.960456694     -91.8956131
9.112                0.960357267     -92.0557052
9.113                0.960257621      -92.216222
9.114                0.960157756     -92.3771647
9.115                0.960057672     -92.5385342
9.116                 0.95995737     -92.7003318
9.117                 0.95985685     -92.8625585
9.118                0.959756112     -93.0252154
9.119                0.959655157     -93.1883037
9.12                 0.959553984     -93.3518244
9.121                0.959452595     -93.5157786
9.122                0.959350989     -93.6801675
9.123                0.959249167     -93.8449922
9.124                 0.95914713     -94.0102537
9.125                0.959044877     -94.1759532
9.126                0.958942409     -94.3420917
9.127                0.958839726     -94.5086704
9.128                 0.95873683     -94.6756903
9.129                 0.95863372     -94.8431526
9.13                 0.958530397     -95.0110583
9.131                0.958426861     -95.1794086
9.132                0.958323113     -95.3482044
9.133                0.958219154      -95.517447
9.134                0.958114983     -95.6871374
9.135                0.958010602     -95.8572766
9.136                 0.95790601     -96.0278659
9.137                 0.95780121     -96.1989061
9.138                  0.9576962     -96.3703985
9.139                0.957590982     -96.5423441
9.14                 0.957485557     -96.7147439
9.141                0.957379924     -96.8875991
9.142                0.957274086     -97.0609107
9.143                0.957168041     -97.2346798
9.144                0.957061792     -97.4089074
9.145                0.956955338     -97.5835946
9.146                0.956848681     -97.7587425
9.147                0.956741821     -97.9343522
9.148                0.956634759     -98.1104246
9.149                0.956527496     -98.2869608
9.15                 0.956420032     -98.4639619
9.151                0.956312369     -98.6414289
9.152                0.956204507     -98.8193628
9.153                0.956096446     -98.9977648
9.154                0.955988189     -99.1766358
9.155                0.955879736     -99.3559769
9.156                0.955771087      -99.535789
9.157                0.955662244     -99.7160732
9.158                0.955553207     -99.8968306
9.159                0.955443979     -100.078062
9.16                 0.955334558     -100.259769
9.161                0.955224947     -100.441952
9.162                0.955115147     -100.624612
9.163                0.955005158      -100.80775
9.164                0.954894982     -100.991367
9.165                 0.95478462     -101.175465
9.166                0.954674073     -101.360044
9.167                0.954563342     -101.545104
9.168                0.954452428     -101.730648
9.169                0.954341332     -101.916676
9.17                 0.954230056     -102.103189
9.171                  0.9541186     -102.290188
9.172                0.954006967     -102.477674
9.173                0.953895157     -102.665648
9.174                0.953783171     -102.854111
9.175                0.953671012     -103.043064
9.176                0.953558679     -103.232507
9.177                0.953446176     -103.422442
9.178                0.953333502      -103.61287
9.179                0.953220659     -103.803791
9.18                 0.953107649     -103.995206
9.181                0.952994474     -104.187117
9.182                0.952881134     -104.379524
9.183                0.952767631     -104.572429
9.184                0.952653967     -104.765831
9.185                0.952540143     -104.959732
9.186                0.952426162     -105.154133
9.187                0.952312023     -105.349035
9.188                 0.95219773     -105.544438
9.189                0.952083283     -105.740344
9.19                 0.951968685     -105.936752
9.191                0.951853936     -106.133665
9.192                 0.95173904     -106.331083
9.193                0.951623997     -106.529006
9.194                0.951508809     -106.727436
9.195                0.951393479     -106.926373
9.196                0.951278007     -107.125819
9.197                0.951162397     -107.325773
9.198                0.951046649     -107.526237
9.199                0.950930765     -107.727211
9.2                  0.950814748     -107.928697
9.201                  0.9506986     -108.130695
9.202                0.950582322     -108.333205
9.203                0.950465917     -108.536229
9.204                0.950349386     -108.739768
9.205                0.950232732     -108.943821
9.206                0.950115957      -109.14839
9.207                0.949999062     -109.353476
9.208                0.949882051     -109.559078
9.209                0.949764924     -109.765198
9.21                 0.949647686     -109.971837
9.211                0.949530337     -110.178995
9.212                 0.94941288     -110.386673
9.213                0.949295317     -110.594871
9.214                0.949177651      -110.80359
9.215                0.949059883     -111.012831
9.216                0.948942018     -111.222594
9.217                0.948824056     -111.432881
9.218                   0.948706      -111.64369
9.219                0.948587853     -111.855024
9.22                 0.948469617     -112.066883
9.221                0.948351296     -112.279266
9.222                 0.94823289     -112.492176
9.223                0.948114404     -112.705612
9.224                0.947995839     -112.919575
9.225                0.947877198     -113.134065
9.226                0.947758485     -113.349083
9.227                0.947639701     -113.564629
9.228                 0.94752085     -113.780705
9.229                0.947401934     -113.997309
9.23                 0.947282957     -114.214444
9.231                 0.94716392     -114.432109
9.232                0.947044827     -114.650304
9.233                0.946925681      -114.86903
9.234                0.946806485     -115.088288
9.235                0.946687241     -115.308078
9.236                0.946567953       -115.5284
9.237                0.946448624     -115.749254
9.238                0.946329257     -115.970642
9.239                0.946209855     -116.192562
9.24                 0.946090422     -116.415017
9.241                0.945970959     -116.638005
9.242                0.945851471     -116.861527
9.243                0.945731961     -117.085584
9.244                0.945612432     -117.310176
9.245                0.945492888     -117.535303
9.246                0.945373331     -117.760964
9.247                0.945253765     -117.987162
9.248                0.945134194     -118.213895
9.249                0.945014621     -118.441163
9.25                 0.944895049     -118.668968
9.251                0.944775482     -118.897309
9.252                0.944655924     -119.126186
9.253                0.944536378     -119.355599
9.254                0.944416848     -119.585549
9.255                0.944297337     -119.816036
9.256                0.944177848     -120.047059
9.257                0.944058387     -120.278619
9.258                0.943938956     -120.510716
9.259                 0.94381956     -120.743349
9.26                 0.943700201     -120.976519
9.261                0.943580884     -121.210226
9.262                0.943461613      -121.44447
9.263                0.943342392     -121.679251
9.264                0.943223224     -121.914568
9.265                0.943104114     -122.150421
9.266                0.942985066     -122.386811
9.267                0.942866083     -122.623737
9.268                 0.94274717       -122.8612
9.269                 0.94262833     -123.099198
9.27                 0.942509569     -123.337732
9.271                0.942390889     -123.576802
9.272                0.942272296     -123.816407
9.273                0.942153794     -124.056547
9.274                0.942035386     -124.297223
9.275                0.941917077     -124.538432
9.276                0.941798872     -124.780177
9.277                0.941680775     -125.022455
9.278                 0.94156279     -125.265266
9.279                0.941444921     -125.508612
9.28                 0.941327173      -125.75249
9.281                0.941209551       -125.9969
9.282                0.941092059     -126.241843
9.283                0.940974702     -126.487317
9.284                0.940857484     -126.733323
9.285                 0.94074041     -126.979859
9.286                0.940623484     -127.226925
9.287                0.940506711     -127.474522
9.288                0.940390096     -127.722647
9.289                0.940273644     -127.971301
9.29                 0.940157358     -128.220482
9.291                0.940041245     -128.470191
9.292                0.939925309     -128.720427
9.293                0.939809555     -128.971189
9.294                0.939693987     -129.222476
9.295                0.939578611     -129.474288
9.296                0.939463431     -129.726624
9.297                0.939348453     -129.979483
9.298                0.939233681     -130.232864
9.299                0.939119121     -130.486767
9.3                  0.939004777     -130.741191
9.301                0.938890654     -130.996135
9.302                0.938776758     -131.251597
9.303                0.938663094     -131.507578
9.304                0.938549667     -131.764076
9.305                0.938436482     -132.021091
9.306                0.938323544     -132.278621
9.307                0.938210859     -132.536665
9.308                0.938098431     -132.795222
9.309                0.937986267     -133.054292
9.31                  0.93787437     -133.313872
9.311                0.937762747     -133.573963
9.312                0.937651404     -133.834563
9.313                0.937540344     -134.095671
9.314                0.937429574     -134.357285
9.315                  0.9373191     -134.619405
9.316                0.937208925     -134.882029
9.317                0.937099057     -135.145157
9.318                  0.9369895     -135.408786
9.319                 0.93688026     -135.672915
9.32                 0.936771342     -135.937544
9.321                0.936662753      -136.20267
9.322                0.936554497     -136.468293
9.323                0.936446579      -136.73441
9.324                0.936339007     -137.001022
9.325                0.936231784     -137.268125
9.326                0.936124917     -137.535719
9.327                0.936018412     -137.803802
9.328                0.935912274     -138.072373
9.329                0.935806508      -138.34143
9.33                 0.935701121     -138.610971
9.331                0.935596118     -138.880995
9.332                0.935491504       -139.1515
9.333                0.935387286     -139.422485
9.334                0.935283469     -139.693947
9.335                0.935180059     -139.965886
9.336                0.935077062     -140.238299
9.337                0.934974483     -140.511185
9.338                0.934872328     -140.784541
9.339                0.934770603     -141.058366
9.34                 0.934669313     -141.332658
9.341                0.934568465     -141.607415
9.342                0.934468064     -141.882636
9.343                0.934368116     -142.158318
9.344                0.934268627     -142.434459
9.345                0.934169602     -142.711058
9.346                0.934071048     -142.988111
9.347                 0.93397297     -143.265618
9.348                0.933875374     -143.543576
9.349                0.933778265     -143.821984
9.35                 0.933681651     -144.100838
9.351                0.933585535     -144.380136
9.352                0.933489925     -144.659878
9.353                0.933394826     -144.940059
9.354                0.933300244     -145.220679
9.355                0.933206185     -145.501734
9.356                0.933112653     -145.783223
9.357                0.933019657     -146.065143
9.358                  0.9329272     -146.347492
9.359                0.932835289     -146.630267
9.36                 0.932743929     -146.913466
9.361                0.932653127     -147.197086
9.362                0.932562888     -147.481125
9.363                0.932473218     -147.765581
9.364                0.932384123     -148.050451
9.365                0.932295608     -148.335732
9.366                0.932207679     -148.621423
9.367                0.932120341     -148.907519
9.368                0.932033602     -149.194019
9.369                0.931947465     -149.480919
9.37                 0.931861937     -149.768218
9.371                0.931777024     -150.055913
9.372                0.931692731        -150.344
9.373                0.931609063     -150.632477
9.374                0.931526027     -150.921341
9.375                0.931443628     -151.210589
9.376                0.931361871     -151.500219
9.377                0.931280762     -151.790227
9.378                0.931200307     -152.080611
9.379                0.931120511     -152.371368
9.38                 0.931041379     -152.662494
9.381                0.930962917     -152.953987
9.382                0.930885131     -153.245844
9.383                0.930808025     -153.538061
9.384                0.930731606     -153.830636
9.385                0.930655877     -154.123565
9.386                0.930580846     -154.416846
9.387                0.930506517     -154.710475
9.388                0.930432895     -155.004448
9.389                0.930359986     -155.298764
9.39                 0.930287794     -155.593418
9.391                0.930216325     -155.888407
9.392                0.930145584     -156.183728
9.393                0.930075577     -156.479378
9.394                0.930006307     -156.775354
9.395                0.929937781     -157.071651
9.396                0.929870003     -157.368267
