! TOUCHSTONE file generated by CST DESIGN STUDIO
! Date and time: Tue Feb  4 14:02:57 2025
! Project name: C:\Work\MatlabApps\UnitCellOptimizationMatlab\CST\unitcell.cst
! Tree item: Tasks\Sweep1\SPara1\S-Parameters
! Header version: 2024
! Port assignment regex: !\s*Touchstone port\s*([0-9]+)\s*=\s*(CST MWS port|CST DES external port|CST DES block port)\s*(.+)\s* \(\"(.*)\"\)(\s*mode\s*([0-9]+))?.*
! Touchstone port assignment:
! Touchstone port 1 = CST DES external port 1 ("")
# GHz S MA R 50
9                    0.906305937     -86.5739916
9.001                0.906033614     -86.7282694
9.002                0.905760463      -86.882988
9.003                0.905486484     -87.0381487
9.004                0.905211676     -87.1937531
9.005                0.904936039     -87.3498024
9.006                0.904659571     -87.5062981
9.007                0.904382272     -87.6632416
9.008                0.904104142     -87.8206343
9.009                0.903825179     -87.9784776
9.01                 0.903545383     -88.1367728
9.011                0.903264754     -88.2955215
9.012                0.902983291     -88.4547249
9.013                0.902700993     -88.6143846
9.014                 0.90241786     -88.7745019
9.015                0.902133892     -88.9350782
9.016                0.901849088      -89.096115
9.017                0.901563448     -89.2576137
9.018                0.901276972     -89.4195756
9.019                0.900989659     -89.5820023
9.02                 0.900701509     -89.7448951
9.021                0.900412522     -89.9082554
9.022                0.900122697     -90.0720847
9.023                0.899832035     -90.2363844
9.024                0.899540536      -90.401156
9.025                0.899248198     -90.5664007
9.026                0.898955023     -90.7321202
9.027                 0.89866101     -90.8983157
9.028                 0.89836616     -91.0649888
9.029                0.898070472     -91.2321409
9.03                 0.897773947     -91.3997733
9.031                0.897476584     -91.5678875
9.032                0.897178385     -91.7364851
9.033                0.896879348     -91.9055673
9.034                0.896579475     -92.0751356
9.035                0.896278766     -92.2451914
9.036                0.895977222     -92.4157363
9.037                0.895674842     -92.5867716
9.038                0.895371627     -92.7582987
9.039                0.895067578     -92.9303191
9.04                 0.894762695     -93.1028342
9.041                0.894456979     -93.2758455
9.042                0.894150431     -93.4493544
9.043                0.893843051     -93.6233623
9.044                0.893534841     -93.7978706
9.045                  0.8932258     -93.9728809
9.046                 0.89291593     -94.1483944
9.047                0.892605231     -94.3244127
9.048                0.892293705     -94.5009372
9.049                0.891981353     -94.6779694
9.05                 0.891668176     -94.8555105
9.051                0.891354175     -95.0335621
9.052                 0.89103935     -95.2121257
9.053                0.890723704     -95.3912025
9.054                0.890407238     -95.5707942
9.055                0.890089952      -95.750902
9.056                0.889771849     -95.9315274
9.057                 0.88945293     -96.1126718
9.058                0.889133196     -96.2943367
9.059                0.888812649     -96.4765235
9.06                 0.888491291     -96.6592336
9.061                0.888169123     -96.8424683
9.062                0.887846147     -97.0262292
9.063                0.887522365     -97.2105176
9.064                0.887197778      -97.395335
9.065                 0.88687239     -97.5806827
9.066                0.886546201     -97.7665621
9.067                0.886219214     -97.9529748
9.068                0.885891431     -98.1399219
9.069                0.885562854     -98.3274051
9.07                 0.885233485     -98.5154256
9.071                0.884903327     -98.7039849
9.072                0.884572382     -98.8930843
9.073                0.884240653     -99.0827252
9.074                0.883908143      -99.272909
9.075                0.883574853     -99.4636372
9.076                0.883240786      -99.654911
9.077                0.882905946     -99.8467319
9.078                0.882570335     -100.039101
9.079                0.882233956      -100.23202
9.08                 0.881896812      -100.42549
9.081                0.881558906     -100.619513
9.082                0.881220241      -100.81409
9.083                 0.88088082     -101.009222
9.084                0.880540648      -101.20491
9.085                0.880199726     -101.401156
9.086                0.879858058     -101.597962
9.087                0.879515649     -101.795328
9.088                0.879172501     -101.993256
9.089                0.878828618     -102.191747
9.09                 0.878484004     -102.390803
9.091                0.878138663     -102.590424
9.092                0.877792599     -102.790613
9.093                0.877445816      -102.99137
9.094                0.877098317     -103.192697
9.095                0.876750107     -103.394595
9.096                0.876401191     -103.597066
9.097                0.876051572      -103.80011
9.098                0.875701255     -104.003729
9.099                0.875350245     -104.207924
9.1                  0.874998546     -104.412696
9.101                0.874646163     -104.618047
9.102                  0.8742931     -104.823978
9.103                0.873939363      -105.03049
9.104                0.873584956     -105.237585
9.105                0.873229884     -105.445263
9.106                0.872874154     -105.653526
9.107                0.872517769     -105.862375
9.108                0.872160735     -106.071811
9.109                0.871803058     -106.281836
9.11                 0.871444744      -106.49245
9.111                0.871085797     -106.703655
9.112                0.870726224     -106.915452
9.113                 0.87036603     -107.127842
9.114                0.870005221     -107.340826
9.115                0.869643803     -107.554405
9.116                0.869281783     -107.768581
9.117                0.868919167     -107.983355
9.118                0.868555961     -108.198728
9.119                 0.86819217       -108.4147
9.12                 0.867827803     -108.631273
9.121                0.867462866     -108.848448
9.122                0.867097364     -109.066227
9.123                0.866731306     -109.284609
9.124                0.866364698     -109.503597
9.125                0.865997546     -109.723191
9.126                0.865629859     -109.943392
9.127                0.865261644     -110.164201
9.128                0.864892907      -110.38562
9.129                0.864523657     -110.607649
9.13                   0.8641539     -110.830289
9.131                0.863783645     -111.053542
9.132                  0.8634129     -111.277407
9.133                0.863041672     -111.501887
9.134                0.862669969     -111.726982
9.135                  0.8622978     -111.952693
9.136                0.861925173      -112.17902
9.137                0.861552095     -112.405966
9.138                0.861178577      -112.63353
9.139                0.860804625     -112.861713
9.14                  0.86043025     -113.090517
9.141                0.860055459     -113.319942
9.142                0.859680262     -113.549989
9.143                0.859304668     -113.780658
9.144                0.858928686     -114.011952
9.145                0.858552325     -114.243869
9.146                0.858175594     -114.476412
9.147                0.857798504     -114.709581
9.148                0.857421063     -114.943376
9.149                0.857043283     -115.177799
9.15                 0.856665171     -115.412849
9.151                 0.85628674     -115.648528
9.152                0.855907997     -115.884837
9.153                0.855528955     -116.121775
9.154                0.855149623     -116.359344
9.155                0.854770012     -116.597544
9.156                0.854390132     -116.836377
9.157                0.854009994     -117.075841
9.158                 0.85362961     -117.315938
9.159                0.853248989     -117.556669
9.16                 0.852868143     -117.798034
9.161                0.852487084     -118.040033
9.162                0.852105822     -118.282667
9.163                 0.85172437     -118.525936
9.164                0.851342738     -118.769842
9.165                0.850960938     -119.014383
9.166                0.850578983     -119.259561
9.167                0.850196885     -119.505377
9.168                0.849814655     -119.751829
9.169                0.849432305      -119.99892
9.17                 0.849049848     -120.246648
9.171                0.848667297     -120.495015
9.172                0.848284664      -120.74402
9.173                0.847901962     -120.993664
9.174                0.847519204     -121.243947
9.175                0.847136402     -121.494869
9.176                 0.84675357     -121.746431
9.177                0.846370721     -121.998633
9.178                0.845987868     -122.251474
9.179                0.845605025     -122.504955
9.18                 0.845222206     -122.759075
9.181                0.844839424     -123.013836
9.182                0.844456692     -123.269237
9.183                0.844074026     -123.525278
9.184                0.843691439     -123.781959
9.185                0.843308945      -124.03928
9.186                0.842926559      -124.29724
9.187                0.842544295     -124.555841
9.188                0.842162168     -124.815081
9.189                0.841780192     -125.074961
9.19                 0.841398382      -125.33548
9.191                0.841016754     -125.596638
9.192                0.840635322     -125.858435
9.193                0.840254102     -126.120871
9.194                0.839873109     -126.383945
9.195                0.839492358     -126.647658
9.196                0.839111864     -126.912008
9.197                0.838731645     -127.176995
9.198                0.838351715      -127.44262
9.199                 0.83797209     -127.708881
9.2                  0.837592786     -127.975778
9.201                 0.83721382     -128.243311
9.202                0.836835208     -128.511479
9.203                0.836456965     -128.780282
9.204                 0.83607911     -129.049718
9.205                0.835701657     -129.319788
9.206                0.835324625     -129.590491
9.207                0.834948029     -129.861825
9.208                0.834571887     -130.133792
9.209                0.834196216     -130.406388
9.21                 0.833821033     -130.679615
9.211                0.833446355     -130.953471
9.212                0.833072199     -131.227955
9.213                0.832698584     -131.503066
9.214                0.832325526     -131.778804
9.215                0.831953043     -132.055168
9.216                0.831581153     -132.332156
9.217                0.831209875     -132.609768
9.218                0.830839225     -132.888002
9.219                0.830469223     -133.166858
9.22                 0.830099885     -133.446334
9.221                0.829731231      -133.72643
9.222                0.829363279     -134.007144
9.223                0.828996047     -134.288475
9.224                0.828629554     -134.570421
9.225                0.828263819     -134.852982
9.226                0.827898859     -135.136156
9.227                0.827534695     -135.419942
9.228                0.827171344     -135.704338
9.229                0.826808827     -135.989343
9.23                 0.826447161     -136.274955
9.231                0.826086366     -136.561174
9.232                0.825726462     -136.847997
9.233                0.825367467     -137.135423
9.234                0.825009401      -137.42345
9.235                0.824652284     -137.712077
9.236                0.824296134     -138.001302
9.237                0.823940972     -138.291123
9.238                0.823586817     -138.581539
9.239                0.823233688     -138.872547
9.24                 0.822881606     -139.164146
9.241                0.822530591     -139.456334
9.242                0.822180661      -139.74911
9.243                0.821831838      -140.04247
9.244                0.821484141     -140.336414
9.245                 0.82113759     -140.630938
9.246                0.820792206     -140.926042
9.247                0.820448007     -141.221722
9.248                0.820105016     -141.517978
9.249                0.819763251     -141.814806
9.25                 0.819422733     -142.112204
9.251                0.819083483      -142.41017
9.252                 0.81874552     -142.708702
9.253                0.818408866     -143.007798
9.254                 0.81807354     -143.307454
9.255                0.817739562     -143.607669
9.256                0.817406954     -143.908441
9.257                0.817075736     -144.209765
9.258                0.816745928     -144.511641
9.259                0.816417551     -144.814065
9.26                 0.816090624     -145.117035
9.261                 0.81576517     -145.420548
9.262                0.815441208     -145.724601
9.263                0.815118759     -146.029192
9.264                0.814797843     -146.334318
9.265                0.814478481     -146.639976
9.266                0.814160693     -146.946162
9.267                0.813844501     -147.252875
9.268                0.813529924     -147.560111
9.269                0.813216982     -147.867867
9.27                 0.812905698     -148.176141
9.271                 0.81259609     -148.484928
9.272                0.812288179     -148.794226
9.273                0.811981986     -149.104031
9.274                0.811677532     -149.414341
9.275                0.811374836     -149.725152
9.276                0.811073918     -150.036461
9.277                  0.8107748     -150.348265
9.278                0.810477501     -150.660559
9.279                0.810182042     -150.973341
9.28                 0.809888442     -151.286608
9.281                0.809596722     -151.600354
9.282                0.809306902     -151.914579
9.283                0.809019002     -152.229276
9.284                0.808733042     -152.544444
9.285                0.808449041     -152.860077
9.286                 0.80816702     -153.176173
9.287                0.807886998     -153.492728
9.288                0.807608995     -153.809738
9.289                 0.80733303     -154.127198
9.29                 0.807059123     -154.445106
9.291                0.806787294     -154.763457
9.292                0.806517561     -155.082247
9.293                0.806249944     -155.401473
9.294                0.805984462     -155.721129
9.295                0.805721135     -156.041213
9.296                 0.80545998      -156.36172
9.297                0.805201017     -156.682645
9.298                0.804944265     -157.003985
9.299                0.804689742     -157.325736
9.3                  0.804437467     -157.647892
9.301                0.804187458     -157.970451
9.302                0.803939733     -158.293407
9.303                0.803694311     -158.616755
9.304                0.803451209     -158.940492
9.305                0.803210446     -159.264614
9.306                0.802972039     -159.589115
9.307                0.802736006     -159.913991
9.308                0.802502365     -160.239237
9.309                0.802271132     -160.564849
9.31                 0.802042324     -160.890823
9.311                 0.80181596     -161.217152
9.312                0.801592055     -161.543834
9.313                0.801370627     -161.870863
9.314                0.801151692     -162.198233
9.315                0.800935266     -162.525941
9.316                0.800721365     -162.853982
9.317                0.800510007      -163.18235
9.318                0.800301206     -163.511041
9.319                0.800094978     -163.840049
9.32                 0.799891339      -164.16937
9.321                0.799690303     -164.498999
9.322                0.799491888     -164.828931
9.323                0.799296106     -165.159159
9.324                0.799102973     -165.489681
9.325                0.798912504     -165.820489
9.326                0.798724713      -166.15158
9.327                0.798539614     -166.482947
9.328                0.798357221     -166.814586
9.329                0.798177547     -167.146491
9.33                 0.798000607     -167.478657
9.331                0.797826414     -167.811079
9.332                0.797654981     -168.143751
9.333                 0.79748632     -168.476668
9.334                0.797320445     -168.809825
9.335                0.797157367     -169.143215
9.336                  0.7969971     -169.476834
9.337                0.796839654     -169.810677
9.338                0.796685043     -170.144737
9.339                0.796533277     -170.479009
9.34                 0.796384367     -170.813488
9.341                0.796238326     -171.148167
9.342                0.796095162     -171.483042
9.343                0.795954889     -171.818107
9.344                0.795817514     -172.153356
9.345                0.795683049     -172.488783
9.346                0.795551504     -172.824383
9.347                0.795422887     -173.160151
9.348                0.795297209     -173.496079
9.349                0.795174478     -173.832163
9.35                 0.795054703     -174.168397
9.351                0.794937893     -174.504775
9.352                0.794824056     -174.841291
9.353                  0.7947132      -175.17794
9.354                0.794605333     -175.514715
9.355                0.794500462     -175.851612
9.356                0.794398595     -176.188623
9.357                0.794299738     -176.525743
9.358                0.794203898     -176.862967
9.359                0.794111082     -177.200288
9.36                 0.794021296       -177.5377
9.361                0.793934545     -177.875198
9.362                0.793850835     -178.212776
9.363                0.793770172     -178.550427
9.364                0.793692561     -178.888146
9.365                0.793618005     -179.225927
9.366                0.793546511     -179.563764
9.367                0.793478081     -179.901651
9.368                 0.79341272      179.760418
9.369                0.793350432      179.422449
9.37                  0.79329122      179.084449
9.371                0.793235086      178.746422
9.372                0.793182034      178.408375
9.373                0.793132066      178.070313
9.374                0.793085185      177.732244
9.375                0.793041391      177.394173
9.376                0.793000688      177.056105
9.377                0.792963075      176.718047
9.378                0.792928555      176.380005
9.379                0.792897128      176.041985
9.38                 0.792868795      175.703993
9.381                0.792843555      175.366034
9.382                0.792821409      175.028115
9.383                0.792802356      174.690242
9.384                0.792786396       174.35242
9.385                0.792773527      174.014656
9.386                0.792763749      173.676956
9.387                0.792757059      173.339325
9.388                0.792753457      173.001769
9.389                0.792752939      172.664295
9.39                 0.792755505      172.326909
9.391                 0.79276115      171.989615
9.392                0.792769872      171.652421
9.393                0.792781668      171.315331
9.394                0.792796534      170.978353
9.395                0.792814466      170.641491
9.396                0.792835461      170.304752
