! TOUCHSTONE file generated by CST DESIGN STUDIO
! Date and time: Tue Feb  4 14:03:04 2025
! Project name: C:\Work\MatlabApps\UnitCellOptimizationMatlab\CST\unitcell.cst
! Tree item: Tasks\Sweep1\SPara1\S-Parameters
! Header version: 2024
! Port assignment regex: !\s*Touchstone port\s*([0-9]+)\s*=\s*(CST MWS port|CST DES external port|CST DES block port)\s*(.+)\s* \(\"(.*)\"\)(\s*mode\s*([0-9]+))?.*
! Touchstone port assignment:
! Touchstone port 1 = CST DES external port 1 ("")
# GHz S MA R 50
9                    0.942124252     -60.2035312
9.001                0.941989162     -60.2879662
9.002                0.941853633     -60.3726044
9.003                0.941717663     -60.4574462
9.004                0.941581252     -60.5424925
9.005                0.941444397     -60.6277439
9.006                0.941307097      -60.713201
9.007                 0.94116935     -60.7988646
9.008                0.941031155     -60.8847352
9.009                 0.94089251     -60.9708137
9.01                 0.940753414     -61.0571006
9.011                0.940613866     -61.1435967
9.012                0.940473862     -61.2303027
9.013                0.940333403     -61.3172193
9.014                0.940192486     -61.4043471
9.015                 0.94005111     -61.4916868
9.016                0.939909273     -61.5792392
9.017                0.939766973      -61.667005
9.018                 0.93962421     -61.7549848
9.019                0.939480981     -61.8431794
9.02                 0.939337285     -61.9315895
9.021                 0.93919312     -62.0202158
9.022                0.939048484      -62.109059
9.023                0.938903377     -62.1981199
9.024                0.938757796     -62.2873991
9.025                0.938611739     -62.3768974
9.026                0.938465206     -62.4666155
9.027                0.938318194     -62.5565542
9.028                0.938170701     -62.6467141
9.029                0.938022727     -62.7370961
9.03                 0.937874269     -62.8277008
9.031                0.937725327      -62.918529
9.032                0.937575897     -63.0095814
9.033                0.937425979     -63.1008588
9.034                 0.93727557      -63.192362
9.035                 0.93712467     -63.2840916
9.036                0.936973276     -63.3760485
9.037                0.936821388     -63.4682334
9.038                0.936669002      -63.560647
9.039                0.936516118     -63.6532902
9.04                 0.936362733     -63.7461636
9.041                0.936208847     -63.8392681
9.042                0.936054457     -63.9326045
9.043                0.935899562     -64.0261734
9.044                0.935744159     -64.1199757
9.045                0.935588249     -64.2140122
9.046                0.935431827     -64.3082836
9.047                0.935274894     -64.4027908
9.048                0.935117446     -64.4975345
9.049                0.934959483     -64.5925154
9.05                 0.934801003     -64.6877345
9.051                0.934642004     -64.7831925
9.052                0.934482484     -64.8788902
9.053                0.934322442     -64.9748284
9.054                0.934161875     -65.0710079
9.055                0.934000783     -65.1674295
9.056                0.933839163     -65.2640941
9.057                0.933677013     -65.3610024
9.058                0.933514333     -65.4581552
9.059                0.933351119     -65.5555535
9.06                 0.933187371     -65.6531979
9.061                0.933023086     -65.7510894
9.062                0.932858263     -65.8492287
9.063                  0.9326929     -65.9476168
9.064                0.932526996     -66.0462543
9.065                0.932360548     -66.1451423
9.066                0.932193555     -66.2442814
9.067                0.932026014     -66.3436726
9.068                0.931857925     -66.4433167
9.069                0.931689286     -66.5432145
9.07                 0.931520094      -66.643367
9.071                0.931350348     -66.7437749
9.072                0.931180046     -66.8444391
9.073                0.931009187     -66.9453605
9.074                0.930837767       -67.04654
9.075                0.930665787     -67.1479784
9.076                0.930493244     -67.2496765
9.077                0.930320136     -67.3516353
9.078                0.930146461     -67.4538557
9.079                0.929972217     -67.5563384
9.08                 0.929797404     -67.6590845
9.081                0.929622018     -67.7620948
9.082                0.929446059     -67.8653701
9.083                0.929269523     -67.9689114
9.084                0.929092411     -68.0727196
9.085                0.928914719     -68.1767956
9.086                0.928736446     -68.2811402
9.087                 0.92855759     -68.3857544
9.088                0.928378149     -68.4906391
9.089                0.928198122     -68.5957951
9.09                 0.928017507     -68.7012235
9.091                0.927836301     -68.8069251
9.092                0.927654504     -68.9129009
9.093                0.927472112     -69.0191517
9.094                0.927289125     -69.1256786
9.095                0.927105541     -69.2324823
9.096                0.926921357      -69.339564
9.097                0.926736572     -69.4469244
9.098                0.926551185     -69.5545646
9.099                0.926365192     -69.6624854
9.1                  0.926178593     -69.7706879
9.101                0.925991386      -69.879173
9.102                0.925803568     -69.9879416
9.103                0.925615139     -70.0969947
9.104                0.925426095     -70.2063333
9.105                0.925236436     -70.3159583
9.106                 0.92504616     -70.4258706
9.107                0.924855264     -70.5360713
9.108                0.924663747     -70.6465613
9.109                0.924471607     -70.7573417
9.11                 0.924278842     -70.8684132
9.111                 0.92408545     -70.9797771
9.112                0.923891431     -71.0914342
9.113                 0.92369678     -71.2033855
9.114                0.923501498      -71.315632
9.115                0.923305582     -71.4281748
9.116                 0.92310903     -71.5410148
9.117                0.922911841      -71.654153
9.118                0.922714013     -71.7675904
9.119                0.922515543      -71.881328
9.12                  0.92231643     -71.9953669
9.121                0.922116673     -72.1097081
9.122                0.921916269     -72.2243525
9.123                0.921715216     -72.3393012
9.124                0.921513513     -72.4545552
9.125                0.921311159     -72.5701156
9.126                 0.92110815     -72.6859834
9.127                0.920904486     -72.8021596
9.128                0.920700165     -72.9186452
9.129                0.920495185     -73.0354413
9.13                 0.920289543      -73.152549
9.131                0.920083239     -73.2699692
9.132                 0.91987627     -73.3877031
9.133                0.919668635     -73.5057516
9.134                0.919460332     -73.6241159
9.135                0.919251359      -73.742797
9.136                0.919041714      -73.861796
9.137                0.918831396     -73.9811139
9.138                0.918620403     -74.1007518
9.139                0.918408733     -74.2207108
9.14                 0.918196385      -74.340992
9.141                0.917983356     -74.4615964
9.142                0.917769645     -74.5825251
9.143                0.917555249     -74.7037792
9.144                0.917340169     -74.8253598
9.145                0.917124401      -74.947268
9.146                0.916907944     -75.0695049
9.147                0.916690796     -75.1920716
9.148                0.916472956     -75.3149692
9.149                0.916254421     -75.4381988
9.15                 0.916035191     -75.5617615
9.151                0.915815263     -75.6856584
9.152                0.915594636     -75.8098907
9.153                0.915373308     -75.9344594
9.154                0.915151277     -76.0593657
9.155                0.914928542     -76.1846107
9.156                0.914705101     -76.3101955
9.157                0.914480952     -76.4361213
9.158                0.914256095     -76.5623892
9.159                0.914030526     -76.6890004
9.16                 0.913804245     -76.8159559
9.161                 0.91357725      -76.943257
9.162                0.913349538     -77.0709047
9.163                 0.91312111     -77.1989003
9.164                0.912891963     -77.3272448
9.165                0.912662095     -77.4559396
9.166                0.912431505     -77.5849856
9.167                0.912200191     -77.7143841
9.168                0.911968153     -77.8441362
9.169                0.911735387     -77.9742431
9.17                 0.911501893      -78.104706
9.171                0.911267669     -78.2355261
9.172                0.911032714     -78.3667045
9.173                0.910797026     -78.4982425
9.174                0.910560604     -78.6301411
9.175                0.910323446     -78.7624017
9.176                 0.91008555     -78.8950253
9.177                0.909846916     -79.0280133
9.178                0.909607542     -79.1613667
9.179                0.909367426     -79.2950868
9.18                 0.909126566     -79.4291748
9.181                0.908884963      -79.563632
9.182                0.908642613     -79.6984594
9.183                0.908399516     -79.8336584
9.184                0.908155671     -79.9692301
9.185                0.907911075     -80.1051758
9.186                0.907665728     -80.2414966
9.187                0.907419628     -80.3781939
9.188                0.907172775     -80.5152688
9.189                0.906925166     -80.6527227
9.19                   0.9066768     -80.7905566
9.191                0.906427677     -80.9287718
9.192                0.906177794     -81.0673697
9.193                0.905927152     -81.2063514
9.194                0.905675747     -81.3457182
9.195                 0.90542358     -81.4854713
9.196                0.905170649     -81.6256119
9.197                0.904916952     -81.7661414
9.198                 0.90466249      -81.907061
9.199                0.904407259      -82.048372
9.2                  0.904151261     -82.1900756
9.201                0.903894492      -82.332173
9.202                0.903636953     -82.4746656
9.203                0.903378642     -82.6175547
9.204                0.903119559     -82.7608414
9.205                0.902859701     -82.9045271
9.206                0.902599069      -83.048613
9.207                 0.90233766     -83.1931005
9.208                0.902075475     -83.3379907
9.209                0.901812512     -83.4832851
9.21                 0.901548771     -83.6289849
9.211                 0.90128425     -83.7750914
9.212                0.901018948     -83.9216058
9.213                0.900752866     -84.0685295
9.214                0.900486001     -84.2158637
9.215                0.900218353     -84.3636099
9.216                0.899949921     -84.5117692
9.217                0.899680705      -84.660343
9.218                0.899410704     -84.8093326
9.219                0.899139917     -84.9587392
9.22                 0.898868343     -85.1085643
9.221                0.898595982     -85.2588091
9.222                0.898322833      -85.409475
9.223                0.898048896     -85.5605632
9.224                 0.89777417     -85.7120751
9.225                0.897498654      -85.864012
9.226                0.897222348     -86.0163752
9.227                0.896945251     -86.1691661
9.228                0.896667363     -86.3223859
9.229                0.896388684     -86.4760361
9.23                 0.896109212     -86.6301179
9.231                0.895828948     -86.7846328
9.232                0.895547892     -86.9395819
9.233                0.895266043     -87.0949667
9.234                  0.8949834     -87.2507884
9.235                0.894699964     -87.4070485
9.236                0.894415734     -87.5637483
9.237                 0.89413071     -87.7208892
9.238                0.893844892     -87.8784723
9.239                 0.89355828     -88.0364992
9.24                 0.893270873     -88.1949712
9.241                0.892982672     -88.3538896
9.242                0.892693677     -88.5132558
9.243                0.892403887      -88.673071
9.244                0.892113303     -88.8333368
9.245                0.891821924     -88.9940544
9.246                0.891529751     -89.1552252
9.247                0.891236785     -89.3168505
9.248                0.890943024     -89.4789317
9.249                 0.89064847     -89.6414702
9.25                 0.890353123     -89.8044673
9.251                0.890056983     -89.9679244
9.252                 0.88976005     -90.1318429
9.253                0.889462325      -90.296224
9.254                0.889163808     -90.4610693
9.255                0.888864499       -90.62638
9.256                  0.8885644     -90.7921575
9.257                0.888263511     -90.9584031
9.258                0.887961831     -91.1251183
9.259                0.887659363     -91.2923045
9.26                 0.887356107     -91.4599628
9.261                0.887052062     -91.6280949
9.262                0.886747231     -91.7967019
9.263                0.886441614     -91.9657853
9.264                0.886135212     -92.1353465
9.265                0.885828025     -92.3053868
9.266                0.885520055     -92.4759075
9.267                0.885211303     -92.6469101
9.268                 0.88490177      -92.818396
9.269                0.884591456     -92.9903664
9.27                 0.884280364     -93.1628227
9.271                0.883968494     -93.3357664
9.272                0.883655847     -93.5091988
9.273                0.883342425     -93.6831212
9.274                0.883028229      -93.857535
9.275                 0.88271326     -94.0324417
9.276                0.882397521     -94.2078424
9.277                0.882081012     -94.3837387
9.278                0.881763735     -94.5601319
9.279                0.881445692     -94.7370233
9.28                 0.881126884     -94.9144142
9.281                0.880807314     -95.0923062
9.282                0.880486982     -95.2707004
9.283                0.880165891     -95.4495983
9.284                0.879844042     -95.6290012
9.285                0.879521439     -95.8089106
9.286                0.879198081     -95.9893276
9.287                0.878873973     -96.1702537
9.288                0.878549116     -96.3516902
9.289                0.878223511     -96.5336386
9.29                 0.877897162        -96.7161
9.291                 0.87757007     -96.8990759
9.292                0.877242239     -97.0825676
9.293                 0.87691367     -97.2665764
9.294                0.876584366     -97.4511037
9.295                 0.87625433     -97.6361508
9.296                0.875923563     -97.8217191
9.297                 0.87559207     -98.0078098
9.298                0.875259853     -98.1944243
9.299                0.874926914      -98.381564
9.3                  0.874593256       -98.56923
9.301                0.874258883     -98.7574239
9.302                0.873923798     -98.9461467
9.303                0.873588003        -99.1354
9.304                0.873251502     -99.3251849
9.305                0.872914298     -99.5155029
9.306                0.872576395     -99.7063551
9.307                0.872237795     -99.8977429
9.308                0.871898503     -100.089668
9.309                0.871558521      -100.28213
9.31                 0.871217854     -100.475133
9.311                0.870876505     -100.668676
9.312                0.870534478     -100.862761
9.313                0.870191777     -101.057389
9.314                0.869848406     -101.252562
9.315                0.869504369      -101.44828
9.316                0.869159669     -101.644546
9.317                0.868814312      -101.84136
9.318                  0.8684683     -102.038723
9.319                 0.86812164     -102.236637
9.32                 0.867774334     -102.435104
9.321                0.867426388     -102.634123
9.322                0.867077806     -102.833697
9.323                0.866728593     -103.033827
9.324                0.866378753     -103.234514
9.325                0.866028291     -103.435758
9.326                0.865677213     -103.637562
9.327                0.865325523     -103.839927
9.328                0.864973226     -104.042853
9.329                0.864620328     -104.246342
9.33                 0.864266834     -104.450396
9.331                0.863912748     -104.655014
9.332                0.863558077     -104.860199
9.333                0.863202827     -105.065951
9.334                0.862847001     -105.272272
9.335                0.862490608     -105.479163
9.336                0.862133651     -105.686624
9.337                0.861776138     -105.894658
9.338                0.861418073     -106.103265
9.339                0.861059464     -106.312446
9.34                 0.860700316     -106.522203
9.341                0.860340635     -106.732536
9.342                0.859980429     -106.943447
9.343                0.859619703     -107.154936
9.344                0.859258464     -107.367005
9.345                0.858896718     -107.579654
9.346                0.858534473     -107.792886
9.347                0.858171735       -108.0067
9.348                0.857808511     -108.221098
9.349                0.857444809     -108.436081
9.35                 0.857080635      -108.65165
9.351                0.856715996     -108.867805
9.352                0.856350901     -109.084548
9.353                0.855985356      -109.30188
9.354                0.855619368     -109.519802
9.355                0.855252947     -109.738315
9.356                0.854886099     -109.957419
9.357                0.854518832     -110.177116
9.358                0.854151155     -110.397406
9.359                0.853783074     -110.618291
9.36                   0.8534146      -110.83977
9.361                0.853045739     -111.061846
9.362                  0.8526765     -111.284519
9.363                0.852306892      -111.50779
9.364                0.851936924      -111.73166
9.365                0.851566603     -111.956129
9.366                0.851195939     -112.181198
9.367                0.850824941     -112.406869
9.368                0.850453618     -112.633142
9.369                0.850081979     -112.860017
9.37                 0.849710034     -113.087496
9.371                0.849337791     -113.315578
9.372                 0.84896526     -113.544266
9.373                0.848592451      -113.77356
9.374                0.848219373      -114.00346
9.375                0.847846037     -114.233967
9.376                0.847472452     -114.465081
9.377                0.847098628     -114.696804
9.378                0.846724576     -114.929136
9.379                0.846350306     -115.162078
9.38                 0.845975827      -115.39563
9.381                0.845601152     -115.629793
9.382                0.845226289     -115.864567
9.383                0.844851251     -116.099953
9.384                0.844476047     -116.335951
9.385                 0.84410069     -116.572563
9.386                0.843725189     -116.809788
9.387                0.843349557     -117.047627
9.388                0.842973803     -117.286081
9.389                0.842597941     -117.525149
9.39                 0.842221981     -117.764833
9.391                0.841845936     -118.005133
9.392                0.841469816     -118.246049
9.393                0.841093634     -118.487581
9.394                0.840717401      -118.72973
9.395                0.840341131     -118.972497
9.396                0.839964834     -119.215881
