! TOUCHSTONE file generated by CST DESIGN STUDIO
! Date and time: Tue Feb  4 14:02:59 2025
! Project name: C:\Work\MatlabApps\UnitCellOptimizationMatlab\CST\unitcell.cst
! Tree item: Tasks\Sweep1\SPara1\S-Parameters
! Header version: 2024
! Port assignment regex: !\s*Touchstone port\s*([0-9]+)\s*=\s*(CST MWS port|CST DES external port|CST DES block port)\s*(.+)\s* \(\"(.*)\"\)(\s*mode\s*([0-9]+))?.*
! Touchstone port assignment:
! Touchstone port 1 = CST DES external port 1 ("")
# GHz S MA R 50
9                    0.916242817      -79.236805
9.001                0.916007849     -79.3704456
9.002                0.915772122      -79.504457
9.003                0.915535636     -79.6388403
9.004                0.915298387     -79.7735968
9.005                0.915060375     -79.9087278
9.006                0.914821598     -80.0442344
9.007                0.914582055      -80.180118
9.008                0.914341743     -80.3163797
9.009                0.914100661     -80.4530209
9.01                 0.913858808     -80.5900427
9.011                0.913616182     -80.7274464
9.012                0.913372782     -80.8652334
9.013                0.913128605     -81.0034048
9.014                0.912883651     -81.1419619
9.015                0.912637918     -81.2809059
9.016                0.912391405     -81.4202383
9.017                 0.91214411     -81.5599602
9.018                0.911896031     -81.7000728
9.019                0.911647167     -81.8405776
9.02                 0.911397518     -81.9814757
9.021                 0.91114708     -82.1227685
9.022                0.910895854     -82.2644573
9.023                0.910643837     -82.4065433
9.024                0.910391029     -82.5490278
9.025                0.910137427     -82.6919122
9.026                0.909883032     -82.8351977
9.027                 0.90962784     -82.9788856
9.028                0.909371852     -83.1229773
9.029                0.909115065      -83.267474
9.03                 0.908857479     -83.4123771
9.031                0.908599092     -83.5576878
9.032                0.908339903     -83.7034076
9.033                0.908079911     -83.8495376
9.034                0.907819115     -83.9960794
9.035                0.907557514      -84.143034
9.036                0.907295106      -84.290403
9.037                 0.90703189     -84.4381876
9.038                0.906767866     -84.5863891
9.039                0.906503032     -84.7350089
9.04                 0.906237388     -84.8840483
9.041                0.905970931     -85.0335087
9.042                0.905703662     -85.1833914
9.043                0.905435579     -85.3336978
9.044                0.905166682     -85.4844291
9.045                0.904896969     -85.6355868
9.046                0.904626439     -85.7871722
9.047                0.904355092     -85.9391866
9.048                0.904082927     -86.0916314
9.049                0.903809943      -86.244508
9.05                  0.90353614     -86.3978178
9.051                0.903261515      -86.551562
9.052                 0.90298607      -86.705742
9.053                0.902709803     -86.8603593
9.054                0.902432713     -87.0154151
9.055                0.902154799      -87.170911
9.056                0.901876062     -87.3268481
9.057                0.901596501     -87.4832279
9.058                0.901316114     -87.6400518
9.059                0.901034902     -87.7973212
9.06                 0.900752864     -87.9550374
9.061                0.900469999     -88.1132018
9.062                0.900186308     -88.2718157
9.063                0.899901789     -88.4308807
9.064                0.899616442      -88.590398
9.065                0.899330268     -88.7503691
9.066                0.899043265     -88.9107953
9.067                0.898755433     -89.0716781
9.068                0.898466773     -89.2330187
9.069                0.898177283     -89.3948187
9.07                 0.897886965     -89.5570794
9.071                0.897595817     -89.7198022
9.072                 0.89730384     -89.8829885
9.073                0.897011033     -90.0466396
9.074                0.896717397     -90.2107571
9.075                0.896422932     -90.3753422
9.076                0.896127637     -90.5403965
9.077                0.895831513     -90.7059212
9.078                 0.89553456     -90.8719178
9.079                0.895236779     -91.0383877
9.08                 0.894938168     -91.2053323
9.081                0.894638729      -91.372753
9.082                0.894338462     -91.5406513
9.083                0.894037367     -91.7090284
9.084                0.893735445     -91.8778858
9.085                0.893432697      -92.047225
9.086                0.893129121     -92.2170473
9.087                 0.89282472     -92.3873541
9.088                0.892519494     -92.5581469
9.089                0.892213443      -92.729427
9.09                 0.891906568     -92.9011958
9.091                0.891598869     -93.0734548
9.092                0.891290349     -93.2462054
9.093                0.890981006      -93.419449
9.094                0.890670843     -93.5931869
9.095                 0.89035986     -93.7674206
9.096                0.890048058     -93.9421515
9.097                0.889735438      -94.117381
9.098                0.889422001     -94.2931104
9.099                0.889107748     -94.4693413
9.1                  0.888792681      -94.646075
9.101                0.888476801     -94.8233129
9.102                0.888160108     -95.0010564
9.103                0.887842605     -95.1793068
9.104                0.887524292     -95.3580657
9.105                0.887205171     -95.5373344
9.106                0.886885245     -95.7171143
9.107                0.886564513     -95.8974068
9.108                0.886242978     -96.0782132
9.109                0.885920641      -96.259535
9.11                 0.885597505     -96.4413736
9.111                0.885273571     -96.6237304
9.112                 0.88494884     -96.8066067
9.113                0.884623315     -96.9900039
9.114                0.884296998     -97.1739234
9.115                0.883969891     -97.3583666
9.116                0.883641996     -97.5433349
9.117                0.883313314     -97.7288297
9.118                0.882983849     -97.9148522
9.119                0.882653603      -98.101404
9.12                 0.882322577     -98.2884863
9.121                0.881990775     -98.4761005
9.122                0.881658199     -98.6642481
9.123                0.881324851     -98.8529303
9.124                0.880990734     -99.0421485
9.125                0.880655851      -99.231904
9.126                0.880320205     -99.4221983
9.127                0.879983797     -99.6130326
9.128                0.879646633     -99.8044084
9.129                0.879308713     -99.9963268
9.13                 0.878970042     -100.188789
9.131                0.878630622     -100.381797
9.132                0.878290457     -100.575352
9.133                 0.87794955     -100.769455
9.134                0.877607904     -100.964107
9.135                0.877265523      -101.15931
9.136                 0.87692241     -101.355065
9.137                0.876578569     -101.551373
9.138                0.876234004     -101.748236
9.139                0.875888718     -101.945655
9.14                 0.875542715     -102.143631
9.141                0.875195999     -102.342165
9.142                0.874848574      -102.54126
9.143                0.874500444     -102.740915
9.144                0.874151613     -102.941133
9.145                0.873802086     -103.141914
9.146                0.873451867      -103.34326
9.147                 0.87310096     -103.545173
9.148                0.872749369     -103.747652
9.149                  0.8723971       -103.9507
9.15                 0.872044157     -104.154318
9.151                0.871690544     -104.358508
9.152                0.871336267     -104.563269
9.153                0.870981331     -104.768604
9.154                 0.87062574     -104.974514
9.155                0.870269499     -105.180999
9.156                0.869912615     -105.388062
9.157                0.869555091     -105.595703
9.158                0.869196934     -105.803923
9.159                0.868838149     -106.012724
9.16                 0.868478742     -106.222107
9.161                0.868118718     -106.432072
9.162                0.867758083     -106.642622
9.163                0.867396842     -106.853757
9.164                0.867035003     -107.065479
9.165                 0.86667257     -107.277788
9.166                0.866309551     -107.490685
9.167                0.865945951     -107.704172
9.168                0.865581776      -107.91825
9.169                0.865217034      -108.13292
9.17                 0.864851731     -108.348183
9.171                0.864485872     -108.564039
9.172                0.864119466     -108.780491
9.173                0.863752519     -108.997539
9.174                0.863385038     -109.215184
9.175                 0.86301703     -109.433427
9.176                0.862648502     -109.652269
9.177                0.862279461     -109.871711
9.178                0.861909916     -110.091754
9.179                0.861539873       -110.3124
9.18                 0.861169339     -110.533649
9.181                0.860798324     -110.755501
9.182                0.860426834     -110.977959
9.183                0.860054877     -111.201022
9.184                0.859682462     -111.424692
9.185                0.859309597      -111.64897
9.186                0.858936289     -111.873857
9.187                0.858562548     -112.099353
9.188                0.858188382     -112.325459
9.189                0.857813799     -112.552176
9.19                 0.857438808     -112.779506
9.191                0.857063418     -113.007448
9.192                0.856687637     -113.236004
9.193                0.856311476     -113.465174
9.194                0.855934943      -113.69496
9.195                0.855558046     -113.925361
9.196                0.855180797     -114.156379
9.197                0.854803204     -114.388015
9.198                0.854425277     -114.620269
9.199                0.854047025     -114.853142
9.2                  0.853668459     -115.086634
9.201                0.853289589     -115.320746
9.202                0.852910424      -115.55548
9.203                0.852530974     -115.790834
9.204                0.852151251     -116.026811
9.205                0.851771265     -116.263411
9.206                0.851391025     -116.500634
9.207                0.851010544     -116.738481
9.208                0.850629831     -116.976952
9.209                0.850248898     -117.216049
9.21                 0.849867755      -117.45577
9.211                0.849486415     -117.696118
9.212                0.849104887     -117.937092
9.213                0.848723185     -118.178693
9.214                0.848341318     -118.420922
9.215                0.847959299     -118.663778
9.216                 0.84757714     -118.907262
9.217                0.847194852     -119.151375
9.218                0.846812448     -119.396117
9.219                0.846429939     -119.641488
9.22                 0.846047339     -119.887488
9.221                0.845664658     -120.134118
9.222                0.845281911     -120.381379
9.223                0.844899109      -120.62927
9.224                0.844516266     -120.877791
9.225                0.844133394     -121.126943
9.226                0.843750506     -121.376726
9.227                0.843367615     -121.627141
9.228                0.842984735     -121.878186
9.229                0.842601879     -122.129863
9.23                 0.842219061     -122.382172
9.231                0.841836294     -122.635112
9.232                0.841453591     -122.888683
9.233                0.841070967     -123.142887
9.234                0.840688436     -123.397721
9.235                0.840306012     -123.653188
9.236                0.839923709     -123.909286
9.237                0.839541542     -124.166016
9.238                0.839159524     -124.423376
9.239                0.838777671     -124.681369
9.24                 0.838395996     -124.939992
9.241                0.838014516     -125.199246
9.242                0.837633245     -125.459131
9.243                0.837252198     -125.719646
9.244                0.836871391     -125.980792
9.245                0.836490837     -126.242567
9.246                0.836110554     -126.504972
9.247                0.835730556     -126.768006
9.248                 0.83535086     -127.031669
9.249                 0.83497148     -127.295961
9.25                 0.834592433     -127.560881
9.251                0.834213735     -127.826428
9.252                0.833835401     -128.092602
9.253                0.833457449     -128.359404
9.254                0.833079894     -128.626831
9.255                0.832702753     -128.894883
9.256                0.832326042      -129.16356
9.257                0.831949779     -129.432862
9.258                0.831573979     -129.702787
9.259                 0.83119866     -129.973335
9.26                 0.830823838     -130.244506
9.261                0.830449531     -130.516297
9.262                0.830075756     -130.788709
9.263                0.829702531     -131.061741
9.264                0.829329872     -131.335392
9.265                0.828957797     -131.609661
9.266                0.828586323     -131.884547
9.267                0.828215469     -132.160049
9.268                0.827845252     -132.436166
9.269                0.827475691     -132.712898
9.27                 0.827106802     -132.990242
9.271                0.826738604     -133.268199
9.272                0.826371115     -133.546766
9.273                0.826004354     -133.825943
9.274                0.825638338     -134.105729
9.275                0.825273087     -134.386122
9.276                0.824908618     -134.667121
9.277                0.824544951     -134.948725
9.278                0.824182103     -135.230932
9.279                0.823820095     -135.513741
9.28                 0.823458944     -135.797151
9.281                0.823098669      -136.08116
9.282                0.822739289     -136.365767
9.283                0.822380825      -136.65097
9.284                0.822023293     -136.936768
9.285                0.821666715     -137.223158
9.286                0.821311109     -137.510141
9.287                0.820956494     -137.797713
9.288                 0.82060289     -138.085873
9.289                0.820250316      -138.37462
9.29                 0.819898792     -138.663951
9.291                0.819548338     -138.953865
9.292                0.819198972     -139.244361
9.293                0.818850715     -139.535435
9.294                0.818503587     -139.827086
9.295                0.818157607     -140.119313
9.296                0.817812795     -140.412112
9.297                0.817469171     -140.705483
9.298                0.817126755     -140.999423
9.299                0.816785567      -141.29393
9.3                  0.816445627     -141.589002
9.301                0.816106955     -141.884637
9.302                0.815769571     -142.180831
9.303                0.815433495     -142.477584
9.304                0.815098747     -142.774893
9.305                0.814765348     -143.072755
9.306                0.814433317     -143.371168
9.307                0.814102676      -143.67013
9.308                0.813773443     -143.969638
9.309                 0.81344564      -144.26969
9.31                 0.813119287     -144.570282
9.311                0.812794403     -144.871413
9.312                 0.81247101      -145.17308
9.313                0.812149127      -145.47528
9.314                0.811828775     -145.778011
9.315                0.811509974     -146.081269
9.316                0.811192744     -146.385052
9.317                0.810877106     -146.689357
9.318                 0.81056308     -146.994182
9.319                0.810250686     -147.299522
9.32                 0.809939944     -147.605376
9.321                0.809630875      -147.91174
9.322                0.809323499     -148.218612
9.323                0.809017836     -148.525987
9.324                0.808713906     -148.833864
9.325                 0.80841173     -149.142238
9.326                0.808111326     -149.451107
9.327                0.807812717     -149.760467
9.328                0.807515921     -150.070316
9.329                0.807220958     -150.380649
9.33                 0.806927848     -150.691464
9.331                0.806636612     -151.002757
9.332                0.806347269     -151.314524
9.333                0.806059839     -151.626763
9.334                0.805774342     -151.939469
9.335                0.805490796     -152.252639
9.336                0.805209223     -152.566269
9.337                0.804929641     -152.880356
9.338                 0.80465207     -153.194896
9.339                0.804376529     -153.509886
9.34                 0.804103038      -153.82532
9.341                0.803831615     -154.141197
9.342                0.803562281     -154.457511
9.343                0.803295053      -154.77426
9.344                0.803029951     -155.091438
9.345                0.802766994     -155.409042
9.346                0.802506201     -155.727069
9.347                 0.80224759     -156.045513
9.348                 0.80199118     -156.364372
9.349                0.801736988      -156.68364
9.35                 0.801485035     -157.003314
9.351                0.801235337     -157.323389
9.352                0.800987914     -157.643861
9.353                0.800742782     -157.964727
9.354                 0.80049996     -158.285981
9.355                0.800259466     -158.607619
9.356                0.800021317     -158.929637
9.357                0.799785531     -159.252031
9.358                0.799552125     -159.574796
9.359                0.799321116     -159.897927
9.36                 0.799092521      -160.22142
9.361                0.798866358     -160.545271
9.362                0.798642642     -160.869474
9.363                0.798421392     -161.194026
9.364                0.798202622     -161.518921
9.365                 0.79798635     -161.844155
9.366                0.797772591     -162.169723
9.367                0.797561362     -162.495621
9.368                0.797352678     -162.821843
9.369                0.797146555     -163.148384
9.37                 0.796943008     -163.475241
9.371                0.796742053     -163.802407
9.372                0.796543705     -164.129879
9.373                0.796347978      -164.45765
9.374                0.796154888     -164.785717
9.375                0.795964449     -165.114073
9.376                0.795776675     -165.442715
9.377                0.795591581     -165.771636
9.378                 0.79540918     -166.100832
9.379                0.795229486     -166.430298
9.38                 0.795052513     -166.760028
9.381                0.794878273     -167.090018
9.382                0.794706781     -167.420261
9.383                0.794538049     -167.750754
9.384                 0.79437209      -168.08149
9.385                0.794208915     -168.412464
9.386                0.794048539     -168.743671
9.387                0.793890972     -169.075106
9.388                0.793736226     -169.406763
9.389                0.793584313     -169.738637
9.39                 0.793435244     -170.070722
9.391                0.793289031     -170.403013
9.392                0.793145684     -170.735504
9.393                0.793005214      -171.06819
9.394                0.792867631     -171.401066
9.395                0.792732946     -171.734126
9.396                0.792601168     -172.067364
