! TOUCHSTONE file generated by CST DESIGN STUDIO
! Date and time: Tue Feb  4 14:03:00 2025
! Project name: C:\Work\MatlabApps\UnitCellOptimizationMatlab\CST\unitcell.cst
! Tree item: Tasks\Sweep1\SPara1\S-Parameters
! Header version: 2024
! Port assignment regex: !\s*Touchstone port\s*([0-9]+)\s*=\s*(CST MWS port|CST DES external port|CST DES block port)\s*(.+)\s* \(\"(.*)\"\)(\s*mode\s*([0-9]+))?.*
! Touchstone port assignment:
! Touchstone port 1 = CST DES external port 1 ("")
# GHz S MA R 50
9                    0.925680828     -72.3452498
9.001                0.925482483     -72.4599385
9.002                0.925283483     -72.5749329
9.003                0.925083825     -72.6902341
9.004                0.924883508     -72.8058429
9.005                 0.92468253     -72.9217606
9.006                0.924480889     -73.0379881
9.007                0.924278584     -73.1545265
9.008                0.924075611     -73.2713768
9.009                 0.92387197     -73.3885401
9.01                 0.923667658     -73.5060175
9.011                0.923462674     -73.6238099
9.012                0.923257015     -73.7419186
9.013                 0.92305068     -73.8603444
9.014                0.922843667     -73.9790886
9.015                0.922635975     -74.0981521
9.016                  0.9224276     -74.2175362
9.017                0.922218542     -74.3372417
9.018                0.922008798     -74.4572699
9.019                0.921798367     -74.5776217
9.02                 0.921587246     -74.6982984
9.021                0.921375435      -74.819301
9.022                 0.92116293     -74.9406305
9.023                0.920949731     -75.0622882
9.024                0.920735835      -75.184275
9.025                0.920521241     -75.3065921
9.026                0.920305947     -75.4292407
9.027                 0.92008995     -75.5522218
9.028                0.919873249     -75.6755365
9.029                0.919655843      -75.799186
9.03                 0.919437729     -75.9231713
9.031                0.919218906     -76.0474937
9.032                0.918999372     -76.1721542
9.033                0.918779124      -76.297154
9.034                0.918558162     -76.4224943
9.035                0.918336484      -76.548176
9.036                0.918114087     -76.6742005
9.037                0.917890971     -76.8005688
9.038                0.917667132     -76.9272821
9.039                 0.91744257     -77.0543416
9.04                 0.917217283     -77.1817484
9.041                0.916991268     -77.3095036
9.042                0.916764525     -77.4376085
9.043                0.916537052     -77.5660642
9.044                0.916308846     -77.6948718
9.045                0.916079907     -77.8240326
9.046                0.915850232     -77.9535476
9.047                0.915619819     -78.0834182
9.048                0.915388668     -78.2136455
9.049                0.915156776     -78.3442306
9.05                 0.914924142     -78.4751748
9.051                0.914690764     -78.6064792
9.052                 0.91445664     -78.7381451
9.053                 0.91422177     -78.8701736
9.054                 0.91398615     -79.0025659
9.055                 0.91374978     -79.1353233
9.056                0.913512658      -79.268447
9.057                0.913274783     -79.4019381
9.058                0.913036152     -79.5357979
9.059                0.912796765     -79.6700276
9.06                 0.912556619     -79.8046284
9.061                0.912315714     -79.9396016
9.062                0.912074047     -80.0749483
9.063                0.911831617     -80.2106698
9.064                0.911588424     -80.3467674
9.065                0.911344464     -80.4832422
9.066                0.911099737     -80.6200956
9.067                0.910854241     -80.7573287
9.068                0.910607975     -80.8949427
9.069                0.910360937     -81.0329391
9.07                 0.910113126     -81.1713189
9.071                0.909864541     -81.3100835
9.072                 0.90961518     -81.4492341
9.073                0.909365042     -81.5887719
9.074                0.909114125     -81.7286983
9.075                0.908862428     -81.8690144
9.076                 0.90860995     -82.0097217
9.077                 0.90835669     -82.1508212
9.078                0.908102645     -82.2923144
9.079                0.907847816     -82.4342025
9.08                   0.9075922     -82.5764867
9.081                0.907335797     -82.7191683
9.082                0.907078604     -82.8622487
9.083                0.906820622     -83.0057291
9.084                0.906561849     -83.1496108
9.085                0.906302283     -83.2938952
9.086                0.906041924     -83.4385834
9.087                 0.90578077     -83.5836768
9.088                 0.90551882     -83.7291767
9.089                0.905256074     -83.8750844
9.09                 0.904992529     -84.0214012
9.091                0.904728186     -84.1681285
9.092                0.904463043     -84.3152674
9.093                0.904197099     -84.4628194
9.094                0.903930353     -84.6107858
9.095                0.903662804     -84.7591678
9.096                0.903394452     -84.9079668
9.097                0.903125295     -85.0571842
9.098                0.902855332     -85.2068212
9.099                0.902584563     -85.3568791
9.1                  0.902312987     -85.5073594
9.101                0.902040603     -85.6582632
9.102                 0.90176741     -85.8095921
9.103                0.901493407     -85.9613472
9.104                0.901218594       -86.11353
9.105                 0.90094297     -86.2661418
9.106                0.900666535     -86.4191839
9.107                0.900389287     -86.5726577
9.108                0.900111226     -86.7265645
9.109                0.899832352     -86.8809056
9.11                 0.899552664     -87.0356825
9.111                0.899272161     -87.1908964
9.112                0.898990844     -87.3465488
9.113                 0.89870871     -87.5026409
9.114                0.898425761     -87.6591742
9.115                0.898141995     -87.8161499
9.116                0.897857413     -87.9735696
9.117                0.897572013     -88.1314344
9.118                0.897285796     -88.2897458
9.119                0.896998762     -88.4485052
9.12                 0.896710909     -88.6077138
9.121                0.896422238     -88.7673732
9.122                0.896132749     -88.9274846
9.123                0.895842442     -89.0880494
9.124                0.895551316     -89.2490691
9.125                0.895259371     -89.4105449
9.126                0.894966608     -89.5724782
9.127                0.894673026     -89.7348705
9.128                0.894378625      -89.897723
9.129                0.894083406     -90.0610373
9.13                 0.893787369     -90.2248146
9.131                0.893490513     -90.3890563
9.132                0.893192839     -90.5537638
9.133                0.892894348     -90.7189386
9.134                0.892595039     -90.8845819
9.135                0.892294912     -91.0506952
9.136                0.891993969     -91.2172798
9.137                 0.89169221     -91.3843371
9.138                0.891389634     -91.5518686
9.139                0.891086243     -91.7198756
9.14                 0.890782037     -91.8883594
9.141                0.890477016     -92.0573216
9.142                0.890171182     -92.2267633
9.143                0.889864534     -92.3966862
9.144                0.889557074     -92.5670914
9.145                0.889248803     -92.7379805
9.146                0.888939721     -92.9093548
9.147                0.888629828     -93.0812156
9.148                0.888319127     -93.2535645
9.149                0.888007617     -93.4264027
9.15                 0.887695301     -93.5997316
9.151                0.887382178     -93.7735527
9.152                 0.88706825     -93.9478673
9.153                0.886753519     -94.1226768
9.154                0.886437984     -94.2979826
9.155                0.886121649      -94.473786
9.156                0.885804513     -94.6500885
9.157                0.885486579     -94.8268914
9.158                0.885167848     -95.0041961
9.159                0.884848321      -95.182004
9.16                 0.884527999     -95.3603165
9.161                0.884206885     -95.5391349
9.162                 0.88388498     -95.7184607
9.163                0.883562285     -95.8982951
9.164                0.883238803     -96.0786396
9.165                0.882914535     -96.2594956
9.166                0.882589484     -96.4408643
9.167                 0.88226365     -96.6227472
9.168                0.881937036     -96.8051457
9.169                0.881609645      -96.988061
9.17                 0.881281478     -97.1714947
9.171                0.880952537     -97.3554479
9.172                0.880622825     -97.5399222
9.173                0.880292344     -97.7249187
9.174                0.879961097      -97.910439
9.175                0.879629085     -98.0964843
9.176                0.879296311      -98.283056
9.177                0.878962779     -98.4701555
9.178                0.878628489      -98.657784
9.179                0.878293447     -98.8459429
9.18                 0.877957653     -99.0346336
9.181                0.877621111     -99.2238573
9.182                0.877283824     -99.4136155
9.183                0.876945794     -99.6039095
9.184                0.876607026     -99.7947404
9.185                0.876267521     -99.9861098
9.186                0.875927284     -100.178019
9.187                0.875586317     -100.370469
9.188                0.875244624     -100.563461
9.189                0.874902208     -100.756997
9.19                 0.874559073     -100.951078
9.191                0.874215222     -101.145705
9.192                 0.87387066      -101.34088
9.193                0.873525389     -101.536604
9.194                0.873179413     -101.732877
9.195                0.872832737     -101.929702
9.196                0.872485364     -102.127079
9.197                0.872137299     -102.325011
9.198                0.871788545     -102.523497
9.199                0.871439108      -102.72254
9.2                   0.87108899     -102.922141
9.201                0.870738196       -103.1223
9.202                0.870386732      -103.32302
9.203                0.870034601     -103.524301
9.204                0.869681809     -103.726144
9.205                0.869328359     -103.928552
9.206                0.868974257     -104.131524
9.207                0.868619507     -104.335063
9.208                0.868264115     -104.539169
9.209                0.867908085     -104.743843
9.21                 0.867551424     -104.949088
9.211                0.867194135     -105.154903
9.212                0.866836225     -105.361291
9.213                0.866477698     -105.568252
9.214                0.866118561     -105.775787
9.215                0.865758819     -105.983898
9.216                0.865398477     -106.192586
9.217                0.865037542     -106.401852
9.218                 0.86467602     -106.611697
9.219                0.864313916     -106.822122
9.22                 0.863951236     -107.033128
9.221                0.863587987     -107.244716
9.222                0.863224175     -107.456888
9.223                0.862859806     -107.669645
9.224                0.862494887     -107.882987
9.225                0.862129424     -108.096916
9.226                0.861763425     -108.311432
9.227                0.861396895     -108.526537
9.228                0.861029843     -108.742232
9.229                0.860662274     -108.958518
9.23                 0.860294196     -109.175395
9.231                0.859925616     -109.392866
9.232                0.859556541      -109.61093
9.233                0.859186979     -109.829589
9.234                0.858816938     -110.048844
9.235                0.858446424     -110.268695
9.236                0.858075446     -110.489144
9.237                0.857704011     -110.710192
9.238                0.857332128     -110.931839
9.239                0.856959804     -111.154086
9.24                 0.856587048     -111.376935
9.241                0.856213868     -111.600386
9.242                0.855840272      -111.82444
9.243                0.855466268     -112.049098
9.244                0.855091866     -112.274361
9.245                0.854717074     -112.500229
9.246                0.854341901     -112.726704
9.247                0.853966355     -112.953786
9.248                0.853590446     -113.181476
9.249                0.853214183     -113.409775
9.25                 0.852837576     -113.638683
9.251                0.852460633     -113.868202
9.252                0.852083364     -114.098331
9.253                0.851705778     -114.329073
9.254                0.851327886     -114.560426
9.255                0.850949697     -114.792393
9.256                0.850571222     -115.024974
9.257                 0.85019247     -115.258169
9.258                0.849813451      -115.49198
9.259                0.849434176     -115.726405
9.26                 0.849054655     -115.961448
9.261                0.848674898     -116.197107
9.262                0.848294918     -116.433384
9.263                0.847914723     -116.670278
9.264                0.847534325     -116.907792
9.265                0.847153735     -117.145924
9.266                0.846772965     -117.384676
9.267                0.846392025     -117.624048
9.268                0.846010927      -117.86404
9.269                0.845629682     -118.104654
9.27                 0.845248301     -118.345889
9.271                0.844866798     -118.587745
9.272                0.844485183     -118.830224
9.273                0.844103468     -119.073325
9.274                0.843721666      -119.31705
9.275                0.843339789     -119.561397
9.276                0.842957848     -119.806368
9.277                0.842575858     -120.051963
9.278                0.842193829     -120.298182
9.279                0.841811775     -120.545025
9.28                 0.841429708     -120.792493
9.281                0.841047642     -121.040585
9.282                 0.84066559     -121.289303
9.283                0.840283564     -121.538645
9.284                0.839901578     -121.788613
9.285                0.839519645     -122.039206
9.286                 0.83913778     -122.290424
9.287                0.838755995     -122.542268
9.288                0.838374304     -122.794738
9.289                0.837992722     -123.047833
9.29                 0.837611262     -123.301553
9.291                0.837229938     -123.555899
9.292                0.836848764      -123.81087
9.293                0.836467756     -124.066467
9.294                0.836086927     -124.322689
9.295                0.835706292     -124.579536
9.296                0.835325866     -124.837008
9.297                0.834945663     -125.095104
9.298                0.834565699     -125.353826
9.299                0.834185988     -125.613171
9.3                  0.833806546     -125.873141
9.301                0.833427388     -126.133734
9.302                0.833048529     -126.394951
9.303                0.832669985     -126.656791
9.304                0.832291772     -126.919254
9.305                0.831913904     -127.182339
9.306                0.831536399     -127.446046
9.307                0.831159272     -127.710374
9.308                 0.83078254     -127.975324
9.309                0.830406217     -128.240893
9.31                 0.830030321     -128.507083
9.311                0.829654868     -128.773892
9.312                0.829279874      -129.04132
9.313                0.828905357     -129.309366
9.314                0.828531332     -129.578029
9.315                0.828157817     -129.847309
9.316                0.827784828     -130.117205
9.317                0.827412383     -130.387717
9.318                0.827040498     -130.658843
9.319                0.826669191     -130.930582
9.32                  0.82629848     -131.202935
9.321                0.825928381     -131.475899
9.322                0.825558912     -131.749475
9.323                 0.82519009      -132.02366
9.324                0.824821934     -132.298455
9.325                0.824454462     -132.573858
9.326                 0.82408769     -132.849868
9.327                0.823721637     -133.126483
9.328                0.823356321     -133.403704
9.329                0.822991761     -133.681529
9.33                 0.822627973     -133.959956
9.331                0.822264978     -134.238984
9.332                0.821902793     -134.518613
9.333                0.821541436      -134.79884
9.334                0.821180926     -135.079665
9.335                0.820821283     -135.361086
9.336                0.820462523     -135.643102
9.337                0.820104667     -135.925711
9.338                0.819747733     -136.208913
9.339                0.819391741     -136.492704
9.34                 0.819036708     -136.777085
9.341                0.818682654     -137.062053
9.342                0.818329599     -137.347606
9.343                0.817977561     -137.633744
9.344                 0.81762656     -137.920464
9.345                0.817276615     -138.207765
9.346                0.816927745     -138.495645
9.347                 0.81657997     -138.784102
9.348                0.816233309     -139.073135
9.349                0.815887783     -139.362741
9.35                 0.815543409     -139.652918
9.351                0.815200209     -139.943665
9.352                0.814858201      -140.23498
9.353                0.814517406     -140.526861
9.354                0.814177843     -140.819306
9.355                0.813839532     -141.112311
9.356                0.813502493     -141.405877
9.357                0.813166745          -141.7
9.358                0.812832309     -141.994677
9.359                0.812499205     -142.289908
9.36                 0.812167452     -142.585689
9.361                 0.81183707     -142.882019
9.362                 0.81150808     -143.178894
9.363                0.811180502     -143.476313
9.364                0.810854355     -143.774272
9.365                0.810529659     -144.072771
9.366                0.810206435     -144.371805
9.367                0.809884703     -144.671373
9.368                0.809564482     -144.971472
9.369                0.809245794     -145.272099
9.37                 0.808928657     -145.573252
9.371                0.808613092     -145.874927
9.372                0.808299119     -146.177123
9.373                0.807986758     -146.479836
9.374                 0.80767603     -146.783064
9.375                0.807366953     -147.086803
9.376                0.807059549     -147.391051
9.377                0.806753837     -147.695804
9.378                0.806449838      -148.00106
9.379                 0.80614757     -148.306816
9.38                 0.805847055     -148.613069
9.381                0.805548311     -148.919815
9.382                 0.80525136     -149.227052
9.383                 0.80495622     -149.534775
9.384                0.804662911     -149.842983
9.385                0.804371454     -150.151671
9.386                0.804081867     -150.460836
9.387                0.803794171     -150.770476
9.388                0.803508385     -151.080586
9.389                0.803224529     -151.391163
9.39                 0.802942622     -151.702204
9.391                0.802662683     -152.013705
9.392                0.802384732     -152.325663
9.393                0.802108789     -152.638073
9.394                0.801834872     -152.950933
9.395                   0.801563     -153.264239
9.396                0.801293193     -153.577986
