! TOUCHSTONE file generated by CST DESIGN STUDIO
! Date and time: Tue Feb  4 14:03:12 2025
! Project name: C:\Work\MatlabApps\UnitCellOptimizationMatlab\CST\unitcell.cst
! Tree item: Tasks\Sweep1\SPara1\S-Parameters
! Header version: 2024
! Port assignment regex: !\s*Touchstone port\s*([0-9]+)\s*=\s*(CST MWS port|CST DES external port|CST DES block port)\s*(.+)\s* \(\"(.*)\"\)(\s*mode\s*([0-9]+))?.*
! Touchstone port assignment:
! Touchstone port 1 = CST DES external port 1 ("")
# GHz S MA R 50
9                    0.968574068     -38.6760579
9.001                0.968527494     -38.7202885
9.002                0.968480785     -38.7645971
9.003                0.968433941      -38.808984
9.004                0.968386962     -38.8534494
9.005                0.968339847     -38.8979934
9.006                0.968292596     -38.9426163
9.007                0.968245209     -38.9873183
9.008                0.968197684     -39.0320997
9.009                0.968150021     -39.0769606
9.01                 0.968102221     -39.1219012
9.011                0.968054282     -39.1669219
9.012                0.968006205     -39.2120228
9.013                0.967957988     -39.2572041
9.014                0.967909631     -39.3024661
9.015                0.967861134      -39.347809
9.016                0.967812496      -39.393233
9.017                0.967763718     -39.4387384
9.018                0.967714797     -39.4843253
9.019                0.967665735      -39.529994
9.02                  0.96761653     -39.5757448
9.021                0.967567182     -39.6215778
9.022                 0.96751769     -39.6674933
9.023                0.967468055     -39.7134915
9.024                0.967418275     -39.7595727
9.025                 0.96736835      -39.805737
9.026                 0.96731828     -39.8519848
9.027                0.967268064     -39.8983162
9.028                0.967217702     -39.9447315
9.029                0.967167192      -39.991231
9.03                 0.967116536     -40.0378148
9.031                0.967065732     -40.0844832
9.032                 0.96701478     -40.1312364
9.033                0.966963678     -40.1780747
9.034                0.966912428     -40.2249984
9.035                0.966861028     -40.2720075
9.036                0.966809478     -40.3191025
9.037                0.966757777     -40.3662836
9.038                0.966705924     -40.4135509
9.039                0.966653921     -40.4609048
9.04                 0.966601764     -40.5083454
9.041                0.966549456     -40.5558731
9.042                0.966496993      -40.603488
9.043                0.966444378     -40.6511905
9.044                0.966391608     -40.6989807
9.045                0.966338683     -40.7468589
9.046                0.966285603     -40.7948255
9.047                0.966232367     -40.8428805
9.048                0.966178975     -40.8910243
9.049                0.966125426     -40.9392571
9.05                 0.966071719     -40.9875792
9.051                0.966017855     -41.0359909
9.052                0.965963833     -41.0844923
9.053                0.965909651     -41.1330838
9.054                 0.96585531     -41.1817656
9.055                0.965800809      -41.230538
9.056                0.965746148     -41.2794012
9.057                0.965691325     -41.3283554
9.058                0.965636341     -41.3774011
9.059                0.965581195     -41.4265383
9.06                 0.965525886     -41.4757674
9.061                0.965470414     -41.5250886
9.062                0.965414778     -41.5745023
9.063                0.965358978     -41.6240086
9.064                0.965303013     -41.6736078
9.065                0.965246882     -41.7233002
9.066                0.965190586     -41.7730862
9.067                0.965134123     -41.8229658
9.068                0.965077492     -41.8729395
9.069                0.965020695     -41.9230074
9.07                 0.964963729     -41.9731699
9.071                0.964906594     -42.0234273
9.072                0.964849289     -42.0737797
9.073                0.964791815     -42.1242276
9.074                0.964734171     -42.1747711
9.075                0.964676355     -42.2254105
9.076                0.964618368     -42.2761461
9.077                0.964560208     -42.3269782
9.078                0.964501875     -42.3779072
9.079                 0.96444337     -42.4289331
9.08                  0.96438469     -42.4800564
9.081                0.964325835     -42.5312774
9.082                0.964266806     -42.5825962
9.083                  0.9642076     -42.6340132
9.084                0.964148218     -42.6855287
9.085                 0.96408866      -42.737143
9.086                0.964028923     -42.7888563
9.087                0.963969009      -42.840669
9.088                0.963908915     -42.8925813
9.089                0.963848643     -42.9445936
9.09                  0.96378819     -42.9967061
9.091                0.963727557      -43.048919
9.092                0.963666742     -43.1012328
9.093                0.963605746     -43.1536478
9.094                0.963544567     -43.2061641
9.095                0.963483205     -43.2587821
9.096                0.963421659     -43.3115021
9.097                0.963359929     -43.3643244
9.098                0.963298014     -43.4172494
9.099                0.963235913     -43.4702772
9.1                  0.963173627     -43.5234082
9.101                0.963111153     -43.5766428
9.102                0.963048492     -43.6299812
9.103                0.962985642     -43.6834237
9.104                0.962922604     -43.7369707
9.105                0.962859376     -43.7906224
9.106                0.962795958     -43.8443791
9.107                 0.96273235     -43.8982413
9.108                0.962668549     -43.9522091
9.109                0.962604557     -44.0062829
9.11                 0.962540372      -44.060463
9.111                0.962475994     -44.1147497
9.112                0.962411422     -44.1691434
9.113                0.962346655     -44.2236443
9.114                0.962281692     -44.2782529
9.115                0.962216534     -44.3329693
9.116                0.962151178     -44.3877939
9.117                0.962085626     -44.4427271
9.118                0.962019875     -44.4977692
9.119                0.961953925     -44.5529205
9.12                 0.961887776     -44.6081813
9.121                0.961821426     -44.6635519
9.122                0.961754876     -44.7190327
9.123                0.961688124      -44.774624
9.124                 0.96162117     -44.8303262
9.125                0.961554013     -44.8861395
9.126                0.961486652     -44.9420644
9.127                0.961419087     -44.9981011
9.128                0.961351317       -45.05425
9.129                0.961283341     -45.1105113
9.13                 0.961215158     -45.1668856
9.131                0.961146768      -45.223373
9.132                 0.96107817      -45.279974
9.133                0.961009364     -45.3366889
9.134                0.960940348     -45.3935179
9.135                0.960871122     -45.4504616
9.136                0.960801685     -45.5075201
9.137                0.960732037      -45.564694
9.138                0.960662176     -45.6219834
9.139                0.960592102     -45.6793888
9.14                 0.960521814     -45.7369105
9.141                0.960451312     -45.7945488
9.142                0.960380595     -45.8523042
9.143                0.960309661      -45.910177
9.144                 0.96023851     -45.9681675
9.145                0.960167142     -46.0262761
9.146                0.960095556     -46.0845031
9.147                 0.96002375     -46.1428489
9.148                0.959951725     -46.2013139
9.149                0.959879479     -46.2598985
9.15                 0.959807012     -46.3186029
9.151                0.959734322     -46.3774276
9.152                0.959661409     -46.4363729
9.153                0.959588273     -46.4954392
9.154                0.959514912     -46.5546269
9.155                0.959441326     -46.6139364
9.156                0.959367514     -46.6733679
9.157                0.959293474      -46.732922
9.158                0.959219208     -46.7925989
9.159                0.959144712      -46.852399
9.16                 0.959069987     -46.9123228
9.161                0.958995033     -46.9723705
9.162                0.958919847     -47.0325427
9.163                0.958844429     -47.0928396
9.164                0.958768779     -47.1532616
9.165                0.958692896     -47.2138092
9.166                0.958616778     -47.2744827
9.167                0.958540426     -47.3352825
9.168                0.958463837      -47.396209
9.169                0.958387012     -47.4572626
9.17                  0.95830995     -47.5184437
9.171                0.958232649     -47.5797526
9.172                0.958155109     -47.6411898
9.173                0.958077329     -47.7027557
9.174                0.957999307     -47.7644507
9.175                0.957921045     -47.8262751
9.176                0.957842539     -47.8882294
9.177                0.957763791     -47.9503139
9.178                0.957684798     -48.0125291
9.179                0.957605559     -48.0748754
9.18                 0.957526075     -48.1373532
9.181                0.957446344     -48.1999629
9.182                0.957366365     -48.2627049
9.183                0.957286137     -48.3255796
9.184                 0.95720566     -48.3885875
9.185                0.957124933     -48.4517289
9.186                0.957043954     -48.5150043
9.187                0.956962723      -48.578414
9.188                0.956881239     -48.6419586
9.189                0.956799501     -48.7056384
9.19                 0.956717508     -48.7694538
9.191                0.956635259     -48.8334053
9.192                0.956552754     -48.8974933
9.193                0.956469991     -48.9617182
9.194                0.956386969     -49.0260805
9.195                0.956303689     -49.0905806
9.196                0.956220147     -49.1552189
9.197                0.956136345     -49.2199959
9.198                 0.95605228     -49.2849119
9.199                0.955967952     -49.3499675
9.2                   0.95588336      -49.415163
9.201                0.955798503      -49.480499
9.202                 0.95571338     -49.5459758
9.203                 0.95562799     -49.6115939
9.204                0.955542333     -49.6773538
9.205                0.955456406     -49.7432558
9.206                 0.95537021     -49.8093005
9.207                0.955283743     -49.8754883
9.208                0.955197004     -49.9418196
9.209                0.955109993     -50.0082949
9.21                 0.955022708     -50.0749146
9.211                0.954935149     -50.1416793
9.212                0.954847314     -50.2085894
9.213                0.954759202     -50.2756452
9.214                0.954670813     -50.3428474
9.215                0.954582146     -50.4101964
9.216                0.954493199     -50.4776925
9.217                0.954403971     -50.5453364
9.218                0.954314462     -50.6131284
9.219                 0.95422467     -50.6810691
9.22                 0.954134595     -50.7491589
9.221                0.954044235     -50.8173982
9.222                 0.95395359     -50.8857877
9.223                0.953862658     -50.9543276
9.224                0.953771439     -51.0230186
9.225                0.953679931     -51.0918611
9.226                0.953588134     -51.1608556
9.227                0.953496045     -51.2300026
9.228                0.953403665     -51.2993026
9.229                0.953310993      -51.368756
9.23                 0.953218026     -51.4383633
9.231                0.953124765     -51.5081251
9.232                0.953031208     -51.5780418
9.233                0.952937354      -51.648114
9.234                0.952843201     -51.7183421
9.235                 0.95274875     -51.7887266
9.236                0.952653999     -51.8592681
9.237                0.952558946     -51.9299671
9.238                0.952463591     -52.0008239
9.239                0.952367933     -52.0718393
9.24                 0.952271971     -52.1430136
9.241                0.952175703     -52.2143474
9.242                0.952079128     -52.2858412
9.243                0.951982245     -52.3574955
9.244                0.951885054     -52.4293109
9.245                0.951787553     -52.5012878
9.246                0.951689741     -52.5734268
9.247                0.951591617     -52.6457284
9.248                0.951493179     -52.7181932
9.249                0.951394427     -52.7908216
9.25                  0.95129536     -52.8636141
9.251                0.951195976     -52.9365715
9.252                0.951096274      -53.009694
9.253                0.950996254     -53.0829824
9.254                0.950895913     -53.1564371
9.255                0.950795252     -53.2300587
9.256                0.950694268     -53.3038477
9.257                 0.95059296     -53.3778047
9.258                0.950491329     -53.4519301
9.259                0.950389371     -53.5262247
9.26                 0.950287086     -53.6006888
9.261                0.950184474     -53.6753232
9.262                0.950081532     -53.7501282
9.263                 0.94997826     -53.8251045
9.264                0.949874656     -53.9002527
9.265                0.949770719     -53.9755733
9.266                0.949666449     -54.0510668
9.267                0.949561843     -54.1267339
9.268                0.949456901      -54.202575
9.269                0.949351621     -54.2785909
9.27                 0.949246003     -54.3547819
9.271                0.949140045     -54.4311488
9.272                0.949033746     -54.5076921
9.273                0.948927104     -54.5844124
9.274                0.948820119     -54.6613102
9.275                0.948712789     -54.7383862
9.276                0.948605113     -54.8156409
9.277                0.948497089     -54.8930749
9.278                0.948388718     -54.9706889
9.279                0.948279996     -55.0484833
9.28                 0.948170924     -55.1264588
9.281                0.948061499      -55.204616
9.282                0.947951721     -55.2829555
9.283                0.947841588     -55.3614779
9.284                  0.9477311     -55.4401838
9.285                0.947620254     -55.5190738
9.286                0.947509049     -55.5981485
9.287                0.947397485     -55.6774085
9.288                 0.94728556     -55.7568545
9.289                0.947173272      -55.836487
9.29                 0.947060621     -55.9163067
9.291                0.946947605     -55.9963142
9.292                0.946834223       -56.07651
9.293                0.946720474      -56.156895
9.294                0.946606355     -56.2374696
9.295                0.946491867     -56.3182345
9.296                0.946377007     -56.3991903
9.297                0.946261775     -56.4803377
9.298                0.946146168     -56.5616773
9.299                0.946030187     -56.6432097
9.3                  0.945913828     -56.7249357
9.301                0.945797092     -56.8068557
9.302                0.945679976     -56.8889706
9.303                 0.94556248     -56.9712808
9.304                0.945444602     -57.0537871
9.305                0.945326341     -57.1364902
9.306                0.945207694     -57.2193906
9.307                0.945088662     -57.3024891
9.308                0.944969243     -57.3857863
9.309                0.944849435     -57.4692829
9.31                 0.944729237     -57.5529795
9.311                0.944608647     -57.6368769
9.312                0.944487664     -57.7209756
9.313                0.944366288     -57.8052764
9.314                0.944244516     -57.8897799
9.315                0.944122346     -57.9744868
9.316                0.943999779     -58.0593978
9.317                0.943876812     -58.1445136
9.318                0.943753443     -58.2298349
9.319                0.943629673     -58.3153623
9.32                 0.943505498     -58.4010966
9.321                0.943380918     -58.4870384
9.322                0.943255931     -58.5731885
9.323                0.943130536     -58.6595475
9.324                0.943004732     -58.7461162
9.325                0.942878516     -58.8328952
9.326                0.942751888     -58.9198853
9.327                0.942624847     -59.0070871
9.328                 0.94249739     -59.0945015
9.329                0.942369516      -59.182129
9.33                 0.942241224     -59.2699705
9.331                0.942112512     -59.3580266
9.332                 0.94198338     -59.4462981
9.333                0.941853825     -59.5347857
9.334                0.941723846     -59.6234902
9.335                0.941593442     -59.7124121
9.336                 0.94146261     -59.8015524
9.337                0.941331351     -59.8909118
9.338                0.941199661     -59.9804909
9.339                0.941067541     -60.0702905
9.34                 0.940934987     -60.1603114
9.341                   0.940802     -60.2505543
9.342                0.940668576       -60.34102
9.343                0.940534715     -60.4317092
9.344                0.940400416     -60.5226227
9.345                0.940265676     -60.6137613
9.346                0.940130495     -60.7051256
9.347                0.939994871     -60.7967166
9.348                0.939858801     -60.8885349
9.349                0.939722286     -60.9805813
9.35                 0.939585323     -61.0728566
9.351                 0.93944791     -61.1653615
9.352                0.939310047      -61.258097
9.353                0.939171731     -61.3510636
9.354                0.939032962     -61.4442623
9.355                0.938893737     -61.5376939
9.356                0.938754055      -61.631359
9.357                0.938613915     -61.7252585
9.358                0.938473315     -61.8193932
9.359                0.938332253      -61.913764
9.36                 0.938190728     -62.0083715
9.361                0.938048739     -62.1032167
9.362                0.937906283     -62.1983003
9.363                 0.93776336     -62.2936231
9.364                0.937619968      -62.389186
9.365                0.937476104     -62.4849898
9.366                0.937331768     -62.5810353
9.367                0.937186958     -62.6773233
9.368                0.937041673     -62.7738547
9.369                 0.93689591     -62.8706302
9.37                 0.936749669     -62.9676508
9.371                0.936602947     -63.0649172
9.372                0.936455744     -63.1624304
9.373                0.936308057     -63.2601911
9.374                0.936159885     -63.3582002
9.375                0.936011226     -63.4564585
9.376                0.935862079      -63.554967
9.377                0.935712443     -63.6537263
9.378                0.935562315     -63.7527376
9.379                0.935411693     -63.8520014
9.38                 0.935260577     -63.9515189
9.381                0.935108965     -64.0512907
9.382                0.934956855     -64.1513179
9.383                0.934804246     -64.2516012
9.384                0.934651135     -64.3521415
9.385                0.934497522     -64.4529398
9.386                0.934343405     -64.5539969
9.387                0.934188781     -64.6553137
9.388                 0.93403365      -64.756891
9.389                 0.93387801     -64.8587299
9.39                 0.933721859     -64.9608311
9.391                0.933565195     -65.0631956
9.392                0.933408018     -65.1658243
9.393                0.933250325     -65.2687181
9.394                0.933092114     -65.3718779
9.395                0.932933384     -65.4753047
9.396                0.932774134     -65.5789992
