! TOUCHSTONE file generated by CST DESIGN STUDIO
! Date and time: Tue Feb  4 14:01:47 2025
! Project name: C:\Work\MatlabApps\UnitCellOptimizationMatlab\CST\unitcell.cst
! Tree item: Tasks\Sweep1\SPara1\S-Parameters
! Header version: 2024
! Port assignment regex: !\s*Touchstone port\s*([0-9]+)\s*=\s*(CST MWS port|CST DES external port|CST DES block port)\s*(.+)\s* \(\"(.*)\"\)(\s*mode\s*([0-9]+))?.*
! Touchstone port assignment:
! Touchstone port 1 = CST DES external port 1 ("")
# GHz S MA R 50
9                     0.97515955     -68.4347703
9.001                0.975110653     -68.5451815
9.002                0.975061146     -68.6558879
9.003                0.975011026     -68.7668903
9.004                0.974960291     -68.8781896
9.005                0.974908937     -68.9897866
9.006                0.974856963     -69.1016824
9.007                0.974804364     -69.2138778
9.008                0.974751139     -69.3263736
9.009                0.974697284     -69.4391709
9.01                 0.974642796     -69.5522705
9.011                0.974587674     -69.6656734
9.012                0.974531913     -69.7793804
9.013                0.974475512     -69.8933925
9.014                0.974418467     -70.0077105
9.015                0.974360775     -70.1223355
9.016                0.974302435     -70.2372683
9.017                0.974243442     -70.3525098
9.018                0.974183795     -70.4680611
9.019                 0.97412349      -70.583923
9.02                 0.974062524     -70.7000964
9.021                0.974000896     -70.8165824
9.022                0.973938601     -70.9333817
9.023                0.973875638     -71.0504955
9.024                0.973812003     -71.1679246
9.025                0.973747693     -71.2856699
9.026                0.973682707     -71.4037325
9.027                 0.97361704     -71.5221133
9.028                0.973550691     -71.6408132
9.029                0.973483656     -71.7598332
9.03                 0.973415933     -71.8791742
9.031                 0.97334752     -71.9988373
9.032                0.973278412     -72.1188233
9.033                0.973208608     -72.2391333
9.034                0.973138104     -72.3597682
9.035                0.973066898      -72.480729
9.036                0.972994988     -72.6020167
9.037                 0.97292237     -72.7236322
9.038                0.972849042     -72.8455765
9.039                0.972775001     -72.9678507
9.04                 0.972700244     -73.0904556
9.041                0.972624768     -73.2133924
9.042                0.972548571     -73.3366619
9.043                0.972471651     -73.4602651
9.044                0.972394004     -73.5842032
9.045                0.972315627      -73.708477
9.046                0.972236518     -73.8330875
9.047                0.972156675     -73.9580358
9.048                0.972076095     -74.0833229
9.049                0.971994774     -74.2089498
9.05                  0.97191271     -74.3349174
9.051                0.971829901     -74.4612269
9.052                0.971746344     -74.5878792
9.053                0.971662037     -74.7148753
9.054                0.971576976     -74.8422162
9.055                0.971491159     -74.9699031
9.056                0.971404583     -75.0979368
9.057                0.971317246     -75.2263185
9.058                0.971229145     -75.3550491
9.059                0.971140278     -75.4841297
9.06                 0.971050642     -75.6135614
9.061                0.970960234     -75.7433451
9.062                0.970869052     -75.8734819
9.063                0.970777093     -76.0039728
9.064                0.970684355      -76.134819
9.065                0.970590835     -76.2660214
9.066                0.970496531      -76.397581
9.067                0.970401439      -76.529499
9.068                0.970305559     -76.6617764
9.069                0.970208886     -76.7944143
9.07                 0.970111419     -76.9274136
9.071                0.970013155     -77.0607755
9.072                0.969914091      -77.194501
9.073                0.969814226     -77.3285912
9.074                0.969713557     -77.4630472
9.075                 0.96961208       -77.59787
9.076                0.969509795     -77.7330607
9.077                0.969406698     -77.8686204
9.078                0.969302787     -78.0045502
9.079                 0.96919806      -78.140851
9.08                 0.969092514     -78.2775241
9.081                0.968986147     -78.4145705
9.082                0.968878957     -78.5519912
9.083                0.968770941     -78.6897874
9.084                0.968662096     -78.8279602
9.085                0.968552422     -78.9665106
9.086                0.968441915     -79.1054397
9.087                0.968330573     -79.2447487
9.088                0.968218394     -79.3844386
9.089                0.968105376     -79.5245106
9.09                 0.967991516     -79.6649656
9.091                0.967876812      -79.805805
9.092                0.967761263     -79.9470296
9.093                0.967644865     -80.0886407
9.094                0.967527617     -80.2306394
9.095                0.967409516     -80.3730267
9.096                0.967290561     -80.5158039
9.097                 0.96717075     -80.6589719
9.098                 0.96705008      -80.802532
9.099                0.966928549     -80.9464852
9.1                  0.966806155     -81.0908326
9.101                0.966682896     -81.2355755
9.102                0.966558771     -81.3807148
9.103                0.966433776     -81.5262518
9.104                0.966307911     -81.6721875
9.105                0.966181174     -81.8185232
9.106                0.966053561     -81.9652598
9.107                0.965925073     -82.1123987
9.108                0.965795706     -82.2599408
9.109                0.965665458     -82.4078873
9.11                 0.965534329     -82.5562395
9.111                0.965402315     -82.7049983
9.112                0.965269416      -82.854165
9.113                 0.96513563     -83.0037407
9.114                0.965000954     -83.1537265
9.115                0.964865388     -83.3041236
9.116                0.964728929     -83.4549331
9.117                0.964591576     -83.6061563
9.118                0.964453327     -83.7577941
9.119                 0.96431418     -83.9098479
9.12                 0.964174135     -84.0623187
9.121                0.964033189     -84.2152077
9.122                 0.96389134      -84.368516
9.123                0.963748588     -84.5222449
9.124                0.963604931     -84.6763954
9.125                0.963460367     -84.8309687
9.126                0.963314896      -84.985966
9.127                0.963168515     -85.1413885
9.128                0.963021223     -85.2972373
9.129                0.962873019     -85.4535136
9.13                 0.962723901     -85.6102185
9.131                0.962573869     -85.7673532
9.132                0.962422921     -85.9249189
9.133                0.962271056     -86.0829168
9.134                0.962118272     -86.2413479
9.135                0.961964569     -86.4002136
9.136                0.961809945     -86.5595148
9.137                  0.9616544      -86.719253
9.138                0.961497932     -86.8794291
9.139                 0.96134054     -87.0400444
9.14                 0.961182223        -87.2011
9.141                 0.96102298     -87.3625971
9.142                0.960862811     -87.5245369
9.143                0.960701715     -87.6869206
9.144                0.960539689     -87.8497494
9.145                0.960376735     -88.0130243
9.146                0.960212851     -88.1767467
9.147                0.960048036     -88.3409176
9.148                0.959882289     -88.5055383
9.149                 0.95971561     -88.6706099
9.15                 0.959547999     -88.8361336
9.151                0.959379454     -89.0021106
9.152                0.959209976      -89.168542
9.153                0.959039563      -89.335429
9.154                0.958868215     -89.5027729
9.155                0.958695931     -89.6705748
9.156                0.958522712     -89.8388358
9.157                0.958348557     -90.0075572
9.158                0.958173466     -90.1767401
9.159                0.957997438     -90.3463857
9.16                 0.957820473     -90.5164952
9.161                0.957642571     -90.6870697
9.162                0.957463732     -90.8581104
9.163                0.957283956     -91.0296186
9.164                0.957103242     -91.2015953
9.165                0.956921591     -91.3740417
9.166                0.956739002     -91.5469591
9.167                0.956555476     -91.7203486
9.168                0.956371014     -91.8942113
9.169                0.956185614     -92.0685485
9.17                 0.955999277     -92.2433613
9.171                0.955812005     -92.4186508
9.172                0.955623796     -92.5944183
9.173                0.955434651     -92.7706649
9.174                0.955244571     -92.9473918
9.175                0.955053556     -93.1246001
9.176                0.954861606      -93.302291
9.177                0.954668723     -93.4804656
9.178                0.954474907     -93.6591252
9.179                0.954280158     -93.8382708
9.18                 0.954084478     -94.0179037
9.181                0.953887866      -94.198025
9.182                0.953690324     -94.3786358
9.183                0.953491853     -94.5597372
9.184                0.953292454     -94.7413306
9.185                0.953092127     -94.9234169
9.186                0.952890874     -95.1059973
9.187                0.952688696      -95.289073
9.188                0.952485593     -95.4726451
9.189                0.952281568     -95.6567148
9.19                 0.952076621     -95.8412831
9.191                0.951870754     -96.0263513
9.192                0.951663968     -96.2119204
9.193                0.951456265     -96.3979915
9.194                0.951247646     -96.5845659
9.195                0.951038112     -96.7716446
9.196                0.950827666     -96.9592287
9.197                0.950616308     -97.1473194
9.198                0.950404041     -97.3359178
9.199                0.950190867     -97.5250249
9.2                  0.949976787     -97.7146419
9.201                0.949761804     -97.9047699
9.202                0.949545919       -98.09541
9.203                0.949329134     -98.2865633
9.204                0.949111452     -98.4782308
9.205                0.948892874     -98.6704137
9.206                0.948673404      -98.863113
9.207                0.948453042     -99.0563298
9.208                0.948231793     -99.2500653
9.209                0.948009657     -99.4443204
9.21                 0.947786639     -99.6390962
9.211                0.947562739     -99.8343939
9.212                0.947337962     -100.030214
9.213                0.947112309     -100.226559
9.214                0.946885783     -100.423428
9.215                0.946658388     -100.620824
9.216                0.946430127     -100.818746
9.217                0.946201001     -101.017196
9.218                0.945971015     -101.216176
9.219                0.945740172     -101.415686
9.22                 0.945508474     -101.615727
9.221                0.945275926       -101.8163
9.222                0.945042529     -102.017406
9.223                0.944808289     -102.219046
9.224                0.944573209     -102.421222
9.225                0.944337291     -102.623933
9.226                0.944100541     -102.827182
9.227                 0.94386296     -103.030969
9.228                0.943624555     -103.235295
9.229                0.943385327     -103.440161
9.23                 0.943145282     -103.645568
9.231                0.942904423     -103.851517
9.232                0.942662755     -104.058008
9.233                0.942420281     -104.265044
9.234                0.942177007     -104.472624
9.235                0.941932936      -104.68075
9.236                0.941688073     -104.889423
9.237                0.941442423     -105.098643
9.238                0.941195989     -105.308411
9.239                0.940948778     -105.518729
9.24                 0.940700793     -105.729597
9.241                 0.94045204     -105.941016
9.242                0.940202523     -106.152987
9.243                0.939952248      -106.36551
9.244                 0.93970122     -106.578587
9.245                0.939449444     -106.792219
9.246                0.939196925     -107.006406
9.247                0.938943669     -107.221149
9.248                0.938689681     -107.436449
9.249                0.938434967     -107.652306
9.25                 0.938179532     -107.868722
9.251                0.937923383     -108.085697
9.252                0.937666524     -108.303233
9.253                0.937408963     -108.521329
9.254                0.937150704     -108.739987
9.255                0.936891755     -108.959207
9.256                0.936632121      -109.17899
9.257                0.936371809     -109.399337
9.258                0.936110825     -109.620248
9.259                0.935849175     -109.841725
9.26                 0.935586866     -110.063767
9.261                0.935323905     -110.286376
9.262                0.935060299     -110.509552
9.263                0.934796053     -110.733296
9.264                0.934531177     -110.957609
9.265                0.934265675      -111.18249
9.266                0.933999556     -111.407942
9.267                0.933732826     -111.633964
9.268                0.933465494     -111.860556
9.269                0.933197566     -112.087721
9.27                  0.93292905     -112.315457
9.271                0.932659953     -112.543766
9.272                0.932390284     -112.772648
9.273                0.932120049     -113.002104
9.274                0.931849258     -113.232135
9.275                0.931577917      -113.46274
9.276                0.931306036      -113.69392
9.277                0.931033621     -113.925676
9.278                0.930760682     -114.158008
9.279                0.930487227     -114.390917
9.28                 0.930213264     -114.624403
9.281                0.929938802     -114.858466
9.282                 0.92966385     -115.093107
9.283                0.929388415     -115.328326
9.284                0.929112509     -115.564124
9.285                0.928836138     -115.800501
9.286                0.928559312     -116.037458
9.287                0.928282041     -116.274994
9.288                0.928004334     -116.513109
9.289                0.927726199     -116.751806
9.29                 0.927447647     -116.991082
9.291                0.927168687     -117.230939
9.292                0.926889329     -117.471378
9.293                0.926609583     -117.712397
9.294                0.926329457     -117.953998
9.295                0.926048963     -118.196181
9.296                 0.92576811     -118.438945
9.297                0.925486909     -118.682291
9.298                 0.92520537      -118.92622
9.299                0.924923502      -119.17073
9.3                  0.924641318     -119.415823
9.301                0.924358826     -119.661498
9.302                0.924076038     -119.907756
9.303                0.923792965     -120.154596
9.304                0.923509617     -120.402018
9.305                0.923226006     -120.650023
9.306                0.922942141     -120.898611
9.307                0.922658036      -121.14778
9.308                  0.9223737     -121.397533
9.309                0.922089145     -121.647867
9.31                 0.921804383     -121.898784
9.311                0.921519425     -122.150282
9.312                0.921234282     -122.402363
9.313                0.920948967     -122.655025
9.314                0.920663492     -122.908269
9.315                0.920377867     -123.162094
9.316                0.920092106     -123.416501
9.317                 0.91980622     -123.671488
9.318                0.919520221     -123.927056
9.319                0.919234122     -124.183204
9.32                 0.918947936     -124.439932
9.321                0.918661674      -124.69724
9.322                 0.91837535     -124.955127
9.323                0.918088975     -125.213593
9.324                0.917802563     -125.472638
9.325                0.917516127      -125.73226
9.326                0.917229679     -125.992461
9.327                0.916943233     -126.253238
9.328                0.916656801     -126.514592
9.329                0.916370397     -126.776522
9.33                 0.916084035     -127.039028
9.331                0.915797727     -127.302108
9.332                0.915511487     -127.565763
9.333                0.915225329     -127.829992
9.334                0.914939266     -128.094794
9.335                0.914653312     -128.360168
9.336                 0.91436748     -128.626114
9.337                0.914081786      -128.89263
9.338                0.913796242     -129.159717
9.339                0.913510863     -129.427374
9.34                 0.913225663     -129.695599
9.341                0.912940656     -129.964391
9.342                0.912655857     -130.233751
9.343                0.912371279     -130.503677
9.344                0.912086938     -130.774168
9.345                0.911802847     -131.045222
9.346                0.911519022      -131.31684
9.347                0.911235477     -131.589021
9.348                0.910952227     -131.861762
9.349                0.910669287     -132.135064
9.35                 0.910386671     -132.408924
9.351                0.910104395     -132.683342
9.352                0.909822473     -132.958317
9.353                0.909540921     -133.233848
9.354                0.909259754     -133.509933
9.355                0.908978988     -133.786571
9.356                0.908698636     -134.063761
9.357                0.908418715     -134.341502
9.358                0.908139241     -134.619792
9.359                0.907860228     -134.898629
9.36                 0.907581692     -135.178014
9.361                0.907303649     -135.457943
9.362                0.907026115     -135.738416
9.363                0.906749104     -136.019431
9.364                0.906472634     -136.300987
9.365                0.906196719     -136.583083
9.366                0.905921376     -136.865715
9.367                 0.90564662     -137.148884
9.368                0.905372467     -137.432588
9.369                0.905098934     -137.716824
9.37                 0.904826037     -138.001591
9.371                 0.90455379     -138.286887
9.372                0.904282212     -138.572711
9.373                0.904011317     -138.859061
9.374                0.903741122     -139.145935
9.375                0.903471643      -139.43333
9.376                0.903202897     -139.721247
9.377                0.902934899     -140.009681
9.378                0.902667667     -140.298632
9.379                0.902401215     -140.588098
9.38                 0.902135562     -140.878076
9.381                0.901870722     -141.168564
9.382                0.901606713      -141.45956
9.383                0.901343551     -141.751063
9.384                0.901081253      -142.04307
9.385                0.900819834     -142.335579
9.386                0.900559312     -142.628588
9.387                0.900299702     -142.922094
9.388                0.900041022     -143.216095
9.389                0.899783288     -143.510589
9.39                 0.899526516     -143.805574
9.391                0.899270722     -144.101046
9.392                0.899015925     -144.397005
9.393                0.898762139     -144.693447
9.394                0.898509381      -144.99037
9.395                0.898257669     -145.287771
9.396                0.898007018     -145.585648
