! TOUCHSTONE file generated by CST DESIGN STUDIO
! Date and time: Tue Feb  4 14:01:49 2025
! Project name: C:\Work\MatlabApps\UnitCellOptimizationMatlab\CST\unitcell.cst
! Tree item: Tasks\Sweep1\SPara1\S-Parameters
! Header version: 2024
! Port assignment regex: !\s*Touchstone port\s*([0-9]+)\s*=\s*(CST MWS port|CST DES external port|CST DES block port)\s*(.+)\s* \(\"(.*)\"\)(\s*mode\s*([0-9]+))?.*
! Touchstone port assignment:
! Touchstone port 1 = CST DES external port 1 ("")
# GHz S MA R 50
9                    0.977091611     -65.0718099
9.001                0.977045586     -65.1738476
9.002                0.976998949     -65.2761481
9.003                0.976951696     -65.3787124
9.004                0.976903827      -65.481541
9.005                0.976855338     -65.5846349
9.006                0.976806228     -65.6879948
9.007                0.976756494     -65.7916215
9.008                0.976706135     -65.8955158
9.009                0.976655148     -65.9996784
9.01                 0.976603532     -66.1041102
9.011                0.976551284     -66.2088119
9.012                0.976498402     -66.3137844
9.013                0.976444885     -66.4190284
9.014                0.976390729     -66.5245448
9.015                0.976335934     -66.6303343
9.016                0.976280497     -66.7363978
9.017                0.976224416     -66.8427361
9.018                0.976167688     -66.9493499
9.019                0.976110313     -67.0562402
9.02                 0.976052287     -67.1634076
9.021                 0.97599361     -67.2708531
9.022                0.975934277     -67.3785775
9.023                0.975874289     -67.4865815
9.024                0.975813642     -67.5948661
9.025                0.975752336      -67.703432
9.026                0.975690366     -67.8122801
9.027                0.975627732     -67.9214113
9.028                0.975564432     -68.0308263
9.029                0.975500464      -68.140526
9.03                 0.975435825     -68.2505113
9.031                0.975370514     -68.3607829
9.032                0.975304528     -68.4713418
9.033                0.975237866     -68.5821889
9.034                0.975170525     -68.6933249
9.035                0.975102504     -68.8047507
9.036                  0.9750338     -68.9164672
9.037                0.974964413     -69.0284753
9.038                0.974894338     -69.1407757
9.039                0.974823576     -69.2533695
9.04                 0.974752123     -69.3662575
9.041                0.974679978     -69.4794404
9.042                0.974607139     -69.5929193
9.043                0.974533603      -69.706695
9.044                 0.97445937     -69.8207684
9.045                0.974384436     -69.9351404
9.046                  0.9743088     -70.0498118
9.047                0.974232461     -70.1647836
9.048                0.974155415     -70.2800567
9.049                0.974077662     -70.3956319
9.05                 0.973999199     -70.5115102
9.051                0.973920025     -70.6276924
9.052                0.973840137     -70.7441795
9.053                0.973759534     -70.8609724
9.054                0.973678213     -70.9780719
9.055                0.973596173     -71.0954791
9.056                0.973513412     -71.2131948
9.057                0.973429929       -71.33122
9.058                 0.97334572     -71.4495555
9.059                0.973260785     -71.5682023
9.06                 0.973175121     -71.6871614
9.061                0.973088727     -71.8064336
9.062                0.973001601     -71.9260199
9.063                0.972913741     -72.0459213
9.064                0.972825145     -72.1661386
9.065                0.972735811     -72.2866729
9.066                0.972645738      -72.407525
9.067                0.972554924      -72.528696
9.068                0.972463366     -72.6501867
9.069                0.972371064     -72.7719982
9.07                 0.972278015     -72.8941314
9.071                0.972184218     -73.0165872
9.072                0.972089671     -73.1393666
9.073                0.971994372     -73.2624706
9.074                0.971898319     -73.3859001
9.075                0.971801512     -73.5096562
9.076                0.971703947     -73.6337398
9.077                0.971605623     -73.7581518
9.078                0.971506539     -73.8828933
9.079                0.971406692     -74.0079653
9.08                 0.971306082     -74.1333687
9.081                0.971204707     -74.2591045
9.082                0.971102564     -74.3851737
9.083                0.970999652     -74.5115773
9.084                 0.97089597     -74.6383164
9.085                0.970791516     -74.7653918
9.086                0.970686288     -74.8928046
9.087                0.970580285     -75.0205559
9.088                0.970473505     -75.1486466
9.089                0.970365947     -75.2770777
9.09                 0.970257608     -75.4058503
9.091                0.970148488     -75.5349653
9.092                0.970038585     -75.6644239
9.093                0.969927897     -75.7942269
9.094                0.969816422     -75.9243755
9.095                 0.96970416     -76.0548707
9.096                0.969591109     -76.1857134
9.097                0.969477267     -76.3169048
9.098                0.969362632     -76.4484459
9.099                0.969247204     -76.5803377
9.1                  0.969130981     -76.7125812
9.101                0.969013961     -76.8451775
9.102                0.968896144     -76.9781277
9.103                0.968777526     -77.1114327
9.104                0.968658108     -77.2450938
9.105                0.968537888     -77.3791118
9.106                0.968416864     -77.5134878
9.107                0.968295036      -77.648223
9.108                0.968172401     -77.7833184
9.109                0.968048958     -77.9187751
9.11                 0.967924707      -78.054594
9.111                0.967799645     -78.1907764
9.112                0.967673772     -78.3273232
9.113                0.967547087     -78.4642356
9.114                0.967419587     -78.6015146
9.115                0.967291272     -78.7391612
9.116                0.967162141     -78.8771767
9.117                0.967032192     -79.0155621
9.118                0.966901424     -79.1543184
9.119                0.966769837     -79.2934468
9.12                 0.966637428     -79.4329483
9.121                0.966504197     -79.5728241
9.122                0.966370143     -79.7130753
9.123                0.966235265     -79.8537028
9.124                0.966099561      -79.994708
9.125                 0.96596303     -80.1360918
9.126                0.965825672     -80.2778553
9.127                0.965687485     -80.4199998
9.128                0.965548469     -80.5625262
9.129                0.965408622     -80.7054358
9.13                 0.965267944     -80.8487296
9.131                0.965126433     -80.9924087
9.132                0.964984089     -81.1364744
9.133                0.964840911     -81.2809276
9.134                0.964696897     -81.4257695
9.135                0.964552048     -81.5710013
9.136                0.964406362     -81.7166241
9.137                0.964259838      -81.862639
9.138                0.964112476     -82.0090472
9.139                0.963964274     -82.1558498
9.14                 0.963815233     -82.3030479
9.141                0.963665351     -82.4506427
9.142                0.963514628     -82.5986353
9.143                0.963363062     -82.7470269
9.144                0.963210654     -82.8958186
9.145                0.963057403     -83.0450116
9.146                0.962903308      -83.194607
9.147                0.962748368      -83.344606
9.148                0.962592583     -83.4950098
9.149                0.962435953     -83.6458194
9.15                 0.962278476     -83.7970361
9.151                0.962120153      -83.948661
9.152                0.961960983     -84.1006953
9.153                0.961800966     -84.2531402
9.154                0.961640101     -84.4059967
9.155                0.961478387     -84.5592662
9.156                0.961315825     -84.7129497
9.157                0.961152414     -84.8670485
9.158                0.960988154     -85.0215636
9.159                0.960823045     -85.1764964
9.16                 0.960657086     -85.3318479
9.161                0.960490277     -85.4876193
9.162                0.960322617     -85.6438119
9.163                0.960154108     -85.8004268
9.164                0.959984748     -85.9574651
9.165                0.959814538     -86.1149282
9.166                0.959643478     -86.2728171
9.167                0.959471566      -86.431133
9.168                0.959298805     -86.5898772
9.169                0.959125193     -86.7490508
9.17                  0.95895073      -86.908655
9.171                0.958775417      -87.068691
9.172                0.958599254       -87.22916
9.173                0.958422241     -87.3900633
9.174                0.958244378     -87.5514019
9.175                0.958065666     -87.7131771
9.176                0.957886104     -87.8753901
9.177                0.957705693     -88.0380421
9.178                0.957524433     -88.2011342
9.179                0.957342325     -88.3646678
9.18                 0.957159369     -88.5286439
9.181                0.956975565     -88.6930639
9.182                0.956790915     -88.8579288
9.183                0.956605417     -89.0232399
9.184                0.956419074     -89.1889984
9.185                0.956231885     -89.3552055
9.186                0.956043852     -89.5218625
9.187                0.955854974     -89.6889704
9.188                0.955665253     -89.8565306
9.189                0.955474689     -90.0245442
9.19                 0.955283283     -90.1930124
9.191                0.955091036     -90.3619364
9.192                0.954897949     -90.5313175
9.193                0.954704022     -90.7011569
9.194                0.954509257     -90.8714556
9.195                0.954313654     -91.0422151
9.196                0.954117214     -91.2134364
9.197                 0.95391994     -91.3851208
9.198                 0.95372183     -91.5572695
9.199                0.953522888     -91.7298837
9.2                  0.953323113     -91.9029645
9.201                0.953122508     -92.0765133
9.202                0.952921073     -92.2505311
9.203                 0.95271881     -92.4250192
9.204                 0.95251572     -92.5999789
9.205                0.952311804     -92.7754113
9.206                0.952107064     -92.9513176
9.207                0.951901502     -93.1276989
9.208                0.951695119     -93.3045566
9.209                0.951487916     -93.4818919
9.21                 0.951279896     -93.6597058
9.211                0.951071059     -93.8379996
9.212                0.950861408     -94.0167746
9.213                0.950650944     -94.1960318
9.214                0.950439669     -94.3757725
9.215                0.950227586      -94.555998
9.216                0.950014695     -94.7367092
9.217                0.949800999     -94.9179076
9.218                  0.9495865     -95.0995942
9.219                0.949371201     -95.2817703
9.22                 0.949155102     -95.4644369
9.221                0.948938207     -95.6475954
9.222                0.948720517     -95.8312468
9.223                0.948502035     -96.0153924
9.224                0.948282764     -96.2000334
9.225                0.948062705     -96.3851709
9.226                 0.94784186      -96.570806
9.227                0.947620234       -96.75694
9.228                0.947397827      -96.943574
9.229                0.947174643     -97.1307092
9.23                 0.946950684     -97.3183467
9.231                0.946725954     -97.5064878
9.232                0.946500454     -97.6951335
9.233                0.946274187      -97.884285
9.234                0.946047158     -98.0739434
9.235                0.945819367       -98.26411
9.236                 0.94559082     -98.4547858
9.237                0.945361517      -98.645972
9.238                0.945131463     -98.8376698
9.239                0.944900662     -99.0298802
9.24                 0.944669115     -99.2226043
9.241                0.944436826     -99.4158434
9.242                  0.9442038     -99.6095985
9.243                0.943970038     -99.8038708
9.244                0.943735545     -99.9986613
9.245                0.943500324     -100.193971
9.246                0.943264379     -100.389802
9.247                0.943027714     -100.586154
9.248                0.942790332     -100.783028
9.249                0.942552237     -100.980427
9.25                 0.942313432      -101.17835
9.251                0.942073923     -101.376799
9.252                0.941833712     -101.575775
9.253                0.941592805      -101.77528
9.254                0.941351204     -101.975313
9.255                0.941108915     -102.175877
9.256                0.940865941     -102.376972
9.257                0.940622287     -102.578599
9.258                0.940377957     -102.780759
9.259                0.940132956     -102.983454
9.26                 0.939887288     -103.186685
9.261                0.939640958     -103.390452
9.262                0.939393971     -103.594756
9.263                0.939146331     -103.799599
9.264                0.938898043     -104.004981
9.265                0.938649112     -104.210904
9.266                0.938399543     -104.417368
9.267                0.938149341     -104.624375
9.268                0.937898511     -104.831925
9.269                0.937647059      -105.04002
9.27                 0.937394989      -105.24866
9.271                0.937142307     -105.457846
9.272                0.936889018      -105.66758
9.273                0.936635129     -105.877861
9.274                0.936380643     -106.088692
9.275                0.936125568     -106.300074
9.276                0.935869908     -106.512006
9.277                 0.93561367      -106.72449
9.278                0.935356859     -106.937527
9.279                0.935099481     -107.151117
9.28                 0.934841542     -107.365262
9.281                0.934583049     -107.579963
9.282                0.934324008      -107.79522
9.283                0.934064424     -108.011034
9.284                0.933804305     -108.227406
9.285                0.933543656     -108.444337
9.286                0.933282483     -108.661828
9.287                0.933020795     -108.879879
9.288                0.932758597     -109.098492
9.289                0.932495895     -109.317667
9.29                 0.932232698     -109.537404
9.291                0.931969011     -109.757706
9.292                0.931704842     -109.978571
9.293                0.931440197     -110.200002
9.294                0.931175084     -110.421999
9.295                 0.93090951     -110.644562
9.296                0.930643483     -110.867693
9.297                0.930377009     -111.091392
9.298                0.930110096      -111.31566
9.299                0.929842753     -111.540497
9.3                  0.929574985     -111.765904
9.301                0.929306801     -111.991882
9.302                 0.92903821     -112.218432
9.303                0.928769218     -112.445553
9.304                0.928499833     -112.673248
9.305                0.928230065     -112.901515
9.306                 0.92795992     -113.130357
9.307                0.927689408     -113.359773
9.308                0.927418535     -113.589764
9.309                0.927147312      -113.82033
9.31                 0.926875746     -114.051473
9.311                0.926603846     -114.283193
9.312                 0.92633162     -114.515489
9.313                0.926059078     -114.748363
9.314                0.925786227     -114.981816
9.315                0.925513078     -115.215847
9.316                0.925239639     -115.450457
9.317                0.924965918     -115.685646
9.318                0.924691926     -115.921416
9.319                0.924417672     -116.157765
9.32                 0.924143164     -116.394696
9.321                0.923868412     -116.632207
9.322                0.923593426       -116.8703
9.323                0.923318216     -117.108975
9.324                0.923042791     -117.348232
9.325                 0.92276716     -117.588071
9.326                0.922491334     -117.828493
9.327                0.922215323     -118.069498
9.328                0.921939136     -118.311086
9.329                0.921662785     -118.553258
9.33                 0.921386278     -118.796013
9.331                0.921109626     -119.039352
9.332                0.920832841     -119.283275
9.333                0.920555931     -119.527782
9.334                0.920278908     -119.772874
9.335                0.920001783      -120.01855
9.336                0.919724565      -120.26481
9.337                0.919447267     -120.511656
9.338                0.919169898     -120.759086
9.339                 0.91889247       -121.0071
9.34                 0.918614994       -121.2557
9.341                 0.91833748     -121.504884
9.342                0.918059941     -121.754653
9.343                0.917782388     -122.005007
9.344                0.917504831     -122.255946
9.345                0.917227283     -122.507469
9.346                0.916949755     -122.759576
9.347                0.916672258     -123.012268
9.348                0.916394805     -123.265544
9.349                0.916117407     -123.519405
9.35                 0.915840076     -123.773849
9.351                0.915562824     -124.028876
9.352                0.915285663     -124.284488
9.353                0.915008605     -124.540682
9.354                0.914731663     -124.797459
9.355                0.914454848     -125.054819
9.356                0.914178174     -125.312761
9.357                0.913901652     -125.571285
9.358                0.913625296     -125.830391
9.359                0.913349117     -126.090077
9.36                 0.913073128     -126.350345
9.361                0.912797343     -126.611193
9.362                0.912521773      -126.87262
9.363                0.912246433     -127.134627
9.364                0.911971334     -127.397212
9.365                0.911696491     -127.660376
9.366                0.911421915     -127.924118
9.367                0.911147621     -128.188436
9.368                0.910873621     -128.453331
9.369                0.910599929     -128.718802
9.37                 0.910326558     -128.984848
9.371                0.910053522     -129.251468
9.372                0.909780834     -129.518662
9.373                0.909508509     -129.786429
9.374                0.909236559     -130.054768
9.375                0.908964998     -130.323678
9.376                 0.90869384     -130.593159
9.377                0.908423099     -130.863209
9.378                 0.90815279     -131.133828
9.379                0.907882925     -131.405015
9.38                 0.907613519     -131.676769
9.381                0.907344586     -131.949089
9.382                 0.90707614     -132.221973
9.383                0.906808196     -132.495421
9.384                0.906540768     -132.769432
9.385                0.906273869     -133.044005
9.386                0.906007515     -133.319138
9.387                 0.90574172     -133.594831
9.388                0.905476498     -133.871081
9.389                0.905211864     -134.147889
9.39                 0.904947833     -134.425252
9.391                0.904684419      -134.70317
9.392                0.904421636     -134.981641
9.393                  0.9041595     -135.260664
9.394                0.903898025     -135.540237
9.395                0.903637226     -135.820359
9.396                0.903377118     -136.101029
