! TOUCHSTONE file generated by CST DESIGN STUDIO
! Date and time: Tue Feb  4 13:34:46 2025
! Project name: C:\Work\MatlabApps\UnitCellOptimizationMatlab\CST\unitcell.cst
! Tree item: Tasks\Sweep1\SPara1\S-Parameters
! Header version: 2024
! Port assignment regex: !\s*Touchstone port\s*([0-9]+)\s*=\s*(CST MWS port|CST DES external port|CST DES block port)\s*(.+)\s* \(\"(.*)\"\)(\s*mode\s*([0-9]+))?.*
! Touchstone port assignment:
! Touchstone port 1 = CST DES external port 1 ("")
# GHz S MA R 50
9                    0.969686184     -49.3370171
9.001                0.969635516     -49.3997635
9.002                0.969584678     -49.4626411
9.003                0.969533669     -49.5256502
9.004                0.969482488     -49.5887914
9.005                0.969431135     -49.6520648
9.006                0.969379609     -49.7154711
9.007                 0.96932791     -49.7790105
9.008                0.969276037     -49.8426835
9.009                 0.96922399     -49.9064905
9.01                 0.969171768     -49.9704319
9.011                 0.96911937     -50.0345081
9.012                0.969066796     -50.0987196
9.013                0.969014045     -50.1630666
9.014                0.968961117     -50.2275497
9.015                0.968908011     -50.2921693
9.016                0.968854727     -50.3569257
9.017                0.968801264     -50.4218195
9.018                0.968747621     -50.4868509
9.019                0.968693797     -50.5520205
9.02                 0.968639793     -50.6173287
9.021                0.968585608     -50.6827758
9.022                 0.96853124     -50.7483624
9.023                 0.96847669     -50.8140888
9.024                0.968421957     -50.8799555
9.025                 0.96836704     -50.9459629
9.026                0.968311938     -51.0121114
9.027                0.968256652     -51.0784015
9.028                0.968201179     -51.1448336
9.029                0.968145521     -51.2114082
9.03                 0.968089676     -51.2781256
9.031                0.968033643     -51.3449864
9.032                0.967977422     -51.4119909
9.033                0.967921013     -51.4791397
9.034                0.967864414     -51.5464331
9.035                0.967807625     -51.6138716
9.036                0.967750646     -51.6814557
9.037                0.967693476     -51.7491857
9.038                0.967636113     -51.8170623
9.039                0.967578559     -51.8850857
9.04                 0.967520811     -51.9532565
9.041                0.967462869     -52.0215752
9.042                0.967404734     -52.0900421
9.043                0.967346403     -52.1586578
9.044                0.967287876     -52.2274227
9.045                0.967229153     -52.2963372
9.046                0.967170233     -52.3654019
9.047                0.967111116     -52.4346172
9.048                  0.9670518     -52.5039836
9.049                0.966992286     -52.5735015
9.05                 0.966932572     -52.6431714
9.051                0.966872658     -52.7129939
9.052                0.966812542     -52.7829693
9.053                0.966752226     -52.8530981
9.054                0.966691707     -52.9233809
9.055                0.966630985     -52.9938181
9.056                 0.96657006     -53.0644102
9.057                 0.96650893     -53.1351576
9.058                0.966447596      -53.206061
9.059                0.966386056     -53.2771206
9.06                  0.96632431     -53.3483372
9.061                0.966262356      -53.419711
9.062                0.966200196     -53.4912427
9.063                0.966137826     -53.5629327
9.064                0.966075248     -53.6347816
9.065                0.966012461     -53.7067897
9.066                0.965949462     -53.7789577
9.067                0.965886253      -53.851286
9.068                0.965822832     -53.9237752
9.069                0.965759199     -53.9964257
9.07                 0.965695352      -54.069238
9.071                0.965631291     -54.1422127
9.072                0.965567016     -54.2153503
9.073                0.965502526     -54.2886513
9.074                0.965437819     -54.3621161
9.075                0.965372896     -54.4357454
9.076                0.965307755     -54.5095397
9.077                0.965242397     -54.5834994
9.078                0.965176819      -54.657625
9.079                0.965111021     -54.7319172
9.08                 0.965045004     -54.8063765
9.081                0.964978765     -54.8810033
9.082                0.964912305     -54.9557982
9.083                0.964845621     -55.0307618
9.084                0.964778715     -55.1058945
9.085                0.964711585      -55.181197
9.086                 0.96464423     -55.2566697
9.087                0.964576649     -55.3323132
9.088                0.964508842      -55.408128
9.089                0.964440808     -55.4841147
9.09                 0.964372547     -55.5602739
9.091                0.964304057      -55.636606
9.092                0.964235337     -55.7131117
9.093                0.964166388     -55.7897914
9.094                0.964097208     -55.8666458
9.095                0.964027796     -55.9436754
9.096                0.963958152     -56.0208807
9.097                0.963888275     -56.0982624
9.098                0.963818164      -56.175821
9.099                0.963747819      -56.253557
9.1                  0.963677238      -56.331471
9.101                0.963606421     -56.4095636
9.102                0.963535367     -56.4878354
9.103                0.963464076      -56.566287
9.104                0.963392545     -56.6449188
9.105                0.963320776     -56.7237315
9.106                0.963248767     -56.8027257
9.107                0.963176516      -56.881902
9.108                0.963104024     -56.9612609
9.109                 0.96303129     -57.0408031
9.11                 0.962958312      -57.120529
9.111                 0.96288509     -57.2004394
9.112                0.962811624     -57.2805348
9.113                0.962737911     -57.3608157
9.114                0.962663952     -57.4412829
9.115                0.962589746     -57.5219369
9.116                0.962515292     -57.6027783
9.117                0.962440589     -57.6838076
9.118                0.962365636     -57.7650256
9.119                0.962290433     -57.8464329
9.12                 0.962214978     -57.9280299
9.121                0.962139271     -58.0098174
9.122                0.962063311      -58.091796
9.123                0.961987097     -58.1739662
9.124                0.961910629     -58.2563288
9.125                0.961833905     -58.3388843
9.126                0.961756925     -58.4216333
9.127                0.961679687     -58.5045765
9.128                0.961602192     -58.5877145
9.129                0.961524437      -58.671048
9.13                 0.961446423     -58.7545775
9.131                0.961368148     -58.8383038
9.132                0.961289612     -58.9222274
9.133                0.961210814     -59.0063489
9.134                0.961131752     -59.0906692
9.135                0.961052427     -59.1751887
9.136                0.960972836     -59.2599081
9.137                 0.96089298     -59.3448281
9.138                0.960812858     -59.4299493
9.139                0.960732468     -59.5152724
9.14                 0.960651809     -59.6007981
9.141                0.960570882      -59.686527
9.142                0.960489684     -59.7724597
9.143                0.960408216      -59.858597
9.144                0.960326475     -59.9449394
9.145                0.960244463     -60.0314878
9.146                0.960162176     -60.1182426
9.147                0.960079615     -60.2052047
9.148                0.959996779     -60.2923747
9.149                0.959913666     -60.3797532
9.15                 0.959830277     -60.4673411
9.151                0.959746609     -60.5551388
9.152                0.959662663     -60.6431472
9.153                0.959578437     -60.7313668
9.154                 0.95949393     -60.8197985
9.155                0.959409141     -60.9084429
9.156                 0.95932407     -60.9973007
9.157                0.959238716     -61.0863726
9.158                0.959153077     -61.1756592
9.159                0.959067154     -61.2651614
9.16                 0.958980944     -61.3548798
9.161                0.958894447     -61.4448151
9.162                0.958807662      -61.534968
9.163                0.958720588     -61.6253393
9.164                0.958633224     -61.7159297
9.165                 0.95854557     -61.8067398
9.166                0.958457624     -61.8977704
9.167                0.958369386     -61.9890222
9.168                0.958280854     -62.0804961
9.169                0.958192028     -62.1721925
9.17                 0.958102906     -62.2641125
9.171                0.958013488     -62.3562565
9.172                0.957923773     -62.4486255
9.173                 0.95783376       -62.54122
9.174                0.957743447      -62.634041
9.175                0.957652835     -62.7270891
9.176                0.957561922      -62.820365
9.177                0.957470707     -62.9138696
9.178                0.957379189     -63.0076035
9.179                0.957287367     -63.1015676
9.18                  0.95719524     -63.1957625
9.181                0.957102808     -63.2901891
9.182                0.957010069     -63.3848481
9.183                0.956917023     -63.4797403
9.184                0.956823668     -63.5748665
9.185                0.956730003     -63.6702273
9.186                0.956636028     -63.7658237
9.187                0.956541742     -63.8616563
9.188                0.956447143      -63.957726
9.189                0.956352231     -64.0540335
9.19                 0.956257005     -64.1505797
9.191                0.956161463     -64.2473653
9.192                0.956065605      -64.344391
9.193                 0.95596943     -64.4416578
9.194                0.955872937     -64.5391664
9.195                0.955776124     -64.6369175
9.196                0.955678992     -64.7349121
9.197                0.955581538     -64.8331508
9.198                0.955483762     -64.9316346
9.199                0.955385663     -65.0303642
9.2                  0.955287241     -65.1293404
9.201                0.955188493     -65.2285641
9.202                0.955089419     -65.3280361
9.203                0.954990018     -65.4277571
9.204                0.954890289     -65.5277281
9.205                0.954790232     -65.6279498
9.206                0.954689844     -65.7284231
9.207                0.954589126     -65.8291488
9.208                0.954488075     -65.9301278
9.209                0.954386692     -66.0313608
9.21                 0.954284975     -66.1328488
9.211                0.954182923     -66.2345925
9.212                0.954080536     -66.3365928
9.213                0.953977811     -66.4388507
9.214                0.953874749     -66.5413668
9.215                0.953771348     -66.6441422
9.216                0.953667607     -66.7471775
9.217                0.953563525     -66.8504738
9.218                0.953459101     -66.9540318
9.219                0.953354335     -67.0578525
9.22                 0.953249225     -67.1619367
9.221                 0.95314377     -67.2662853
9.222                 0.95303797     -67.3708991
9.223                0.952931822      -67.475779
9.224                0.952825327      -67.580926
9.225                0.952718483     -67.6863409
9.226                 0.95261129     -67.7920245
9.227                0.952503746     -67.8979779
9.228                0.952395849     -68.0042018
9.229                0.952287601     -68.1106972
9.23                 0.952178998      -68.217465
9.231                0.952070041      -68.324506
9.232                0.951960728     -68.4318213
9.233                0.951851059     -68.5394116
9.234                0.951741031     -68.6472779
9.235                0.951630645     -68.7554212
9.236                0.951519899     -68.8638423
9.237                0.951408793     -68.9725421
9.238                0.951297325     -69.0815216
9.239                0.951185494     -69.1907818
9.24                   0.9510733     -69.3003234
9.241                0.950960741     -69.4101476
9.242                0.950847816     -69.5202551
9.243                0.950734524      -69.630647
9.244                0.950620865     -69.7413242
9.245                0.950506837     -69.8522876
9.246                 0.95039244     -69.9635382
9.247                0.950277672     -70.0750769
9.248                0.950162533     -70.1869047
9.249                0.950047021     -70.2990225
9.25                 0.949931135     -70.4114314
9.251                0.949814875     -70.5241322
9.252                0.949698239     -70.6371259
9.253                0.949581227     -70.7504135
9.254                0.949463837      -70.863996
9.255                0.949346069     -70.9778743
9.256                0.949227921     -71.0920495
9.257                0.949109393     -71.2065225
9.258                0.948990483     -71.3212942
9.259                0.948871191     -71.4363657
9.26                 0.948751516      -71.551738
9.261                0.948631457      -71.667412
9.262                0.948511012     -71.7833888
9.263                0.948390181     -71.8996693
9.264                0.948268962     -72.0162545
9.265                0.948147356     -72.1331456
9.266                0.948025361     -72.2503433
9.267                0.947902975     -72.3678489
9.268                0.947780198     -72.4856632
9.269                 0.94765703     -72.6037874
9.27                 0.947533468     -72.7222223
9.271                0.947409513     -72.8409691
9.272                0.947285163     -72.9600288
9.273                0.947160417     -73.0794024
9.274                0.947035275     -73.1990909
9.275                0.946909734     -73.3190953
9.276                0.946783796     -73.4394168
9.277                0.946657458     -73.5600563
9.278                0.946530719     -73.6810149
9.279                0.946403579     -73.8022936
9.28                 0.946276037     -73.9238935
9.281                0.946148092     -74.0458156
9.282                0.946019743     -74.1680611
9.283                0.945890989     -74.2906308
9.284                0.945761829      -74.413526
9.285                0.945632262     -74.5367476
9.286                0.945502288     -74.6602968
9.287                0.945371905     -74.7841746
9.288                0.945241113     -74.9083821
9.289                0.945109911     -75.0329203
9.29                 0.944978297     -75.1577904
9.291                0.944846271     -75.2829934
9.292                0.944713833     -75.4085304
9.293                0.944580981     -75.5344025
9.294                0.944447714     -75.6606107
9.295                0.944314032     -75.7871563
9.296                0.944179933     -75.9140402
9.297                0.944045418     -76.0412635
9.298                0.943910484     -76.1688275
9.299                0.943775132     -76.2967331
9.3                   0.94363936     -76.4249815
9.301                0.943503168     -76.5535737
9.302                0.943366554      -76.682511
9.303                0.943229519     -76.8117944
9.304                0.943092061      -76.941425
9.305                0.942954179      -77.071404
9.306                0.942815873     -77.2017325
9.307                0.942677141     -77.3324116
9.308                0.942537984     -77.4634424
9.309                  0.9423984     -77.5948261
9.31                 0.942258389     -77.7265638
9.311                0.942117949     -77.8586567
9.312                0.941977081     -77.9911058
9.313                0.941835783     -78.1239123
9.314                0.941694054     -78.2570775
9.315                0.941551894     -78.3906023
9.316                0.941409303      -78.524488
9.317                0.941266279     -78.6587358
9.318                0.941122822     -78.7933467
9.319                0.940978931      -78.928322
9.32                 0.940834606     -79.0636627
9.321                0.940689845     -79.1993702
9.322                0.940544649     -79.3354454
9.323                0.940399016     -79.4718897
9.324                0.940252946     -79.6087041
9.325                0.940106438     -79.7458899
9.326                0.939959492     -79.8834482
9.327                0.939812107     -80.0213802
9.328                0.939664282     -80.1596871
9.329                0.939516017       -80.29837
9.33                 0.939367311     -80.4374302
9.331                0.939218164     -80.5768689
9.332                0.939068575     -80.7166871
9.333                0.938918544     -80.8568862
9.334                 0.93876807     -80.9974673
9.335                0.938617152     -81.1384316
9.336                0.938465791     -81.2797804
9.337                0.938313985     -81.4215147
9.338                0.938161734     -81.5636359
9.339                0.938009037     -81.7061451
9.34                 0.937855895     -81.8490436
9.341                0.937702306     -81.9923325
9.342                0.937548271      -82.136013
9.343                0.937393788     -82.2800864
9.344                0.937238858      -82.424554
9.345                0.937083479     -82.5694168
9.346                0.936927653     -82.7146762
9.347                0.936771377     -82.8603333
9.348                0.936614653     -83.0063894
9.349                0.936457479     -83.1528457
9.35                 0.936299855     -83.2997034
9.351                0.936141781     -83.4469638
9.352                0.935983257     -83.5946281
9.353                0.935824282     -83.7426976
9.354                0.935664856     -83.8911734
9.355                0.935504979     -84.0400568
9.356                 0.93534465      -84.189349
9.357                 0.93518387     -84.3390514
9.358                0.935022638      -84.489165
9.359                0.934860954     -84.6396913
9.36                 0.934698818     -84.7906313
9.361                0.934536229     -84.9419865
9.362                0.934373188     -85.0937579
9.363                0.934209694     -85.2459469
9.364                0.934045748     -85.3985547
9.365                0.933881349     -85.5515826
9.366                0.933716496     -85.7050318
9.367                0.933551191     -85.8589035
9.368                0.933385433     -86.0131991
9.369                0.933219223     -86.1679198
9.37                 0.933052559     -86.3230669
9.371                0.932885442     -86.4786415
9.372                0.932717872      -86.634645
9.373                 0.93254985     -86.7910787
9.374                0.932381375     -86.9479438
9.375                0.932212447     -87.1052415
9.376                0.932043067     -87.2629731
9.377                0.931873234     -87.4211399
9.378                0.931702949     -87.5797432
9.379                0.931532213     -87.7387842
9.38                 0.931361024     -87.8982642
9.381                0.931189385     -88.0581844
9.382                0.931017294     -88.2185462
9.383                0.930844752     -88.3793507
9.384                0.930671759     -88.5405994
9.385                0.930498316     -88.7022933
9.386                0.930324423     -88.8644339
9.387                0.930150081     -89.0270224
9.388                0.929975289       -89.19006
9.389                0.929800049      -89.353548
9.39                  0.92962436     -89.5174877
9.391                0.929448223     -89.6818804
9.392                 0.92927164     -89.8467273
9.393                0.929094609     -90.0120297
9.394                0.928917132     -90.1777889
9.395                 0.92873921     -90.3440061
9.396                0.928560842     -90.5106827
