! TOUCHSTONE file generated by CST DESIGN STUDIO
! Date and time: Tue Feb  4 13:34:31 2025
! Project name: C:\Work\MatlabApps\UnitCellOptimizationMatlab\CST\unitcell.cst
! Tree item: Tasks\Sweep1\SPara1\S-Parameters
! Header version: 2024
! Port assignment regex: !\s*Touchstone port\s*([0-9]+)\s*=\s*(CST MWS port|CST DES external port|CST DES block port)\s*(.+)\s* \(\"(.*)\"\)(\s*mode\s*([0-9]+))?.*
! Touchstone port assignment:
! Touchstone port 1 = CST DES external port 1 ("")
# GHz S MA R 50
9                    0.952334929     -85.0382707
9.001                0.952210709     -85.1820295
9.002                0.952086104      -85.326173
9.003                0.951961111     -85.4707023
9.004                0.951835732     -85.6156186
9.005                0.951709964      -85.760923
9.006                0.951583808     -85.9066167
9.007                0.951457264     -86.0527007
9.008                 0.95133033     -86.1991762
9.009                0.951203007     -86.3460444
9.01                 0.951075293     -86.4933064
9.011                0.950947189     -86.6409634
9.012                0.950818694     -86.7890164
9.013                0.950689808     -86.9374666
9.014                 0.95056053     -87.0863152
9.015                0.950430859     -87.2355634
9.016                0.950300796     -87.3852122
9.017                0.950170341     -87.5352628
9.018                0.950039492     -87.6857164
9.019                0.949908249     -87.8365741
9.02                 0.949776612     -87.9878371
9.021                0.949644582     -88.1395065
9.022                0.949512156     -88.2915835
9.023                0.949379336     -88.4440692
9.024                0.949246121     -88.5969648
9.025                 0.94911251     -88.7502715
9.026                0.948978504     -88.9039903
9.027                0.948844102     -89.0581225
9.028                0.948709304     -89.2126692
9.029                0.948574109     -89.3676315
9.03                 0.948438519     -89.5230107
9.031                0.948302531     -89.6788079
9.032                0.948166147     -89.8350242
9.033                0.948029366     -89.9916608
9.034                0.947892188     -90.1487188
9.035                0.947754612     -90.3061995
9.036                 0.94761664      -90.464104
9.037                 0.94747827     -90.6224334
9.038                0.947339502     -90.7811889
9.039                0.947200337     -90.9403717
9.04                 0.947060775     -91.0999828
9.041                0.946920815     -91.2600236
9.042                0.946780458     -91.4204951
9.043                0.946639703     -91.5813985
9.044                0.946498551     -91.7427349
9.045                0.946357001     -91.9045056
9.046                0.946215054     -92.0667117
9.047                 0.94607271     -92.2293542
9.048                0.945929969     -92.3924345
9.049                 0.94578683     -92.5559536
9.05                 0.945643295     -92.7199127
9.051                0.945499363      -92.884313
9.052                0.945355035     -93.0491556
9.053                0.945210311     -93.2144417
9.054                 0.94506519     -93.3801724
9.055                0.944919674     -93.5463488
9.056                0.944773762     -93.7129722
9.057                0.944627455     -93.8800437
9.058                0.944480753     -94.0475644
9.059                0.944333656     -94.2155355
9.06                 0.944186165     -94.3839581
9.061                 0.94403828     -94.5528333
9.062                0.943890002     -94.7221624
9.063                0.943741331     -94.8919464
9.064                0.943592267     -95.0621866
9.065                0.943442811      -95.232884
9.066                0.943292963     -95.4040397
9.067                0.943142725      -95.575655
9.068                0.942992095     -95.7477309
9.069                0.942841076     -95.9202686
9.07                 0.942689667     -96.0932692
9.071                0.942537869     -96.2667339
9.072                0.942385683     -96.4406637
9.073                 0.94223311     -96.6150598
9.074                 0.94208015     -96.7899233
9.075                0.941926803     -96.9652554
9.076                0.941773071     -97.1410571
9.077                0.941618955     -97.3173296
9.078                0.941464454      -97.494074
9.079                0.941309571     -97.6712914
9.08                 0.941154305     -97.8489828
9.081                0.940998658     -98.0271495
9.082                 0.94084263     -98.2057925
9.083                0.940686223     -98.3849128
9.084                0.940529438     -98.5645117
9.085                0.940372275     -98.7445902
9.086                0.940214735     -98.9251493
9.087                 0.94005682     -99.1061902
9.088                 0.93989853      -99.287714
9.089                0.939739867     -99.4697217
9.09                 0.939580831     -99.6522144
9.091                0.939421425     -99.8351931
9.092                0.939261649     -100.018659
9.093                0.939101504     -100.202613
9.094                0.938940991     -100.387056
9.095                0.938780113      -100.57199
9.096                0.938618869     -100.757415
9.097                0.938457263     -100.943333
9.098                0.938295294     -101.129744
9.099                0.938132964     -101.316649
9.1                  0.937970276      -101.50405
9.101                0.937807229     -101.691947
9.102                0.937643826     -101.880343
9.103                0.937480069     -102.069236
9.104                0.937315959      -102.25863
9.105                0.937151497     -102.448523
9.106                0.936986685     -102.638919
9.107                0.936821525     -102.829817
9.108                0.936656019     -103.021219
9.109                0.936490168     -103.213125
9.11                 0.936323974     -103.405537
9.111                0.936157439     -103.598456
9.112                0.935990565     -103.791882
9.113                0.935823353     -103.985816
9.114                0.935655807      -104.18026
9.115                0.935487927     -104.375215
9.116                0.935319715      -104.57068
9.117                0.935151175     -104.766658
9.118                0.934982307     -104.963149
9.119                0.934813114     -105.160155
9.12                 0.934643599     -105.357675
9.121                0.934473762     -105.555711
9.122                0.934303608     -105.754264
9.123                0.934133137     -105.953335
9.124                0.933962352     -106.152925
9.125                0.933791256     -106.353034
9.126                0.933619851     -106.553663
9.127                 0.93344814     -106.754814
9.128                0.933276124     -106.956487
9.129                0.933103807     -107.158683
9.13                 0.932931191     -107.361402
9.131                0.932758279     -107.564646
9.132                0.932585073     -107.768416
9.133                0.932411577     -107.972712
9.134                0.932237792     -108.177535
9.135                0.932063722     -108.382886
9.136                0.931889369     -108.588766
9.137                0.931714736     -108.795175
9.138                0.931539827     -109.002114
9.139                0.931364645     -109.209584
9.14                 0.931189191     -109.417586
9.141                 0.93101347      -109.62612
9.142                0.930837485     -109.835188
9.143                0.930661238      -110.04479
9.144                0.930484732     -110.254926
9.145                0.930307973     -110.465597
9.146                0.930130961     -110.676805
9.147                0.929953701     -110.888549
9.148                0.929776196      -111.10083
9.149                 0.92959845      -111.31365
9.15                 0.929420466     -111.527008
9.151                0.929242248     -111.740906
9.152                0.929063799     -111.955343
9.153                0.928885122     -112.170321
9.154                0.928706222      -112.38584
9.155                0.928527103     -112.601901
9.156                0.928347767     -112.818504
9.157                0.928168219      -113.03565
9.158                0.927988463     -113.253339
9.159                0.927808503     -113.471573
9.16                 0.927628342      -113.69035
9.161                0.927447985     -113.909673
9.162                0.927267435     -114.129542
9.163                0.927086698     -114.349956
9.164                0.926905777     -114.570917
9.165                0.926724675     -114.792424
9.166                0.926543399     -115.014479
9.167                0.926361951     -115.237082
9.168                0.926180337     -115.460233
9.169                0.925998561     -115.683933
9.17                 0.925816627     -115.908181
9.171                0.925634539     -116.132979
9.172                0.925452303     -116.358327
9.173                0.925269923     -116.584225
9.174                0.925087404     -116.810673
9.175                 0.92490475     -117.037672
9.176                0.924721967     -117.265222
9.177                0.924539059     -117.493323
9.178                0.924356031     -117.721976
9.179                0.924172888     -117.951181
9.18                 0.923989635     -118.180938
9.181                0.923806277     -118.411247
9.182                 0.92362282     -118.642108
9.183                0.923439268     -118.873523
9.184                0.923255627      -119.10549
9.185                0.923071902      -119.33801
9.186                0.922888098     -119.571083
9.187                0.922704221      -119.80471
9.188                0.922520277     -120.038889
9.189                 0.92233627     -120.273623
9.19                 0.922152206      -120.50891
9.191                0.921968092      -120.74475
9.192                0.921783932     -120.981144
9.193                0.921599732     -121.218092
9.194                0.921415498     -121.455593
9.195                0.921231236     -121.693648
9.196                0.921046953     -121.932256
9.197                0.920862653     -122.171418
9.198                0.920678342     -122.411133
9.199                0.920494028     -122.651401
9.2                  0.920309715     -122.892223
9.201                0.920125411     -123.133597
9.202                0.919941121     -123.375525
9.203                0.919756851     -123.618005
9.204                0.919572609     -123.861038
9.205                0.919388399     -124.104622
9.206                 0.91920423     -124.348759
9.207                0.919020106     -124.593448
9.208                0.918836036     -124.838688
9.209                0.918652024     -125.084479
9.21                 0.918468079     -125.330821
9.211                0.918284206     -125.577713
9.212                0.918100413     -125.825156
9.213                0.917916706     -126.073148
9.214                0.917733092      -126.32169
9.215                0.917549578      -126.57078
9.216                0.917366171     -126.820419
9.217                0.917182877     -127.070606
9.218                0.916999705      -127.32134
9.219                0.916816661     -127.572621
9.22                 0.916633752     -127.824448
9.221                0.916450986     -128.076821
9.222                0.916268369     -128.329739
9.223                 0.91608591     -128.583202
9.224                0.915903615     -128.837208
9.225                0.915721491     -129.091758
9.226                0.915539547      -129.34685
9.227                 0.91535779     -129.602484
9.228                0.915176227      -129.85866
9.229                0.914994867     -130.115375
9.23                 0.914813715      -130.37263
9.231                0.914632781     -130.630424
9.232                0.914452073     -130.888755
9.233                0.914271597     -131.147624
9.234                0.914091361     -131.407028
9.235                0.913911374     -131.666968
9.236                0.913731644     -131.927442
9.237                0.913552179     -132.188449
9.238                0.913372985     -132.449988
9.239                0.913194073     -132.712059
9.24                 0.913015449      -132.97466
9.241                0.912837121      -133.23779
9.242                0.912659099     -133.501448
9.243                 0.91248139     -133.765633
9.244                0.912304002     -134.030344
9.245                0.912126945     -134.295579
9.246                0.911950225     -134.561338
9.247                0.911773852     -134.827618
9.248                0.911597834      -135.09442
9.249                0.911422179     -135.361741
9.25                 0.911246896      -135.62958
9.251                0.911071994     -135.897937
9.252                 0.91089748     -136.166809
9.253                0.910723365     -136.436195
9.254                0.910549655     -136.706093
9.255                 0.91037636     -136.976503
9.256                0.910203489     -137.247423
9.257                0.910031051     -137.518851
9.258                0.909859053     -137.790786
9.259                0.909687505     -138.063225
9.26                 0.909516416     -138.336169
9.261                0.909345795     -138.609614
9.262                 0.90917565      -138.88356
9.263                 0.90900599     -139.158004
9.264                0.908836825     -139.432945
9.265                0.908668163     -139.708381
9.266                0.908500013     -139.984311
9.267                0.908332385     -140.260732
9.268                0.908165286     -140.537643
9.269                0.907998727     -140.815042
9.27                 0.907832717     -141.092926
9.271                0.907667263     -141.371295
9.272                0.907502377     -141.650146
9.273                0.907338066     -141.929477
9.274                0.907174339     -142.209286
9.275                0.907011207     -142.489571
9.276                0.906848678     -142.770331
9.277                0.906686761     -143.051562
9.278                0.906525466     -143.333263
9.279                0.906364801     -143.615432
9.28                 0.906204776     -143.898066
9.281                0.906045401     -144.181163
9.282                0.905886683     -144.464722
9.283                0.905728633     -144.748739
9.284                0.905571261     -145.033212
9.285                0.905414574      -145.31814
9.286                0.905258582      -145.60352
9.287                0.905103295     -145.889348
9.288                0.904948722     -146.175624
9.289                0.904794872     -146.462344
9.29                 0.904641754     -146.749506
9.291                0.904489378     -147.037108
9.292                0.904337752     -147.325146
9.293                0.904186887     -147.613619
9.294                 0.90403679     -147.902524
9.295                0.903887473     -148.191857
9.296                0.903738942     -148.481617
9.297                0.903591209     -148.771801
9.298                0.903444282     -149.062406
9.299                 0.90329817     -149.353429
9.3                  0.903152883     -149.644868
9.301                0.903008429     -149.936719
9.302                0.902864817      -150.22898
9.303                0.902722058     -150.521648
9.304                0.902580159      -150.81472
9.305                0.902439131     -151.108193
9.306                0.902298981     -151.402065
9.307                0.902159719     -151.696331
9.308                0.902021355      -151.99099
9.309                0.901883896     -152.286038
9.31                 0.901747353     -152.581472
9.311                0.901611733     -152.877289
9.312                0.901477046     -153.173485
9.313                0.901343301     -153.470059
9.314                0.901210506     -153.767005
9.315                 0.90107867     -154.064322
9.316                0.900947802     -154.362006
9.317                0.900817911     -154.660054
9.318                0.900689005     -154.958462
9.319                0.900561094     -155.257227
9.32                 0.900434184     -155.556346
9.321                0.900308287     -155.855815
9.322                0.900183408     -156.155631
9.323                0.900059558     -156.455791
9.324                0.899936744     -156.756291
9.325                0.899814976     -157.057127
9.326                 0.89969426     -157.358296
9.327                0.899574606     -157.659795
9.328                0.899456022     -157.961619
9.329                0.899338516     -158.263766
9.33                 0.899222095     -158.566232
9.331                0.899106769     -158.869013
9.332                0.898992544     -159.172105
9.333                 0.89887943     -159.475504
9.334                0.898767433     -159.779208
9.335                0.898656562     -160.083212
9.336                0.898546824     -160.387512
9.337                0.898438228     -160.692104
9.338                 0.89833078     -160.996986
9.339                0.898224488     -161.302153
9.34                  0.89811936       -161.6076
9.341                0.898015403     -161.913325
9.342                0.897912624     -162.219323
9.343                0.897811032      -162.52559
9.344                0.897710632     -162.832123
9.345                0.897611432     -163.138917
9.346                0.897513439     -163.445969
9.347                 0.89741666     -163.753273
9.348                0.897321101     -164.060828
9.349                0.897226771     -164.368627
9.35                 0.897133675     -164.676667
9.351                 0.89704182     -164.984945
9.352                0.896951212     -165.293455
9.353                0.896861859     -165.602195
9.354                0.896773766     -165.911158
9.355                0.896686939     -166.220342
9.356                0.896601386     -166.529743
9.357                0.896517111     -166.839355
9.358                0.896434122     -167.149175
9.359                0.896352423     -167.459198
9.36                 0.896272021     -167.769421
9.361                0.896192922     -168.079838
9.362                0.896115131     -168.390446
9.363                0.896038654      -168.70124
9.364                0.895963495     -169.012216
9.365                0.895889662      -169.32337
9.366                0.895817158     -169.634696
9.367                0.895745989     -169.946192
9.368                0.895676159     -170.257851
9.369                0.895607675     -170.569671
9.37                 0.895540541     -170.881646
9.371                0.895474761     -171.193772
9.372                 0.89541034     -171.506044
9.373                0.895347282     -171.818458
9.374                0.895285593      -172.13101
9.375                0.895225276     -172.443695
9.376                0.895166335     -172.756509
9.377                0.895108776     -173.069446
9.378                  0.8950526     -173.382503
9.379                0.894997814     -173.695675
9.38                 0.894944419     -174.008957
9.381                 0.89489242     -174.322345
9.382                0.894841821     -174.635834
9.383                0.894792624      -174.94942
9.384                0.894744834     -175.263097
9.385                0.894698453     -175.576862
9.386                0.894653484      -175.89071
9.387                0.894609931     -176.204636
9.388                0.894567795     -176.518636
9.389                0.894527081     -176.832704
9.39                  0.89448779     -177.146836
9.391                0.894449924     -177.461029
9.392                0.894413488     -177.775276
9.393                0.894378481     -178.089573
9.394                0.894344908     -178.403916
9.395                0.894312769       -178.7183
9.396                0.894282066      -179.03272
