! TOUCHSTONE file generated by CST DESIGN STUDIO
! Date and time: Tue Feb  4 13:34:35 2025
! Project name: C:\Work\MatlabApps\UnitCellOptimizationMatlab\CST\unitcell.cst
! Tree item: Tasks\Sweep1\SPara1\S-Parameters
! Header version: 2024
! Port assignment regex: !\s*Touchstone port\s*([0-9]+)\s*=\s*(CST MWS port|CST DES external port|CST DES block port)\s*(.+)\s* \(\"(.*)\"\)(\s*mode\s*([0-9]+))?.*
! Touchstone port assignment:
! Touchstone port 1 = CST DES external port 1 ("")
# GHz S MA R 50
9                    0.957306141      -74.225814
9.001                0.957202587     -74.3411995
9.002                0.957098693     -74.4568818
9.003                0.956994456     -74.5728619
9.004                0.956889876     -74.6891406
9.005                0.956784952      -74.805719
9.006                0.956679683      -74.922598
9.007                0.956574068     -75.0397785
9.008                0.956468106     -75.1572616
9.009                0.956361796     -75.2750481
9.01                 0.956255138      -75.393139
9.011                0.956148131     -75.5115354
9.012                0.956040773      -75.630238
9.013                0.955933063      -75.749248
9.014                0.955825002     -75.8685663
9.015                0.955716587     -75.9881938
9.016                0.955607818     -76.1081316
9.017                0.955498695     -76.2283805
9.018                0.955389216     -76.3489417
9.019                 0.95527938      -76.469816
9.02                 0.955169186     -76.5910045
9.021                0.955058635     -76.7125081
9.022                0.954947724     -76.8343279
9.023                0.954836453     -76.9564648
9.024                0.954724821     -77.0789198
9.025                0.954612827     -77.2016939
9.026                 0.95450047     -77.3247882
9.027                 0.95438775     -77.4482035
9.028                0.954274665      -77.571941
9.029                0.954161215     -77.6960017
9.03                 0.954047399     -77.8203864
9.031                0.953933216     -77.9450964
9.032                0.953818665     -78.0701325
9.033                0.953703746     -78.1954958
9.034                0.953588457     -78.3211873
9.035                0.953472797      -78.447208
9.036                0.953356767      -78.573559
9.037                0.953240365     -78.7002413
9.038                 0.95312359     -78.8272559
9.039                0.953006441     -78.9546038
9.04                 0.952888918     -79.0822861
9.041                 0.95277102     -79.2103038
9.042                0.952652745      -79.338658
9.043                0.952534094     -79.4673497
9.044                0.952415066     -79.5963799
9.045                0.952295659     -79.7257496
9.046                0.952175873       -79.85546
9.047                0.952055707     -79.9855121
9.048                 0.95193516     -80.1159069
9.049                0.951814232     -80.2466455
9.05                 0.951692922      -80.377729
9.051                0.951571229     -80.5091583
9.052                0.951449152     -80.6409346
9.053                0.951326691     -80.7730589
9.054                0.951203845     -80.9055323
9.055                0.951080613     -81.0383559
9.056                0.950956994     -81.1715307
9.057                0.950832988     -81.3050578
9.058                0.950708594     -81.4389382
9.059                0.950583811     -81.5731731
9.06                 0.950458639     -81.7077636
9.061                0.950333076     -81.8427106
9.062                0.950207123     -81.9780153
9.063                0.950080779     -82.1136788
9.064                0.949954042     -82.2497022
9.065                0.949826913     -82.3860865
9.066                 0.94969939     -82.5228328
9.067                0.949571474     -82.6599422
9.068                0.949443162     -82.7974159
9.069                0.949314456     -82.9352549
9.07                 0.949185353     -83.0734603
9.071                0.949055854     -83.2120332
9.072                0.948925958     -83.3509748
9.073                0.948795664      -83.490286
9.074                0.948664971     -83.6299681
9.075                 0.94853388     -83.7700221
9.076                 0.94840239     -83.9104491
9.077                0.948270499     -84.0512503
9.078                0.948138208     -84.1924267
9.079                0.948005516     -84.3339795
9.08                 0.947872422     -84.4759098
9.081                0.947738926     -84.6182186
9.082                0.947605028     -84.7609072
9.083                0.947470726     -84.9039767
9.084                0.947336021     -85.0474281
9.085                0.947200912     -85.1912625
9.086                0.947065398     -85.3354812
9.087                 0.94692948     -85.4800852
9.088                0.946793156     -85.6250756
9.089                0.946656426     -85.7704536
9.09                  0.94651929     -85.9162204
9.091                0.946381747      -86.062377
9.092                0.946243797     -86.2089245
9.093                 0.94610544     -86.3558642
9.094                0.945966675     -86.5031971
9.095                0.945827501     -86.6509243
9.096                 0.94568792     -86.7990471
9.097                0.945547929     -86.9475665
9.098                0.945407529     -87.0964838
9.099                 0.94526672     -87.2457999
9.1                  0.945125501     -87.3955161
9.101                0.944983872     -87.5456335
9.102                0.944841833     -87.6961533
9.103                0.944699383     -87.8470765
9.104                0.944556522     -87.9984044
9.105                 0.94441325     -88.1501381
9.106                0.944269567     -88.3022787
9.107                0.944125473     -88.4548274
9.108                0.943980967     -88.6077853
9.109                 0.94383605     -88.7611535
9.11                  0.94369072     -88.9149333
9.111                0.943544979     -89.0691258
9.112                0.943398825      -89.223732
9.113                0.943252259     -89.3787532
9.114                0.943105281     -89.5341906
9.115                0.942957891     -89.6900452
9.116                0.942810088     -89.8463182
9.117                0.942661872     -90.0030107
9.118                0.942513245      -90.160124
9.119                0.942364204     -90.3176592
9.12                 0.942214751     -90.4756174
9.121                0.942064886     -90.6339997
9.122                0.941914609     -90.7928074
9.123                0.941763919     -90.9520415
9.124                0.941612817     -91.1117033
9.125                0.941461303     -91.2717938
9.126                0.941309377     -91.4323143
9.127                0.941157039     -91.5932658
9.128                 0.94100429     -91.7546495
9.129                0.940851129     -91.9164667
9.13                 0.940697557     -92.0787184
9.131                0.940543574     -92.2414057
9.132                0.940389181     -92.4045299
9.133                0.940234376      -92.568092
9.134                0.940079162     -92.7320933
9.135                0.939923538     -92.8965348
9.136                0.939767505     -93.0614177
9.137                0.939611062     -93.2267432
9.138                 0.93945421     -93.3925124
9.139                0.939296951     -93.5587265
9.14                 0.939139283     -93.7253865
9.141                0.938981208     -93.8924937
9.142                0.938822725     -94.0600491
9.143                0.938663837     -94.2280539
9.144                0.938504542     -94.3965093
9.145                0.938344842     -94.5654164
9.146                0.938184737     -94.7347763
9.147                0.938024228     -94.9045901
9.148                0.937863315      -95.074859
9.149                0.937701999     -95.2455841
9.15                  0.93754028     -95.4167666
9.151                 0.93737816     -95.5884076
9.152                 0.93721564     -95.7605081
9.153                0.937052719     -95.9330693
9.154                0.936889398     -96.1060924
9.155                0.936725679     -96.2795784
9.156                0.936561563     -96.4535285
9.157                0.936397049     -96.6279438
9.158                0.936232139     -96.8028254
9.159                0.936066834     -96.9781744
9.16                 0.935901135     -97.1539919
9.161                0.935735043     -97.3302791
9.162                0.935568559     -97.5070369
9.163                0.935401683     -97.6842666
9.164                0.935234418     -97.8619692
9.165                0.935066763     -98.0401458
9.166                 0.93489872     -98.2187975
9.167                0.934730291     -98.3979254
9.168                0.934561476     -98.5775306
9.169                0.934392276     -98.7576141
9.17                 0.934222694     -98.9381771
9.171                0.934052729     -99.1192206
9.172                0.933882385     -99.3007456
9.173                 0.93371166     -99.4827533
9.174                0.933540558     -99.6652448
9.175                 0.93336908      -99.848221
9.176                0.933197226     -100.031683
9.177                0.933024999     -100.215632
9.178                  0.9328524     -100.400069
9.179                0.932679431     -100.584995
9.18                 0.932506092      -100.77041
9.181                0.932332386     -100.956317
9.182                0.932158315     -101.142716
9.183                 0.93198388     -101.329608
9.184                0.931809082     -101.516994
9.185                0.931633923     -101.704876
9.186                0.931458406     -101.893253
9.187                0.931282532     -102.082128
9.188                0.931106303     -102.271501
9.189                0.930929721     -102.461372
9.19                 0.930752788     -102.651745
9.191                0.930575505     -102.842618
9.192                0.930397875     -103.033993
9.193                  0.9302199     -103.225872
9.194                0.930041582     -103.418254
9.195                0.929862923     -103.611142
9.196                0.929683925     -103.804535
9.197                 0.92950459     -103.998436
9.198                0.929324921     -104.192844
9.199                 0.92914492     -104.387761
9.2                  0.928964589     -104.583188
9.201                0.928783931     -104.779125
9.202                0.928602948     -104.975574
9.203                0.928421643     -105.172536
9.204                0.928240017     -105.370011
9.205                0.928058074        -105.568
9.206                0.927875817     -105.766505
9.207                0.927693247     -105.965526
9.208                0.927510367     -106.165063
9.209                 0.92732718     -106.365118
9.21                  0.92714369     -106.565692
9.211                0.926959898     -106.766786
9.212                0.926775808       -106.9684
9.213                0.926591422     -107.170535
9.214                0.926406744     -107.373192
9.215                0.926221775     -107.576372
9.216                0.926036521     -107.780076
9.217                0.925850982     -107.984304
9.218                0.925665164     -108.189057
9.219                0.925479068     -108.394337
9.22                 0.925292698     -108.600143
9.221                0.925106057     -108.806477
9.222                0.924919149     -109.013339
9.223                0.924731977     -109.220731
9.224                0.924544544     -109.428652
9.225                0.924356854     -109.637103
9.226                 0.92416891     -109.846086
9.227                0.923980716     -110.055601
9.228                0.923792275     -110.265649
9.229                0.923603591      -110.47623
9.23                 0.923414668     -110.687345
9.231                 0.92322551     -110.898995
9.232                 0.92303612      -111.11118
9.233                0.922846502     -111.323901
9.234                 0.92265666     -111.537159
9.235                0.922466598     -111.750954
9.236                 0.92227632     -111.965287
9.237                0.922085831     -112.180158
9.238                0.921895133     -112.395568
9.239                0.921704232     -112.611518
9.24                 0.921513132     -112.828009
9.241                0.921321836      -113.04504
9.242                0.921130349     -113.262612
9.243                0.920938676     -113.480726
9.244                0.920746821     -113.699382
9.245                0.920554788     -113.918581
9.246                0.920362583     -114.138324
9.247                0.920170208      -114.35861
9.248                 0.91997767     -114.579441
9.249                0.919784973     -114.800816
9.25                 0.919592121     -115.022736
9.251                 0.91939912     -115.245202
9.252                0.919205974     -115.468214
9.253                0.919012689     -115.691772
9.254                0.918819268     -115.915877
9.255                0.918625718     -116.140529
9.256                0.918432043     -116.365728
9.257                0.918238248     -116.591475
9.258                0.918044339     -116.817771
9.259                 0.91785032     -117.044614
9.26                 0.917656198     -117.272006
9.261                0.917461977     -117.499948
9.262                0.917267663     -117.728438
9.263                0.917073261     -117.957478
9.264                0.916878778     -118.187067
9.265                0.916684217     -118.417206
9.266                0.916489586     -118.647896
9.267                 0.91629489     -118.879135
9.268                0.916100134     -119.110925
9.269                0.915905324     -119.343266
9.27                 0.915710466     -119.576157
9.271                0.915515567     -119.809598
9.272                0.915320631     -120.043591
9.273                0.915125666     -120.278135
9.274                0.914930677     -120.513229
9.275                 0.91473567     -120.748875
9.276                0.914540652     -120.985071
9.277                0.914345629     -121.221819
9.278                0.914150606     -121.459118
9.279                0.913955591     -121.696967
9.28                  0.91376059     -121.935367
9.281                0.913565609     -122.174319
9.282                0.913370656     -122.413821
9.283                0.913175735     -122.653873
9.284                0.912980855     -122.894476
9.285                0.912786022      -123.13563
9.286                0.912591242     -123.377333
9.287                0.912396523     -123.619587
9.288                0.912201871      -123.86239
9.289                0.912007293     -124.105743
9.29                 0.911812797     -124.349645
9.291                0.911618389     -124.594096
9.292                0.911424076     -124.839095
9.293                0.911229865     -125.084643
9.294                0.911035765     -125.330739
9.295                0.910841781     -125.577383
9.296                0.910647922     -125.824574
9.297                0.910454194     -126.072311
9.298                0.910260605     -126.320596
9.299                0.910067163     -126.569426
9.3                  0.909873875     -126.818802
9.301                0.909680749     -127.068722
9.302                0.909487792     -127.319188
9.303                0.909295011     -127.570197
9.304                0.909102416      -127.82175
9.305                0.908910013     -128.073845
9.306                 0.90871781     -128.326483
9.307                0.908525816     -128.579662
9.308                0.908334037     -128.833382
9.309                0.908142483     -129.087642
9.31                 0.907951161     -129.342442
9.311                 0.90776008     -129.597781
9.312                0.907569246     -129.853658
9.313                 0.90737867     -130.110072
9.314                0.907188358     -130.367023
9.315                0.906998319     -130.624509
9.316                0.906808562      -130.88253
9.317                0.906619095     -131.141085
9.318                0.906429925     -131.400173
9.319                0.906241063     -131.659793
9.32                 0.906052516     -131.919944
9.321                0.905864292     -132.180625
9.322                0.905676401     -132.441836
9.323                0.905488851     -132.703575
9.324                0.905301651      -132.96584
9.325                0.905114809     -133.228632
9.326                0.904928335     -133.491949
9.327                0.904742236     -133.755789
9.328                0.904556522     -134.020152
9.329                0.904371202     -134.285036
9.33                 0.904186285     -134.550441
9.331                 0.90400178     -134.816364
9.332                0.903817695     -135.082805
9.333                0.903634039     -135.349763
9.334                0.903450823     -135.617235
9.335                0.903268054     -135.885222
9.336                0.903085743      -136.15372
9.337                0.902903898      -136.42273
9.338                0.902722528     -136.692249
9.339                0.902541643     -136.962276
9.34                 0.902361252     -137.232809
9.341                0.902181364     -137.503848
9.342                0.902001988      -137.77539
9.343                0.901823135     -138.047433
9.344                0.901644813     -138.319978
9.345                0.901467032      -138.59302
9.346                0.901289801      -138.86656
9.347                 0.90111313     -139.140595
9.348                0.900937027     -139.415124
9.349                0.900761504     -139.690144
9.35                 0.900586569     -139.965655
9.351                0.900412231     -140.241653
9.352                0.900238501     -140.518138
9.353                0.900065388     -140.795108
9.354                0.899892901      -141.07256
9.355                0.899721051     -141.350493
9.356                0.899549847     -141.628905
9.357                0.899379298     -141.907794
9.358                0.899209414     -142.187157
9.359                0.899040205     -142.466994
9.36                  0.89887168       -142.7473
9.361                 0.89870385     -143.028076
9.362                0.898536724     -143.309318
9.363                0.898370312     -143.591024
9.364                0.898204623     -143.873192
9.365                0.898039667      -144.15582
9.366                0.897875455     -144.438906
9.367                0.897711994     -144.722447
9.368                0.897549297     -145.006441
9.369                0.897387371     -145.290886
9.37                 0.897226228      -145.57578
9.371                0.897065876     -145.861119
9.372                0.896906325     -146.146902
9.373                0.896747586     -146.433125
9.374                0.896589668     -146.719788
9.375                 0.89643258     -147.006886
9.376                0.896276333     -147.294418
9.377                0.896120935     -147.582381
9.378                0.895966398     -147.870773
9.379                0.895812729      -148.15959
9.38                  0.89565994      -148.44883
9.381                 0.89550804      -148.73849
9.382                0.895357038     -149.028568
9.383                0.895206944     -149.319061
9.384                0.895057768     -149.609966
9.385                0.894909519     -149.901281
9.386                0.894762206     -150.193002
9.387                 0.89461584     -150.485126
9.388                 0.89447043     -150.777651
9.389                0.894325986     -151.070574
9.39                 0.894182516     -151.363892
9.391                 0.89404003     -151.657601
9.392                0.893898538       -151.9517
9.393                0.893758048     -152.246184
9.394                0.893618571      -152.54105
9.395                0.893480116     -152.836297
9.396                0.893342692      -153.13192
