! TOUCHSTONE file generated by CST DESIGN STUDIO
! Date and time: Tue Feb  4 13:34:34 2025
! Project name: C:\Work\MatlabApps\UnitCellOptimizationMatlab\CST\unitcell.cst
! Tree item: Tasks\Sweep1\SPara1\S-Parameters
! Header version: 2024
! Port assignment regex: !\s*Touchstone port\s*([0-9]+)\s*=\s*(CST MWS port|CST DES external port|CST DES block port)\s*(.+)\s* \(\"(.*)\"\)(\s*mode\s*([0-9]+))?.*
! Touchstone port assignment:
! Touchstone port 1 = CST DES external port 1 ("")
# GHz S MA R 50
9                    0.955551521     -77.9424098
9.001                 0.95543943     -78.0676433
9.002                0.955326974     -78.1932034
9.003                0.955214151     -78.3190912
9.004                0.955100961     -78.4453077
9.005                0.954987403     -78.5718538
9.006                0.954873476     -78.6987307
9.007                0.954759179     -78.8259394
9.008                0.954644512     -78.9534808
9.009                0.954529473      -79.081356
9.01                 0.954414062     -79.2095661
9.011                0.954298278      -79.338112
9.012                0.954182121     -79.4669948
9.013                0.954065589     -79.5962157
9.014                0.953948682     -79.7257755
9.015                0.953831399     -79.8556753
9.016                0.953713739     -79.9859163
9.017                0.953595701     -80.1164994
9.018                0.953477285     -80.2474257
9.019                0.953358491     -80.3786962
9.02                 0.953239316      -80.510312
9.021                 0.95311976     -80.6422742
9.022                0.952999824     -80.7745838
9.023                0.952879505     -80.9072419
9.024                0.952758803     -81.0402496
9.025                0.952637718     -81.1736078
9.026                0.952516249     -81.3073178
9.027                0.952394395     -81.4413805
9.028                0.952272155      -81.575797
9.029                0.952149529     -81.7105684
9.03                 0.952026517     -81.8456959
9.031                0.951903116     -81.9811803
9.032                0.951779327      -82.117023
9.033                0.951655149     -82.2532248
9.034                0.951530581     -82.3897869
9.035                0.951405623     -82.5267105
9.036                0.951280274     -82.6639965
9.037                0.951154534     -82.8016461
9.038                0.951028401     -82.9396604
9.039                0.950901876     -83.0780404
9.04                 0.950774957     -83.2167873
9.041                0.950647644     -83.3559021
9.042                0.950519936      -83.495386
9.043                0.950391833     -83.6352401
9.044                0.950263335     -83.7754654
9.045                 0.95013444     -83.9160631
9.046                0.950005148     -84.0570343
9.047                0.949875458       -84.19838
9.048                0.949745371     -84.3401014
9.049                0.949614885     -84.4821996
9.05                    0.949484     -84.6246758
9.051                0.949352715     -84.7675309
9.052                 0.94922103     -84.9107662
9.053                0.949088945     -85.0543828
9.054                0.948956459     -85.1983818
9.055                0.948823571     -85.3427642
9.056                0.948690281     -85.4875313
9.057                0.948556589     -85.6326841
9.058                0.948422494     -85.7782238
9.059                0.948287996     -85.9241515
9.06                 0.948153093     -86.0704683
9.061                0.948017787     -86.2171754
9.062                0.947882077     -86.3642738
9.063                0.947745961     -86.5117648
9.064                 0.94760944     -86.6596494
9.065                0.947472514     -86.8079287
9.066                0.947335182      -86.956604
9.067                0.947197443     -87.1056763
9.068                0.947059298     -87.2551468
9.069                0.946920746     -87.4050167
9.07                 0.946781787     -87.5552869
9.071                 0.94664242     -87.7059588
9.072                0.946502645     -87.8570334
9.073                0.946362463     -88.0085119
9.074                0.946221872     -88.1603954
9.075                0.946080874     -88.3126851
9.076                0.945939466      -88.465382
9.077                0.945797649     -88.6184874
9.078                0.945655424     -88.7720024
9.079                0.945512789     -88.9259281
9.08                 0.945369746     -89.0802657
9.081                0.945226292     -89.2350163
9.082                0.945082429     -89.3901811
9.083                0.944938157     -89.5457612
9.084                0.944793475     -89.7017577
9.085                0.944648382     -89.8581719
9.086                0.944502881     -90.0150048
9.087                0.944356969     -90.1722576
9.088                0.944210647     -90.3299315
9.089                0.944063915     -90.4880275
9.09                 0.943916774      -90.646547
9.091                0.943769223     -90.8054908
9.092                0.943621262     -90.9648604
9.093                0.943472891     -91.1246567
9.094                 0.94332411      -91.284881
9.095                 0.94317492     -91.4455343
9.096                0.943025321     -91.6066179
9.097                0.942875313     -91.7681328
9.098                0.942724895     -91.9300803
9.099                0.942574068     -92.0924614
9.1                  0.942422833     -92.2552773
9.101                 0.94227119     -92.4185292
9.102                0.942119138     -92.5822182
9.103                0.941966678     -92.7463454
9.104                0.941813811     -92.9109121
9.105                0.941660536     -93.0759192
9.106                0.941506854      -93.241368
9.107                0.941352766     -93.4072597
9.108                0.941198271     -93.5735953
9.109                 0.94104337     -93.7403759
9.11                 0.940888064     -93.9076028
9.111                0.940732353     -94.0752771
9.112                0.940576238     -94.2433998
9.113                0.940419718     -94.4119722
9.114                0.940262795     -94.5809953
9.115                0.940105469     -94.7504703
9.116                 0.93994774     -94.9203984
9.117                 0.93978961     -95.0907806
9.118                0.939631078     -95.2616181
9.119                0.939472146     -95.4329119
9.12                 0.939312814     -95.6046633
9.121                0.939153082     -95.7768733
9.122                0.938992952     -95.9495431
9.123                0.938832424     -96.1226738
9.124                0.938671499     -96.2962665
9.125                0.938510178     -96.4703222
9.126                0.938348461     -96.6448422
9.127                 0.93818635     -96.8198275
9.128                0.938023845     -96.9952792
9.129                0.937860947     -97.1711985
9.13                 0.937697657     -97.3475864
9.131                0.937533976      -97.524444
9.132                0.937369905     -97.7017724
9.133                0.937205446     -97.8795728
9.134                0.937040598     -98.0578461
9.135                0.936875364     -98.2365936
9.136                0.936709743     -98.4158162
9.137                0.936543739     -98.5955151
9.138                 0.93637735     -98.7756913
9.139                 0.93621058      -98.956346
9.14                 0.936043428     -99.1374801
9.141                0.935875897     -99.3190947
9.142                0.935707987      -99.501191
9.143                  0.9355397     -99.6837699
9.144                0.935371038     -99.8668325
9.145                   0.935202      -100.05038
9.146                 0.93503259     -100.234413
9.147                0.934862808     -100.418933
9.148                0.934692657     -100.603941
9.149                0.934522136     -100.789438
9.15                 0.934351249     -100.975425
9.151                0.934179996     -101.161903
9.152                0.934008379     -101.348873
9.153                0.933836401     -101.536336
9.154                0.933664061     -101.724293
9.155                0.933491363     -101.912745
9.156                0.933318309     -102.101693
9.157                0.933144898     -102.291138
9.158                0.932971135     -102.481082
9.159                 0.93279702     -102.671524
9.16                 0.932622556     -102.862466
9.161                0.932447744     -103.053909
9.162                0.932272586     -103.245855
9.163                0.932097085     -103.438303
9.164                0.931921243     -103.631255
9.165                0.931745061     -103.824712
9.166                0.931568541     -104.018674
9.167                0.931391687     -104.213144
9.168                0.931214499     -104.408121
9.169                0.931036982     -104.603606
9.17                 0.930859135     -104.799601
9.171                0.930680963     -104.996107
9.172                0.930502467     -105.193124
9.173                 0.93032365     -105.390653
9.174                0.930144515     -105.588695
9.175                0.929965063     -105.787251
9.176                0.929785297     -105.986322
9.177                0.929605221     -106.185909
9.178                0.929424836     -106.386013
9.179                0.929244145     -106.586634
9.18                 0.929063152     -106.787773
9.181                0.928881858     -106.989431
9.182                0.928700266      -107.19161
9.183                0.928518381     -107.394309
9.184                0.928336203      -107.59753
9.185                0.928153737     -107.801273
9.186                0.927970985     -108.005539
9.187                 0.92778795      -108.21033
9.188                0.927604635     -108.415645
9.189                0.927421045     -108.621486
9.19                  0.92723718     -108.827853
9.191                0.927053046     -109.034748
9.192                0.926868645      -109.24217
9.193                 0.92668398     -109.450121
9.194                0.926499055     -109.658601
9.195                0.926313874     -109.867611
9.196                0.926128439     -110.077151
9.197                0.925942754     -110.287224
9.198                0.925756823     -110.497828
9.199                 0.92557065     -110.708965
9.2                  0.925384237     -110.920635
9.201                0.925197589      -111.13284
9.202                 0.92501071     -111.345579
9.203                0.924823603     -111.558853
9.204                0.924636272     -111.772664
9.205                0.924448721     -111.987011
9.206                0.924260955     -112.201895
9.207                0.924072976     -112.417317
9.208                0.923884789     -112.633277
9.209                0.923696399     -112.849776
9.21                 0.923507808     -113.066814
9.211                0.923319023     -113.284393
9.212                0.923130046     -113.502512
9.213                0.922940882     -113.721172
9.214                0.922751535     -113.940373
9.215                0.922562011     -114.160116
9.216                0.922372313     -114.380402
9.217                0.922182446     -114.601231
9.218                0.921992414     -114.822603
9.219                0.921802223     -115.044518
9.22                 0.921611876     -115.266978
9.221                0.921421379     -115.489983
9.222                0.921230736     -115.713532
9.223                0.921039952     -115.937627
9.224                0.920849032     -116.162268
9.225                0.920657982     -116.387454
9.226                0.920466805     -116.613187
9.227                0.920275508     -116.839467
9.228                0.920084095     -117.066293
9.229                0.919892571     -117.293667
9.23                 0.919700942     -117.521588
9.231                0.919509212     -117.750058
9.232                0.919317388     -117.979075
9.233                0.919125475      -118.20864
9.234                0.918933478     -118.438754
9.235                0.918741402     -118.669417
9.236                0.918549254     -118.900628
9.237                0.918357038     -119.132388
9.238                0.918164761     -119.364698
9.239                0.917972428     -119.597556
9.24                 0.917780045     -119.830964
9.241                0.917587618     -120.064922
9.242                0.917395152     -120.299429
9.243                0.917202655     -120.534485
9.244                0.917010131     -120.770091
9.245                0.916817586     -121.006247
9.246                0.916625028     -121.242952
9.247                0.916432461     -121.480207
9.248                0.916239893     -121.718011
9.249                0.916047329     -121.956365
9.25                 0.915854776     -122.195268
9.251                0.915662241      -122.43472
9.252                0.915469729     -122.674722
9.253                0.915277247     -122.915273
9.254                0.915084802     -123.156372
9.255                0.914892401      -123.39802
9.256                 0.91470005     -123.640217
9.257                0.914507755     -123.882962
9.258                0.914315524     -124.126255
9.259                0.914123364     -124.370096
9.26                  0.91393128     -124.614485
9.261                0.913739281      -124.85942
9.262                0.913547374     -125.104903
9.263                0.913355564     -125.350932
9.264                0.913163861     -125.597507
9.265                0.912972269     -125.844628
9.266                0.912780798     -126.092295
9.267                0.912589453     -126.340507
9.268                0.912398243     -126.589263
9.269                0.912207175     -126.838563
9.27                 0.912016256     -127.088407
9.271                0.911825493     -127.338793
9.272                0.911634895     -127.589723
9.273                0.911444468     -127.841194
9.274                0.911254221     -128.093207
9.275                0.911064161      -128.34576
9.276                0.910874296     -128.598854
9.277                0.910684633     -128.852487
9.278                0.910495181     -129.106659
9.279                0.910305947     -129.361369
9.28                 0.910116939     -129.616616
9.281                0.909928165       -129.8724
9.282                0.909739634      -130.12872
9.283                0.909551353     -130.385575
9.284                 0.90936333     -130.642964
9.285                0.909175574     -130.900886
9.286                0.908988093     -131.159341
9.287                0.908800895     -131.418328
9.288                0.908613988     -131.677845
9.289                0.908427381     -131.937892
9.29                 0.908241082     -132.198468
9.291                  0.9080551     -132.459571
9.292                0.907869442     -132.721201
9.293                0.907684118     -132.983357
9.294                0.907499136     -133.246037
9.295                0.907314505     -133.509241
9.296                0.907130233     -133.772967
9.297                 0.90694633     -134.037215
9.298                0.906762803     -134.301982
9.299                0.906579661     -134.567268
9.3                  0.906396914     -134.833072
9.301                 0.90621457     -135.099392
9.302                0.906032638     -135.366227
9.303                0.905851127     -135.633576
9.304                0.905670046     -135.901437
9.305                0.905489404     -136.169809
9.306                0.905309209      -136.43869
9.307                0.905129472      -136.70808
9.308                  0.9049502     -136.977976
9.309                0.904771404     -137.248378
9.31                 0.904593092     -137.519283
9.311                0.904415273      -137.79069
9.312                0.904237957     -138.062598
9.313                0.904061153     -138.335005
9.314                0.903884869     -138.607909
9.315                0.903709117     -138.881309
9.316                0.903533903     -139.155203
9.317                0.903359239     -139.429589
9.318                0.903185133     -139.704465
9.319                0.903011595     -139.979831
9.32                 0.902838634     -140.255683
9.321                0.902666259      -140.53202
9.322                0.902494481     -140.808841
9.323                0.902323308     -141.086143
9.324                0.902152749     -141.363925
9.325                0.901982815     -141.642184
9.326                0.901813515     -141.920918
9.327                0.901644858     -142.200126
9.328                0.901476854     -142.479806
9.329                0.901309513     -142.759955
9.33                 0.901142843     -143.040572
9.331                0.900976855     -143.321654
9.332                0.900811558     -143.603199
9.333                0.900646962     -143.885204
9.334                0.900483076     -144.167669
9.335                0.900319909      -144.45059
9.336                0.900157473     -144.733965
9.337                0.899995775     -145.017792
9.338                0.899834826     -145.302069
9.339                0.899674635     -145.586793
9.34                 0.899515211     -145.871962
9.341                0.899356566     -146.157573
9.342                0.899198707     -146.443624
9.343                0.899041644     -146.730113
9.344                0.898885388     -147.017036
9.345                0.898729948     -147.304392
9.346                0.898575332     -147.592178
9.347                0.898421552     -147.880392
9.348                0.898268616      -148.16903
9.349                0.898116534      -148.45809
9.35                 0.897965315     -148.747569
9.351                0.897814969     -149.037465
9.352                0.897665506     -149.327775
9.353                0.897516934     -149.618496
9.354                0.897369264     -149.909625
9.355                0.897222504      -150.20116
9.356                0.897076664     -150.493097
9.357                0.896931754     -150.785434
9.358                0.896787783     -151.078169
9.359                 0.89664476     -151.371296
9.36                 0.896502694     -151.664815
9.361                0.896361596     -151.958722
9.362                0.896221473     -152.253014
9.363                0.896082335     -152.547687
9.364                0.895944192     -152.842739
9.365                0.895807052     -153.138167
9.366                0.895670925     -153.433968
9.367                 0.89553582     -153.730137
9.368                0.895401745     -154.026673
9.369                 0.89526871     -154.323572
9.37                 0.895136724      -154.62083
9.371                0.895005796     -154.918445
9.372                0.894875934     -155.216413
9.373                0.894747147      -155.51473
9.374                0.894619444     -155.813394
9.375                0.894492834     -156.112401
9.376                0.894367326     -156.411747
9.377                0.894242927      -156.71143
9.378                0.894119648     -157.011445
9.379                0.893997495     -157.311789
9.38                 0.893876478     -157.612459
9.381                0.893756605     -157.913451
9.382                0.893637884     -158.214761
9.383                0.893520324     -158.516386
9.384                0.893403933     -158.818323
9.385                0.893288719     -159.120567
9.386                 0.89317469     -159.423115
9.387                0.893061854     -159.725964
9.388                0.892950219     -160.029108
9.389                0.892839794     -160.332546
9.39                 0.892730585     -160.636273
9.391                  0.8926226     -160.940285
9.392                0.892515848     -161.244578
9.393                0.892410336     -161.549149
9.394                0.892306071     -161.853994
9.395                0.892203061     -162.159108
9.396                0.892101313     -162.464488
