! TOUCHSTONE file generated by CST DESIGN STUDIO
! Date and time: Tue Feb  4 14:24:04 2025
! Project name: C:\Work\MatlabApps\UnitCellOptimizationMatlab\CST\unitcell.cst
! Tree item: Tasks\Sweep1\SPara1\S-Parameters
! Header version: 2024
! Port assignment regex: !\s*Touchstone port\s*([0-9]+)\s*=\s*(CST MWS port|CST DES external port|CST DES block port)\s*(.+)\s* \(\"(.*)\"\)(\s*mode\s*([0-9]+))?.*
! Touchstone port assignment:
! Touchstone port 1 = CST DES external port 1 ("")
# GHz S MA R 50
9                    0.988792278     -78.7996947
9.001                0.988764594     -78.9197689
9.002                0.988736828      -79.040137
9.003                0.988708979     -79.1607998
9.004                0.988681049     -79.2817581
9.005                0.988653036     -79.4030128
9.006                 0.98862494     -79.5245646
9.007                0.988596762     -79.6464146
9.008                  0.9885685     -79.7685634
9.009                0.988540156      -79.891012
9.01                 0.988511728     -80.0137612
9.011                0.988483217     -80.1368119
9.012                0.988454622      -80.260165
9.013                0.988425943     -80.3838212
9.014                0.988397181     -80.5077814
9.015                0.988368335     -80.6320465
9.016                0.988339404     -80.7566175
9.017                0.988310389      -80.881495
9.018                 0.98828129       -81.00668
9.019                0.988252106     -81.1321734
9.02                 0.988222837      -81.257976
9.021                0.988193483     -81.3840887
9.022                0.988164045     -81.5105124
9.023                0.988134521      -81.637248
9.024                0.988104911     -81.7642962
9.025                0.988075217      -81.891658
9.026                0.988045437     -82.0193343
9.027                0.988015571     -82.1473259
9.028                0.987985619     -82.2756338
9.029                0.987955581     -82.4042587
9.03                 0.987925457     -82.5332017
9.031                0.987895247     -82.6624635
9.032                0.987864951      -82.792045
9.033                0.987834568     -82.9219472
9.034                0.987804098      -83.052171
9.035                0.987773542     -83.1827171
9.036                0.987742899     -83.3135865
9.037                0.987712169     -83.4447801
9.038                0.987681352     -83.5762989
9.039                0.987650447     -83.7081435
9.04                 0.987619456     -83.8403151
9.041                0.987588377     -83.9728144
9.042                 0.98755721     -84.1056424
9.043                0.987525956     -84.2387999
9.044                0.987494614     -84.3722879
9.045                0.987463184     -84.5061073
9.046                0.987431666     -84.6402589
9.047                0.987400061     -84.7747436
9.048                0.987368367     -84.9095625
9.049                0.987336585     -85.0447162
9.05                 0.987304714     -85.1802059
9.051                0.987272756     -85.3160323
9.052                0.987240708     -85.4521964
9.053                0.987208572     -85.5886991
9.054                0.987176348     -85.7255413
9.055                0.987144035     -85.8627239
9.056                0.987111632     -86.0002478
9.057                0.987079141     -86.1381139
9.058                0.987046561     -86.2763231
9.059                0.987013892     -86.4148764
9.06                 0.986981134     -86.5537746
9.061                0.986948287     -86.6930187
9.062                 0.98691535     -86.8326096
9.063                0.986882324     -86.9725482
9.064                0.986849209     -87.1128353
9.065                0.986816005      -87.253472
9.066                 0.98678271     -87.3944592
9.067                0.986749327     -87.5357977
9.068                0.986715854     -87.6774884
9.069                0.986682291     -87.8195324
9.07                 0.986648638     -87.9619304
9.071                0.986614896     -88.1046835
9.072                0.986581064     -88.2477925
9.073                0.986547142     -88.3912584
9.074                0.986513131     -88.5350821
9.075                0.986479029     -88.6792644
9.076                0.986444838     -88.8238064
9.077                0.986410557     -88.9687089
9.078                0.986376186     -89.1139729
9.079                0.986341725     -89.2595992
9.08                 0.986307174     -89.4055888
9.081                0.986272533     -89.5519427
9.082                0.986237802     -89.6986617
9.083                0.986202982     -89.8457467
9.084                0.986168071     -89.9931987
9.085                0.986133071     -90.1410186
9.086                 0.98609798     -90.2892073
9.087                  0.9860628     -90.4377657
9.088                0.986027529     -90.5866948
9.089                0.985992169     -90.7359955
9.09                 0.985956719     -90.8856686
9.091                0.985921179     -91.0357152
9.092                0.985885549      -91.186136
9.093                 0.98584983     -91.3369321
9.094                 0.98581402     -91.4881044
9.095                0.985778121     -91.6396538
9.096                0.985742133     -91.7915811
9.097                0.985706054     -91.9438873
9.098                0.985669887     -92.0965734
9.099                0.985633629     -92.2496402
9.1                  0.985597282     -92.4030886
9.101                0.985560846     -92.5569196
9.102                0.985524321     -92.7111341
9.103                0.985487706     -92.8657329
9.104                0.985451002     -93.0207171
9.105                0.985414209     -93.1760874
9.106                0.985377328     -93.3318449
9.107                0.985340357     -93.4879904
9.108                0.985303297     -93.6445248
9.109                0.985266149      -93.801449
9.11                 0.985228912      -93.958764
9.111                0.985191587     -94.1164706
9.112                0.985154173     -94.2745698
9.113                0.985116671     -94.4330624
9.114                0.985079081     -94.5919493
9.115                0.985041402     -94.7512315
9.116                0.985003636     -94.9109098
9.117                0.984965783     -95.0709851
9.118                0.984927841     -95.2314583
9.119                0.984889812     -95.3923304
9.12                 0.984851696     -95.5536021
9.121                0.984813493     -95.7152745
9.122                0.984775203     -95.8773483
9.123                0.984736826     -96.0398245
9.124                0.984698362     -96.2027039
9.125                0.984659812     -96.3659875
9.126                0.984621176      -96.529676
9.127                0.984582453     -96.6937704
9.128                0.984543645     -96.8582716
9.129                0.984504751     -97.0231804
9.13                 0.984465771     -97.1884977
9.131                0.984426706     -97.3542244
9.132                0.984387557     -97.5203613
9.133                0.984348322     -97.6869093
9.134                0.984309003     -97.8538692
9.135                0.984269599      -98.021242
9.136                0.984230111     -98.1890284
9.137                 0.98419054     -98.3572293
9.138                0.984150885     -98.5258456
9.139                0.984111146     -98.6948781
9.14                 0.984071325     -98.8643277
9.141                 0.98403142     -99.0341952
9.142                0.983991433     -99.2044814
9.143                0.983951364     -99.3751872
9.144                0.983911213     -99.5463134
9.145                 0.98387098     -99.7178609
9.146                0.983830666     -99.8898304
9.147                0.983790271     -100.062223
9.148                0.983749795     -100.235039
9.149                0.983709238     -100.408279
9.15                 0.983668602     -100.581945
9.151                0.983627886     -100.756037
9.152                 0.98358709     -100.930556
9.153                0.983546216     -101.105503
9.154                0.983505263     -101.280879
9.155                0.983464231     -101.456683
9.156                0.983423122     -101.632918
9.157                0.983381935     -101.809584
9.158                 0.98334067     -101.986681
9.159                0.983299329     -102.164211
9.16                 0.983257912     -102.342174
9.161                0.983216419     -102.520571
9.162                 0.98317485     -102.699403
9.163                0.983133206      -102.87867
9.164                0.983091487     -103.058374
9.165                0.983049694     -103.238515
9.166                0.983007828     -103.419093
9.167                0.982965888      -103.60011
9.168                0.982923875     -103.781566
9.169                 0.98288179     -103.963463
9.17                 0.982839632       -104.1458
9.171                0.982797404     -104.328578
9.172                0.982755104     -104.511799
9.173                0.982712734     -104.695462
9.174                0.982670294     -104.879569
9.175                0.982627785      -105.06412
9.176                0.982585206     -105.249116
9.177                 0.98254256     -105.434558
9.178                0.982499845     -105.620446
9.179                0.982457064     -105.806781
9.18                 0.982414216     -105.993564
9.181                0.982371301     -106.180795
9.182                0.982328321     -106.368475
9.183                0.982285276     -106.556605
9.184                0.982242167     -106.745185
9.185                0.982198994     -106.934215
9.186                0.982155758     -107.123698
9.187                 0.98211246     -107.313632
9.188                0.982069099      -107.50402
9.189                0.982025678     -107.694861
9.19                 0.981982195     -107.886155
9.191                0.981938653     -108.077905
9.192                0.981895052     -108.270109
9.193                0.981851392     -108.462769
9.194                0.981807674     -108.655886
9.195                0.981763899      -108.84946
9.196                0.981720068     -109.043491
9.197                0.981676181      -109.23798
9.198                0.981632239     -109.432927
9.199                0.981588242     -109.628334
9.2                  0.981544192       -109.8242
9.201                 0.98150009     -110.020527
9.202                0.981455935     -110.217314
9.203                0.981411729     -110.414562
9.204                0.981367472     -110.612272
9.205                0.981323166     -110.810444
9.206                0.981278811     -111.009079
9.207                0.981234408     -111.208177
9.208                0.981189958     -111.407739
9.209                0.981145461     -111.607764
9.21                 0.981100919     -111.808254
9.211                0.981056332     -112.009209
9.212                0.981011702     -112.210629
9.213                0.980967028     -112.412515
9.214                0.980922313     -112.614867
9.215                0.980877556     -112.817686
9.216                0.980832759     -113.020972
9.217                0.980787922     -113.224724
9.218                0.980743048     -113.428945
9.219                0.980698135     -113.633634
9.22                 0.980653187     -113.838791
9.221                0.980608202     -114.044416
9.222                0.980563183     -114.250511
9.223                0.980518131     -114.457075
9.224                0.980473046     -114.664109
9.225                0.980427929     -114.871613
9.226                0.980382782     -115.079587
9.227                0.980337605     -115.288032
9.228                0.980292399     -115.496947
9.229                0.980247166     -115.706334
9.23                 0.980201907     -115.916191
9.231                0.980156622     -116.126521
9.232                0.980111313     -116.337322
9.233                0.980065981     -116.548595
9.234                0.980020627      -116.76034
9.235                0.979975251     -116.972557
9.236                0.979929856     -117.185247
9.237                0.979884442      -117.39841
9.238                0.979839011     -117.612045
9.239                0.979793563     -117.826154
9.24                   0.9797481     -118.040735
9.241                0.979702622     -118.255789
9.242                0.979657132     -118.471317
9.243                 0.97961163     -118.687318
9.244                0.979566118     -118.903793
9.245                0.979520596     -119.120741
9.246                0.979475066     -119.338163
9.247                 0.97942953     -119.556058
9.248                0.979383988     -119.774427
9.249                0.979338442     -119.993269
9.25                 0.979292893     -120.212585
9.251                0.979247342     -120.432374
9.252                 0.97920179     -120.652637
9.253                 0.97915624     -120.873374
9.254                0.979110692     -121.094584
9.255                0.979065147     -121.316267
9.256                0.979019608     -121.538423
9.257                0.978974074     -121.761053
9.258                0.978928549     -121.984156
9.259                0.978883032     -122.207731
9.26                 0.978837526     -122.431779
9.261                0.978792031       -122.6563
9.262                 0.97874655     -122.881293
9.263                0.978701084     -123.106758
9.264                0.978655633     -123.332696
9.265                  0.9786102     -123.559105
9.266                0.978564786     -123.785985
9.267                0.978519393     -124.013337
9.268                0.978474021      -124.24116
9.269                0.978428673     -124.469453
9.27                  0.97838335     -124.698217
9.271                0.978338053     -124.927451
9.272                0.978292785     -125.157155
9.273                0.978247545     -125.387328
9.274                0.978202337      -125.61797
9.275                0.978157162      -125.84908
9.276                 0.97811202     -126.080659
9.277                0.978066914     -126.312706
9.278                0.978021846      -126.54522
9.279                0.977976816     -126.778201
9.28                 0.977931827     -127.011648
9.281                0.977886881     -127.245561
9.282                0.977841978      -127.47994
9.283                 0.97779712     -127.714784
9.284                0.977752309     -127.950092
9.285                0.977707547     -128.185864
9.286                0.977662836     -128.422099
9.287                0.977618176     -128.658797
9.288                0.977573571     -128.895957
9.289                 0.97752902     -129.133578
9.29                 0.977484527      -129.37166
9.291                0.977440093     -129.610203
9.292                0.977395719     -129.849204
9.293                0.977351408     -130.088665
9.294                 0.97730716     -130.328583
9.295                0.977262979     -130.568959
9.296                0.977218865     -130.809791
9.297                0.977174821     -131.051079
9.298                0.977130847     -131.292822
9.299                0.977086947     -131.535019
9.3                  0.977043121     -131.777669
9.301                0.976999372     -132.020772
9.302                0.976955701     -132.264326
9.303                 0.97691211     -132.508331
9.304                0.976868602     -132.752786
9.305                0.976825177      -132.99769
9.306                0.976781838     -133.243041
9.307                0.976738586      -133.48884
9.308                0.976695424     -133.735084
9.309                0.976652353     -133.981774
9.31                 0.976609376     -134.228907
9.311                0.976566493     -134.476483
9.312                0.976523707     -134.724501
9.313                0.976481021      -134.97296
9.314                0.976438435     -135.221858
9.315                0.976395952     -135.471195
9.316                0.976353573     -135.720969
9.317                0.976311301     -135.971179
9.318                0.976269137     -136.221824
9.319                0.976227084     -136.472903
9.32                 0.976185143     -136.724414
9.321                0.976143317     -136.976357
9.322                0.976101607     -137.228729
9.323                0.976060015      -137.48153
9.324                0.976018543     -137.734759
9.325                0.975977194     -137.988414
9.326                0.975935969     -138.242493
9.327                 0.97589487     -138.496996
9.328                0.975853899      -138.75192
9.329                0.975813058     -139.007265
9.33                 0.975772349     -139.263029
9.331                0.975731775     -139.519211
9.332                0.975691337     -139.775809
9.333                0.975651037     -140.032821
9.334                0.975610877     -140.290246
9.335                 0.97557086     -140.548083
9.336                0.975530986      -140.80633
9.337                0.975491259     -141.064985
9.338                0.975451681     -141.324047
9.339                0.975412253     -141.583514
9.34                 0.975372977     -141.843384
9.341                0.975333855     -142.103656
9.342                 0.97529489     -142.364329
9.343                0.975256084     -142.625399
9.344                0.975217438     -142.886866
9.345                0.975178955     -143.148728
9.346                0.975140636     -143.410983
9.347                0.975102484      -143.67363
9.348                0.975064501     -143.936666
9.349                0.975026688     -144.200089
9.35                 0.974989049     -144.463898
9.351                0.974951584     -144.728091
9.352                0.974914296     -144.992665
9.353                0.974877187      -145.25762
9.354                0.974840259     -145.522953
9.355                0.974803515     -145.788661
9.356                0.974766955     -146.054744
9.357                0.974730583     -146.321198
9.358                0.974694399     -146.588023
9.359                0.974658407     -146.855215
9.36                 0.974622609     -147.122773
9.361                0.974587005     -147.390695
9.362                0.974551599     -147.658979
9.363                0.974516393     -147.927621
9.364                0.974481387     -148.196621
9.365                0.974446586     -148.465976
9.366                0.974411989     -148.735684
9.367                  0.9743776     -149.005742
9.368                0.974343421     -149.276149
9.369                0.974309453     -149.546901
9.37                 0.974275699     -149.817998
9.371                 0.97424216     -150.089435
9.372                0.974208838     -150.361212
9.373                0.974175736     -150.633326
9.374                0.974142856     -150.905773
9.375                0.974110199     -151.178553
9.376                0.974077767     -151.451662
9.377                0.974045563     -151.725098
9.378                0.974013588     -151.998858
9.379                0.973981844     -152.272941
9.38                 0.973950333     -152.547343
9.381                0.973919058     -152.822062
9.382                 0.97388802     -153.097096
9.383                 0.97385722     -153.372441
9.384                0.973826662     -153.648096
9.385                0.973796346     -153.924058
9.386                0.973766275     -154.200323
9.387                0.973736451      -154.47689
9.388                0.973706875     -154.753756
9.389                0.973677549     -155.030917
9.39                 0.973648476     -155.308372
9.391                0.973619656     -155.586118
9.392                0.973591092     -155.864151
9.393                0.973562786      -156.14247
9.394                 0.97353474     -156.421071
9.395                0.973506955     -156.699951
9.396                0.973479432     -156.979108
