! TOUCHSTONE file generated by CST DESIGN STUDIO
! Date and time: Tue Feb  4 14:24:08 2025
! Project name: C:\Work\MatlabApps\UnitCellOptimizationMatlab\CST\unitcell.cst
! Tree item: Tasks\Sweep1\SPara1\S-Parameters
! Header version: 2024
! Port assignment regex: !\s*Touchstone port\s*([0-9]+)\s*=\s*(CST MWS port|CST DES external port|CST DES block port)\s*(.+)\s* \(\"(.*)\"\)(\s*mode\s*([0-9]+))?.*
! Touchstone port assignment:
! Touchstone port 1 = CST DES external port 1 ("")
# GHz S MA R 50
9                    0.989342204     -76.3210259
9.001                0.989316767     -76.4353209
9.002                0.989291254     -76.5498934
9.003                0.989265665     -76.6647441
9.004                0.989239999     -76.7798739
9.005                0.989214257     -76.8952836
9.006                0.989188439      -77.010974
9.007                0.989162543      -77.126946
9.008                0.989136571     -77.2432002
9.009                0.989110521     -77.3597376
9.01                 0.989084394      -77.476559
9.011                 0.98905819     -77.5936652
9.012                0.989031908      -77.711057
9.013                0.989005548     -77.8287353
9.014                0.988979111     -77.9467008
9.015                0.988952595     -78.0649545
9.016                0.988926001     -78.1834971
9.017                0.988899328     -78.3023295
9.018                0.988872578     -78.4214525
9.019                0.988845748     -78.5408669
9.02                 0.988818839     -78.6605736
9.021                0.988791852     -78.7805735
9.022                0.988764785     -78.9008673
9.023                0.988737639     -79.0214559
9.024                0.988710413     -79.1423402
9.025                0.988683108     -79.2635211
9.026                0.988655723     -79.3849992
9.027                0.988628259     -79.5067756
9.028                0.988600714      -79.628851
9.029                0.988573089     -79.7512263
9.03                 0.988545383     -79.8739025
9.031                0.988517597     -79.9968802
9.032                0.988489731     -80.1201604
9.033                0.988461784      -80.243744
9.034                0.988433755     -80.3676317
9.035                0.988405646     -80.4918246
9.036                0.988377456     -80.6163233
9.037                0.988349184     -80.7411289
9.038                0.988320831     -80.8662421
9.039                0.988292396     -80.9916639
9.04                  0.98826388     -81.1173951
9.041                0.988235282     -81.2434365
9.042                0.988206601     -81.3697892
9.043                0.988177839     -81.4964538
9.044                0.988148995     -81.6234314
9.045                0.988120068     -81.7507227
9.046                0.988091058     -81.8783287
9.047                0.988061966     -82.0062502
9.048                0.988032792     -82.1344882
9.049                0.988003534     -82.2630435
9.05                 0.987974194     -82.3919169
9.051                 0.98794477     -82.5211095
9.052                0.987915264      -82.650622
9.053                0.987885674     -82.7804554
9.054                0.987856001     -82.9106105
9.055                0.987826244     -83.0410883
9.056                0.987796403     -83.1718896
9.057                0.987766479     -83.3030153
9.058                0.987736471     -83.4344663
9.059                0.987706379     -83.5662435
9.06                 0.987676204     -83.6983479
9.061                0.987645944     -83.8307803
9.062                0.987615599     -83.9635416
9.063                0.987585171     -84.0966326
9.064                0.987554658     -84.2300545
9.065                 0.98752406     -84.3638079
9.066                0.987493378     -84.4978938
9.067                0.987462612     -84.6323132
9.068                 0.98743176     -84.7670669
9.069                0.987400824     -84.9021558
9.07                 0.987369803     -85.0375809
9.071                0.987338697      -85.173343
9.072                0.987307506     -85.3094431
9.073                0.987276229      -85.445882
9.074                0.987244868     -85.5826608
9.075                0.987213421     -85.7197802
9.076                0.987181889     -85.8572412
9.077                0.987150271     -85.9950448
9.078                0.987118568     -86.1331918
9.079                0.987086779     -86.2716832
9.08                 0.987054905     -86.4105198
9.081                0.987022945     -86.5497026
9.082                0.986990899     -86.6892325
9.083                0.986958768     -86.8291104
9.084                0.986926551     -86.9693373
9.085                0.986894248      -87.109914
9.086                0.986861859     -87.2508415
9.087                0.986829384     -87.3921207
9.088                0.986796824     -87.5337525
9.089                0.986764177     -87.6757378
9.09                 0.986731444     -87.8180776
9.091                0.986698625     -87.9607728
9.092                 0.98666572     -88.1038243
9.093                0.986632729      -88.247233
9.094                0.986599652     -88.3909999
9.095                0.986566489     -88.5351258
9.096                0.986533239     -88.6796117
9.097                0.986499904     -88.8244586
9.098                0.986466482     -88.9696673
9.099                0.986432974     -89.1152387
9.1                   0.98639938     -89.2611739
9.101                  0.9863657     -89.4074736
9.102                0.986331933     -89.5541389
9.103                 0.98629808     -89.7011707
9.104                0.986264142     -89.8485698
9.105                0.986230117     -89.9963373
9.106                0.986196006      -90.144474
9.107                0.986161808     -90.2929808
9.108                0.986127525     -90.4418588
9.109                0.986093156     -90.5911087
9.11                 0.986058701     -90.7407316
9.111                0.986024159     -90.8907283
9.112                0.985989532     -91.0410998
9.113                0.985954819      -91.191847
9.114                 0.98592002     -91.3429708
9.115                0.985885136     -91.4944721
9.116                0.985850165     -91.6463519
9.117                0.985815109     -91.7986111
9.118                0.985779967     -91.9512506
9.119                 0.98574474     -92.1042713
9.12                 0.985709427     -92.2576742
9.121                0.985674029     -92.4114601
9.122                0.985638546       -92.56563
9.123                0.985602977     -92.7201847
9.124                0.985567323     -92.8751253
9.125                0.985531584     -93.0304526
9.126                0.985495761     -93.1861675
9.127                0.985459852      -93.342271
9.128                0.985423858     -93.4987639
9.129                 0.98538778     -93.6556472
9.13                 0.985351618     -93.8129217
9.131                 0.98531537     -93.9705885
9.132                0.985279039     -94.1286483
9.133                0.985242624     -94.2871021
9.134                0.985206124     -94.4459509
9.135                0.985169541     -94.6051954
9.136                0.985132873     -94.7648367
9.137                0.985096123     -94.9248755
9.138                0.985059288     -95.0853129
9.139                0.985022371     -95.2461496
9.14                  0.98498537     -95.4073867
9.141                0.984948287     -95.5690249
9.142                 0.98491112     -95.7310653
9.143                0.984873871     -95.8935086
9.144                 0.98483654     -96.0563557
9.145                0.984799126     -96.2196077
9.146                 0.98476163     -96.3832652
9.147                0.984724053     -96.5473293
9.148                0.984686393     -96.7118007
9.149                0.984648653     -96.8766804
9.15                 0.984610831     -97.0419693
9.151                0.984572928     -97.2076682
9.152                0.984534944      -97.373778
9.153                 0.98449688     -97.5402996
9.154                0.984458735     -97.7072338
9.155                 0.98442051     -97.8745814
9.156                0.984382206     -98.0423435
9.157                0.984343822     -98.2105207
9.158                0.984305358      -98.379114
9.159                0.984266816     -98.5481243
9.16                 0.984228195     -98.7175523
9.161                0.984189495     -98.8873989
9.162                0.984150717      -99.057665
9.163                0.984111862     -99.2283514
9.164                0.984072928      -99.399459
9.165                0.984033918     -99.5709885
9.166                 0.98399483     -99.7429409
9.167                0.983955666     -99.9153169
9.168                0.983916425     -100.088117
9.169                0.983877108     -100.261343
9.17                 0.983837716     -100.434995
9.171                0.983798248     -100.609074
9.172                0.983758705      -100.78358
9.173                0.983719088     -100.958515
9.174                0.983679396      -101.13388
9.175                0.983639631     -101.309674
9.176                0.983599792       -101.4859
9.177                 0.98355988     -101.662557
9.178                0.983519895     -101.839647
9.179                0.983479837      -102.01717
9.18                 0.983439708     -102.195127
9.181                0.983399508     -102.373519
9.182                0.983359236     -102.552347
9.183                0.983318893     -102.731611
9.184                0.983278481     -102.911312
9.185                0.983237998     -103.091451
9.186                0.983197446     -103.272029
9.187                0.983156826     -103.453046
9.188                0.983116137     -103.634503
9.189                 0.98307538     -103.816401
9.19                 0.983034555     -103.998741
9.191                0.982993664     -104.181523
9.192                0.982952706     -104.364748
9.193                0.982911682     -104.548417
9.194                0.982870592     -104.732531
9.195                0.982829438      -104.91709
9.196                 0.98278822     -105.102094
9.197                0.982746937     -105.287546
9.198                0.982705591     -105.473444
9.199                0.982664183     -105.659791
9.2                  0.982622712     -105.846586
9.201                 0.98258118      -106.03383
9.202                0.982539586     -106.221524
9.203                0.982497932      -106.40967
9.204                0.982456219     -106.598266
9.205                0.982414446     -106.787314
9.206                0.982372614     -106.976815
9.207                0.982330724     -107.166769
9.208                0.982288777     -107.357177
9.209                0.982246774     -107.548039
9.21                 0.982204714     -107.739356
9.211                0.982162599     -107.931129
9.212                0.982120429     -108.123359
9.213                0.982078205     -108.316045
9.214                0.982035927     -108.509188
9.215                0.981993597      -108.70279
9.216                0.981951215      -108.89685
9.217                0.981908782     -109.091369
9.218                0.981866298     -109.286348
9.219                0.981823764     -109.481787
9.22                 0.981781181     -109.677687
9.221                 0.98173855     -109.874049
9.222                0.981695871     -110.070872
9.223                0.981653146     -110.268157
9.224                0.981610374     -110.465905
9.225                0.981567558     -110.664117
9.226                0.981524696     -110.862792
9.227                0.981481792     -111.061932
9.228                0.981438844     -111.261536
9.229                0.981395854     -111.461606
9.23                 0.981352824     -111.662141
9.231                0.981309753     -111.863142
9.232                0.981266642      -112.06461
9.233                0.981223493     -112.266545
9.234                0.981180307     -112.468948
9.235                0.981137083     -112.671818
9.236                0.981093824     -112.875156
9.237                 0.98105053     -113.078963
9.238                0.981007202     -113.283239
9.239                 0.98096384     -113.487984
9.24                 0.980920446     -113.693199
9.241                0.980877022     -113.898884
9.242                0.980833566     -114.105039
9.243                0.980790082     -114.311665
9.244                0.980746569     -114.518762
9.245                0.980703029      -114.72633
9.246                0.980659463      -114.93437
9.247                0.980615871     -115.142882
9.248                0.980572255     -115.351865
9.249                0.980528616     -115.561322
9.25                 0.980484954      -115.77125
9.251                0.980441272     -115.981652
9.252                0.980397569     -116.192527
9.253                0.980353847     -116.403875
9.254                0.980310108     -116.615697
9.255                0.980266351     -116.827993
9.256                0.980222579     -117.040762
9.257                0.980178792     -117.254005
9.258                0.980134992     -117.467723
9.259                0.980091179     -117.681915
9.26                 0.980047356     -117.896582
9.261                0.980003522     -118.111723
9.262                0.979959679     -118.327339
9.263                0.979915829     -118.543429
9.264                0.979871972     -118.759995
9.265                 0.97982811     -118.977036
9.266                0.979784244     -119.194551
9.267                0.979740375     -119.412542
9.268                0.979696505     -119.631008
9.269                0.979652634     -119.849948
9.27                 0.979608765     -120.069364
9.271                0.979564897     -120.289255
9.272                0.979521033     -120.509621
9.273                0.979477174     -120.730462
9.274                 0.97943332     -120.951778
9.275                0.979389474     -121.173569
9.276                0.979345637     -121.395835
9.277                 0.97930181     -121.618575
9.278                0.979257995      -121.84179
9.279                0.979214192      -122.06548
9.28                 0.979170403     -122.289643
9.281                 0.97912663     -122.514281
9.282                0.979082873     -122.739393
9.283                0.979039135     -122.964979
9.284                0.978995417     -123.191038
9.285                 0.97895172      -123.41757
9.286                0.978908045     -123.644576
9.287                0.978864394     -123.872055
9.288                0.978820769     -124.100006
9.289                0.978777171      -124.32843
9.29                 0.978733601     -124.557325
9.291                0.978690061     -124.786693
9.292                0.978646553     -125.016531
9.293                0.978603077     -125.246841
9.294                0.978559636     -125.477622
9.295                 0.97851623     -125.708873
9.296                0.978472862     -125.940593
9.297                0.978429533     -126.172784
9.298                0.978386245     -126.405443
9.299                0.978342999     -126.638571
9.3                  0.978299796     -126.872167
9.301                0.978256639     -127.106231
9.302                0.978213529     -127.340762
9.303                0.978170467     -127.575759
9.304                0.978127455     -127.811223
9.305                0.978084495     -128.047152
9.306                0.978041588     -128.283547
9.307                0.977998737     -128.520406
9.308                0.977955942     -128.757728
9.309                0.977913205     -128.995514
9.31                 0.977870528     -129.233763
9.311                0.977827913     -129.472473
9.312                0.977785362     -129.711644
9.313                0.977742875     -129.951277
9.314                0.977700456     -130.191368
9.315                0.977658104     -130.431919
9.316                0.977615824     -130.672929
9.317                0.977573615     -130.914396
9.318                0.977531479     -131.156319
9.319                0.977489419     -131.398699
9.32                 0.977447437     -131.641534
9.321                0.977405533     -131.884823
9.322                 0.97736371     -132.128565
9.323                 0.97732197      -132.37276
9.324                0.977280314     -132.617407
9.325                0.977238745     -132.862504
9.326                0.977197263     -133.108051
9.327                0.977155871     -133.354047
9.328                 0.97711457     -133.600491
9.329                0.977073363     -133.847382
9.33                 0.977032252     -134.094718
9.331                0.976991237     -134.342499
9.332                0.976950322     -134.590724
9.333                0.976909507     -134.839391
9.334                0.976868795       -135.0885
9.335                0.976828187     -135.338049
9.336                0.976787686     -135.588038
9.337                0.976747293     -135.838464
9.338                0.976707011     -136.089327
9.339                0.976666841     -136.340626
9.34                 0.976626784      -136.59236
9.341                0.976586844     -136.844526
9.342                0.976547021     -137.097125
9.343                0.976507318     -137.350154
9.344                0.976467737     -137.603612
9.345                 0.97642828     -137.857498
9.346                0.976388948     -138.111811
9.347                0.976349743      -138.36655
9.348                0.976310668     -138.621712
9.349                0.976271725     -138.877296
9.35                 0.976232914     -139.133301
9.351                0.976194239     -139.389726
9.352                0.976155702     -139.646569
9.353                0.976117303     -139.903829
9.354                0.976079046     -140.161503
9.355                0.976040931     -140.419591
9.356                0.976002962     -140.678091
9.357                 0.97596514     -140.937001
9.358                0.975927467      -141.19632
9.359                0.975889945     -141.456046
9.36                 0.975852576     -141.716177
9.361                0.975815362     -141.976712
9.362                0.975778306     -142.237649
9.363                0.975741408     -142.498987
9.364                0.975704671     -142.760723
9.365                0.975668097     -143.022855
9.366                0.975631688     -143.285383
9.367                0.975595446     -143.548304
9.368                0.975559372     -143.811616
9.369                 0.97552347     -144.075318
9.37                 0.975487741     -144.339407
9.371                0.975452186     -144.603883
9.372                0.975416809     -144.868742
9.373                 0.97538161     -145.133983
9.374                0.975346592     -145.399603
9.375                0.975311758     -145.665602
9.376                0.975277107     -145.931977
9.377                0.975242644     -146.198726
9.378                 0.97520837     -146.465846
9.379                0.975174286     -146.733337
9.38                 0.975140395     -147.001195
9.381                0.975106699     -147.269418
9.382                  0.9750732     -147.538006
9.383                0.975039899     -147.806954
9.384                0.975006799     -148.076262
9.385                0.974973901     -148.345926
9.386                0.974941209     -148.615945
9.387                0.974908722     -148.886317
9.388                0.974876444     -149.157039
9.389                0.974844377     -149.428109
9.39                 0.974812522     -149.699525
9.391                0.974780881     -149.971283
9.392                0.974749456     -150.243383
9.393                 0.97471825     -150.515822
9.394                0.974687263     -150.788596
9.395                0.974656499     -151.061704
9.396                0.974625959     -151.335144
