! TOUCHSTONE file generated by CST DESIGN STUDIO
! Date and time: Tue Feb  4 14:24:18 2025
! Project name: C:\Work\MatlabApps\UnitCellOptimizationMatlab\CST\unitcell.cst
! Tree item: Tasks\Sweep1\SPara1\S-Parameters
! Header version: 2024
! Port assignment regex: !\s*Touchstone port\s*([0-9]+)\s*=\s*(CST MWS port|CST DES external port|CST DES block port)\s*(.+)\s* \(\"(.*)\"\)(\s*mode\s*([0-9]+))?.*
! Touchstone port assignment:
! Touchstone port 1 = CST DES external port 1 ("")
# GHz S MA R 50
9                    0.990475484     -70.8842033
9.001                 0.99045458     -70.9865767
9.002                0.990433613     -71.0891937
9.003                0.990412583      -71.192055
9.004                0.990391491     -71.2951614
9.005                0.990370334     -71.3985136
9.006                0.990349115     -71.5021123
9.007                0.990327832     -71.6059583
9.008                0.990306485     -71.7100522
9.009                0.990285074     -71.8143949
9.01                 0.990263599     -71.9189871
9.011                0.990242059     -72.0238296
9.012                0.990220456      -72.128923
9.013                0.990198788     -72.2342682
9.014                0.990177055     -72.3398658
9.015                0.990155257     -72.4457167
9.016                0.990133394     -72.5518216
9.017                0.990111466     -72.6581813
9.018                0.990089473     -72.7647965
9.019                0.990067414      -72.871668
9.02                 0.990045289     -72.9787965
9.021                0.990023099     -73.0861828
9.022                0.990000843     -73.1938277
9.023                 0.98997852      -73.301732
9.024                0.989956132     -73.4098964
9.025                0.989933676     -73.5183217
9.026                0.989911155     -73.6270087
9.027                0.989888566     -73.7359582
9.028                0.989865911     -73.8451709
9.029                0.989843188     -73.9546476
9.03                 0.989820398     -74.0643891
9.031                0.989797541     -74.1743962
9.032                0.989774617     -74.2846697
9.033                0.989751624     -74.3952104
9.034                0.989728564     -74.5060191
9.035                0.989705436     -74.6170965
9.036                 0.98968224     -74.7284434
9.037                0.989658975     -74.8400608
9.038                0.989635642     -74.9519493
9.039                0.989612241     -75.0641097
9.04                 0.989588771     -75.1765429
9.041                0.989565231     -75.2892497
9.042                0.989541623     -75.4022309
9.043                0.989517946     -75.5154872
9.044                0.989494199     -75.6290196
9.045                0.989470383     -75.7428288
9.046                0.989446497     -75.8569156
9.047                0.989422542     -75.9712809
9.048                0.989398516     -76.0859254
9.049                0.989374421     -76.2008501
9.05                 0.989350255     -76.3160556
9.051                0.989326019     -76.4315429
9.052                0.989301712     -76.5473128
9.053                0.989277335     -76.6633661
9.054                0.989252887     -76.7797036
9.055                0.989228368     -76.8963262
9.056                0.989203778     -77.0132347
9.057                0.989179117     -77.1304299
9.058                0.989154385     -77.2479127
9.059                0.989129581     -77.3656839
9.06                 0.989104705     -77.4837444
9.061                0.989079758      -77.602095
9.062                0.989054739     -77.7207365
9.063                0.989029648     -77.8396699
9.064                0.989004484     -77.9588959
9.065                0.988979249     -78.0784153
9.066                0.988953941     -78.1982292
9.067                 0.98892856     -78.3183383
9.068                0.988903107     -78.4387434
9.069                0.988877581     -78.5594454
9.07                 0.988851982     -78.6804453
9.071                 0.98882631     -78.8017438
9.072                0.988800565     -78.9233418
9.073                0.988774747     -79.0452402
9.074                0.988748855     -79.1674398
9.075                0.988722889     -79.2899415
9.076                 0.98869685     -79.4127463
9.077                0.988670738     -79.5358549
9.078                0.988644551     -79.6592682
9.079                 0.98861829     -79.7829871
9.08                 0.988591955     -79.9070125
9.081                0.988565546     -80.0313453
9.082                0.988539062     -80.1559864
9.083                0.988512504     -80.2809365
9.084                0.988485871     -80.4061967
9.085                0.988459164     -80.5317678
9.086                0.988432382     -80.6576506
9.087                0.988405525     -80.7838461
9.088                0.988378592     -80.9103552
9.089                0.988351585     -81.0371788
9.09                 0.988324502     -81.1643177
9.091                0.988297345     -81.2917728
9.092                0.988270111     -81.4195451
9.093                0.988242802     -81.5476354
9.094                0.988215418     -81.6760446
9.095                0.988187957     -81.8047737
9.096                0.988160421     -81.9338235
9.097                0.988132809      -82.063195
9.098                0.988105121      -82.192889
9.099                0.988077356     -82.3229065
9.1                  0.988049516     -82.4532483
9.101                0.988021599     -82.5839154
9.102                0.987993606     -82.7149087
9.103                0.987965536      -82.846229
9.104                 0.98793739     -82.9778774
9.105                0.987909167     -83.1098546
9.106                0.987880868     -83.2421618
9.107                0.987852491     -83.3747996
9.108                0.987824038     -83.5077691
9.109                0.987795508     -83.6410712
9.11                 0.987766901     -83.7747068
9.111                0.987738217     -83.9086769
9.112                0.987709455     -84.0429823
9.113                0.987680617     -84.1776239
9.114                0.987651701     -84.3126028
9.115                0.987622708     -84.4479197
9.116                0.987593637     -84.5835757
9.117                0.987564489     -84.7195717
9.118                0.987535264     -84.8559086
9.119                0.987505961     -84.9925873
9.12                  0.98747658     -85.1296088
9.121                0.987447122      -85.266974
9.122                0.987417586     -85.4046838
9.123                0.987387972     -85.5427392
9.124                 0.98735828      -85.681141
9.125                0.987328511     -85.8198903
9.126                0.987298664      -85.958988
9.127                0.987268739     -86.0984349
9.128                0.987238735     -86.2382321
9.129                0.987208654     -86.3783805
9.13                 0.987178495     -86.5188809
9.131                0.987148258     -86.6597345
9.132                0.987117943      -86.800942
9.133                 0.98708755     -86.9425044
9.134                0.987057079     -87.0844228
9.135                 0.98702653     -87.2266979
9.136                0.986995902     -87.3693308
9.137                0.986965197     -87.5123224
9.138                0.986934413     -87.6556736
9.139                0.986903552     -87.7993854
9.14                 0.986872612     -87.9434588
9.141                0.986841594     -88.0878946
9.142                0.986810498     -88.2326938
9.143                0.986779324     -88.3778574
9.144                0.986748072     -88.5233863
9.145                0.986716742     -88.6692815
9.146                0.986685334     -88.8155438
9.147                0.986653847     -88.9621743
9.148                0.986622283     -89.1091739
9.149                0.986590641     -89.2565435
9.15                 0.986558921     -89.4042841
9.151                0.986527123     -89.5523966
9.152                0.986495247      -89.700882
9.153                0.986463293     -89.8497412
9.154                0.986431261     -89.9989752
9.155                0.986399152     -90.1485848
9.156                0.986366965     -90.2985712
9.157                  0.9863347     -90.4489351
9.158                0.986302358     -90.5996776
9.159                0.986269939     -90.7507995
9.16                 0.986237442     -90.9023019
9.161                0.986204867     -91.0541857
9.162                0.986172215     -91.2064518
9.163                0.986139486     -91.3591011
9.164                 0.98610668     -91.5121347
9.165                0.986073797     -91.6655534
9.166                0.986040837     -91.8193581
9.167                  0.9860078       -91.97355
9.168                0.985974686     -92.1281297
9.169                0.985941496     -92.2830984
9.17                 0.985908229      -92.438457
9.171                0.985874885     -92.5942063
9.172                0.985841465     -92.7503473
9.173                0.985807969      -92.906881
9.174                0.985774397     -93.0638083
9.175                0.985740749     -93.2211301
9.176                0.985707025     -93.3788474
9.177                0.985673225     -93.5369611
9.178                 0.98563935      -93.695472
9.179                0.985605399     -93.8543813
9.18                 0.985571373     -94.0136897
9.181                0.985537272     -94.1733982
9.182                0.985503096     -94.3335078
9.183                0.985468845     -94.4940193
9.184                0.985434519     -94.6549337
9.185                0.985400119     -94.8162518
9.186                0.985365645     -94.9779747
9.187                0.985331096     -95.1401033
9.188                0.985296474     -95.3026384
9.189                0.985261778     -95.4655809
9.19                 0.985227008     -95.6289319
9.191                0.985192165     -95.7926921
9.192                0.985157249     -95.9568625
9.193                 0.98512226     -96.1214441
9.194                0.985087198     -96.2864376
9.195                0.985052064     -96.4518441
9.196                0.985016857     -96.6176643
9.197                0.984981579     -96.7838993
9.198                0.984946228     -96.9505499
9.199                0.984910807      -97.117617
9.2                  0.984875313     -97.2851015
9.201                0.984839749     -97.4530043
9.202                0.984804114     -97.6213263
9.203                0.984768409     -97.7900683
9.204                0.984732633     -97.9592312
9.205                0.984696788      -98.128816
9.206                0.984660872     -98.2988234
9.207                0.984624888     -98.4692544
9.208                0.984588834     -98.6401098
9.209                0.984552711     -98.8113906
9.21                  0.98451652     -98.9830975
9.211                0.984480261     -99.1552314
9.212                0.984443934     -99.3277932
9.213                 0.98440754     -99.5007837
9.214                0.984371078     -99.6742038
9.215                 0.98433455     -99.8480544
9.216                0.984297955     -100.022336
9.217                0.984261293      -100.19705
9.218                0.984224566     -100.372197
9.219                0.984187774     -100.547778
9.22                 0.984150917     -100.723793
9.221                0.984113995     -100.900244
9.222                0.984077008     -101.077131
9.223                0.984039958     -101.254455
9.224                0.984002845     -101.432217
9.225                0.983965668     -101.610417
9.226                0.983928428     -101.789058
9.227                0.983891127     -101.968138
9.228                0.983853763      -102.14766
9.229                0.983816338     -102.327623
9.23                 0.983778852     -102.508029
9.231                0.983741306     -102.688879
9.232                  0.9837037     -102.870173
9.233                0.983666034     -103.051911
9.234                0.983628309     -103.234096
9.235                0.983590525     -103.416727
9.236                0.983552683     -103.599806
9.237                0.983514784     -103.783332
9.238                0.983476827     -103.967307
9.239                0.983438814     -104.151732
9.24                 0.983400744     -104.336607
9.241                0.983362619     -104.521933
9.242                0.983324439     -104.707711
9.243                0.983286204     -104.893942
9.244                0.983247916     -105.080625
9.245                0.983209574     -105.267762
9.246                0.983171179     -105.455354
9.247                0.983132732     -105.643401
9.248                0.983094233     -105.831904
9.249                0.983055682     -106.020864
9.25                 0.983017082     -106.210281
9.251                0.982978431     -106.400156
9.252                0.982939731      -106.59049
9.253                0.982900983     -106.781283
9.254                0.982862186     -106.972535
9.255                0.982823342     -107.164249
9.256                0.982784451     -107.356424
9.257                0.982745514      -107.54906
9.258                0.982706532     -107.742159
9.259                0.982667504     -107.935721
9.26                 0.982628433     -108.129747
9.261                0.982589318     -108.324237
9.262                 0.98255016     -108.519192
9.263                0.982510961     -108.714613
9.264                 0.98247172     -108.910499
9.265                0.982432438     -109.106852
9.266                0.982393117     -109.303673
9.267                0.982353756     -109.500961
9.268                0.982314357     -109.698717
9.269                0.982274921     -109.896942
9.27                 0.982235448     -110.095636
9.271                0.982195938     -110.294801
9.272                0.982156394     -110.494435
9.273                0.982116815     -110.694541
9.274                0.982077202     -110.895118
9.275                0.982037556     -111.096166
9.276                0.981997879     -111.297687
9.277                 0.98195817     -111.499681
9.278                0.981918431     -111.702148
9.279                0.981878662     -111.905089
9.28                 0.981838865     -112.108504
9.281                 0.98179904     -112.312393
9.282                0.981759188     -112.516757
9.283                 0.98171931     -112.721597
9.284                0.981679407     -112.926912
9.285                 0.98163948     -113.132704
9.286                 0.98159953     -113.338972
9.287                0.981559557     -113.545717
9.288                0.981519563     -113.752939
9.289                0.981479549     -113.960639
9.29                 0.981439515     -114.168817
9.291                0.981399463     -114.377473
9.292                0.981359393     -114.586607
9.293                0.981319307      -114.79622
9.294                0.981279205     -115.006313
9.295                0.981239089     -115.216885
9.296                0.981198959     -115.427937
9.297                0.981158817     -115.639468
9.298                0.981118663      -115.85148
9.299                0.981078499     -116.063972
9.3                  0.981038326     -116.276945
9.301                0.980998144     -116.490399
9.302                0.980957956     -116.704333
9.303                0.980917761     -116.918749
9.304                0.980877561     -117.133647
9.305                0.980837358     -117.349026
9.306                0.980797151     -117.564887
9.307                0.980756944     -117.781229
9.308                0.980716735     -117.998054
9.309                0.980676528      -118.21536
9.31                 0.980636322     -118.433149
9.311                0.980596119      -118.65142
9.312                0.980555921     -118.870173
9.313                0.980515728     -119.089409
9.314                0.980475542     -119.309127
9.315                0.980435363     -119.529327
9.316                0.980395194      -119.75001
9.317                0.980355034     -119.971176
9.318                0.980314887     -120.192824
9.319                0.980274752     -120.414954
9.32                 0.980234631     -120.637566
9.321                0.980194526     -120.860661
9.322                0.980154437     -121.084238
9.323                0.980114366     -121.308298
9.324                0.980074314     -121.532839
9.325                0.980034283     -121.757862
9.326                0.979994273     -121.983367
9.327                0.979954287     -122.209354
9.328                0.979914325     -122.435822
9.329                 0.97987439     -122.662771
9.33                 0.979834481     -122.890202
9.331                0.979794601     -123.118113
9.332                0.979754751     -123.346505
9.333                0.979714933     -123.575378
9.334                0.979675147      -123.80473
9.335                0.979635396     -124.034563
9.336                 0.97959568     -124.264875
9.337                0.979556001     -124.495666
9.338                0.979516361     -124.726936
9.339                 0.97947676     -124.958685
9.34                 0.979437201     -125.190912
9.341                0.979397685     -125.423617
9.342                0.979358214       -125.6568
9.343                0.979318788      -125.89046
9.344                 0.97927941     -126.124596
9.345                 0.97924008     -126.359208
9.346                0.979200801     -126.594297
9.347                0.979161574      -126.82986
9.348                0.979122401     -127.065898
9.349                0.979083282     -127.302411
9.35                  0.97904422     -127.539397
9.351                0.979005216     -127.776857
9.352                0.978966272     -128.014789
9.353                0.978927389     -128.253193
9.354                0.978888569     -128.492068
9.355                0.978849813     -128.731414
9.356                0.978811124     -128.971231
9.357                0.978772502     -129.211516
9.358                0.978733949     -129.452271
9.359                0.978695468     -129.693494
9.36                 0.978657059     -129.935184
9.361                0.978618724     -130.177341
9.362                0.978580465     -130.419963
9.363                0.978542284     -130.663051
9.364                0.978504182     -130.906603
9.365                 0.97846616     -131.150619
9.366                0.978428222     -131.395097
9.367                0.978390367     -131.640037
9.368                0.978352599     -131.885438
9.369                0.978314918     -132.131298
9.37                 0.978277327     -132.377618
9.371                0.978239827     -132.624397
9.372                 0.97820242     -132.871632
9.373                0.978165107     -133.119324
9.374                0.978127891     -133.367471
9.375                0.978090773     -133.616072
9.376                0.978053755     -133.865126
9.377                0.978016838     -134.114632
9.378                0.977980024      -134.36459
9.379                0.977943316     -134.614997
9.38                 0.977906715     -134.865853
9.381                0.977870222     -135.117157
9.382                 0.97783384     -135.368908
9.383                0.977797571     -135.621104
9.384                0.977761415     -135.873743
9.385                0.977725375     -136.126826
9.386                0.977689453     -136.380351
9.387                0.977653651     -136.634315
9.388                 0.97761797     -136.888719
9.389                0.977582412     -137.143561
9.39                 0.977546979     -137.398839
9.391                0.977511673     -137.654552
9.392                0.977476496     -137.910699
9.393                0.977441449     -138.167278
9.394                0.977406535     -138.424288
9.395                0.977371755     -138.681728
9.396                0.977337111     -138.939595
