! TOUCHSTONE file generated by CST DESIGN STUDIO
! Date and time: Tue Feb  4 14:24:10 2025
! Project name: C:\Work\MatlabApps\UnitCellOptimizationMatlab\CST\unitcell.cst
! Tree item: Tasks\Sweep1\SPara1\S-Parameters
! Header version: 2024
! Port assignment regex: !\s*Touchstone port\s*([0-9]+)\s*=\s*(CST MWS port|CST DES external port|CST DES block port)\s*(.+)\s* \(\"(.*)\"\)(\s*mode\s*([0-9]+))?.*
! Touchstone port assignment:
! Touchstone port 1 = CST DES external port 1 ("")
# GHz S MA R 50
9                    0.989534038     -75.4342649
9.001                0.989509389     -75.5465408
9.002                0.989484666     -75.6590885
9.003                0.989459868     -75.7719087
9.004                0.989434997     -75.8850022
9.005                0.989410051     -75.9983699
9.006                0.989385031     -76.1120124
9.007                0.989359936     -76.2259307
9.008                0.989334766     -76.3401256
9.009                0.989309521     -76.4545978
9.01                   0.9892842     -76.5693481
9.011                0.989258805     -76.6843774
9.012                0.989233333     -76.7996865
9.013                0.989207786     -76.9152762
9.014                0.989182164     -77.0311473
9.015                0.989156465     -77.1473006
9.016                 0.98913069      -77.263737
9.017                0.989104839     -77.3804572
9.018                0.989078911     -77.4974622
9.019                0.989052906     -77.6147526
9.02                 0.989026825     -77.7323294
9.021                0.989000667     -77.8501934
9.022                0.988974431     -77.9683454
9.023                0.988948119     -78.0867863
9.024                0.988921729     -78.2055168
9.025                0.988895261     -78.3245379
9.026                0.988868716     -78.4438502
9.027                0.988842093     -78.5634548
9.028                0.988815392     -78.6833524
9.029                0.988788612     -78.8035439
9.03                 0.988761755     -78.9240302
9.031                0.988734819     -79.0448119
9.032                0.988707804     -79.1658901
9.033                0.988680711     -79.2872656
9.034                0.988653538     -79.4089392
9.035                0.988626287     -79.5309118
9.036                0.988598956     -79.6531841
9.037                0.988571547     -79.7757572
9.038                0.988544057     -79.8986318
9.039                0.988516488     -80.0218088
9.04                  0.98848884     -80.1452891
9.041                0.988461112     -80.2690735
9.042                0.988433303     -80.3931629
9.043                0.988405415     -80.5175581
9.044                0.988377446     -80.6422601
9.045                0.988349397     -80.7672697
9.046                0.988321267     -80.8925877
9.047                0.988293057      -81.018215
9.048                0.988264766     -81.1441526
9.049                0.988236394     -81.2704012
9.05                 0.988207941     -81.3969618
9.051                0.988179407     -81.5238353
9.052                0.988150792     -81.6510225
9.053                0.988122095     -81.7785242
9.054                0.988093317     -81.9063414
9.055                0.988064457      -82.034475
9.056                0.988035516     -82.1629259
9.057                0.988006492     -82.2916949
9.058                0.987977387     -82.4207829
9.059                  0.9879482     -82.5501908
9.06                  0.98791893     -82.6799195
9.061                0.987889578     -82.8099699
9.062                0.987860144     -82.9403429
9.063                0.987830627     -83.0710394
9.064                0.987801028     -83.2020602
9.065                0.987771346     -83.3334063
9.066                0.987741582     -83.4650786
9.067                0.987711734      -83.597078
9.068                0.987681803     -83.7294053
9.069                 0.98765179     -83.8620615
9.07                 0.987621693     -83.9950474
9.071                0.987591513     -84.1283641
9.072                 0.98756125     -84.2620123
9.073                0.987530903     -84.3959929
9.074                0.987500473      -84.530307
9.075                0.987469959     -84.6649554
9.076                0.987439361      -84.799939
9.077                 0.98740868     -84.9352587
9.078                0.987377915     -85.0709154
9.079                0.987347066       -85.20691
9.08                 0.987316133     -85.3432436
9.081                0.987285116     -85.4799168
9.082                0.987254015     -85.6169308
9.083                 0.98722283     -85.7542863
9.084                 0.98719156     -85.8919843
9.085                0.987160207     -86.0300258
9.086                0.987128769     -86.1684116
9.087                0.987097246     -86.3071426
9.088                 0.98706564     -86.4462199
9.089                0.987033948     -86.5856442
9.09                 0.987002172     -86.7254165
9.091                0.986970312     -86.8655378
9.092                0.986938367     -87.0060089
9.093                0.986906337     -87.1468308
9.094                0.986874223     -87.2880044
9.095                0.986842023     -87.4295307
9.096                 0.98680974     -87.5714104
9.097                0.986777371     -87.7136447
9.098                0.986744917     -87.8562343
9.099                0.986712379     -87.9991803
9.1                  0.986679756     -88.1424835
9.101                0.986647048     -88.2861448
9.102                0.986614255     -88.4301653
9.103                0.986581377     -88.5745457
9.104                0.986548414     -88.7192871
9.105                0.986515366     -88.8643904
9.106                0.986482233     -89.0098565
9.107                0.986449016     -89.1556863
9.108                0.986415714     -89.3018808
9.109                0.986382326     -89.4484408
9.11                 0.986348854     -89.5953673
9.111                0.986315297     -89.7426613
9.112                0.986281655     -89.8903236
9.113                0.986247928     -90.0383552
9.114                0.986214116      -90.186757
9.115                 0.98618022     -90.3355299
9.116                0.986146239     -90.4846749
9.117                0.986112173     -90.6341928
9.118                0.986078022     -90.7840847
9.119                0.986043787     -90.9343515
9.12                 0.986009468     -91.0849939
9.121                0.985975063     -91.2360131
9.122                0.985940574     -91.3874099
9.123                0.985906001     -91.5391852
9.124                0.985871344       -91.69134
9.125                0.985836602     -91.8438751
9.126                0.985801776     -91.9967916
9.127                0.985766865     -92.1500902
9.128                0.985731871      -92.303772
9.129                0.985696793     -92.4578379
9.13                  0.98566163     -92.6122888
9.131                0.985626384     -92.7671255
9.132                0.985591055     -92.9223491
9.133                0.985555641     -93.0779604
9.134                0.985520144     -93.2339603
9.135                0.985484564     -93.3903499
9.136                  0.9854489     -93.5471298
9.137                0.985413153     -93.7043012
9.138                0.985377323     -93.8618649
9.139                 0.98534141     -94.0198218
9.14                 0.985305414     -94.1781728
9.141                0.985269336     -94.3369189
9.142                0.985233175     -94.4960608
9.143                0.985196932     -94.6555996
9.144                0.985160606     -94.8155362
9.145                0.985124198     -94.9758714
9.146                0.985087709     -95.1366061
9.147                0.985051137     -95.2977413
9.148                0.985014484     -95.4592778
9.149                 0.98497775     -95.6212166
9.15                 0.984940934     -95.7835585
9.151                0.984904037     -95.9463044
9.152                0.984867059     -96.1094552
9.153                0.984830001     -96.2730118
9.154                0.984792862     -96.4369751
9.155                0.984755643      -96.601346
9.156                0.984718344     -96.7661253
9.157                0.984680964     -96.9313139
9.158                0.984643506     -97.0969128
9.159                0.984605967     -97.2629227
9.16                  0.98456835     -97.4293446
9.161                0.984530654     -97.5961793
9.162                0.984492879     -97.7634277
9.163                0.984455025     -97.9310907
9.164                0.984417094      -98.099169
9.165                0.984379084     -98.2676637
9.166                0.984340997     -98.4365755
9.167                0.984302832     -98.6059053
9.168                 0.98426459     -98.7756539
9.169                0.984226272     -98.9458223
9.17                 0.984187877     -99.1164111
9.171                0.984149405     -99.2874214
9.172                0.984110858     -99.4588538
9.173                0.984072235     -99.6307093
9.174                0.984033537     -99.8029888
9.175                0.983994764     -99.9756929
9.176                0.983955916     -100.148823
9.177                0.983916994     -100.322379
9.178                0.983877998     -100.496362
9.179                0.983838928     -100.670773
9.18                 0.983799785     -100.845613
9.181                 0.98376057     -101.020883
9.182                0.983721281     -101.196583
9.183                0.983681921     -101.372714
9.184                0.983642489     -101.549277
9.185                0.983602985     -101.726274
9.186                 0.98356341     -101.903703
9.187                0.983523765     -102.081567
9.188                 0.98348405     -102.259867
9.189                0.983444265     -102.438602
9.19                 0.983404411     -102.617774
9.191                0.983364487     -102.797383
9.192                0.983324496     -102.977431
9.193                0.983284436     -103.157918
9.194                0.983244309     -103.338844
9.195                0.983204115     -103.520211
9.196                0.983163854     -103.702019
9.197                0.983123528     -103.884269
9.198                0.983083135     -104.066962
9.199                0.983042678     -104.250098
9.2                  0.983002156     -104.433679
9.201                0.982961569     -104.617704
9.202                 0.98292092     -104.802175
9.203                0.982880207     -104.987092
9.204                0.982839431     -105.172456
9.205                0.982798594     -105.358268
9.206                0.982757695     -105.544528
9.207                0.982716736     -105.731237
9.208                0.982675716     -105.918396
9.209                0.982634637     -106.106005
9.21                 0.982593498     -106.294065
9.211                0.982552301     -106.482577
9.212                0.982511046     -106.671542
9.213                0.982469733     -106.860959
9.214                0.982428364      -107.05083
9.215                0.982386939     -107.241155
9.216                0.982345459     -107.431935
9.217                0.982303924     -107.623171
9.218                0.982262334     -107.814863
9.219                0.982220691     -108.007011
9.22                 0.982178996     -108.199617
9.221                0.982137248     -108.392681
9.222                0.982095449     -108.586203
9.223                0.982053599     -108.780184
9.224                  0.9820117     -108.974625
9.225                0.981969751     -109.169526
9.226                0.981927753     -109.364888
9.227                0.981885708     -109.560711
9.228                0.981843615     -109.756996
9.229                0.981801477     -109.953743
9.23                 0.981759292     -110.150953
9.231                0.981717063     -110.348627
9.232                 0.98167479     -110.546764
9.233                0.981632474     -110.745366
9.234                0.981590116     -110.944432
9.235                0.981547716     -111.143964
9.236                0.981505275     -111.343962
9.237                0.981462795     -111.544425
9.238                0.981420275     -111.745356
9.239                0.981377717     -111.946754
9.24                 0.981335122     -112.148619
9.241                 0.98129249     -112.350952
9.242                0.981249823     -112.553754
9.243                0.981207121     -112.757024
9.244                0.981164386     -112.960763
9.245                0.981121617     -113.164973
9.246                0.981078817     -113.369652
9.247                0.981035985     -113.574801
9.248                0.980993124     -113.780421
9.249                0.980950233     -113.986512
9.25                 0.980907314     -114.193074
9.251                0.980864368     -114.400108
9.252                0.980821396     -114.607614
9.253                0.980778399     -114.815593
9.254                0.980735378     -115.024043
9.255                0.980692333     -115.232967
9.256                0.980649266     -115.442364
9.257                0.980606179     -115.652234
9.258                0.980563071     -115.862577
9.259                0.980519944     -116.073395
9.26                 0.980476799     -116.284686
9.261                0.980433638     -116.496452
9.262                 0.98039046     -116.708692
9.263                0.980347268     -116.921407
9.264                0.980304063     -117.134596
9.265                0.980260845     -117.348261
9.266                0.980217616     -117.562401
9.267                0.980174376     -117.777016
9.268                0.980131128     -117.992106
9.269                0.980087872     -118.207672
9.27                 0.980044609     -118.423713
9.271                0.980001341      -118.64023
9.272                0.979958068     -118.857223
9.273                0.979914793     -119.074692
9.274                0.979871516     -119.292636
9.275                0.979828238     -119.511057
9.276                 0.97978496     -119.729953
9.277                0.979741685     -119.949325
9.278                0.979698413     -120.169173
9.279                0.979655145     -120.389497
9.28                 0.979611883     -120.610297
9.281                0.979568628     -120.831573
9.282                0.979525381     -121.053324
9.283                0.979482144     -121.275551
9.284                0.979438918     -121.498254
9.285                0.979395704     -121.721432
9.286                0.979352503     -121.945086
9.287                0.979309318     -122.169214
9.288                0.979266149     -122.393818
9.289                0.979222998     -122.618896
9.29                 0.979179866      -122.84445
9.291                0.979136754     -123.070478
9.292                0.979093664      -123.29698
9.293                0.979050598     -123.523956
9.294                0.979007557     -123.751406
9.295                0.978964541     -123.979329
9.296                0.978921554     -124.207726
9.297                0.978878595     -124.436596
9.298                0.978835667     -124.665939
9.299                0.978792772     -124.895754
9.3                   0.97874991     -125.126041
9.301                0.978707083     -125.356799
9.302                0.978664292     -125.588029
9.303                 0.97862154      -125.81973
9.304                0.978578827     -126.051901
9.305                0.978536156     -126.284543
9.306                0.978493527     -126.517654
9.307                0.978450943     -126.751234
9.308                0.978408404     -126.985283
9.309                0.978365914     -127.219801
9.31                 0.978323472     -127.454786
9.311                0.978281081     -127.690238
9.312                0.978238742     -127.926157
9.313                0.978196457     -128.162542
9.314                0.978154227     -128.399392
9.315                0.978112055     -128.636707
9.316                0.978069942     -128.874487
9.317                0.978027889      -129.11273
9.318                0.977985898     -129.351437
9.319                0.977943971     -129.590605
9.32                  0.97790211     -129.830236
9.321                0.977860316     -130.070327
9.322                0.977818591     -130.310878
9.323                0.977776936     -130.551889
9.324                0.977735354     -130.793359
9.325                0.977693846     -131.035286
9.326                0.977652414     -131.277671
9.327                0.977611059     -131.520512
9.328                0.977569784     -131.763809
9.329                 0.97752859      -132.00756
9.33                 0.977487478     -132.251764
9.331                0.977446451     -132.496422
9.332                0.977405511     -132.741532
9.333                0.977364659     -132.987092
9.334                0.977323897     -133.233103
9.335                0.977283227     -133.479562
9.336                 0.97724265      -133.72647
9.337                0.977202169     -133.973824
9.338                0.977161785     -134.221625
9.339                  0.9771215      -134.46987
9.34                 0.977081317      -134.71856
9.341                0.977041236     -134.967692
9.342                0.977001259     -135.217265
9.343                 0.97696139     -135.467279
9.344                0.976921628     -135.717733
9.345                0.976881978     -135.968624
9.346                0.976842439     -136.219953
9.347                0.976803014     -136.471717
9.348                0.976763705     -136.723916
9.349                0.976724514     -136.976548
9.35                 0.976685443     -137.229612
9.351                0.976646493     -137.483106
9.352                0.976607667      -137.73703
9.353                0.976568967     -137.991382
9.354                0.976530394      -138.24616
9.355                 0.97649195     -138.501363
9.356                0.976453637      -138.75699
9.357                0.976415458      -139.01304
9.358                0.976377413      -139.26951
9.359                0.976339506       -139.5264
9.36                 0.976301738     -139.783708
9.361                0.976264111     -140.041432
9.362                0.976226627     -140.299571
9.363                0.976189287     -140.558123
9.364                0.976152094     -140.817086
9.365                0.976115051      -141.07646
9.366                0.976078157     -141.336243
9.367                0.976041417     -141.596432
9.368                0.976004831     -141.857026
9.369                0.975968402     -142.118024
9.37                 0.975932132     -142.379423
9.371                0.975896022     -142.641222
9.372                0.975860074      -142.90342
9.373                0.975824291     -143.166014
9.374                0.975788675     -143.429003
9.375                0.975753227     -143.692384
9.376                0.975717949     -143.956156
9.377                0.975682844     -144.220318
9.378                0.975647913     -144.484866
9.379                0.975613159       -144.7498
9.38                 0.975578583     -145.015118
9.381                0.975544187     -145.280816
9.382                0.975509973     -145.546895
9.383                0.975475944      -145.81335
9.384                0.975442101     -146.080181
9.385                0.975408446     -146.347385
9.386                0.975374981     -146.614961
9.387                0.975341708     -146.882906
9.388                0.975308629     -147.151217
9.389                0.975275746     -147.419894
9.39                 0.975243061     -147.688934
9.391                0.975210576     -147.958334
9.392                0.975178292     -148.228093
9.393                0.975146213     -148.498208
9.394                0.975114339     -148.768676
9.395                0.975082673     -149.039497
9.396                0.975051216     -149.310667
