! TOUCHSTONE file generated by CST DESIGN STUDIO
! Date and time: Tue Feb  4 15:51:19 2025
! Project name: C:\Work\MatlabApps\UnitCellOptimizationMatlab\CST\unitcell.cst
! Tree item: Tasks\Sweep1\SPara1\S-Parameters
! Header version: 2024
! Port assignment regex: !\s*Touchstone port\s*([0-9]+)\s*=\s*(CST MWS port|CST DES external port|CST DES block port)\s*(.+)\s* \(\"(.*)\"\)(\s*mode\s*([0-9]+))?.*
! Touchstone port assignment:
! Touchstone port 1 = CST DES external port 1 ("")
# GHz S MA R 50
9                    0.973038405     -62.7800308
9.001                 0.97288692     -62.8708292
9.002                0.972735108     -62.9618249
9.003                0.972582971     -63.0530187
9.004                0.972430509     -63.1444113
9.005                0.972277723     -63.2360034
9.006                0.972124615     -63.3277956
9.007                0.971971185     -63.4197887
9.008                0.971817435     -63.5119834
9.009                0.971663366     -63.6043804
9.01                 0.971508978     -63.6969805
9.011                0.971354274     -63.7897843
9.012                0.971199253     -63.8827926
9.013                0.971043918     -63.9760061
9.014                0.970888269     -64.0694255
9.015                0.970732307     -64.1630516
9.016                0.970576034     -64.2568851
9.017                 0.97041945     -64.3509267
9.018                0.970262556     -64.4451773
9.019                0.970105354     -64.5396375
9.02                 0.969947845     -64.6343081
9.021                 0.96979003     -64.7291898
9.022                0.969631909     -64.8242834
9.023                0.969473485     -64.9195897
9.024                0.969314757     -65.0151094
9.025                0.969155728     -65.1108433
9.026                0.968996397     -65.2067922
9.027                0.968836767     -65.3029568
9.028                0.968676838      -65.399338
9.029                0.968516612     -65.4959364
9.03                 0.968356089     -65.5927529
9.031                 0.96819527     -65.6897882
9.032                0.968034157     -65.7870433
9.033                0.967872751     -65.8845187
9.034                0.967711052     -65.9822154
9.035                0.967549062     -66.0801342
9.036                0.967386782     -66.1782758
9.037                0.967224212      -66.276641
9.038                0.967061355     -66.3752308
9.039                0.966898211     -66.4740458
9.04                  0.96673478     -66.5730869
9.041                0.966571065     -66.6723549
9.042                0.966407066     -66.7718506
9.043                0.966242784     -66.8715749
9.044                 0.96607822     -66.9715287
9.045                0.965913376     -67.0717126
9.046                0.965748252     -67.1721276
9.047                0.965582849     -67.2727746
9.048                0.965417169     -67.3736542
9.049                0.965251212     -67.4747675
9.05                  0.96508498     -67.5761153
9.051                0.964918474     -67.6776983
9.052                0.964751694     -67.7795175
9.053                0.964584642     -67.8815738
9.054                0.964417318     -67.9838679
9.055                0.964249724     -68.0864008
9.056                0.964081861     -68.1891733
9.057                 0.96391373     -68.2921863
9.058                0.963745331     -68.3954408
9.059                0.963576667     -68.4989375
9.06                 0.963407737     -68.6026773
9.061                0.963238544     -68.7066612
9.062                0.963069087       -68.81089
9.063                0.962899369     -68.9153646
9.064                0.962729389      -69.020086
9.065                 0.96255915     -69.1250551
9.066                0.962388651     -69.2302726
9.067                0.962217895     -69.3357396
9.068                0.962046882      -69.441457
9.069                0.961875613     -69.5474257
9.07                 0.961704089     -69.6536465
9.071                0.961532312     -69.7601205
9.072                0.961360282     -69.8668486
9.073                   0.961188     -69.9738316
9.074                0.961015468     -70.0810706
9.075                0.960842686     -70.1885664
9.076                0.960669655     -70.2963201
9.077                0.960496376     -70.4043324
9.078                0.960322852     -70.5126045
9.079                0.960149081     -70.6211373
9.08                 0.959975066     -70.7299316
9.081                0.959800807     -70.8389885
9.082                0.959626306      -70.948309
9.083                0.959451564     -71.0578939
9.084                0.959276581     -71.1677443
9.085                0.959101359     -71.2778612
9.086                0.958925898     -71.3882454
9.087                  0.9587502     -71.4988981
9.088                0.958574265     -71.6098202
9.089                0.958398095     -71.7210126
9.09                 0.958221691     -71.8324765
9.091                0.958045054     -71.9442126
9.092                0.957868184     -72.0562222
9.093                0.957691083     -72.1685061
9.094                0.957513752     -72.2810654
9.095                0.957336191      -72.393901
9.096                0.957158403     -72.5070141
9.097                0.956980387     -72.6204056
9.098                0.956802145     -72.7340765
9.099                0.956623678     -72.8480279
9.1                  0.956444987     -72.9622608
9.101                0.956266073     -73.0767762
9.102                0.956086937     -73.1915751
9.103                 0.95590758     -73.3066587
9.104                0.955728003     -73.4220279
9.105                0.955548207     -73.5376837
9.106                0.955368193     -73.6536273
9.107                0.955187962     -73.7698597
9.108                0.955007516      -73.886382
9.109                0.954826854     -74.0031951
9.11                 0.954645979     -74.1203002
9.111                0.954464892     -74.2376984
9.112                0.954283592     -74.3553907
9.113                0.954102082     -74.4733781
9.114                0.953920363     -74.5916618
9.115                0.953738435     -74.7102429
9.116                0.953556299     -74.8291224
9.117                0.953373957     -74.9483014
9.118                 0.95319141     -75.0677811
9.119                0.953008658     -75.1875624
9.12                 0.952825703     -75.3076466
9.121                0.952642546     -75.4280347
9.122                0.952459188     -75.5487278
9.123                 0.95227563     -75.6697271
9.124                0.952091872     -75.7910336
9.125                0.951907917     -75.9126484
9.126                0.951723765     -76.0345728
9.127                0.951539417     -76.1568078
9.128                0.951354875     -76.2793545
9.129                0.951170139     -76.4022141
9.13                  0.95098521     -76.5253877
9.131                 0.95080009     -76.6488765
9.132                 0.95061478     -76.7726816
9.133                 0.95042928     -76.8968041
9.134                0.950243592     -77.0212452
9.135                0.950057717     -77.1460061
9.136                0.949871656     -77.2710878
9.137                0.949685411     -77.3964917
9.138                0.949498981     -77.5222187
9.139                0.949312369     -77.6482702
9.14                 0.949125576     -77.7746473
9.141                0.948938602      -77.901351
9.142                0.948751449     -78.0283828
9.143                0.948564118     -78.1557436
9.144                 0.94837661     -78.2834347
9.145                0.948188926     -78.4114573
9.146                0.948001067     -78.5398126
9.147                0.947813035     -78.6685017
9.148                0.947624831     -78.7975259
9.149                0.947436455     -78.9268864
9.15                  0.94724791     -79.0565844
9.151                0.947059195     -79.1866211
9.152                0.946870313     -79.3169976
9.153                0.946681265     -79.4477153
9.154                0.946492051     -79.5787753
9.155                0.946302674     -79.7101789
9.156                0.946113133     -79.8419272
9.157                0.945923431     -79.9740216
9.158                0.945733568     -80.1064632
9.159                0.945543546     -80.2392533
9.16                 0.945353366     -80.3723931
9.161                 0.94516303     -80.5058839
9.162                0.944972538      -80.639727
9.163                0.944781892     -80.7739234
9.164                0.944591092     -80.9084746
9.165                0.944400141     -81.0433818
9.166                 0.94420904     -81.1786462
9.167                 0.94401779     -81.3142691
9.168                0.943826391     -81.4502517
9.169                0.943634846     -81.5865954
9.17                 0.943443156     -81.7233014
9.171                0.943251322     -81.8603709
9.172                0.943059345     -81.9978053
9.173                0.942867227     -82.1356059
9.174                0.942674969     -82.2737738
9.175                0.942482572     -82.4123105
9.176                0.942290039     -82.5512171
9.177                0.942097369     -82.6904951
9.178                0.941904564     -82.8301456
9.179                0.941711627       -82.97017
9.18                 0.941518558     -83.1105696
9.181                0.941325358     -83.2513457
9.182                 0.94113203     -83.3924996
9.183                0.940938574     -83.5340326
9.184                0.940744992      -83.675946
9.185                0.940551286     -83.8182412
9.186                0.940357456     -83.9609194
9.187                0.940163504      -84.103982
9.188                0.939969433     -84.2474304
9.189                0.939775242     -84.3912657
9.19                 0.939580935     -84.5354894
9.191                0.939386511     -84.6801028
9.192                0.939191974     -84.8251073
9.193                0.938997323     -84.9705041
9.194                0.938802562     -85.1162946
9.195                0.938607691     -85.2624802
9.196                0.938412712     -85.4090622
9.197                0.938217627      -85.556042
9.198                0.938022436     -85.7034208
9.199                0.937827143     -85.8512001
9.2                  0.937631748     -85.9993812
9.201                0.937436253     -86.1479655
9.202                0.937240659     -86.2969543
9.203                0.937044969      -86.446349
9.204                0.936849184      -86.596151
9.205                0.936653306     -86.7463616
9.206                0.936457336     -86.8969822
9.207                0.936261276     -87.0480141
9.208                0.936065128     -87.1994588
9.209                0.935868894     -87.3513176
9.21                 0.935672575     -87.5035919
9.211                0.935476173     -87.6562831
9.212                 0.93527969     -87.8093925
9.213                0.935083127     -87.9629216
9.214                0.934886488     -88.1168717
9.215                0.934689772     -88.2712442
9.216                0.934492983     -88.4260405
9.217                0.934296122      -88.581262
9.218                0.934099191     -88.7369101
9.219                0.933902191     -88.8929861
9.22                 0.933705126     -89.0494916
9.221                0.933507996     -89.2064278
9.222                0.933310804     -89.3637962
9.223                0.933113552     -89.5215981
9.224                0.932916242      -89.679835
9.225                0.932718875     -89.8385084
9.226                0.932521453     -89.9976195
9.227                 0.93232398     -90.1571697
9.228                0.932126456     -90.3171606
9.229                0.931928884     -90.4775935
9.23                 0.931731266     -90.6384698
9.231                0.931533604     -90.7997909
9.232                0.931335901     -90.9615583
9.233                0.931138158     -91.1237733
9.234                0.930940377     -91.2864373
9.235                0.930742561     -91.4495519
9.236                0.930544713     -91.6131183
9.237                0.930346833     -91.7771381
9.238                0.930148925     -91.9416125
9.239                0.929950991     -92.1065431
9.24                 0.929753033     -92.2719313
9.241                0.929555053     -92.4377784
9.242                0.929357054     -92.6040859
9.243                0.929159038     -92.7708552
9.244                0.928961008     -92.9380878
9.245                0.928762965      -93.105785
9.246                0.928564913     -93.2739483
9.247                0.928366854      -93.442579
9.248                 0.92816879     -93.6116787
9.249                0.927970724     -93.7812487
9.25                 0.927772658     -93.9512904
9.251                0.927574595     -94.1218053
9.252                0.927376537     -94.2927948
9.253                0.927178488     -94.4642602
9.254                0.926980449     -94.6362031
9.255                0.926782424     -94.8086248
9.256                0.926584414     -94.9815267
9.257                0.926386424     -95.1549104
9.258                0.926188455      -95.328777
9.259                 0.92599051     -95.5031282
9.26                 0.925792592     -95.6779653
9.261                0.925594703     -95.8532897
9.262                0.925396848     -96.0291028
9.263                0.925199027      -96.205406
9.264                0.925001245     -96.3822008
9.265                0.924803505     -96.5594886
9.266                0.924605808     -96.7372707
9.267                0.924408159     -96.9155485
9.268                 0.92421056     -97.0943235
9.269                0.924013014      -97.273597
9.27                 0.923815524     -97.4533706
9.271                0.923618094     -97.6336454
9.272                0.923420725      -97.814423
9.273                0.923223423     -97.9957048
9.274                0.923026189      -98.177492
9.275                0.922829027     -98.3597862
9.276                 0.92263194     -98.5425887
9.277                0.922434932     -98.7259009
9.278                0.922238005     -98.9097241
9.279                0.922041163     -99.0940598
9.28                 0.921844409     -99.2789092
9.281                0.921647747     -99.4642739
9.282                 0.92145118     -99.6501551
9.283                0.921254712     -99.8365542
9.284                0.921058346     -100.023473
9.285                0.920862085     -100.210912
9.286                0.920665933     -100.398873
9.287                0.920469894     -100.587357
9.288                0.920273971     -100.776366
9.289                0.920078168     -100.965901
9.29                 0.919882488     -101.155963
9.291                0.919686935     -101.346555
9.292                0.919491514     -101.537676
9.293                0.919296227     -101.729328
9.294                0.919101078     -101.921513
9.295                0.918906072     -102.114232
9.296                0.918711212     -102.307487
9.297                0.918516502     -102.501278
9.298                0.918321945     -102.695607
9.299                0.918127547     -102.890475
9.3                  0.917933311     -103.085884
9.301                0.917739241     -103.281834
9.302                0.917545341     -103.478328
9.303                0.917351615     -103.675366
9.304                0.917158067     -103.872949
9.305                0.916964702      -104.07108
9.306                0.916771523     -104.269758
9.307                0.916578536     -104.468986
9.308                0.916385743     -104.668764
9.309                0.916193151     -104.869095
9.31                 0.916000762     -105.069978
9.311                0.915808581     -105.271416
9.312                0.915616614     -105.473409
9.313                0.915424863     -105.675959
9.314                0.915233334     -105.879067
9.315                0.915042032     -106.082734
9.316                 0.91485096     -106.286961
9.317                0.914660124      -106.49175
9.318                0.914469528     -106.697101
9.319                0.914279177     -106.903017
9.32                 0.914089075     -107.109497
9.321                0.913899228     -107.316543
9.322                 0.91370964     -107.524157
9.323                0.913520316     -107.732339
9.324                0.913331261      -107.94109
9.325                 0.91314248     -108.150413
9.326                0.912953978     -108.360306
9.327                0.912765759     -108.570773
9.328                0.912577829     -108.781814
9.329                0.912390194     -108.993429
9.33                 0.912202857      -109.20562
9.331                0.912015825     -109.418389
9.332                0.911829102     -109.631736
9.333                0.911642694     -109.845661
9.334                0.911456606     -110.060167
9.335                0.911270843     -110.275254
9.336                0.911085411     -110.490924
9.337                0.910900315     -110.707176
9.338                0.910715561     -110.924013
9.339                0.910531153     -111.141434
9.34                 0.910347098     -111.359442
9.341                0.910163401     -111.578036
9.342                0.909980068     -111.797219
9.343                0.909797105      -112.01699
9.344                0.909614516     -112.237351
9.345                0.909432308     -112.458302
9.346                0.909250487     -112.679845
9.347                0.909069058     -112.901981
9.348                0.908888028     -113.124709
9.349                0.908707401     -113.348031
9.35                 0.908527184     -113.571949
9.351                0.908347384     -113.796462
9.352                0.908168005     -114.021571
9.353                0.907989055     -114.247277
9.354                0.907810538     -114.473582
9.355                0.907632462     -114.700485
9.356                0.907454832     -114.927988
9.357                0.907277655      -115.15609
9.358                0.907100937     -115.384794
9.359                0.906924684     -115.614099
9.36                 0.906748902     -115.844006
9.361                0.906573598     -116.074517
9.362                0.906398779      -116.30563
9.363                 0.90622445     -116.537348
9.364                0.906050618     -116.769671
9.365                 0.90587729     -117.002598
9.366                0.905704473     -117.236132
9.367                0.905532172     -117.470272
9.368                0.905360394     -117.705019
9.369                0.905189147     -117.940373
9.37                 0.905018437     -118.176336
9.371                 0.90484827     -118.412907
9.372                0.904678654     -118.650086
9.373                0.904509594     -118.887875
9.374                0.904341099     -119.126274
9.375                0.904173175     -119.365283
9.376                0.904005829     -119.604903
9.377                0.903839068     -119.845133
9.378                0.903672898     -120.085975
9.379                0.903507327     -120.327428
9.38                 0.903342363     -120.569493
9.381                0.903178011      -120.81217
9.382                 0.90301428     -121.055459
9.383                0.902851176     -121.299362
9.384                0.902688707     -121.543877
9.385                0.902526879     -121.789005
9.386                0.902365701     -122.034746
9.387                0.902205179       -122.2811
9.388                0.902045321     -122.528069
9.389                0.901886134      -122.77565
9.39                 0.901727626     -123.023846
9.391                0.901569804     -123.272655
9.392                0.901412675     -123.522077
9.393                0.901256247     -123.772114
9.394                0.901100527     -124.022764
9.395                0.900945524     -124.274028
9.396                0.900791244     -124.525906
