! TOUCHSTONE file generated by CST DESIGN STUDIO
! Date and time: Tue Feb  4 15:51:10 2025
! Project name: C:\Work\MatlabApps\UnitCellOptimizationMatlab\CST\unitcell.cst
! Tree item: Tasks\Sweep1\SPara1\S-Parameters
! Header version: 2024
! Port assignment regex: !\s*Touchstone port\s*([0-9]+)\s*=\s*(CST MWS port|CST DES external port|CST DES block port)\s*(.+)\s* \(\"(.*)\"\)(\s*mode\s*([0-9]+))?.*
! Touchstone port assignment:
! Touchstone port 1 = CST DES external port 1 ("")
# GHz S MA R 50
9                    0.972809932     -84.1903445
9.001                0.972572306     -84.3392793
9.002                0.972333696     -84.4885825
9.003                0.972094104      -84.638255
9.004                0.971853531     -84.7882979
9.005                0.971611978     -84.9387122
9.006                0.971369448     -85.0894989
9.007                0.971125943     -85.2406591
9.008                0.970881463     -85.3921938
9.009                0.970636011     -85.5441041
9.01                 0.970389589     -85.6963909
9.011                0.970142199     -85.8490553
9.012                0.969893842     -86.0020983
9.013                0.969644521     -86.1555211
9.014                0.969394237     -86.3093245
9.015                0.969142993     -86.4635098
9.016                0.968890791     -86.6180779
9.017                0.968637633     -86.7730299
9.018                 0.96838352     -86.9283669
9.019                0.968128457     -87.0840898
9.02                 0.967872443     -87.2401998
9.021                0.967615483     -87.3966979
9.022                0.967357578     -87.5535852
9.023                0.967098731     -87.7108627
9.024                0.966838943     -87.8685316
9.025                0.966578218     -88.0265928
9.026                0.966316558     -88.1850475
9.027                0.966053966     -88.3438966
9.028                0.965790444     -88.5031414
9.029                0.965525995     -88.6627829
9.03                 0.965260621      -88.822822
9.031                0.964994325     -88.9832601
9.032                0.964727111      -89.144098
9.033                 0.96445898     -89.3053368
9.034                0.964189936     -89.4669778
9.035                0.963919981     -89.6290219
9.036                0.963649119     -89.7914702
9.037                0.963377353     -89.9543239
9.038                0.963104684      -90.117584
9.039                0.962831118     -90.2812516
9.04                 0.962556656     -90.4453277
9.041                0.962281302     -90.6098136
9.042                0.962005059     -90.7747102
9.043                0.961727931     -90.9400188
9.044                 0.96144992     -91.1057403
9.045                 0.96117103     -91.2718758
9.046                0.960891265     -91.4384266
9.047                0.960610627     -91.6053936
9.048                0.960329121      -91.772778
9.049                0.960046749     -91.9405808
9.05                 0.959763516     -92.1088033
9.051                0.959479425     -92.2774464
9.052                 0.95919448     -92.4465113
9.053                0.958908685     -92.6159991
9.054                0.958622042     -92.7859109
9.055                0.958334557     -92.9562478
9.056                0.958046233     -93.1270109
9.057                0.957757074     -93.2982014
9.058                0.957467083     -93.4698202
9.059                0.957176266     -93.6418687
9.06                 0.956884625     -93.8143477
9.061                0.956592166     -93.9872585
9.062                0.956298892     -94.1606022
9.063                0.956004807     -94.3343799
9.064                0.955709916     -94.5085926
9.065                0.955414224     -94.6832416
9.066                0.955117734     -94.8583278
9.067                0.954820451     -95.0338525
9.068                0.954522379     -95.2098167
9.069                0.954223523     -95.3862216
9.07                 0.953923888     -95.5630682
9.071                0.953623478     -95.7403576
9.072                0.953322298     -95.9180911
9.073                0.953020353     -96.0962696
9.074                0.952717648     -96.2748943
9.075                0.952414186     -96.4539664
9.076                0.952109974     -96.6334868
9.077                0.951805017     -96.8134567
9.078                0.951499318     -96.9938773
9.079                0.951192884     -97.1747496
9.08                  0.95088572     -97.3560747
9.081                 0.95057783     -97.5378538
9.082                 0.95026922     -97.7200879
9.083                0.949959895     -97.9027782
9.084                0.949649861     -98.0859257
9.085                0.949339124     -98.2695315
9.086                0.949027687     -98.4535968
9.087                0.948715558     -98.6381226
9.088                0.948402742     -98.8231101
9.089                0.948089243     -99.0085603
9.09                 0.947775069     -99.1944743
9.091                0.947460225     -99.3808532
9.092                0.947144716     -99.5676981
9.093                0.946828549     -99.7550101
9.094                0.946511729     -99.9427903
9.095                0.946194263      -100.13104
9.096                0.945876157     -100.319759
9.097                0.945557416     -100.508951
9.098                0.945238047     -100.698614
9.099                0.944918056     -100.888752
9.1                  0.944597449     -101.079363
9.101                0.944276234     -101.270451
9.102                0.943954416     -101.462015
9.103                0.943632001     -101.654057
9.104                0.943308997     -101.846579
9.105                0.942985409      -102.03958
9.106                0.942661246     -102.233062
9.107                0.942336513     -102.427026
9.108                0.942011216     -102.621473
9.109                0.941685364     -102.816404
9.11                 0.941358963     -103.011821
9.111                 0.94103202     -103.207723
9.112                0.940704542     -103.404113
9.113                0.940376537     -103.600992
9.114                 0.94004801     -103.798359
9.115                0.939718971     -103.996217
9.116                0.939389425     -104.194566
9.117                0.939059381     -104.393408
9.118                0.938728845     -104.592743
9.119                0.938397826     -104.792572
9.12                 0.938066331     -104.992897
9.121                0.937734368     -105.193718
9.122                0.937401943     -105.395036
9.123                0.937069066     -105.596853
9.124                0.936735744     -105.799169
9.125                0.936401985     -106.001986
9.126                0.936067797     -106.205303
9.127                0.935733188     -106.409123
9.128                0.935398165     -106.613446
9.129                0.935062739     -106.818273
9.13                 0.934726915     -107.023606
9.131                0.934390704     -107.229444
9.132                0.934054113     -107.435789
9.133                 0.93371715     -107.642642
9.134                0.933379825     -107.850004
9.135                0.933042146     -108.057876
9.136                0.932704121     -108.266258
9.137                 0.93236576     -108.475152
9.138                 0.93202707     -108.684558
9.139                0.931688062     -108.894478
9.14                 0.931348744     -109.104912
9.141                0.931009125     -109.315861
9.142                0.930669214     -109.527325
9.143                 0.93032902     -109.739307
9.144                0.929988553     -109.951806
9.145                0.929647821     -110.164824
9.146                0.929306835     -110.378361
9.147                0.928965603     -110.592418
9.148                0.928624136     -110.806996
9.149                0.928282442     -111.022095
9.15                 0.927940532     -111.237718
9.151                0.927598415     -111.453863
9.152                0.927256101     -111.670533
9.153                  0.9269136     -111.887728
9.154                0.926570921     -112.105448
9.155                0.926228076     -112.323695
9.156                0.925885073     -112.542469
9.157                0.925541923     -112.761771
9.158                0.925198637     -112.981602
9.159                0.924855224     -113.201962
9.16                 0.924511696     -113.422852
9.161                0.924168062     -113.644272
9.162                0.923824332     -113.866224
9.163                0.923480519     -114.088708
9.164                0.923136631     -114.311725
9.165                0.922792681     -114.535276
9.166                0.922448678      -114.75936
9.167                0.922104634     -114.983979
9.168                 0.92176056     -115.209133
9.169                0.921416466     -115.434824
9.17                 0.921072364      -115.66105
9.171                0.920728264     -115.887814
9.172                0.920384179     -116.115115
9.173                 0.92004012     -116.342955
9.174                0.919696097     -116.571333
9.175                0.919352123     -116.800251
9.176                0.919008208     -117.029708
9.177                0.918664364     -117.259706
9.178                0.918320604     -117.490244
9.179                0.917976939     -117.721323
9.18                  0.91763338     -117.952945
9.181                0.917289939     -118.185108
9.182                0.916946629     -118.417814
9.183                0.916603461     -118.651063
9.184                0.916260448     -118.884855
9.185                0.915917602     -119.119191
9.186                0.915574934     -119.354072
9.187                0.915232457     -119.589496
9.188                0.914890184     -119.825466
9.189                0.914548127     -120.061981
9.19                 0.914206298     -120.299041
9.191                 0.91386471     -120.536647
9.192                0.913523376       -120.7748
9.193                0.913182308     -121.013498
9.194                0.912841519     -121.252743
9.195                0.912501022     -121.492535
9.196                0.912160829     -121.732874
9.197                0.911820954     -121.973761
9.198                 0.91148141     -122.215194
9.199                 0.91114221     -122.457176
9.2                  0.910803367     -122.699705
9.201                0.910464894     -122.942781
9.202                0.910126804     -123.186406
9.203                0.909789111     -123.430579
9.204                0.909451828       -123.6753
9.205                0.909114968     -123.920569
9.206                0.908778546     -124.166387
9.207                0.908442575     -124.412752
9.208                0.908107067     -124.659666
9.209                0.907772038     -124.907128
9.21                 0.907437501     -125.155138
9.211                0.907103469     -125.403696
9.212                0.906769956     -125.652802
9.213                0.906436977     -125.902457
9.214                0.906104545     -126.152658
9.215                0.905772675     -126.403408
9.216                 0.90544138     -126.654705
9.217                0.905110675     -126.906549
9.218                0.904780573     -127.158941
9.219                 0.90445109     -127.411879
9.22                 0.904122239     -127.665364
9.221                0.903794034     -127.919395
9.222                0.903466491     -128.173972
9.223                0.903139623     -128.429095
9.224                0.902813445     -128.684763
9.225                0.902487972     -128.940976
9.226                0.902163218     -129.197734
9.227                0.901839198     -129.455036
9.228                0.901515926     -129.712882
9.229                0.901193418     -129.971271
9.23                 0.900871687     -130.230203
9.231                 0.90055075     -130.489677
9.232                0.900230619     -130.749693
9.233                0.899911312      -131.01025
9.234                0.899592842     -131.271348
9.235                0.899275224     -131.532986
9.236                0.898958473     -131.795164
9.237                0.898642605      -132.05788
9.238                0.898327634     -132.321135
9.239                0.898013576     -132.584926
9.24                 0.897700446     -132.849255
9.241                0.897388259      -133.11412
9.242                0.897077029     -133.379519
9.243                0.896766773     -133.645453
9.244                0.896457505     -133.911921
9.245                0.896149241     -134.178921
9.246                0.895841996     -134.446453
9.247                0.895535786     -134.714516
9.248                0.895230625     -134.983109
9.249                0.894926529     -135.252231
9.25                 0.894623514     -135.521881
9.251                0.894321595     -135.792057
9.252                0.894020786      -136.06276
9.253                0.893721105     -136.333988
9.254                0.893422566     -136.605739
9.255                0.893125184     -136.878013
9.256                0.892828975     -137.150808
9.257                0.892533955     -137.424124
9.258                0.892240138     -137.697958
9.259                0.891947541     -137.972311
9.26                 0.891656179     -138.247179
9.261                0.891366068     -138.522564
9.262                0.891077222     -138.798462
9.263                0.890789658     -139.074872
9.264                 0.89050339     -139.351794
9.265                0.890218435     -139.629225
9.266                0.889934808     -139.907165
9.267                0.889652524     -140.185611
9.268                0.889371599     -140.464563
9.269                0.889092047     -140.744018
9.27                 0.888813886     -141.023976
9.271                 0.88853713     -141.304434
9.272                0.888261794      -141.58539
9.273                0.887987894     -141.866845
9.274                0.887715445     -142.148794
9.275                0.887444463     -142.431238
9.276                0.887174962     -142.714174
9.277                0.886906959       -142.9976
9.278                0.886640468     -143.281514
9.279                0.886375505     -143.565915
9.28                 0.886112085     -143.850801
9.281                0.885850223     -144.136169
9.282                0.885589934     -144.422019
9.283                0.885331233     -144.708347
9.284                0.885074136     -144.995152
9.285                0.884818657     -145.282432
9.286                0.884564812     -145.570185
9.287                0.884312614     -145.858409
9.288                0.884062081     -146.147101
9.289                0.883813225      -146.43626
9.29                 0.883566062     -146.725883
9.291                0.883320607     -147.015967
9.292                0.883076874     -147.306512
9.293                0.882834878     -147.597514
9.294                0.882594633     -147.888971
9.295                0.882356155      -148.18088
9.296                0.882119457      -148.47324
9.297                0.881884554     -148.766048
9.298                 0.88165146     -149.059302
9.299                0.881420189     -149.352998
9.3                  0.881190756     -149.647135
9.301                0.880963175      -149.94171
9.302                0.880737459      -150.23672
9.303                0.880513623     -150.532163
9.304                0.880291681     -150.828036
9.305                0.880071645     -151.124336
9.306                0.879853531     -151.421061
9.307                0.879637352     -151.718208
9.308                 0.87942312     -152.015774
9.309                0.879210851     -152.313757
9.31                 0.879000556     -152.612153
9.311                0.878792249     -152.910959
9.312                0.878585944     -153.210174
9.313                0.878381653     -153.509793
9.314                0.878179389     -153.809814
9.315                0.877979166     -154.110234
9.316                0.877780995      -154.41105
9.317                 0.87758489     -154.712258
9.318                0.877390863     -155.013856
9.319                0.877198927     -155.315841
9.32                 0.877009093     -155.618209
9.321                0.876821374     -155.920958
9.322                0.876635783     -156.224083
9.323                 0.87645233     -156.527582
9.324                0.876271028     -156.831452
9.325                0.876091888     -157.135689
9.326                0.875914922     -157.440289
9.327                0.875740142      -157.74525
9.328                0.875567558     -158.050568
9.329                0.875397183      -158.35624
9.33                 0.875229026     -158.662262
9.331                0.875063099     -158.968631
9.332                0.874899413     -159.275343
9.333                0.874737977     -159.582394
9.334                0.874578804     -159.889782
9.335                0.874421902     -160.197502
9.336                0.874267283     -160.505551
9.337                0.874114955     -160.813925
9.338                 0.87396493      -161.12262
9.339                0.873817216     -161.431634
9.34                 0.873671824     -161.740961
9.341                0.873528763     -162.050599
9.342                0.873388041     -162.360543
9.343                0.873249668     -162.670789
9.344                0.873113654     -162.981335
9.345                0.872980006     -163.292175
9.346                0.872848733     -163.603306
9.347                0.872719844     -163.914725
9.348                0.872593347     -164.226426
9.349                 0.87246925     -164.538407
9.35                 0.872347561     -164.850662
9.351                0.872228287     -165.163189
9.352                0.872111437     -165.475983
9.353                0.871997017     -165.789039
9.354                0.871885035     -166.102355
9.355                0.871775498     -166.415925
9.356                0.871668412     -166.729746
9.357                0.871563784     -167.043813
9.358                0.871461621     -167.358122
9.359                0.871361929     -167.672669
9.36                 0.871264714      -167.98745
9.361                0.871169982      -168.30246
9.362                0.871077738     -168.617695
9.363                0.870987988     -168.933151
9.364                0.870900738     -169.248824
9.365                0.870815991     -169.564709
9.366                0.870733755     -169.880801
9.367                0.870654032     -170.197097
9.368                0.870576827     -170.513592
9.369                0.870502146     -170.830281
9.37                 0.870429991      -171.14716
9.371                0.870360367     -171.464225
9.372                0.870293278     -171.781471
9.373                0.870228726     -172.098894
9.374                0.870166716     -172.416489
9.375                 0.87010725     -172.734251
9.376                0.870050331     -173.052176
9.377                0.869995962      -173.37026
9.378                0.869944145     -173.688497
9.379                0.869894883     -174.006884
9.38                 0.869848177     -174.325415
9.381                0.869804029     -174.644086
9.382                0.869762441     -174.962893
9.383                0.869723414      -175.28183
9.384                 0.86968695     -175.600893
9.385                0.869653049     -175.920078
9.386                0.869621712     -176.239379
9.387                 0.86959294     -176.558792
9.388                0.869566732     -176.878312
9.389                0.869543089     -177.197935
9.39                 0.869522012     -177.517655
9.391                0.869503498     -177.837469
9.392                0.869487549      -178.15737
9.393                0.869474162     -178.477355
9.394                0.869463338     -178.797419
9.395                0.869455074     -179.117556
9.396                 0.86944937     -179.437763
