! TOUCHSTONE file generated by CST DESIGN STUDIO
! Date and time: Tue Feb  4 15:51:16 2025
! Project name: C:\Work\MatlabApps\UnitCellOptimizationMatlab\CST\unitcell.cst
! Tree item: Tasks\Sweep1\SPara1\S-Parameters
! Header version: 2024
! Port assignment regex: !\s*Touchstone port\s*([0-9]+)\s*=\s*(CST MWS port|CST DES external port|CST DES block port)\s*(.+)\s* \(\"(.*)\"\)(\s*mode\s*([0-9]+))?.*
! Touchstone port assignment:
! Touchstone port 1 = CST DES external port 1 ("")
# GHz S MA R 50
9                    0.972543405     -69.3242621
9.001                0.972360716     -69.4308864
9.002                0.972177595     -69.5377599
9.003                0.971994044     -69.6448835
9.004                0.971810061      -69.752258
9.005                0.971625649     -69.8598843
9.006                0.971440806     -69.9677631
9.007                0.971255533     -70.0758954
9.008                0.971069832     -70.1842819
9.009                0.970883701     -70.2929236
9.01                 0.970697142     -70.4018213
9.011                0.970510155     -70.5109758
9.012                0.970322741     -70.6203881
9.013                0.970134899     -70.7300589
9.014                 0.96994663     -70.8399892
9.015                0.969757935     -70.9501799
9.016                0.969568814     -71.0606317
9.017                0.969379268     -71.1713457
9.018                0.969189297     -71.2823226
9.019                0.968998901     -71.3935633
9.02                 0.968808082     -71.5050689
9.021                0.968616839       -71.61684
9.022                0.968425172     -71.7288777
9.023                0.968233084     -71.8411829
9.024                0.968040573     -71.9537563
9.025                0.967847641      -72.066599
9.026                0.967654288     -72.1797119
9.027                0.967460514     -72.2930958
9.028                 0.96726632     -72.4067517
9.029                0.967071708     -72.5206805
9.03                 0.966876676     -72.6348832
9.031                0.966681226     -72.7493605
9.032                0.966485359     -72.8641136
9.033                0.966289074     -72.9791432
9.034                0.966092374     -73.0944504
9.035                0.965895257      -73.210036
9.036                0.965697725     -73.3259011
9.037                0.965499778     -73.4420466
9.038                0.965301418     -73.5584733
9.039                0.965102644     -73.6751823
9.04                 0.964903457     -73.7921745
9.041                0.964703858     -73.9094509
9.042                0.964503848     -74.0270124
9.043                0.964303427     -74.1448601
9.044                0.964102597     -74.2629947
9.045                0.963901357     -74.3814175
9.046                0.963699708     -74.5001292
9.047                0.963497651     -74.6191309
9.048                0.963295187     -74.7384236
9.049                0.963092317     -74.8580082
9.05                 0.962889041     -74.9778858
9.051                 0.96268536     -75.0980573
9.052                0.962481275     -75.2185237
9.053                0.962276787      -75.339286
9.054                0.962071896     -75.4603453
9.055                0.961866603     -75.5817024
9.056                0.961660909     -75.7033585
9.057                0.961454815     -75.8253146
9.058                0.961248321     -75.9475716
9.059                0.961041429     -76.0701305
9.06                  0.96083414     -76.1929925
9.061                0.960626453     -76.3161584
9.062                0.960418371     -76.4396294
9.063                0.960209893     -76.5634065
9.064                0.960001021     -76.6874907
9.065                0.959791756      -76.811883
9.066                0.959582099     -76.9365844
9.067                 0.95937205     -77.0615961
9.068                0.959161611     -77.1869191
9.069                0.958950783     -77.3125544
9.07                 0.958739565      -77.438503
9.071                 0.95852796     -77.5647661
9.072                0.958315969     -77.6913447
9.073                0.958103592     -77.8182398
9.074                0.957890831     -77.9454525
9.075                0.957677685     -78.0729839
9.076                0.957464158      -78.200835
9.077                0.957250249      -78.329007
9.078                 0.95703596     -78.4575009
9.079                0.956821291     -78.5863177
9.08                 0.956606244     -78.7154587
9.081                 0.95639082     -78.8449248
9.082                 0.95617502     -78.9747171
9.083                0.955958845     -79.1048368
9.084                0.955742297      -79.235285
9.085                0.955525376     -79.3660627
9.086                0.955308084      -79.497171
9.087                0.955090421     -79.6286111
9.088                 0.95487239     -79.7603841
9.089                 0.95465399      -79.892491
9.09                 0.954435225     -80.0249331
9.091                0.954216094     -80.1577114
9.092                0.953996599      -80.290827
9.093                0.953776741     -80.4242811
9.094                0.953556522     -80.5580748
9.095                0.953335943     -80.6922092
9.096                0.953115004     -80.8266855
9.097                0.952893709     -80.9615047
9.098                0.952672057     -81.0966682
9.099                0.952450051     -81.2321769
9.1                  0.952227691     -81.3680321
9.101                 0.95200498     -81.5042348
9.102                0.951781917     -81.6407863
9.103                0.951558506     -81.7776877
9.104                0.951334747     -81.9149402
9.105                0.951110642     -82.0525448
9.106                0.950886192     -82.1905029
9.107                0.950661399     -82.3288155
9.108                0.950436265     -82.4674839
9.109                 0.95021079     -82.6065091
9.11                 0.949984976     -82.7458925
9.111                0.949758826     -82.8856351
9.112                 0.94953234     -83.0257381
9.113                0.949305521     -83.1662028
9.114                0.949078369     -83.3070303
9.115                0.948850886     -83.4482218
9.116                0.948623075     -83.5897785
9.117                0.948394937     -83.7317016
9.118                0.948166473     -83.8739923
9.119                0.947937685     -84.0166518
9.12                 0.947708575     -84.1596813
9.121                0.947479145      -84.303082
9.122                0.947249397     -84.4468552
9.123                0.947019331      -84.591002
9.124                0.946788951     -84.7355236
9.125                0.946558258     -84.8804214
9.126                0.946327253     -85.0256964
9.127                0.946095939     -85.1713499
9.128                0.945864318     -85.3173832
9.129                0.945632391     -85.4637975
9.13                 0.945400161      -85.610594
9.131                0.945167629     -85.7577739
9.132                0.944934797     -85.9053384
9.133                0.944701668     -86.0532889
9.134                0.944468243     -86.2016266
9.135                0.944234524     -86.3503526
9.136                0.944000514     -86.4994683
9.137                0.943766214     -86.6489749
9.138                0.943531628     -86.7988736
9.139                0.943296756     -86.9491657
9.14                 0.943061601     -87.0998525
9.141                0.942826165     -87.2509351
9.142                 0.94259045     -87.4024149
9.143                0.942354459     -87.5542932
9.144                0.942118194     -87.7065711
9.145                0.941881657       -87.85925
9.146                0.941644851      -88.012331
9.147                0.941407777     -88.1658156
9.148                0.941170438     -88.3197049
9.149                0.940932837     -88.4740003
9.15                 0.940694976     -88.6287029
9.151                0.940456857     -88.7838141
9.152                0.940218482     -88.9393352
9.153                0.939979855     -89.0952674
9.154                0.939740977      -89.251612
9.155                0.939501852     -89.4083704
9.156                0.939262482     -89.5655437
9.157                0.939022868     -89.7231332
9.158                0.938783015     -89.8811404
9.159                0.938542924     -90.0395663
9.16                 0.938302599     -90.1984124
9.161                0.938062041       -90.35768
9.162                0.937821254     -90.5173702
9.163                 0.93758024     -90.6774845
9.164                0.937339003     -90.8380241
9.165                0.937097544     -90.9989902
9.166                0.936855867     -91.1603843
9.167                0.936613975     -91.3222076
9.168                 0.93637187     -91.4844614
9.169                0.936129556      -91.647147
9.17                 0.935887034     -91.8102656
9.171                 0.93564431     -91.9738187
9.172                0.935401384     -92.1378076
9.173                 0.93515826     -92.3022334
9.174                0.934914942     -92.4670975
9.175                0.934671433     -92.6324013
9.176                0.934427735      -92.798146
9.177                0.934183851     -92.9643329
9.178                0.933939786     -93.1309634
9.179                0.933695542     -93.2980388
9.18                 0.933451121     -93.4655603
9.181                0.933206529     -93.6335292
9.182                0.932961767      -93.801947
9.183                 0.93271684     -93.9708148
9.184                 0.93247175      -94.140134
9.185                0.932226502      -94.309906
9.186                0.931981097     -94.4801319
9.187                0.931735541     -94.6508132
9.188                0.931489836     -94.8219511
9.189                0.931243986     -94.9935469
9.19                 0.930997994      -95.165602
9.191                0.930751865     -95.3381177
9.192                0.930505601     -95.5110952
9.193                0.930259207     -95.6845358
9.194                0.930012686      -95.858441
9.195                0.929766042     -96.0328119
9.196                0.929519278     -96.2076499
9.197                0.929272399     -96.3829563
9.198                0.929025408     -96.5587324
9.199                0.928778309     -96.7349794
9.2                  0.928531106     -96.9116988
9.201                0.928283804     -97.0888917
9.202                0.928036405     -97.2665596
9.203                0.927788915     -97.4447036
9.204                0.927541337     -97.6233251
9.205                0.927293675     -97.8024254
9.206                0.927045933     -97.9820058
9.207                0.926798116     -98.1620675
9.208                0.926550227     -98.3426118
9.209                0.926302272     -98.5236401
9.21                 0.926054254     -98.7051537
9.211                0.925806178     -98.8871537
9.212                0.925558047     -99.0696415
9.213                0.925309867     -99.2526184
9.214                0.925061642     -99.4360856
9.215                0.924813377     -99.6200444
9.216                0.924565075     -99.8044961
9.217                0.924316741      -99.989442
9.218                0.924068381     -100.174883
9.219                0.923819999     -100.360821
9.22                 0.923571598     -100.547257
9.221                0.923323185     -100.734192
9.222                0.923074764     -100.921628
9.223                 0.92282634     -101.109565
9.224                0.922577917     -101.298005
9.225                0.922329501      -101.48695
9.226                0.922081096       -101.6764
9.227                0.921832707     -101.866356
9.228                 0.92158434     -102.056821
9.229                0.921335999     -102.247794
9.23                  0.92108769     -102.439278
9.231                0.920839418     -102.631274
9.232                0.920591188     -102.823782
9.233                0.920343004     -103.016804
9.234                0.920094874     -103.210342
9.235                  0.9198468     -103.404396
9.236                0.919598791     -103.598967
9.237                0.919350849     -103.794058
9.238                0.919102982     -103.989668
9.239                0.918855194       -104.1858
9.24                 0.918607491     -104.382454
9.241                0.918359879     -104.579631
9.242                0.918112363     -104.777334
9.243                 0.91786495     -104.975562
9.244                0.917617643     -105.174317
9.245                0.917370451       -105.3736
9.246                0.917123377     -105.573413
9.247                0.916876429     -105.773756
9.248                0.916629612      -105.97463
9.249                0.916382931     -106.176037
9.25                 0.916136394     -106.377979
9.251                0.915890006     -106.580455
9.252                0.915643773     -106.783467
9.253                0.915397701     -106.987016
9.254                0.915151797     -107.191103
9.255                0.914906067      -107.39573
9.256                0.914660516     -107.600897
9.257                0.914415152     -107.806606
9.258                0.914169981     -108.012857
9.259                0.913925009     -108.219652
9.26                 0.913680242     -108.426991
9.261                0.913435687     -108.634876
9.262                0.913191351     -108.843308
9.263                0.912947241     -109.052287
9.264                0.912703362     -109.261815
9.265                0.912459722     -109.471893
9.266                0.912216328     -109.682521
9.267                0.911973186     -109.893701
9.268                0.911730302     -110.105434
9.269                0.911487685      -110.31772
9.27                 0.911245341     -110.530561
9.271                0.911003277     -110.743957
9.272                0.910761499      -110.95791
9.273                0.910520016      -111.17242
9.274                0.910278834     -111.387488
9.275                0.910037961     -111.603116
9.276                0.909797403     -111.819303
9.277                0.909557168     -112.036052
9.278                0.909317263     -112.253362
9.279                0.909077696     -112.471235
9.28                 0.908838474     -112.689672
9.281                0.908599604     -112.908672
9.282                0.908361095     -113.128239
9.283                0.908122953     -113.348371
9.284                0.907885187     -113.569069
9.285                0.907647803     -113.790336
9.286                 0.90741081      -114.01217
9.287                0.907174216     -114.234574
9.288                0.906938028     -114.457548
9.289                0.906702254     -114.681092
9.29                 0.906466902     -114.905207
9.291                 0.90623198     -115.129895
9.292                0.905997496     -115.355155
9.293                0.905763458     -115.580989
9.294                0.905529874     -115.807396
9.295                0.905296752     -116.034379
9.296                0.905064101     -116.261936
9.297                0.904831929      -116.49007
9.298                0.904600243      -116.71878
9.299                0.904369053     -116.948067
9.3                  0.904138367     -117.177932
9.301                0.903908192     -117.408375
9.302                0.903678538     -117.639398
9.303                0.903449413     -117.870999
9.304                0.903220826      -118.10318
9.305                0.902992785     -118.335942
9.306                0.902765299     -118.569285
9.307                0.902538376     -118.803208
9.308                0.902312025     -119.037714
9.309                0.902086256     -119.272802
9.31                 0.901861076     -119.508472
9.311                0.901636495     -119.744725
9.312                0.901412522     -119.981562
9.313                0.901189165     -120.218982
9.314                0.900966434     -120.456987
9.315                0.900744337     -120.695576
9.316                0.900522884     -120.934749
9.317                0.900302084     -121.174507
9.318                0.900081945     -121.414851
9.319                0.899862478      -121.65578
9.32                 0.899643691     -121.897295
9.321                0.899425593     -122.139396
9.322                0.899208194     -122.382082
9.323                0.898991503     -122.625355
9.324                 0.89877553     -122.869215
9.325                0.898560284      -123.11366
9.326                0.898345774     -123.358693
9.327                 0.89813201     -123.604312
9.328                0.897919001     -123.850518
9.329                0.897706758     -124.097311
9.33                 0.897495288      -124.34469
9.331                0.897284603     -124.592656
9.332                0.897074712     -124.841209
9.333                0.896865624     -125.090349
9.334                 0.89665735     -125.340075
9.335                0.896449898     -125.590388
9.336                0.896243279     -125.841287
9.337                0.896037502     -126.092773
9.338                0.895832578     -126.344845
9.339                0.895628516     -126.597502
9.34                 0.895425326     -126.850746
9.341                0.895223018     -127.104574
9.342                0.895021602     -127.358988
9.343                0.894821088     -127.613987
9.344                0.894621486     -127.869571
9.345                0.894422805     -128.125739
9.346                0.894225057      -128.38249
9.347                 0.89402825     -128.639825
9.348                0.893832396     -128.897744
9.349                0.893637504     -129.156245
9.35                 0.893443583     -129.415328
9.351                0.893250646     -129.674993
9.352                  0.8930587     -129.935239
9.353                0.892867758     -130.196066
9.354                0.892677828     -130.457472
9.355                0.892488922     -130.719459
9.356                0.892301048     -130.982024
9.357                0.892114218     -131.245167
9.358                0.891928442     -131.508888
9.359                 0.89174373     -131.773185
9.36                 0.891560092     -132.038059
9.361                0.891377538     -132.303508
9.362                0.891196079     -132.569531
9.363                0.891015725     -132.836128
9.364                0.890836486     -133.103298
9.365                0.890658373      -133.37104
9.366                0.890481396     -133.639353
9.367                0.890305564     -133.908236
9.368                0.890130889     -134.177688
9.369                0.889957381     -134.447708
9.37                 0.889785049     -134.718296
9.371                0.889613905     -134.989449
9.372                0.889443959     -135.261167
9.373                0.889275219     -135.533449
9.374                0.889107698     -135.806294
9.375                0.888941406       -136.0797
9.376                0.888776351     -136.353667
9.377                0.888612546     -136.628192
9.378                0.888449999     -136.903275
9.379                0.888288721     -137.178915
9.38                 0.888128723      -137.45511
9.381                0.887970014     -137.731858
9.382                0.887812605     -138.009159
9.383                0.887656505      -138.28701
9.384                0.887501726     -138.565411
9.385                0.887348276      -138.84436
9.386                0.887196166     -139.123856
9.387                0.887045407     -139.403896
9.388                0.886896007     -139.684479
9.389                0.886747978     -139.965604
9.39                 0.886601328     -140.247269
9.391                0.886456069     -140.529472
9.392                0.886312209     -140.812212
9.393                0.886169759     -141.095486
9.394                0.886028729     -141.379293
9.395                0.885889128     -141.663631
9.396                0.885750966     -141.948499
