! TOUCHSTONE file generated by CST DESIGN STUDIO
! Date and time: Tue Feb  4 15:51:14 2025
! Project name: C:\Work\MatlabApps\UnitCellOptimizationMatlab\CST\unitcell.cst
! Tree item: Tasks\Sweep1\SPara1\S-Parameters
! Header version: 2024
! Port assignment regex: !\s*Touchstone port\s*([0-9]+)\s*=\s*(CST MWS port|CST DES external port|CST DES block port)\s*(.+)\s* \(\"(.*)\"\)(\s*mode\s*([0-9]+))?.*
! Touchstone port assignment:
! Touchstone port 1 = CST DES external port 1 ("")
# GHz S MA R 50
9                    0.972431805     -72.8305643
9.001                0.972244324     -72.9471673
9.002                0.972056105     -73.0640425
9.003                0.971867152     -73.1811907
9.004                0.971677465     -73.2986128
9.005                0.971487047     -73.4163094
9.006                  0.9712959     -73.5342816
9.007                0.971104026       -73.65253
9.008                0.970911426     -73.7710555
9.009                0.970718104     -73.8898591
9.01                 0.970524061     -74.0089415
9.011                0.970329299     -74.1283035
9.012                 0.97013382     -74.2479461
9.013                0.969937627       -74.36787
9.014                0.969740721     -74.4880762
9.015                0.969543105     -74.6085656
9.016                0.969344782     -74.7293389
9.017                0.969145752      -74.850397
9.018                0.968946019      -74.971741
9.019                0.968745585     -75.0933715
9.02                 0.968544452     -75.2152896
9.021                0.968342622     -75.3374961
9.022                0.968140098     -75.4599919
9.023                0.967936882     -75.5827779
9.024                0.967732976      -75.705855
9.025                0.967528383     -75.8292242
9.026                0.967323105     -75.9528863
9.027                0.967117144     -76.0768422
9.028                0.966910503      -76.201093
9.029                0.966703185     -76.3256395
9.03                 0.966495191     -76.4504826
9.031                0.966286524     -76.5756233
9.032                0.966077187     -76.7010625
9.033                0.965867182     -76.8268012
9.034                0.965656512     -76.9528404
9.035                0.965445179     -77.0791809
9.036                0.965233186     -77.2058237
9.037                0.965020535     -77.3327699
9.038                0.964807229     -77.4600203
9.039                 0.96459327     -77.5875759
9.04                 0.964378662     -77.7154378
9.041                0.964163406     -77.8436069
9.042                0.963947505     -77.9720841
9.043                0.963730962     -78.1008705
9.044                 0.96351378     -78.2299671
9.045                0.963295961     -78.3593748
9.046                0.963077508     -78.4890947
9.047                0.962858423     -78.6191277
9.048                 0.96263871     -78.7494749
9.049                0.962418371     -78.8801373
9.05                 0.962197409      -79.011116
9.051                0.961975827     -79.1424118
9.052                0.961753627     -79.2740259
9.053                0.961530812     -79.4059593
9.054                0.961307384      -79.538213
9.055                0.961083348     -79.6707881
9.056                0.960858705     -79.8036856
9.057                0.960633459     -79.9369065
9.058                0.960407612      -80.070452
9.059                0.960181167      -80.204323
9.06                 0.959954128     -80.3385207
9.061                0.959726496      -80.473046
9.062                0.959498275     -80.6079001
9.063                0.959269468      -80.743084
9.064                0.959040077     -80.8785988
9.065                0.958810106     -81.0144457
9.066                0.958579558     -81.1506255
9.067                0.958348436     -81.2871396
9.068                0.958116742     -81.4239889
9.069                0.957884479     -81.5611746
9.07                 0.957651652     -81.6986977
9.071                0.957418262     -81.8365593
9.072                0.957184312     -81.9747607
9.073                0.956949807     -82.1133028
9.074                0.956714748     -82.2521868
9.075                0.956479139     -82.3914138
9.076                0.956242983     -82.5309849
9.077                0.956006283     -82.6709013
9.078                0.955769043     -82.8111642
9.079                0.955531265     -82.9517745
9.08                 0.955292952     -83.0927335
9.081                0.955054108     -83.2340424
9.082                0.954814736     -83.3757022
9.083                 0.95457484     -83.5177141
9.084                0.954334421     -83.6600793
9.085                0.954093484     -83.8027989
9.086                0.953852031     -83.9458741
9.087                0.953610067      -84.089306
9.088                0.953367594     -84.2330959
9.089                0.953124615     -84.3772449
9.09                 0.952881134     -84.5217541
9.091                0.952637154     -84.6666248
9.092                0.952392679     -84.8118581
9.093                0.952147711     -84.9574552
9.094                0.951902255     -85.1034173
9.095                0.951656312     -85.2497457
9.096                0.951409888     -85.3964414
9.097                0.951162985     -85.5435057
9.098                0.950915607     -85.6909398
9.099                0.950667756      -85.838745
9.1                  0.950419437     -85.9869223
9.101                0.950170653     -86.1354731
9.102                0.949921407     -86.2843985
9.103                0.949671703     -86.4336997
9.104                0.949421544     -86.5833781
9.105                0.949170934     -86.7334347
9.106                0.948919877     -86.8838709
9.107                0.948668375     -87.0346879
9.108                0.948416433     -87.1858868
9.109                0.948164054      -87.337469
9.11                 0.947911241     -87.4894356
9.111                0.947657999      -87.641788
9.112                 0.94740433     -87.7945274
9.113                0.947150239     -87.9476549
9.114                0.946895728     -88.1011719
9.115                0.946640803     -88.2550797
9.116                0.946385466     -88.4093794
9.117                0.946129721     -88.5640723
9.118                0.945873571     -88.7191597
9.119                0.945617022     -88.8746429
9.12                 0.945360075     -89.0305231
9.121                0.945102736     -89.1868015
9.122                0.944845007     -89.3434796
9.123                0.944586893     -89.5005584
9.124                0.944328398     -89.6580394
9.125                0.944069524     -89.8159238
9.126                0.943810277     -89.9742128
9.127                 0.94355066     -90.1329078
9.128                0.943290677       -90.29201
9.129                0.943030331     -90.4515207
9.13                 0.942769628     -90.6114412
9.131                 0.94250857     -90.7717728
9.132                0.942247161     -90.9325168
9.133                0.941985406     -91.0936745
9.134                0.941723309     -91.2552471
9.135                0.941460873      -91.417236
9.136                0.941198104     -91.5796425
9.137                0.940935003     -91.7424679
9.138                0.940671577     -91.9057134
9.139                0.940407829     -92.0693804
9.14                 0.940143762     -92.2334702
9.141                0.939879382      -92.397984
9.142                0.939614693     -92.5629233
9.143                0.939349697     -92.7282892
9.144                0.939084401     -92.8940832
9.145                0.938818808     -93.0603064
9.146                0.938552922     -93.2269603
9.147                0.938286747     -93.3940462
9.148                0.938020288     -93.5615653
9.149                 0.93775355      -93.729519
9.15                 0.937486536     -93.8979085
9.151                0.937219251     -94.0667353
9.152                0.936951699     -94.2360005
9.153                0.936683885     -94.4057056
9.154                0.936415813     -94.5758519
9.155                0.936147488     -94.7464406
9.156                0.935878914     -94.9174731
9.157                0.935610095     -95.0889507
9.158                0.935341037     -95.2608748
9.159                0.935071744     -95.4332465
9.16                 0.934802219     -95.6060674
9.161                0.934532469     -95.7793386
9.162                0.934262497     -95.9530615
9.163                0.933992309     -96.1272375
9.164                0.933721909     -96.3018677
9.165                0.933451301     -96.4769537
9.166                0.933180491     -96.6524965
9.167                0.932909483     -96.8284977
9.168                0.932638282     -97.0049585
9.169                0.932366892     -97.1818802
9.17                  0.93209532     -97.3592641
9.171                0.931823569     -97.5371116
9.172                0.931551645     -97.7154239
9.173                0.931279553     -97.8942024
9.174                0.931007297     -98.0734484
9.175                0.930734882     -98.2531632
9.176                0.930462314     -98.4333481
9.177                0.930189597     -98.6140044
9.178                0.929916738     -98.7951334
9.179                 0.92964374     -98.9767364
9.18                 0.929370609     -99.1588147
9.181                 0.92909735     -99.3413696
9.182                0.928823969     -99.5244025
9.183                 0.92855047     -99.7079145
9.184                 0.92827686     -99.8919071
9.185                0.928003143     -100.076381
9.186                0.927729324     -100.261339
9.187                 0.92745541     -100.446781
9.188                0.927181405     -100.632708
9.189                0.926907315     -100.819123
9.19                 0.926633145     -101.006025
9.191                0.926358902     -101.193417
9.192                0.926084589       -101.3813
9.193                0.925810214     -101.569675
9.194                0.925535782     -101.758543
9.195                0.925261298     -101.947906
9.196                0.924986769     -102.137765
9.197                0.924712199     -102.328121
9.198                0.924437595     -102.518975
9.199                0.924162962     -102.710328
9.2                  0.923888306     -102.902183
9.201                0.923613634     -103.094539
9.202                0.923338951     -103.287399
9.203                0.923064262     -103.480764
9.204                0.922789575     -103.674634
9.205                0.922514895     -103.869011
9.206                0.922240228     -104.063897
9.207                 0.92196558     -104.259291
9.208                0.921690958     -104.455197
9.209                0.921416368     -104.651614
9.21                 0.921141815     -104.848545
9.211                0.920867306     -105.045989
9.212                0.920592848      -105.24395
9.213                0.920318446     -105.442426
9.214                0.920044108     -105.641421
9.215                0.919769839     -105.840934
9.216                0.919495646     -106.040968
9.217                0.919221536     -106.241523
9.218                0.918947515       -106.4426
9.219                0.918673589     -106.644201
9.22                 0.918399766     -106.846327
9.221                0.918126052     -107.048978
9.222                0.917852454     -107.252157
9.223                0.917578978     -107.455864
9.224                0.917305632     -107.660099
9.225                0.917032421     -107.864866
9.226                0.916759354     -108.070163
9.227                0.916486437     -108.275994
9.228                0.916213677     -108.482357
9.229                 0.91594108     -108.689256
9.23                 0.915668655      -108.89669
9.231                0.915396408     -109.104661
9.232                0.915124347      -109.31317
9.233                0.914852478     -109.522218
9.234                0.914580809     -109.731806
9.235                0.914309346     -109.941935
9.236                0.914038099     -110.152605
9.237                0.913767073     -110.363819
9.238                0.913496276     -110.575577
9.239                0.913225716     -110.787879
9.24                 0.912955401     -111.000728
9.241                0.912685337     -111.214123
9.242                0.912415532     -111.428067
9.243                0.912145995     -111.642559
9.244                0.911876732     -111.857601
9.245                0.911607752     -112.073194
9.246                0.911339062     -112.289338
9.247                 0.91107067     -112.506035
9.248                0.910802584     -112.723285
9.249                0.910534812     -112.941089
9.25                 0.910267362     -113.159449
9.251                0.910000242     -113.378364
9.252                0.909733461     -113.597837
9.253                0.909467025     -113.817867
9.254                0.909200944     -114.038456
9.255                0.908935225     -114.259604
9.256                0.908669877     -114.481312
9.257                0.908404908     -114.703581
9.258                0.908140326     -114.926411
9.259                0.907876141     -115.149805
9.26                  0.90761236     -115.373761
9.261                0.907348991     -115.598281
9.262                0.907086044     -115.823366
9.263                0.906823527     -116.049016
9.264                0.906561449     -116.275233
9.265                0.906299818     -116.502016
9.266                0.906038642     -116.729366
9.267                0.905777932     -116.957284
9.268                0.905517695     -117.185771
9.269                0.905257941     -117.414828
9.27                 0.904998678     -117.644454
9.271                0.904739915      -117.87465
9.272                0.904481662     -118.105418
9.273                0.904223927     -118.336757
9.274                 0.90396672     -118.568668
9.275                 0.90371005     -118.801152
9.276                0.903453925      -119.03421
9.277                0.903198355      -119.26784
9.278                 0.90294335     -119.502045
9.279                0.902688918     -119.736824
9.28                  0.90243507     -119.972179
9.281                0.902181814     -120.208109
9.282                 0.90192916     -120.444614
9.283                0.901677117     -120.681696
9.284                0.901425695     -120.919354
9.285                0.901174904      -121.15759
9.286                0.900924753     -121.396402
9.287                0.900675252     -121.635792
9.288                0.900426411      -121.87576
9.289                0.900178239     -122.116306
9.29                 0.899930746      -122.35743
9.291                0.899683942     -122.599133
9.292                0.899437837     -122.841415
9.293                0.899192441     -123.084275
9.294                0.898947764     -123.327715
9.295                0.898703815     -123.571734
9.296                0.898460606     -123.816333
9.297                0.898218145     -124.061511
9.298                0.897976443     -124.307268
9.299                 0.89773551     -124.553606
9.3                  0.897495357     -124.800523
9.301                0.897255993      -125.04802
9.302                0.897017429     -125.296096
9.303                0.896779676     -125.544752
9.304                0.896542742     -125.793988
9.305                 0.89630664     -126.043804
9.306                0.896071379     -126.294199
9.307                 0.89583697     -126.545174
9.308                0.895603423     -126.796727
9.309                0.895370748      -127.04886
9.31                 0.895138957     -127.301572
9.311                 0.89490806     -127.554862
9.312                0.894678067     -127.808731
9.313                0.894448989     -128.063178
9.314                0.894220836     -128.318203
9.315                 0.89399362     -128.573806
9.316                0.893767351     -128.829986
9.317                 0.89354204     -129.086742
9.318                0.893317698     -129.344076
9.319                0.893094335     -129.601985
9.32                 0.892871961      -129.86047
9.321                0.892650589      -130.11953
9.322                0.892430229     -130.379165
9.323                0.892210891     -130.639375
9.324                0.891992587     -130.900157
9.325                0.891775328     -131.161513
9.326                0.891559124     -131.423442
9.327                0.891343986     -131.685942
9.328                0.891129926     -131.949013
9.329                0.890916954     -132.212655
9.33                 0.890705081     -132.476867
9.331                0.890494319     -132.741648
9.332                0.890284678     -133.006997
9.333                 0.89007617     -133.272914
9.334                0.889868804     -133.539397
9.335                0.889662594     -133.806446
9.336                0.889457549      -134.07406
9.337                 0.88925368     -134.342239
9.338                   0.889051      -134.61098
9.339                0.888849518     -134.880283
9.34                 0.888649246     -135.150148
9.341                0.888450195     -135.420572
9.342                0.888252376     -135.691556
9.343                  0.8880558     -135.963097
9.344                0.887860478     -136.235196
9.345                0.887666422      -136.50785
9.346                0.887473642     -136.781058
9.347                0.887282149      -137.05482
9.348                0.887091955     -137.329133
9.349                 0.88690307     -137.603998
9.35                 0.886715506     -137.879412
9.351                0.886529274     -138.155373
9.352                0.886344385     -138.431882
9.353                0.886160849     -138.708936
9.354                0.885978677     -138.986534
9.355                0.885797882     -139.264674
9.356                0.885618473     -139.543355
9.357                0.885440462     -139.822575
9.358                0.885263859     -140.102333
9.359                0.885088676     -140.382627
9.36                 0.884914923     -140.663456
9.361                0.884742611     -140.944817
9.362                0.884571751      -141.22671
9.363                0.884402354     -141.509132
9.364                0.884234431     -141.792082
9.365                0.884067992     -142.075558
9.366                0.883903048     -142.359558
9.367                 0.88373961     -142.644079
9.368                0.883577688     -142.929122
9.369                0.883417292     -143.214682
9.37                 0.883258435     -143.500759
9.371                0.883101125      -143.78735
9.372                0.882945374     -144.074453
9.373                0.882791192     -144.362066
9.374                0.882638589     -144.650188
9.375                0.882487576     -144.938816
9.376                0.882338163     -145.227947
9.377                 0.88219036      -145.51758
9.378                0.882044178     -145.807712
9.379                0.881899626     -146.098341
9.38                 0.881756714     -146.389465
9.381                0.881615454     -146.681082
9.382                0.881475853     -146.973188
9.383                0.881337924     -147.265782
9.384                0.881201674     -147.558861
9.385                0.881067115     -147.852422
9.386                0.880934256     -148.146464
9.387                0.880803106     -148.440983
9.388                0.880673675     -148.735977
9.389                0.880545973     -149.031444
9.39                 0.880420008      -149.32738
9.391                0.880295791     -149.623783
9.392                 0.88017333      -149.92065
9.393                0.880052635     -150.217979
9.394                0.879933715     -150.515766
9.395                0.879816579     -150.814009
9.396                0.879701236     -151.112705
