! TOUCHSTONE file generated by CST DESIGN STUDIO
! Date and time: Tue Feb  4 15:51:18 2025
! Project name: C:\Work\MatlabApps\UnitCellOptimizationMatlab\CST\unitcell.cst
! Tree item: Tasks\Sweep1\SPara1\S-Parameters
! Header version: 2024
! Port assignment regex: !\s*Touchstone port\s*([0-9]+)\s*=\s*(CST MWS port|CST DES external port|CST DES block port)\s*(.+)\s* \(\"(.*)\"\)(\s*mode\s*([0-9]+))?.*
! Touchstone port assignment:
! Touchstone port 1 = CST DES external port 1 ("")
# GHz S MA R 50
9                    0.972750427     -65.9733558
9.001                 0.97258266     -66.0715593
9.002                0.972414545     -66.1699867
9.003                 0.97224608     -66.2686387
9.004                0.972077267     -66.3675161
9.005                0.971908106     -66.4666196
9.006                0.971738598     -66.5659501
9.007                0.971568742     -66.6655082
9.008                 0.97139854     -66.7652948
9.009                0.971227992     -66.8653106
9.01                 0.971057097     -66.9655565
9.011                0.970885857     -67.0660332
9.012                0.970714273     -67.1667415
9.013                0.970542343     -67.2676822
9.014                 0.97037007     -67.3688562
9.015                0.970197453     -67.4702641
9.016                0.970024492     -67.5719069
9.017                0.969851189     -67.6737853
9.018                0.969677544     -67.7759001
9.019                0.969503556     -67.8782522
9.02                 0.969329228     -67.9808423
9.021                0.969154558     -68.0836713
9.022                0.968979548     -68.1867401
9.023                0.968804198     -68.2900493
9.024                0.968628509     -68.3935999
9.025                 0.96845248     -68.4973927
9.026                0.968276113     -68.6014286
9.027                0.968099409     -68.7057082
9.028                0.967922366     -68.8102326
9.029                0.967744987     -68.9150026
9.03                 0.967567271     -69.0200189
9.031                 0.96738922     -69.1252825
9.032                0.967210833     -69.2307942
9.033                0.967032111     -69.3365549
9.034                0.966853055     -69.4425654
9.035                0.966673665     -69.5488265
9.036                0.966493942     -69.6553393
9.037                0.966313886     -69.7621044
9.038                0.966133498     -69.8691229
9.039                0.965952778     -69.9763955
9.04                 0.965771728     -70.0839232
9.041                0.965590347     -70.1917068
9.042                0.965408636     -70.2997472
9.043                0.965226596     -70.4080454
9.044                0.965044227     -70.5166022
9.045                 0.96486153     -70.6254184
9.046                0.964678505     -70.7344951
9.047                0.964495154     -70.8438331
9.048                0.964311476     -70.9534333
9.049                0.964127473     -71.0632966
9.05                 0.963943145      -71.173424
9.051                0.963758492     -71.2838163
9.052                0.963573516     -71.3944745
9.053                0.963388216     -71.5053995
9.054                0.963202594     -71.6165923
9.055                 0.96301665     -71.7280536
9.056                0.962830385     -71.8397846
9.057                0.962643799     -71.9517861
9.058                0.962456894     -72.0640591
9.059                0.962269669     -72.1766044
9.06                 0.962082126     -72.2894231
9.061                0.961894265     -72.4025162
9.062                0.961706087     -72.5158844
9.063                0.961517592     -72.6295289
9.064                0.961328782     -72.7434506
9.065                0.961139657     -72.8576504
9.066                0.960950217     -72.9721293
9.067                0.960760464     -73.0868883
9.068                0.960570399     -73.2019283
9.069                0.960380021     -73.3172503
9.07                 0.960189332     -73.4328554
9.071                0.959998332     -73.5487444
9.072                0.959807023     -73.6649185
9.073                0.959615405     -73.7813785
9.074                0.959423478     -73.8981254
9.075                0.959231244     -74.0151603
9.076                0.959038704     -74.1324842
9.077                0.958845857      -74.250098
9.078                0.958652706     -74.3680028
9.079                 0.95845925     -74.4861996
9.08                 0.958265491     -74.6046893
9.081                 0.95807143     -74.7234731
9.082                0.957877067      -74.842552
9.083                0.957682402     -74.9619268
9.084                0.957487438     -75.0815988
9.085                0.957292175     -75.2015689
9.086                0.957096613     -75.3218381
9.087                0.956900755     -75.4424076
9.088                0.956704599     -75.5632782
9.089                0.956508148     -75.6844512
9.09                 0.956311403     -75.8059274
9.091                0.956114363     -75.9277081
9.092                0.955917031     -76.0497942
9.093                0.955719407     -76.1721868
9.094                0.955521491     -76.2948869
9.095                0.955323286     -76.4178956
9.096                0.955124792     -76.5412141
9.097                 0.95492601     -76.6648433
9.098                 0.95472694     -76.7887843
9.099                0.954527585     -76.9130383
9.1                  0.954327944     -77.0376063
9.101                0.954128019     -77.1624893
9.102                0.953927811     -77.2876885
9.103                0.953727321      -77.413205
9.104                 0.95352655     -77.5390399
9.105                0.953325499     -77.6651942
9.106                0.953124169     -77.7916691
9.107                0.952922561     -77.9184656
9.108                0.952720676      -78.045585
9.109                0.952518516     -78.1730282
9.11                 0.952316081     -78.3007964
9.111                0.952113372     -78.4288908
9.112                0.951910392     -78.5573124
9.113                0.951707139     -78.6860624
9.114                0.951503617      -78.815142
9.115                0.951299826     -78.9445521
9.116                0.951095767      -79.074294
9.117                0.950891441     -79.2043689
9.118                 0.95068685     -79.3347778
9.119                0.950481995     -79.4655219
9.12                 0.950276876     -79.5966024
9.121                0.950071496     -79.7280204
9.122                0.949865855      -79.859777
9.123                0.949659955     -79.9918735
9.124                0.949453797     -80.1243109
9.125                0.949247382     -80.2570905
9.126                0.949040711     -80.3902135
9.127                0.948833786     -80.5236809
9.128                0.948626609      -80.657494
9.129                0.948419179     -80.7916539
9.13                 0.948211499     -80.9261618
9.131                0.948003571      -81.061019
9.132                0.947795394     -81.1962265
9.133                0.947586972     -81.3317857
9.134                0.947378305     -81.4676976
9.135                0.947169394     -81.6039635
9.136                0.946960241     -81.7405846
9.137                0.946750847     -81.8775621
9.138                0.946541215     -82.0148972
9.139                0.946331344      -82.152591
9.14                 0.946121238     -82.2906449
9.141                0.945910896       -82.42906
9.142                0.945700322     -82.5678376
9.143                0.945489515     -82.7069788
9.144                0.945278478     -82.8464849
9.145                0.945067213     -82.9863571
9.146                 0.94485572     -83.1265967
9.147                0.944644002     -83.2672049
9.148                 0.94443206     -83.4081829
9.149                0.944219895     -83.5495319
9.15                  0.94400751     -83.6912532
9.151                0.943794905     -83.8333481
9.152                0.943582083     -83.9758178
9.153                0.943369045     -84.1186635
9.154                0.943155793     -84.2618865
9.155                0.942942328     -84.4054881
9.156                0.942728652     -84.5494694
9.157                0.942514768     -84.6938318
9.158                0.942300676     -84.8385766
9.159                0.942086379      -84.983705
9.16                 0.941871878     -85.1292182
9.161                0.941657174     -85.2751175
9.162                0.941442271     -85.4214043
9.163                 0.94122717     -85.5680798
9.164                0.941011872     -85.7151452
9.165                0.940796379     -85.8626019
9.166                0.940580693     -86.0104511
9.167                0.940364817     -86.1586941
9.168                0.940148752     -86.3073322
9.169                  0.9399325     -86.4563668
9.17                 0.939716063      -86.605799
9.171                0.939499443     -86.7556302
9.172                0.939282642     -86.9058617
9.173                0.939065662     -87.0564948
9.174                0.938848505     -87.2075308
9.175                0.938631173     -87.3589709
9.176                0.938413668     -87.5108166
9.177                0.938195992     -87.6630691
9.178                0.937978148     -87.8157297
9.179                0.937760137     -87.9687997
9.18                 0.937541962     -88.1222805
9.181                0.937323625     -88.2761733
9.182                0.937105128     -88.4304795
9.183                0.936886473     -88.5852004
9.184                0.936667663     -88.7403373
9.185                0.936448699     -88.8958916
9.186                0.936229584     -89.0518646
9.187                0.936010321     -89.2082575
9.188                0.935790912     -89.3650718
9.189                0.935571358     -89.5223087
9.19                 0.935351663     -89.6799697
9.191                0.935131829     -89.8380559
9.192                0.934911858     -89.9965689
9.193                0.934691753     -90.1555098
9.194                0.934471515       -90.31488
9.195                0.934251149      -90.474681
9.196                0.934030655     -90.6349139
9.197                0.933810038     -90.7955802
9.198                0.933589298     -90.9566812
9.199                0.933368439     -91.1182182
9.2                  0.933147464     -91.2801926
9.201                0.932926375     -91.4426058
9.202                0.932705174      -91.605459
9.203                0.932483865     -91.7687537
9.204                0.932262451     -91.9324912
9.205                0.932040932     -92.0966727
9.206                0.931819314     -92.2612998
9.207                0.931597598     -92.4263737
9.208                0.931375787     -92.5918957
9.209                0.931153884     -92.7578673
9.21                 0.930931893     -92.9242898
9.211                0.930709815     -93.0911645
9.212                0.930487653     -93.2584928
9.213                0.930265412      -93.426276
9.214                0.930043093     -93.5945156
9.215                  0.9298207     -93.7632127
9.216                0.929598235     -93.9323689
9.217                0.929375702     -94.1019855
9.218                0.929153104     -94.2720638
9.219                0.928930444     -94.4426051
9.22                 0.928707725     -94.6136108
9.221                0.928484951     -94.7850824
9.222                0.928262123      -94.957021
9.223                0.928039247     -95.1294282
9.224                0.927816324     -95.3023051
9.225                0.927593359     -95.4756533
9.226                0.927370355      -95.649474
9.227                0.927147314     -95.8237685
9.228                 0.92692424     -95.9985383
9.229                0.926701138     -96.1737847
9.23                 0.926478009      -96.349509
9.231                0.926254858     -96.5257126
9.232                0.926031689     -96.7023968
9.233                0.925808504      -96.879563
9.234                0.925585307     -97.0572125
9.235                0.925362102     -97.2353466
9.236                0.925138892     -97.4139668
9.237                0.924915682     -97.5930742
9.238                0.924692475     -97.7726704
9.239                0.924469274     -97.9527565
9.24                 0.924246083      -98.133334
9.241                0.924022907     -98.3144041
9.242                0.923799749     -98.4959682
9.243                0.923576612     -98.6780277
9.244                0.923353501     -98.8605838
9.245                 0.92313042     -99.0436378
9.246                0.922907373     -99.2271912
9.247                0.922684363     -99.4112451
9.248                0.922461394      -99.595801
9.249                0.922238472     -99.7808601
9.25                 0.922015599     -99.9664238
9.251                0.921792781     -100.152493
9.252                 0.92157002      -100.33907
9.253                0.921347322     -100.526155
9.254                0.921124691      -100.71375
9.255                 0.92090213     -100.901856
9.256                0.920679645     -101.090474
9.257                0.920457239     -101.279606
9.258                0.920234918     -101.469253
9.259                0.920012684     -101.659416
9.26                 0.919790544     -101.850096
9.261                0.919568501     -102.041295
9.262                 0.91934656     -102.233015
9.263                0.919124725     -102.425255
9.264                0.918903002     -102.618018
9.265                0.918681394     -102.811305
9.266                0.918459907     -103.005116
9.267                0.918238545     -103.199454
9.268                0.918017313      -103.39432
9.269                0.917796216     -103.589714
9.27                 0.917575259     -103.785638
9.271                0.917354446     -103.982094
9.272                0.917133782     -104.179081
9.273                0.916913273     -104.376603
9.274                0.916692924     -104.574659
9.275                0.916472738     -104.773251
9.276                0.916252723     -104.972381
9.277                0.916032882     -105.172049
9.278                0.915813221     -105.372256
9.279                0.915593745     -105.573004
9.28                  0.91537446     -105.774295
9.281                 0.91515537     -105.976128
9.282                0.914936481     -106.178505
9.283                0.914717798     -106.381428
9.284                0.914499327     -106.584898
9.285                0.914281073     -106.788915
9.286                0.914063042     -106.993481
9.287                0.913845239     -107.198597
9.288                 0.91362767     -107.404264
9.289                0.913410341     -107.610483
9.29                 0.913193256     -107.817255
9.291                0.912976422     -108.024582
9.292                0.912759845     -108.232464
9.293                 0.91254353     -108.440902
9.294                0.912327483     -108.649898
9.295                 0.91211171     -108.859453
9.296                0.911896217     -109.069567
9.297                0.911681009     -109.280242
9.298                0.911466094     -109.491478
9.299                0.911251476     -109.703277
9.3                  0.911037163      -109.91564
9.301                0.910823159     -110.128568
9.302                0.910609472     -110.342061
9.303                0.910396107     -110.556121
9.304                0.910183071     -110.770748
9.305                 0.90997037     -110.985945
9.306                0.909758011      -111.20171
9.307                0.909545999     -111.418046
9.308                0.909334341     -111.634954
9.309                0.909123044     -111.852433
9.31                 0.908912113     -112.070486
9.311                0.908701557     -112.289113
9.312                0.908491381     -112.508315
9.313                0.908281592     -112.728092
9.314                0.908072196     -112.948446
9.315                  0.9078632     -113.169378
9.316                0.907654612     -113.390888
9.317                0.907446437     -113.612977
9.318                0.907238684     -113.835646
9.319                0.907031357     -114.058896
9.32                 0.906824466     -114.282727
9.321                0.906618015      -114.50714
9.322                0.906412014     -114.732136
9.323                0.906206468     -114.957716
9.324                0.906001384     -115.183881
9.325                 0.90579677      -115.41063
9.326                0.905592634     -115.637965
9.327                0.905388981     -115.865887
9.328                 0.90518582     -116.094396
9.329                0.904983158     -116.323493
9.33                 0.904781002     -116.553177
9.331                0.904579359     -116.783451
9.332                0.904378238     -117.014315
9.333                0.904177644     -117.245768
9.334                0.903977587     -117.477813
9.335                0.903778073     -117.710448
9.336                 0.90357911     -117.943676
9.337                0.903380706     -118.177495
9.338                0.903182868     -118.411908
9.339                0.902985605     -118.646914
9.34                 0.902788923     -118.882513
9.341                 0.90259283     -119.118707
9.342                0.902397335     -119.355495
9.343                0.902202445     -119.592878
9.344                0.902008169     -119.830856
9.345                0.901814513     -120.069431
9.346                0.901621487     -120.308601
9.347                0.901429097     -120.548368
9.348                0.901237353     -120.788731
9.349                0.901046262     -121.029692
9.35                 0.900855832     -121.271249
9.351                0.900666071     -121.513404
9.352                0.900476988     -121.756157
9.353                0.900288591     -121.999508
9.354                0.900100888     -122.243457
9.355                0.899913887     -122.488005
9.356                0.899727597      -122.73315
9.357                0.899542026     -122.978895
9.358                0.899357183     -123.225238
9.359                0.899173075     -123.472179
9.36                 0.898989711      -123.71972
9.361                  0.8988071     -123.967859
9.362                0.898625251     -124.216598
9.363                0.898444171     -124.465935
9.364                0.898263869      -124.71587
9.365                0.898084354     -124.966405
9.366                0.897905635     -125.217538
9.367                 0.89772772      -125.46927
9.368                0.897550617     -125.721601
9.369                0.897374337     -125.974529
9.37                 0.897198886     -126.228056
9.371                0.897024274      -126.48218
9.372                 0.89685051     -126.736902
9.373                0.896677603     -126.992222
9.374                0.896505561     -127.248139
9.375                0.896334393     -127.504653
9.376                0.896164108     -127.761763
9.377                0.895994715     -128.019469
9.378                0.895826223     -128.277771
9.379                 0.89565864     -128.536668
9.38                 0.895491976     -128.796161
9.381                 0.89532624     -129.056248
9.382                 0.89516144     -129.316928
9.383                0.894997585     -129.578203
9.384                0.894834685      -129.84007
9.385                0.894672749     -130.102529
9.386                0.894511785     -130.365581
9.387                0.894351802     -130.629223
9.388                0.894192811     -130.893456
9.389                0.894034818     -131.158279
9.39                 0.893877835      -131.42369
9.391                0.893721869      -131.68969
9.392                 0.89356693     -131.956278
9.393                0.893413027     -132.223453
9.394                0.893260169     -132.491213
9.395                0.893108365     -132.759558
9.396                0.892957624     -133.028488
