! TOUCHSTONE file generated by CST DESIGN STUDIO
! Date and time: Tue Feb  4 15:51:07 2025
! Project name: C:\Work\MatlabApps\UnitCellOptimizationMatlab\CST\unitcell.cst
! Tree item: Tasks\Sweep1\SPara1\S-Parameters
! Header version: 2024
! Port assignment regex: !\s*Touchstone port\s*([0-9]+)\s*=\s*(CST MWS port|CST DES external port|CST DES block port)\s*(.+)\s* \(\"(.*)\"\)(\s*mode\s*([0-9]+))?.*
! Touchstone port assignment:
! Touchstone port 1 = CST DES external port 1 ("")
# GHz S MA R 50
9                    0.973754537      -92.236429
9.001                0.973488262      -92.410095
9.002                 0.97322078     -92.5841994
9.003                0.972952095     -92.7587434
9.004                0.972682207      -92.933728
9.005                 0.97241112     -93.1091541
9.006                0.972138835     -93.2850228
9.007                0.971865355     -93.4613351
9.008                0.971590682      -93.638092
9.009                0.971314819     -93.8152945
9.01                 0.971037768     -93.9929438
9.011                0.970759532     -94.1710407
9.012                0.970480114     -94.3495863
9.013                0.970199515     -94.5285816
9.014                 0.96991774     -94.7080276
9.015                0.969634791     -94.8879254
9.016                0.969350671     -95.0682759
9.017                0.969065382     -95.2490802
9.018                0.968778929     -95.4303392
9.019                0.968491314      -95.612054
9.02                  0.96820254     -95.7942256
9.021                 0.96791261     -95.9768549
9.022                0.967621529     -96.1599431
9.023                  0.9673293      -96.343491
9.024                0.967035925     -96.5274997
9.025                0.966741409     -96.7119702
9.026                0.966445755     -96.8969035
9.027                0.966148966     -97.0823006
9.028                0.965851048     -97.2681625
9.029                0.965552003     -97.4544901
9.03                 0.965251836     -97.6412845
9.031                 0.96495055     -97.8285466
9.032                 0.96464815     -98.0162774
9.033                 0.96434464      -98.204478
9.034                0.964040023     -98.3931492
9.035                0.963734306     -98.5822921
9.036                 0.96342749     -98.7719077
9.037                0.963119583     -98.9619969
9.038                0.962810587     -99.1525606
9.039                0.962500507     -99.3435999
9.04                 0.962189349     -99.5351158
9.041                0.961877116     -99.7271091
9.042                0.961563815     -99.9195808
9.043                0.961249449     -100.112532
9.044                0.960934024     -100.305963
9.045                0.960617545     -100.499876
9.046                0.960300017     -100.694271
9.047                0.959981445      -100.88915
9.048                0.959661835     -101.084512
9.049                0.959341193     -101.280359
9.05                 0.959019523     -101.476693
9.051                0.958696831     -101.673513
9.052                0.958373124     -101.870821
9.053                0.958048406     -102.068618
9.054                0.957722684     -102.266905
9.055                0.957395963     -102.465682
9.056                0.957068251     -102.664951
9.057                0.956739552     -102.864712
9.058                0.956409872     -103.064966
9.059                 0.95607922     -103.265715
9.06                 0.955747599     -103.466959
9.061                0.955415018     -103.668698
9.062                0.955081483     -103.870935
9.063                   0.954747     -104.073669
9.064                0.954411576     -104.276902
9.065                0.954075217     -104.480634
9.066                0.953737932     -104.684867
9.067                0.953399726     -104.889601
9.068                0.953060607     -105.094836
9.069                0.952720582     -105.300575
9.07                 0.952379659     -105.506818
9.071                0.952037844     -105.713565
9.072                0.951695145     -105.920817
9.073                 0.95135157     -106.128575
9.074                0.951007126     -106.336841
9.075                0.950661821     -106.545614
9.076                0.950315663     -106.754896
9.077                 0.94996866     -106.964687
9.078                0.949620819     -107.174989
9.079                 0.94927215     -107.385801
9.08                 0.948922659     -107.597125
9.081                0.948572356     -107.808962
9.082                0.948221249     -108.021312
9.083                0.947869346     -108.234175
9.084                0.947516655     -108.447554
9.085                0.947163186     -108.661448
9.086                0.946808948     -108.875858
9.087                0.946453948     -109.090786
9.088                0.946098197      -109.30623
9.089                0.945741703     -109.522194
9.09                 0.945384475     -109.738676
9.091                0.945026523     -109.955678
9.092                0.944667855       -110.1732
9.093                0.944308482     -110.391244
9.094                0.943948413     -110.609809
9.095                0.943587657     -110.828897
9.096                0.943226224     -111.048507
9.097                0.942864125     -111.268642
9.098                0.942501369       -111.4893
9.099                0.942137966     -111.710484
9.1                  0.941773926     -111.932193
9.101                0.941409259     -112.154428
9.102                0.941043976      -112.37719
9.103                0.940678088     -112.600479
9.104                0.940311604     -112.824296
9.105                0.939944535     -113.048641
9.106                0.939576893     -113.273516
9.107                0.939208688     -113.498919
9.108                 0.93883993     -113.724853
9.109                0.938470631     -113.951317
9.11                 0.938100802     -114.178313
9.111                0.937730455     -114.405839
9.112                  0.9373596     -114.633898
9.113                0.936988249     -114.862489
9.114                0.936616414     -115.091613
9.115                0.936244105      -115.32127
9.116                0.935871336     -115.551461
9.117                0.935498117     -115.782187
9.118                0.935124461     -116.013446
9.119                0.934750379     -116.245241
9.12                 0.934375885     -116.477571
9.121                0.934000989     -116.710437
9.122                0.933625704     -116.943839
9.123                0.933250044     -117.177777
9.124                0.932874019     -117.412252
9.125                0.932497643     -117.647264
9.126                0.932120929     -117.882813
9.127                 0.93174389       -118.1189
9.128                0.931366537     -118.355525
9.129                0.930988885     -118.592688
9.13                 0.930610947     -118.830389
9.131                0.930232735     -119.068629
9.132                0.929854263     -119.307408
9.133                0.929475544     -119.546725
9.134                0.929096593     -119.786582
9.135                0.928717422     -120.026978
9.136                0.928338045     -120.267914
9.137                0.927958475     -120.509389
9.138                0.927578728     -120.751404
9.139                0.927198817     -120.993959
9.14                 0.926818755     -121.237054
9.141                0.926438558     -121.480689
9.142                0.926058239     -121.724864
9.143                0.925677813     -121.969579
9.144                0.925297293     -122.214834
9.145                0.924916696     -122.460629
9.146                0.924536035     -122.706964
9.147                0.924155325     -122.953839
9.148                0.923774581     -123.201254
9.149                0.923393818     -123.449209
9.15                  0.92301305     -123.697704
9.151                0.922632294     -123.946739
9.152                0.922251564     -124.196313
9.153                0.921870875     -124.446427
9.154                0.921490243      -124.69708
9.155                0.921109683     -124.948272
9.156                 0.92072921     -125.200003
9.157                0.920348842     -125.452272
9.158                0.919968592      -125.70508
9.159                0.919588477     -125.958426
9.16                 0.919208513      -126.21231
9.161                0.918828715     -126.466731
9.162                0.918449101      -126.72169
9.163                0.918069685     -126.977186
9.164                0.917690484     -127.233218
9.165                0.917311515     -127.489786
9.166                0.916932793      -127.74689
9.167                0.916554336      -128.00453
9.168                0.916176159     -128.262704
9.169                 0.91579828     -128.521412
9.17                 0.915420714     -128.780655
9.171                0.915043479      -129.04043
9.172                0.914666592     -129.300739
9.173                0.914290069      -129.56158
9.174                0.913913928     -129.822952
9.175                0.913538185     -130.084856
9.176                0.913162857      -130.34729
9.177                0.912787963     -130.610254
9.178                0.912413518     -130.873747
9.179                 0.91203954     -131.137768
9.18                 0.911666047     -131.402317
9.181                0.911293056     -131.667393
9.182                0.910920585     -131.932995
9.183                 0.91054865     -132.199123
9.184                0.910177271     -132.465775
9.185                0.909806464     -132.732951
9.186                0.909436246     -133.000649
9.187                0.909066637      -133.26887
9.188                0.908697654     -133.537611
9.189                0.908329314     -133.806873
9.19                 0.907961635     -134.076653
9.191                0.907594637     -134.346952
9.192                0.907228336     -134.617768
9.193                 0.90686275     -134.889099
9.194                0.906497899     -135.160946
9.195                0.906133799     -135.433307
9.196                 0.90577047      -135.70618
9.197                0.905407929     -135.979565
9.198                0.905046195      -136.25346
9.199                0.904685287     -136.527864
9.2                  0.904325222     -136.802777
9.201                0.903966018     -137.078196
9.202                0.903607696      -137.35412
9.203                0.903250272     -137.630548
9.204                0.902893765      -137.90748
9.205                0.902538195     -138.184912
9.206                0.902183579     -138.462844
9.207                0.901829936     -138.741275
9.208                0.901477285     -139.020203
9.209                0.901125644     -139.299627
9.21                 0.900775032     -139.579544
9.211                0.900425468     -139.859955
9.212                 0.90007697     -140.140856
9.213                0.899729557     -140.422246
9.214                0.899383248     -140.704124
9.215                0.899038061     -140.986488
9.216                0.898694015     -141.269337
9.217                 0.89835113     -141.552668
9.218                0.898009423      -141.83648
9.219                0.897668913     -142.120771
9.22                 0.897329619      -142.40554
9.221                 0.89699156     -142.690784
9.222                0.896654755     -142.976501
9.223                0.896319222     -143.262691
9.224                 0.89598498      -143.54935
9.225                0.895652048     -143.836477
9.226                0.895320444      -144.12407
9.227                0.894990186     -144.412127
9.228                0.894661295     -144.700646
9.229                0.894333788     -144.989624
9.23                 0.894007683      -145.27906
9.231                   0.893683     -145.568952
9.232                0.893359758     -145.859297
9.233                0.893037973     -146.150093
9.234                0.892717666     -146.441338
9.235                0.892398854      -146.73303
9.236                0.892081556     -147.025166
9.237                 0.89176579     -147.317744
9.238                0.891451575     -147.610762
9.239                0.891138929     -147.904218
9.24                 0.890827869     -148.198108
9.241                0.890518416     -148.492431
9.242                0.890210585     -148.787184
9.243                0.889904397     -149.082364
9.244                0.889599868      -149.37797
9.245                0.889297016     -149.673998
9.246                0.888995861     -149.970445
9.247                0.888696418      -150.26731
9.248                0.888398707      -150.56459
9.249                0.888102745     -150.862282
9.25                  0.88780855     -151.160382
9.251                0.887516138     -151.458889
9.252                0.887225529       -151.7578
9.253                0.886936738     -152.057112
9.254                0.886649784     -152.356822
9.255                0.886364684     -152.656927
9.256                0.886081455     -152.957424
9.257                0.885800114      -153.25831
9.258                0.885520678     -153.559583
9.259                0.885243164      -153.86124
9.26                 0.884967588     -154.163276
9.261                0.884693969     -154.465691
9.262                0.884422321     -154.768479
9.263                0.884152662     -155.071638
9.264                0.883885009     -155.375166
9.265                0.883619376     -155.679058
9.266                0.883355782     -155.983312
9.267                0.883094241     -156.287925
9.268                0.882834769     -156.592893
9.269                0.882577383     -156.898212
9.27                 0.882322099     -157.203881
9.271                0.882068931     -157.509894
9.272                0.881817895     -157.816249
9.273                0.881569008     -158.122943
9.274                0.881322283     -158.429972
9.275                0.881077736     -158.737333
9.276                0.880835382     -159.045021
9.277                0.880595236     -159.353035
9.278                0.880357312     -159.661369
9.279                0.880121626     -159.970021
9.28                  0.87988819     -160.278987
9.281                0.879657021     -160.588263
9.282                0.879428131     -160.897846
9.283                0.879201535     -161.207732
9.284                0.878977246     -161.517917
9.285                0.878755278     -161.828398
9.286                0.878535645      -162.13917
9.287                 0.87831836     -162.450231
9.288                0.878103435     -162.761576
9.289                0.877890885     -163.073201
9.29                 0.877680722     -163.385103
9.291                0.877472958     -163.697277
9.292                0.877267606      -164.00972
9.293                0.877064678     -164.322429
9.294                0.876864187     -164.635398
9.295                0.876666143     -164.948623
9.296                 0.87647056     -165.262102
9.297                0.876277449      -165.57583
9.298                 0.87608682     -165.889803
9.299                0.875898686     -166.204016
9.3                  0.875713057     -166.518466
9.301                0.875529944     -166.833149
9.302                0.875349358      -167.14806
9.303                0.875171309     -167.463196
9.304                0.874995808     -167.778551
9.305                0.874822863     -168.094123
9.306                0.874652486     -168.409906
9.307                0.874484686     -168.725897
9.308                0.874319472     -169.042091
9.309                0.874156854     -169.358484
9.31                 0.873996841     -169.675071
9.311                 0.87383944     -169.991849
9.312                0.873684662     -170.308812
9.313                0.873532514     -170.625958
9.314                0.873383005      -170.94328
9.315                0.873236142     -171.260776
9.316                0.873091934      -171.57844
9.317                0.872950387     -171.896268
9.318                0.872811509     -172.214255
9.319                0.872675308     -172.532398
9.32                 0.872541789     -172.850691
9.321                 0.87241096     -173.169131
9.322                0.872282827     -173.487712
9.323                0.872157397     -173.806431
9.324                0.872034675     -174.125282
9.325                0.871914666     -174.444261
9.326                0.871797377     -174.763363
9.327                0.871682813     -175.082585
9.328                0.871570979     -175.401921
9.329                0.871461879     -175.721367
9.33                 0.871355518     -176.040917
9.331                  0.8712519     -176.360569
9.332                0.871151031     -176.680316
9.333                0.871052912     -177.000155
9.334                0.870957549      -177.32008
9.335                0.870864944     -177.640088
9.336                0.870775101     -177.960173
9.337                0.870688022      -178.28033
9.338                0.870603711     -178.600555
9.339                0.870522169     -178.920844
9.34                 0.870443399     -179.241191
9.341                0.870367402     -179.561592
9.342                0.870294182     -179.882042
9.343                0.870223738      179.797463
9.344                0.870156072      179.476929
9.345                0.870091186       179.15636
9.346                0.870029079       178.83576
9.347                0.869969754      178.515135
9.348                0.869913208       178.19449
9.349                0.869859444      177.873828
9.35                  0.86980846      177.553155
9.351                0.869760256      177.232475
9.352                0.869714832      176.911794
9.353                0.869672186      176.591115
9.354                0.869632317      176.270445
9.355                0.869595224      175.949786
9.356                0.869560905      175.629146
9.357                0.869529359      175.308527
9.358                0.869500582      174.987934
9.359                0.869474574      174.667374
9.36                  0.86945133      174.346849
9.361                0.869430849      174.026366
9.362                0.869413127      173.705928
9.363                0.869398161      173.385541
9.364                0.869385947       173.06521
9.365                0.869376482      172.744938
9.366                0.869369761      172.424731
9.367                 0.86936578      172.104593
9.368                0.869364535      171.784529
9.369                 0.86936602      171.464545
9.37                 0.869370232      171.144644
9.371                0.869377164      170.824831
9.372                0.869386812      170.505111
9.373                0.869399169      170.185489
9.374                 0.86941423      169.865969
9.375                0.869431988      169.546557
9.376                0.869452438      169.227256
9.377                0.869475573      168.908071
9.378                0.869501386      168.589008
9.379                0.869529869       168.27007
9.38                 0.869561017      167.951262
9.381                0.869594821      167.632589
9.382                0.869631273      167.314056
9.383                0.869670366      166.995667
9.384                0.869712092      166.677426
9.385                0.869756443      166.359339
9.386                0.869803409      166.041409
9.387                0.869852983      165.723642
9.388                0.869905155      165.406042
9.389                0.869959916      165.088613
9.39                 0.870017257      164.771359
9.391                0.870077168      164.454287
9.392                 0.87013964      164.137399
9.393                0.870204663        163.8207
9.394                0.870272227      163.504195
9.395                0.870342321      163.187887
9.396                0.870414935      162.871783
