! TOUCHSTONE file generated by CST DESIGN STUDIO
! Date and time: Tue Feb  4 12:42:34 2025
! Project name: C:\Work\MatlabApps\UnitCellOptimizationMatlab\CST\unitcell.cst
! Tree item: Tasks\Sweep1\SPara1\S-Parameters
! Header version: 2024
! Port assignment regex: !\s*Touchstone port\s*([0-9]+)\s*=\s*(CST MWS port|CST DES external port|CST DES block port)\s*(.+)\s* \(\"(.*)\"\)(\s*mode\s*([0-9]+))?.*
! Touchstone port assignment:
! Touchstone port 1 = CST DES external port 1 ("")
# GHz S MA R 50
9                    0.972593391     -67.5200063
9.001                0.972436162     -67.6229195
9.002                0.972278422     -67.7260699
9.003                0.972120172     -67.8294582
9.004                0.971961414     -67.9330851
9.005                0.971802146     -68.0369514
9.006                0.971642371      -68.141058
9.007                0.971482088     -68.2454056
9.008                0.971321298     -68.3499949
9.009                0.971160001     -68.4548269
9.01                 0.970998199     -68.5599022
9.011                0.970835892     -68.6652217
9.012                 0.97067308     -68.7707862
9.013                0.970509764     -68.8765964
9.014                0.970345945     -68.9826532
9.015                0.970181624     -69.0889574
9.016                  0.9700168     -69.1955099
9.017                0.969851475     -69.3023113
9.018                 0.96968565     -69.4093626
9.019                0.969519324     -69.5166646
9.02                 0.969352499      -69.624218
9.021                0.969185175     -69.7320238
9.022                0.969017354     -69.8400828
9.023                0.968849035     -69.9483957
9.024                0.968680219     -70.0569635
9.025                0.968510907      -70.165787
9.026                0.968341101      -70.274867
9.027                0.968170799     -70.3842044
9.028                0.968000004        -70.4938
9.029                0.967828716     -70.6036547
9.03                 0.967656936     -70.7137694
9.031                0.967484664     -70.8241449
9.032                0.967311901     -70.9347821
9.033                0.967138648     -71.0456818
9.034                0.966964905      -71.156845
9.035                0.966790675     -71.2682725
9.036                0.966615956     -71.3799652
9.037                 0.96644075      -71.491924
9.038                0.966265059     -71.6041497
9.039                0.966088882     -71.7166433
9.04                  0.96591222     -71.8294057
9.041                0.965735074     -71.9424377
9.042                0.965557446     -72.0557403
9.043                0.965379335     -72.1693143
9.044                0.965200743     -72.2831608
9.045                 0.96502167     -72.3972805
9.046                0.964842118     -72.5116744
9.047                0.964662087     -72.6263434
9.048                0.964481578     -72.7412885
9.049                0.964300592     -72.8565106
9.05                  0.96411913     -72.9720106
9.051                0.963937193     -73.0877894
9.052                0.963754781      -73.203848
9.053                0.963571896     -73.3201874
9.054                0.963388538     -73.4368084
9.055                0.963204708      -73.553712
9.056                0.963020407     -73.6708991
9.057                0.962835637     -73.7883708
9.058                0.962650398      -73.906128
9.059                0.962464691     -74.0241716
9.06                 0.962278516     -74.1425027
9.061                0.962091876     -74.2611221
9.062                 0.96190477     -74.3800308
9.063                0.961717201     -74.4992299
9.064                0.961529168     -74.6187203
9.065                0.961340673      -74.738503
9.066                0.961151717      -74.858579
9.067                  0.9609623     -74.9789492
9.068                0.960772425     -75.0996147
9.069                0.960582091     -75.2205765
9.07                   0.9603913     -75.3418355
9.071                0.960200053     -75.4633928
9.072                0.960008351     -75.5852493
9.073                0.959816195     -75.7074062
9.074                0.959623587     -75.8298643
9.075                0.959430526     -75.9526248
9.076                0.959237014     -76.0756886
9.077                0.959043053     -76.1990568
9.078                0.958848643     -76.3227304
9.079                0.958653786     -76.4467104
9.08                 0.958458482     -76.5709979
9.081                0.958262733     -76.6955939
9.082                 0.95806654     -76.8204994
9.083                0.957869904     -76.9457156
9.084                0.957672826     -77.0712433
9.085                0.957475308     -77.1970838
9.086                 0.95727735     -77.3232381
9.087                0.957078953     -77.4497071
9.088                 0.95688012     -77.5764921
9.089                 0.95668085      -77.703594
9.09                 0.956481146     -77.8310139
9.091                0.956281008     -77.9587529
9.092                0.956080438     -78.0868121
9.093                0.955879437     -78.2151926
9.094                0.955678006     -78.3438954
9.095                0.955476146     -78.4729216
9.096                0.955273859     -78.6022724
9.097                0.955071146     -78.7319487
9.098                0.954868008     -78.8619518
9.099                0.954664447     -78.9922827
9.1                  0.954460464     -79.1229425
9.101                 0.95425606     -79.2539324
9.102                0.954051236     -79.3852534
9.103                0.953845994     -79.5169066
9.104                0.953640335     -79.6488933
9.105                0.953434261     -79.7812144
9.106                0.953227773     -79.9138712
9.107                0.953020872     -80.0468647
9.108                 0.95281356     -80.1801961
9.109                0.952605838     -80.3138665
9.11                 0.952397707     -80.4478771
9.111                0.952189169      -80.582229
9.112                0.951980226     -80.7169234
9.113                0.951770878     -80.8519613
9.114                0.951561128      -80.987344
9.115                0.951350976     -81.1230726
9.116                0.951140425     -81.2591482
9.117                0.950929476     -81.3955721
9.118                0.950718129     -81.5323453
9.119                0.950506388     -81.6694692
9.12                 0.950294253     -81.8069447
9.121                0.950081726     -81.9447731
9.122                0.949868808     -82.0829556
9.123                0.949655501     -82.2214934
9.124                0.949441807     -82.3603876
9.125                0.949227727     -82.4996395
9.126                0.949013263     -82.6392501
9.127                0.948798416     -82.7792208
9.128                0.948583188     -82.9195527
9.129                0.948367582     -83.0602469
9.13                 0.948151597     -83.2013048
9.131                0.947935237     -83.3427275
9.132                0.947718503     -83.4845162
9.133                0.947501396     -83.6266721
9.134                0.947283918     -83.7691964
9.135                0.947066072     -83.9120904
9.136                0.946847858     -84.0553553
9.137                0.946629279     -84.1989923
9.138                0.946410336     -84.3430026
9.139                0.946191031     -84.4873874
9.14                 0.945971367      -84.632148
9.141                0.945751344     -84.7772856
9.142                0.945530965     -84.9228014
9.143                0.945310231     -85.0686968
9.144                0.945089145     -85.2149728
9.145                0.944867708     -85.3616308
9.146                0.944645923     -85.5086721
9.147                 0.94442379     -85.6560977
9.148                0.944201313     -85.8039091
9.149                0.943978493     -85.9521075
9.15                 0.943755332      -86.100694
9.151                0.943531832     -86.2496701
9.152                0.943307995     -86.3990368
9.153                0.943083824     -86.5487956
9.154                 0.94285932     -86.6989476
9.155                0.942634485     -86.8494942
9.156                0.942409321     -87.0004365
9.157                0.942183831     -87.1517759
9.158                0.941958017     -87.3035137
9.159                 0.94173188     -87.4556511
9.16                 0.941505424     -87.6081894
9.161                 0.94127865     -87.7611299
9.162                 0.94105156     -87.9144738
9.163                0.940824157     -88.0682225
9.164                0.940596442     -88.2223772
9.165                0.940368419     -88.3769393
9.166                 0.94014009     -88.5319099
9.167                0.939911456     -88.6872905
9.168                 0.93968252     -88.8430822
9.169                0.939453285     -88.9992865
9.17                 0.939223752     -89.1559045
9.171                0.938993925     -89.3129377
9.172                0.938763806     -89.4703872
9.173                0.938533396     -89.6282544
9.174                0.938302699     -89.7865407
9.175                0.938071718     -89.9452472
9.176                0.937840453     -90.1043753
9.177                0.937608909     -90.2639264
9.178                0.937377088     -90.4239017
9.179                0.937144992     -90.5843025
9.18                 0.936912623     -90.7451302
9.181                0.936679985     -90.9063861
9.182                0.936447081     -91.0680714
9.183                0.936213912     -91.2301875
9.184                0.935980481     -91.3927358
9.185                0.935746792     -91.5557175
9.186                0.935512847     -91.7191339
9.187                0.935278648     -91.8829864
9.188                0.935044199     -92.0472763
9.189                0.934809503     -92.2120049
9.19                 0.934574561     -92.3771735
9.191                0.934339378     -92.5427835
9.192                0.934103956     -92.7088361
9.193                0.933868297     -92.8753328
9.194                0.933632406     -93.0422748
9.195                0.933396284     -93.2096634
9.196                0.933159935     -93.3775001
9.197                0.932923363      -93.545786
9.198                0.932686569     -93.7145225
9.199                0.932449557      -93.883711
9.2                  0.932212331     -94.0533528
9.201                0.931974893     -94.2234492
9.202                0.931737246     -94.3940015
9.203                0.931499394     -94.5650111
9.204                0.931261341     -94.7364792
9.205                0.931023088     -94.9084072
9.206                 0.93078464     -95.0807965
9.207                   0.930546     -95.2536483
9.208                0.930307171      -95.426964
9.209                0.930068157     -95.6007449
9.21                 0.929828961     -95.7749923
9.211                0.929589587     -95.9497076
9.212                0.929350037      -96.124892
9.213                0.929110317     -96.3005469
9.214                0.928870428     -96.4766736
9.215                0.928630375     -96.6532734
9.216                0.928390161     -96.8303476
9.217                 0.92814979     -97.0078976
9.218                0.927909265     -97.1859247
9.219                0.927668591     -97.3644301
9.22                 0.927427771     -97.5434152
9.221                0.927186809     -97.7228813
9.222                0.926945709     -97.9028298
9.223                0.926704474     -98.0832618
9.224                0.926463108     -98.2641787
9.225                0.926221616     -98.4455819
9.226                0.925980001     -98.6274726
9.227                0.925738268     -98.8098521
9.228                0.925496419     -98.9927217
9.229                 0.92525446     -99.1760827
9.23                 0.925012395     -99.3599364
9.231                0.924770227     -99.5442841
9.232                 0.92452796      -99.729127
9.233                  0.9242856     -99.9144665
9.234                 0.92404315     -100.100304
9.235                0.923800614      -100.28664
9.236                0.923557998     -100.473477
9.237                0.923315304     -100.660816
9.238                0.923072538     -100.848657
9.239                0.922829704     -101.037003
9.24                 0.922586807     -101.225854
9.241                 0.92234385     -101.415211
9.242                0.922100839     -101.605077
9.243                0.921857779     -101.795452
9.244                0.921614673     -101.986337
9.245                0.921371526     -102.177734
9.246                0.921128344     -102.369644
9.247                0.920885131     -102.562068
9.248                0.920641891     -102.755008
9.249                 0.92039863     -102.948464
9.25                 0.920155352     -103.142438
9.251                0.919912063     -103.336931
9.252                0.919668767     -103.531944
9.253                 0.91942547     -103.727479
9.254                0.919182176     -103.923537
9.255                 0.91893889     -104.120118
9.256                0.918695618     -104.317224
9.257                0.918452365     -104.514857
9.258                0.918209136     -104.713017
9.259                0.917965936     -104.911705
9.26                 0.917722771     -105.110923
9.261                0.917479645     -105.310673
9.262                0.917236565     -105.510954
9.263                0.916993536     -105.711768
9.264                0.916750563     -105.913117
9.265                0.916507652     -106.115001
9.266                0.916264808     -106.317422
9.267                0.916022038      -106.52038
9.268                0.915779346     -106.723878
9.269                0.915536738     -106.927915
9.27                 0.915294221     -107.132493
9.271                0.915051799     -107.337614
9.272                0.914809479     -107.543277
9.273                0.914567267     -107.749485
9.274                0.914325169     -107.956239
9.275                 0.91408319     -108.163538
9.276                0.913841337     -108.371385
9.277                0.913599616     -108.579781
9.278                0.913358033     -108.788726
9.279                0.913116593     -108.998221
9.28                 0.912875305     -109.208269
9.281                0.912634172     -109.418868
9.282                0.912393203     -109.630022
9.283                0.912152403     -109.841729
9.284                0.911911778     -110.053993
9.285                0.911671336     -110.266813
9.286                0.911431083      -110.48019
9.287                0.911191024     -110.694125
9.288                0.910951168      -110.90862
9.289                 0.91071152     -111.123676
9.29                 0.910472088     -111.339292
9.291                0.910232878      -111.55547
9.292                0.909993896     -111.772212
9.293                 0.90975515     -111.989517
9.294                0.909516647     -112.207387
9.295                0.909278393     -112.425822
9.296                0.909040396     -112.644824
9.297                0.908802663     -112.864393
9.298                  0.9085652      -113.08453
9.299                0.908328015     -113.305236
9.3                  0.908091116     -113.526512
9.301                0.907854509     -113.748358
9.302                0.907618201     -113.970775
9.303                0.907382201     -114.193765
9.304                0.907146515     -114.417327
9.305                0.906911151     -114.641462
9.306                0.906676116     -114.866172
9.307                0.906441418     -115.091456
9.308                0.906207065     -115.317316
9.309                0.905973064     -115.543753
9.31                 0.905739424     -115.770766
9.311                 0.90550615     -115.998357
9.312                0.905273253     -116.226526
9.313                0.905040738     -116.455273
9.314                0.904808615       -116.6846
9.315                0.904576891     -116.914507
9.316                0.904345575     -117.144995
9.317                0.904114673     -117.376064
9.318                0.903884195     -117.607714
9.319                0.903654148     -117.839946
9.32                 0.903424542     -118.072761
9.321                0.903195383      -118.30616
9.322                 0.90296668     -118.540141
9.323                0.902738442     -118.774707
9.324                0.902510676     -119.009858
9.325                0.902283392     -119.245593
9.326                0.902056598     -119.481913
9.327                0.901830303      -119.71882
9.328                0.901604514     -119.956312
9.329                0.901379241      -120.19439
9.33                 0.901154492     -120.433056
9.331                0.900930276     -120.672308
9.332                0.900706601     -120.912148
9.333                0.900483478     -121.152575
9.334                0.900260913      -121.39359
9.335                0.900038917     -121.635193
9.336                0.899817498     -121.877384
9.337                0.899596665     -122.120164
9.338                0.899376428     -122.363533
9.339                0.899156794      -122.60749
9.34                 0.898937774     -122.852036
9.341                0.898719377     -123.097171
9.342                0.898501611     -123.342895
9.343                0.898284486     -123.589208
9.344                0.898068011     -123.836111
9.345                0.897852196     -124.083602
9.346                 0.89763705     -124.331683
9.347                0.897422582     -124.580353
9.348                0.897208802     -124.829612
9.349                0.896995719      -125.07946
9.35                 0.896783343     -125.329897
9.351                0.896571683     -125.580922
9.352                0.896360749     -125.832537
9.353                0.896150551      -126.08474
9.354                0.895941097     -126.337531
9.355                0.895732399      -126.59091
9.356                0.895524465     -126.844878
9.357                0.895317305     -127.099432
9.358                 0.89511093     -127.354574
9.359                0.894905348     -127.610303
9.36                 0.894700571     -127.866619
9.361                0.894496607     -128.123521
9.362                0.894293466     -128.381009
9.363                 0.89409116     -128.639082
9.364                0.893889696     -128.897741
9.365                0.893689087     -129.156984
9.366                0.893489341     -129.416811
9.367                0.893290469     -129.677221
9.368                 0.89309248     -129.938215
9.369                0.892895386     -130.199791
9.37                 0.892699195     -130.461948
9.371                0.892503919     -130.724687
9.372                0.892309567     -130.988007
9.373                0.892116149     -131.251906
9.374                0.891923677     -131.516384
9.375                0.891732159     -131.781441
9.376                0.891541607     -132.047075
9.377                 0.89135203     -132.313286
9.378                 0.89116344     -132.580073
9.379                0.890975845     -132.847435
9.38                 0.890789257     -133.115372
9.381                0.890603686     -133.383881
9.382                0.890419142     -133.652963
9.383                0.890235636     -133.922616
9.384                0.890053177      -134.19284
9.385                0.889871777     -134.463633
9.386                0.889691446     -134.734994
9.387                0.889512194     -135.006922
9.388                0.889334031     -135.279416
9.389                0.889156968     -135.552475
9.39                 0.888981016     -135.826098
9.391                0.888806184     -136.100283
9.392                0.888632484     -136.375029
9.393                0.888459925     -136.650335
9.394                0.888288518     -136.926199
9.395                0.888118274     -137.202621
9.396                0.887949202     -137.479598
