! TOUCHSTONE file generated by CST DESIGN STUDIO
! Date and time: Tue Feb  4 12:42:31 2025
! Project name: C:\Work\MatlabApps\UnitCellOptimizationMatlab\CST\unitcell.cst
! Tree item: Tasks\Sweep1\SPara1\S-Parameters
! Header version: 2024
! Port assignment regex: !\s*Touchstone port\s*([0-9]+)\s*=\s*(CST MWS port|CST DES external port|CST DES block port)\s*(.+)\s* \(\"(.*)\"\)(\s*mode\s*([0-9]+))?.*
! Touchstone port assignment:
! Touchstone port 1 = CST DES external port 1 ("")
# GHz S MA R 50
9                     0.97208044     -74.7182584
9.001                0.971896941     -74.8403418
9.002                0.971712749     -74.9627193
9.003                0.971527863     -75.0853918
9.004                0.971342285     -75.2083603
9.005                0.971156015     -75.3316257
9.006                0.970969053     -75.4551888
9.007                0.970781401     -75.5790508
9.008                0.970593058     -75.7032124
9.009                0.970404025     -75.8276747
9.01                 0.970214304     -75.9524386
9.011                0.970023894      -76.077505
9.012                0.969832796      -76.202875
9.013                0.969641011     -76.3285494
9.014                0.969448539     -76.4545293
9.015                0.969255382     -76.5808155
9.016                 0.96906154     -76.7074092
9.017                0.968867013     -76.8343111
9.018                0.968671802     -76.9615224
9.019                0.968475909      -77.089044
9.02                 0.968279333     -77.2168768
9.021                0.968082076     -77.3450219
9.022                0.967884139     -77.4734803
9.023                0.967685522     -77.6022529
9.024                0.967486225     -77.7313407
9.025                0.967286251     -77.8607448
9.026                0.967085599     -77.9904661
9.027                0.966884271     -78.1205056
9.028                0.966682267     -78.2508644
9.029                0.966479589     -78.3815435
9.03                 0.966276236     -78.5125438
9.031                0.966072211     -78.6438663
9.032                0.965867514     -78.7755122
9.033                0.965662146     -78.9074824
9.034                0.965456108      -79.039778
9.035                0.965249401        -79.1724
9.036                0.965042026     -79.3053493
9.037                0.964833983     -79.4386271
9.038                0.964625275     -79.5722344
9.039                0.964415902     -79.7061722
9.04                 0.964205865     -79.8404416
9.041                0.963995166     -79.9750436
9.042                0.963783805     -80.1099793
9.043                0.963571783     -80.2452497
9.044                0.963359101     -80.3808558
9.045                0.963145762     -80.5167988
9.046                0.962931765     -80.6530798
9.047                0.962717113     -80.7896996
9.048                0.962501805     -80.9266595
9.049                0.962285845     -81.0639605
9.05                 0.962069232     -81.2016037
9.051                0.961851968     -81.3395901
9.052                0.961634054     -81.4779209
9.053                0.961415492     -81.6165971
9.054                0.961196283     -81.7556198
9.055                0.960976428       -81.89499
9.056                0.960755929      -82.034709
9.057                0.960534786     -82.1747777
9.058                0.960313002     -82.3151973
9.059                0.960090578     -82.4559689
9.06                 0.959867515     -82.5970936
9.061                0.959643815     -82.7385724
9.062                0.959419479     -82.8804066
9.063                0.959194508     -83.0225971
9.064                0.958968905     -83.1651452
9.065                 0.95874267     -83.3080519
9.066                0.958515806     -83.4513183
9.067                0.958288313     -83.5949456
9.068                0.958060194     -83.7389349
9.069                0.957831449     -83.8832874
9.07                 0.957602082     -84.0280041
9.071                0.957372092     -84.1730862
9.072                0.957141483     -84.3185348
9.073                0.956910255     -84.4643511
9.074                0.956678411     -84.6105362
9.075                0.956445952     -84.7570912
9.076                 0.95621288     -84.9040173
9.077                0.955979196     -85.0513157
9.078                0.955744903     -85.1989874
9.079                0.955510003     -85.3470337
9.08                 0.955274496     -85.4954557
9.081                0.955038386     -85.6442545
9.082                0.954801674     -85.7934314
9.083                0.954564362     -85.9429874
9.084                0.954326452     -86.0929238
9.085                0.954087945     -86.2432416
9.086                0.953848845     -86.3939422
9.087                0.953609153     -86.5450266
9.088                 0.95336887      -86.696496
9.089                   0.953128     -86.8483517
9.09                 0.952886544     -87.0005947
9.091                0.952644504     -87.1532262
9.092                0.952401882     -87.3062475
9.093                0.952158682     -87.4596597
9.094                0.951914904      -87.613464
9.095                0.951670551     -87.7676617
9.096                0.951425625     -87.9222538
9.097                 0.95118013     -88.0772415
9.098                0.950934066     -88.2326262
9.099                0.950687436     -88.3884089
9.1                  0.950440244     -88.5445909
9.101                 0.95019249     -88.7011733
9.102                0.949944178     -88.8581574
9.103                 0.94969531     -89.0155444
9.104                0.949445888     -89.1733354
9.105                0.949195915     -89.3315317
9.106                0.948945394     -89.4901345
9.107                0.948694326      -89.649145
9.108                0.948442716     -89.8085643
9.109                0.948190565     -89.9683938
9.11                 0.947937875     -90.1286346
9.111                0.947684651      -90.289288
9.112                0.947430893     -90.4503551
9.113                0.947176606     -90.6118372
9.114                0.946921792     -90.7737355
9.115                0.946666453     -90.9360512
9.116                0.946410593     -91.0987855
9.117                0.946154215     -91.2619397
9.118                0.945897321     -91.4255149
9.119                0.945639914     -91.5895125
9.12                 0.945381997     -91.7539335
9.121                0.945123574     -91.9187794
9.122                0.944864647     -92.0840512
9.123                0.944605219     -92.2497502
9.124                0.944345294     -92.4158776
9.125                0.944084874     -92.5824347
9.126                0.943823963     -92.7494227
9.127                0.943562564     -92.9168428
9.128                0.943300681     -93.0846962
9.129                0.943038315     -93.2529842
9.13                 0.942775472     -93.4217081
9.131                0.942512154     -93.5908689
9.132                0.942248364     -93.7604681
9.133                0.941984107     -93.9305067
9.134                0.941719384     -94.1009861
9.135                0.941454201     -94.2719075
9.136                 0.94118856      -94.443272
9.137                0.940922465      -94.615081
9.138                 0.94065592     -94.7873357
9.139                0.940388928     -94.9600372
9.14                 0.940121492     -95.1331869
9.141                0.939853618     -95.3067859
9.142                0.939585308     -95.4808355
9.143                0.939316566      -95.655337
9.144                0.939047396     -95.8302914
9.145                0.938777801     -96.0057002
9.146                0.938507787     -96.1815645
9.147                0.938237356     -96.3578855
9.148                0.937966513     -96.5346645
9.149                0.937695262     -96.7119026
9.15                 0.937423607     -96.8896012
9.151                0.937151551     -97.0677614
9.152                  0.9368791     -97.2463844
9.153                0.936606257     -97.4254716
9.154                0.936333026      -97.605024
9.155                0.936059412      -97.785043
9.156                0.935785419     -97.9655297
9.157                0.935511052     -98.1464854
9.158                0.935236315     -98.3279112
9.159                0.934961212     -98.5098084
9.16                 0.934685747     -98.6921782
9.161                0.934409926     -98.8750218
9.162                0.934133753     -99.0583404
9.163                0.933857233     -99.2421352
9.164                 0.93358037     -99.4264075
9.165                0.933303169     -99.6111583
9.166                0.933025634      -99.796389
9.167                0.932747771     -99.9821007
9.168                0.932469584     -100.168295
9.169                0.932191079     -100.354972
9.17                  0.93191226     -100.542134
9.171                0.931633131     -100.729781
9.172                  0.9313537     -100.917916
9.173                0.931073969     -101.106539
9.174                0.930793945     -101.295651
9.175                0.930513633     -101.485253
9.176                0.930233037     -101.675347
9.177                0.929952163     -101.865934
9.178                0.929671017     -102.057015
9.179                0.929389604     -102.248591
9.18                 0.929107929     -102.440664
9.181                0.928825998     -102.633234
9.182                0.928543816     -102.826302
9.183                0.928261389      -103.01987
9.184                0.927978722     -103.213939
9.185                0.927695821      -103.40851
9.186                0.927412693     -103.603585
9.187                0.927129342     -103.799163
9.188                0.926845774     -103.995247
9.189                0.926561995     -104.191837
9.19                 0.926278012     -104.388935
9.191                 0.92599383     -104.586542
9.192                0.925709456     -104.784658
9.193                0.925424894     -104.983286
9.194                0.925140152     -105.182425
9.195                0.924855236     -105.382078
9.196                0.924570152     -105.582244
9.197                0.924284906     -105.782926
9.198                0.923999504     -105.984124
9.199                0.923713954      -106.18584
9.2                  0.923428261     -106.388074
9.201                0.923142432     -106.590828
9.202                0.922856473     -106.794102
9.203                0.922570392     -106.997897
9.204                0.922284194     -107.202215
9.205                0.921997887     -107.407057
9.206                0.921711478     -107.612424
9.207                0.921424972     -107.818316
9.208                0.921138378     -108.024734
9.209                0.920851702     -108.231681
9.21                 0.920564951     -108.439156
9.211                0.920278132      -108.64716
9.212                0.919991252     -108.855695
9.213                0.919704319     -109.064762
9.214                0.919417339     -109.274361
9.215                 0.91913032     -109.484494
9.216                 0.91884327      -109.69516
9.217                0.918556195     -109.906363
9.218                0.918269104     -110.118101
9.219                0.917982004     -110.330377
9.22                 0.917694901      -110.54319
9.221                0.917407805     -110.756543
9.222                0.917120722     -110.970435
9.223                0.916833661     -111.184868
9.224                0.916546629     -111.399842
9.225                0.916259634     -111.615359
9.226                0.915972685     -111.831419
9.227                0.915685788     -112.048023
9.228                0.915398952     -112.265172
9.229                0.915112185     -112.482867
9.23                 0.914825496     -112.701108
9.231                0.914538893     -112.919897
9.232                0.914252383     -113.139234
9.233                0.913965975     -113.359119
9.234                0.913679678     -113.579554
9.235                  0.9133935      -113.80054
9.236                 0.91310745     -114.022076
9.237                0.912821535     -114.244164
9.238                0.912535765     -114.466805
9.239                0.912250149     -114.689999
9.24                 0.911964695     -114.913747
9.241                0.911679412      -115.13805
9.242                0.911394309     -115.362908
9.243                0.911109394     -115.588321
9.244                0.910824677     -115.814291
9.245                0.910540167     -116.040819
9.246                0.910255873     -116.267904
9.247                0.909971803     -116.495547
9.248                0.909687968     -116.723749
9.249                0.909404377     -116.952511
9.25                 0.909121038     -117.181833
9.251                0.908837961     -117.411715
9.252                0.908555156     -117.642159
9.253                0.908272632     -117.873164
9.254                0.907990398     -118.104731
9.255                0.907708465     -118.336861
9.256                0.907426842     -118.569553
9.257                0.907145538      -118.80281
9.258                0.906864563      -119.03663
9.259                0.906583928     -119.271014
9.26                 0.906303641     -119.505963
9.261                0.906023714     -119.741477
9.262                0.905744155     -119.977557
9.263                0.905464975     -120.214203
9.264                0.905186184     -120.451414
9.265                0.904907793     -120.689193
9.266                 0.90462981     -120.927537
9.267                0.904352248     -121.166449
9.268                0.904075115     -121.405929
9.269                0.903798422     -121.645975
9.27                 0.903522179      -121.88659
9.271                0.903246398     -122.127773
9.272                0.902971088     -122.369523
9.273                 0.90269626     -122.611842
9.274                0.902421924      -122.85473
9.275                0.902148092     -123.098186
9.276                0.901874773     -123.342211
9.277                0.901601979     -123.586805
9.278                 0.90132972     -123.831968
9.279                0.901058006       -124.0777
9.28                  0.90078685     -124.324001
9.281                0.900516261      -124.57087
9.282                0.900246251     -124.818309
9.283                 0.89997683     -125.066317
9.284                 0.89970801     -125.314894
9.285                0.899439801      -125.56404
9.286                0.899172214     -125.813755
9.287                0.898905261     -126.064038
9.288                0.898638953      -126.31489
9.289                  0.8983733      -126.56631
9.29                 0.898108315     -126.818299
9.291                0.897844007     -127.070856
9.292                0.897580389     -127.323981
9.293                0.897317471     -127.577673
9.294                0.897055264     -127.831933
9.295                0.896793781      -128.08676
9.296                0.896533032     -128.342154
9.297                0.896273029     -128.598114
9.298                0.896013782     -128.854641
9.299                0.895755304     -129.111733
9.3                  0.895497604     -129.369391
9.301                0.895240696     -129.627614
9.302                 0.89498459     -129.886401
9.303                0.894729297     -130.145753
9.304                0.894474829     -130.405668
9.305                0.894221196     -130.666146
9.306                0.893968411     -130.927187
9.307                0.893716484     -131.188791
9.308                0.893465427     -131.450955
9.309                0.893215251     -131.713681
9.31                 0.892965967     -131.976967
9.311                0.892717586     -132.240813
9.312                0.892470119     -132.505218
9.313                0.892223578     -132.770181
9.314                0.891977973     -133.035702
9.315                0.891733314      -133.30178
9.316                0.891489614     -133.568414
9.317                0.891246883     -133.835604
9.318                 0.89100513     -134.103348
9.319                0.890764368     -134.371647
9.32                 0.890524605     -134.640498
9.321                0.890285854     -134.909902
9.322                0.890048123     -135.179857
9.323                0.889811422     -135.450362
9.324                0.889575762     -135.721418
9.325                0.889341152     -135.993022
9.326                0.889107602     -136.265174
9.327                 0.88887512     -136.537872
9.328                0.888643716     -136.811117
9.329                0.888413398     -137.084906
9.33                 0.888184175      -137.35924
9.331                0.887956054     -137.634116
9.332                0.887729043     -137.909535
9.333                 0.88750315     -138.185494
9.334                 0.88727838     -138.461994
9.335                 0.88705474     -138.739032
9.336                0.886832236     -139.016609
9.337                0.886610872     -139.294722
9.338                0.886390653     -139.573372
9.339                0.886171582     -139.852556
9.34                 0.885953661     -140.132275
9.341                0.885736891     -140.412526
9.342                0.885521273      -140.69331
9.343                0.885306806     -140.974625
9.344                0.885093487      -141.25647
9.345                0.884881311     -141.538845
9.346                0.884670272     -141.821749
9.347                0.884460362     -142.105181
9.348                0.884251569      -142.38914
9.349                 0.88404388     -142.673626
9.35                 0.883837276     -142.958639
9.351                0.883631736     -143.244178
9.352                0.883427235     -143.530242
9.353                 0.88322374     -143.816833
9.354                0.883021214     -144.103949
9.355                0.882819611     -144.391591
9.356                0.882618877     -144.679761
9.357                0.882418947     -144.968457
9.358                0.882219743     -145.257682
9.359                0.882021172     -145.547437
9.36                 0.881823122     -145.837723
9.361                0.881625459     -146.128543
9.362                0.881428018     -146.419898
9.363                0.881230603     -146.711793
9.364                0.881032969     -147.004229
9.365                 0.88083482     -147.297211
9.366                0.880635788     -147.590742
9.367                0.880435414     -147.884826
9.368                0.880233122     -148.179467
9.369                0.880028184     -148.474666
9.37                  0.87981967     -148.770422
9.371                0.879606383     -149.066729
9.372                0.879386769      -149.36357
9.373                0.879158801     -149.660914
9.374                0.878919818     -149.958696
9.375                0.878666347     -150.256798
9.376                0.878393915      -150.55501
9.377                0.878097002     -150.852953
9.378                0.877769506     -151.149962
9.379                0.877406669     -151.444898
9.38                 0.877010613     -151.735926
9.381                0.876602737     -152.020511
9.382                0.876242463     -152.296377
9.383                0.876030741     -152.564388
9.384                 0.87605155      -152.83156
9.385                 0.87627496     -153.107967
9.386                 0.87656839     -153.398369
9.387                0.876815331     -153.700172
9.388                0.876972786     -154.008373
9.389                0.877046369     -154.319214
9.39                 0.877056539     -154.630692
9.391                0.877022793     -154.941954
9.392                0.876959742     -155.252727
9.393                0.876877459     -155.562992
9.394                0.876782688     -155.872827
9.395                0.876679926     -156.182336
9.396                0.876572189     -156.491623
