! TOUCHSTONE file generated by CST DESIGN STUDIO
! Date and time: Tue Feb  4 12:42:33 2025
! Project name: C:\Work\MatlabApps\UnitCellOptimizationMatlab\CST\unitcell.cst
! Tree item: Tasks\Sweep1\SPara1\S-Parameters
! Header version: 2024
! Port assignment regex: !\s*Touchstone port\s*([0-9]+)\s*=\s*(CST MWS port|CST DES external port|CST DES block port)\s*(.+)\s* \(\"(.*)\"\)(\s*mode\s*([0-9]+))?.*
! Touchstone port assignment:
! Touchstone port 1 = CST DES external port 1 ("")
# GHz S MA R 50
9                    0.972293775     -71.0454881
9.001                0.972122939      -71.157512
9.002                0.971951517     -71.2698008
9.003                 0.97177951     -71.3823554
9.004                 0.97160692     -71.4951768
9.005                0.971433746     -71.6082657
9.006                0.971259988     -71.7216231
9.007                0.971085647     -71.8352497
9.008                0.970910724     -71.9491465
9.009                0.970735219     -72.0633143
9.01                 0.970559132      -72.177754
9.011                0.970382464     -72.2924665
9.012                0.970205216     -72.4074526
9.013                0.970027387     -72.5227133
9.014                0.969848978     -72.6382493
9.015                0.969669989     -72.7540617
9.016                0.969490422     -72.8701513
9.017                0.969310277      -72.986519
9.018                0.969129554     -73.1031657
9.019                0.968948254     -73.2200923
9.02                 0.968766377     -73.3372996
9.021                0.968583924     -73.4547887
9.022                0.968400895     -73.5725605
9.023                0.968217291     -73.6906157
9.024                0.968033113     -73.8089555
9.025                0.967848361     -73.9275806
9.026                0.967663036      -74.046492
9.027                0.967477138     -74.1656907
9.028                0.967290668     -74.2851775
9.029                0.967103626     -74.4049535
9.03                 0.966916014     -74.5250194
9.031                0.966727832     -74.6453764
9.032                0.966539081     -74.7660253
9.033                0.966349761     -74.8869671
9.034                0.966159873     -75.0082027
9.035                0.965969417     -75.1297332
9.036                0.965778396     -75.2515593
9.037                0.965586808     -75.3736822
9.038                0.965394655     -75.4961027
9.039                0.965201938     -75.6188219
9.04                 0.965008657     -75.7418408
9.041                0.964814813     -75.8651602
9.042                0.964620407     -75.9887811
9.043                0.964425441     -76.1127047
9.044                0.964229913     -76.2369317
9.045                0.964033826     -76.3614633
9.046                0.963837181     -76.4863004
9.047                0.963639977     -76.6114441
9.048                0.963442217     -76.7368952
9.049                  0.9632439     -76.8626549
9.05                 0.963045028     -76.9887241
9.051                0.962845601     -77.1151038
9.052                0.962645622      -77.241795
9.053                0.962445089     -77.3687988
9.054                0.962244005     -77.4961162
9.055                0.962042371     -77.6237482
9.056                0.961840186     -77.7516958
9.057                0.961637453       -77.87996
9.058                0.961434172      -78.008542
9.059                0.961230345     -78.1374426
9.06                 0.961025972      -78.266663
9.061                0.960821054     -78.3962042
9.062                0.960615593     -78.5260673
9.063                0.960409589     -78.6562532
9.064                0.960203043     -78.7867631
9.065                0.959995957     -78.9175979
9.066                0.959788332     -79.0487589
9.067                0.959580169     -79.1802469
9.068                0.959371469     -79.3120631
9.069                0.959162232     -79.4442085
9.07                 0.958952462     -79.5766843
9.071                0.958742157     -79.7094915
9.072                 0.95853132     -79.8426311
9.073                0.958319952     -79.9761042
9.074                0.958108054      -80.109912
9.075                0.957895628     -80.2440555
9.076                0.957682674     -80.3785359
9.077                0.957469193     -80.5133541
9.078                0.957255188     -80.6485113
9.079                0.957040659     -80.7840086
9.08                 0.956825608      -80.919847
9.081                0.956610036     -81.0560278
9.082                0.956393945      -81.192552
9.083                0.956177335     -81.3294207
9.084                0.955960208     -81.4666351
9.085                0.955742566     -81.6041962
9.086                 0.95552441     -81.7421051
9.087                0.955305741     -81.8803631
9.088                0.955086561     -82.0189712
9.089                0.954866871     -82.1579305
9.09                 0.954646673     -82.2972422
9.091                0.954425968     -82.4369074
9.092                0.954204759     -82.5769273
9.093                0.953983045      -82.717303
9.094                0.953760829     -82.8580356
9.095                0.953538113     -82.9991263
9.096                0.953314898     -83.1405763
9.097                0.953091185     -83.2823866
9.098                0.952866977     -83.4245585
9.099                0.952642274     -83.5670931
9.1                  0.952417079     -83.7099915
9.101                0.952191394      -83.853255
9.102                0.951965219     -83.9968847
9.103                0.951738557     -84.1408817
9.104                0.951511409     -84.2852473
9.105                0.951283778     -84.4299826
9.106                0.951055664     -84.5750887
9.107                 0.95082707      -84.720567
9.108                0.950597998     -84.8664185
9.109                0.950368449     -85.0126444
9.11                 0.950138426      -85.159246
9.111                0.949907929     -85.3062244
9.112                0.949676962     -85.4535807
9.113                0.949445525     -85.6013163
9.114                0.949213622     -85.7494323
9.115                0.948981253     -85.8979299
9.116                0.948748421     -86.0468103
9.117                0.948515128     -86.1960747
9.118                0.948281376     -86.3457243
9.119                0.948047167     -86.4957604
9.12                 0.947812503     -86.6461841
9.121                0.947577386     -86.7969966
9.122                0.947341818     -86.9481993
9.123                0.947105801     -87.0997932
9.124                0.946869338     -87.2517796
9.125                0.946632431     -87.4041597
9.126                0.946395082     -87.5569349
9.127                0.946157293     -87.7101062
9.128                0.945919066     -87.8636749
9.129                0.945680404     -88.0176422
9.13                 0.945441309     -88.1720095
9.131                0.945201784     -88.3267779
9.132                 0.94496183     -88.4819486
9.133                 0.94472145     -88.6375229
9.134                0.944480647      -88.793502
9.135                0.944239423     -88.9498873
9.136                 0.94399778     -89.1066798
9.137                0.943755721     -89.2638809
9.138                0.943513248     -89.4214918
9.139                0.943270364     -89.5795138
9.14                 0.943027072     -89.7379481
9.141                0.942783373      -89.896796
9.142                0.942539272     -90.0560587
9.143                 0.94229477     -90.2157375
9.144                0.942049869     -90.3758336
9.145                0.941804574     -90.5363483
9.146                0.941558886     -90.6972828
9.147                0.941312808     -90.8586385
9.148                0.941066343     -91.0204165
9.149                0.940819493     -91.1826182
9.15                 0.940572263     -91.3452448
9.151                0.940324654     -91.5082975
9.152                0.940076669     -91.6717777
9.153                0.939828311     -91.8356866
9.154                0.939579584     -92.0000254
9.155                 0.93933049     -92.1647955
9.156                0.939081032     -92.3299981
9.157                0.938831213     -92.4956344
9.158                0.938581037     -92.6617059
9.159                0.938330507     -92.8282136
9.16                 0.938079625     -92.9951589
9.161                0.937828394     -93.1625431
9.162                0.937576819     -93.3303675
9.163                0.937324902     -93.4986332
9.164                0.937072646     -93.6673416
9.165                0.936820056      -93.836494
9.166                0.936567133     -94.0060917
9.167                0.936313882     -94.1761358
9.168                0.936060306     -94.3466277
9.169                0.935806408     -94.5175687
9.17                 0.935552192       -94.68896
9.171                0.935297661      -94.860803
9.172                0.935042819     -95.0330988
9.173                0.934787669     -95.2058487
9.174                0.934532215     -95.3790541
9.175                0.934276461     -95.5527162
9.176                 0.93402041     -95.7268363
9.177                0.933764067     -95.9014156
9.178                0.933507433     -96.0764554
9.179                0.933250515     -96.2519571
9.18                 0.932993315     -96.4279218
9.181                0.932735837     -96.6043508
9.182                0.932478085     -96.7812454
9.183                0.932220063     -96.9586069
9.184                0.931961775     -97.1364364
9.185                0.931703225     -97.3147354
9.186                0.931444417     -97.4935051
9.187                0.931185355     -97.6727467
9.188                0.930926044     -97.8524614
9.189                0.930666487     -98.0326506
9.19                 0.930406688     -98.2133155
9.191                0.930146652     -98.3944573
9.192                0.929886383     -98.5760773
9.193                0.929625886     -98.7581768
9.194                0.929365164      -98.940757
9.195                0.929104222     -99.1238192
9.196                0.928843065     -99.3073645
9.197                0.928581698     -99.4913943
9.198                0.928320123     -99.6759098
9.199                0.928058347     -99.8609122
9.2                  0.927796373     -100.046403
9.201                0.927534207     -100.232383
9.202                0.927271853     -100.418853
9.203                0.927009315     -100.605816
9.204                  0.9267466     -100.793271
9.205                 0.92648371     -100.981221
9.206                0.926220652     -101.169666
9.207                 0.92595743     -101.358608
9.208                0.925694048     -101.548048
9.209                0.925430513     -101.737987
9.21                 0.925166829     -101.928427
9.211                0.924903001     -102.119368
9.212                0.924639035     -102.310812
9.213                0.924374935     -102.502759
9.214                0.924110706     -102.695212
9.215                0.923846355     -102.888171
9.216                0.923581885     -103.081638
9.217                0.923317303     -103.275613
9.218                0.923052614     -103.470099
9.219                0.922787824     -103.665095
9.22                 0.922522937     -103.860603
9.221                 0.92225796     -104.056625
9.222                0.921992898     -104.253161
9.223                0.921727756     -104.450213
9.224                0.921462541     -104.647782
9.225                0.921197258     -104.845868
9.226                0.920931913     -105.044474
9.227                0.920666511     -105.243599
9.228                0.920401059     -105.443246
9.229                0.920135562     -105.643416
9.23                 0.919870027     -105.844108
9.231                0.919604459     -106.045326
9.232                0.919338865     -106.247069
9.233                 0.91907325     -106.449339
9.234                0.918807621     -106.652137
9.235                0.918541984     -106.855463
9.236                0.918276346      -107.05932
9.237                0.918010712     -107.263708
9.238                0.917745089     -107.468628
9.239                0.917479484     -107.674081
9.24                 0.917213902     -107.880068
9.241                0.916948351     -108.086591
9.242                0.916682837     -108.293649
9.243                0.916417367     -108.501245
9.244                0.916151946      -108.70938
9.245                0.915886583     -108.918053
9.246                0.915621284     -109.127267
9.247                0.915356055     -109.337022
9.248                0.915090905     -109.547319
9.249                0.914825838      -109.75816
9.25                 0.914560863     -109.969544
9.251                0.914295987     -110.181474
9.252                0.914031216      -110.39395
9.253                0.913766558     -110.606972
9.254                0.913502021     -110.820543
9.255                 0.91323761     -111.034662
9.256                0.912973334     -111.249331
9.257                  0.9127092      -111.46455
9.258                0.912445216     -111.680321
9.259                0.912181388     -111.896644
9.26                 0.911917725      -112.11352
9.261                0.911654234      -112.33095
9.262                0.911390923     -112.548935
9.263                0.911127799     -112.767476
9.264                 0.91086487     -112.986573
9.265                0.910602144     -113.206227
9.266                0.910339629     -113.426439
9.267                0.910077332      -113.64721
9.268                0.909815263     -113.868541
9.269                0.909553427     -114.090432
9.27                 0.909291835     -114.312884
9.271                0.909030493     -114.535898
9.272                0.908769411     -114.759474
9.273                0.908508596     -114.983613
9.274                0.908248056     -115.208316
9.275                  0.9079878     -115.433584
9.276                0.907727837     -115.659417
9.277                0.907468175     -115.885815
9.278                0.907208821     -116.112781
9.279                0.906949786     -116.340313
9.28                 0.906691077     -116.568413
9.281                0.906432704     -116.797081
9.282                0.906174674     -117.026318
9.283                0.905916997     -117.256124
9.284                0.905659681       -117.4865
9.285                0.905402736     -117.717447
9.286                 0.90514617     -117.948964
9.287                0.904889992     -118.181053
9.288                0.904634212     -118.413714
9.289                0.904378838     -118.646947
9.29                  0.90412388     -118.880753
9.291                0.903869346     -119.115133
9.292                0.903615247     -119.350085
9.293                0.903361591     -119.585612
9.294                0.903108387     -119.821714
9.295                0.902855646      -120.05839
9.296                0.902603376     -120.295641
9.297                0.902351588     -120.533468
9.298                 0.90210029      -120.77187
9.299                0.901849492     -121.010849
9.3                  0.901599204     -121.250403
9.301                0.901349436     -121.490535
9.302                0.901100197     -121.731243
9.303                0.900851497     -121.972528
9.304                0.900603347      -122.21439
9.305                0.900355755     -122.456829
9.306                0.900108732     -122.699846
9.307                0.899862288     -122.943441
9.308                0.899616433     -123.187613
9.309                0.899371177     -123.432363
9.31                  0.89912653     -123.677691
9.311                0.898882503     -123.923597
9.312                0.898639105     -124.170081
9.313                0.898396347     -124.417142
9.314                0.898154239     -124.664782
9.315                0.897912792        -124.913
9.316                0.897672015     -125.161795
9.317                 0.89743192     -125.411168
9.318                0.897192517     -125.661119
9.319                0.896953816     -125.911647
9.32                 0.896715828     -126.162753
9.321                0.896478564     -126.414436
9.322                0.896242034     -126.666696
9.323                0.896006249     -126.919533
9.324                0.895771219     -127.172946
9.325                0.895536956     -127.426935
9.326                 0.89530347     -127.681501
9.327                0.895070772     -127.936642
9.328                0.894838873     -128.192358
9.329                0.894607783     -128.448649
9.33                 0.894377515     -128.705515
9.331                0.894148078     -128.962955
9.332                0.893919483     -129.220969
9.333                0.893691743     -129.479556
9.334                0.893464867     -129.738716
9.335                0.893238867     -129.998447
9.336                0.893013755     -130.258751
9.337                 0.89278954     -130.519626
9.338                0.892566235     -130.781071
9.339                 0.89234385     -131.043086
9.34                 0.892122397      -131.30567
9.341                0.891901887     -131.568822
9.342                0.891682331     -131.832543
9.343                0.891463741      -132.09683
9.344                0.891246128     -132.361684
9.345                0.891029503     -132.627104
9.346                0.890813878     -132.893088
9.347                0.890599264     -133.159636
9.348                0.890385672     -133.426747
9.349                0.890173114      -133.69442
9.35                 0.889961601     -133.962654
9.351                0.889751145     -134.231448
9.352                0.889541757     -134.500802
9.353                0.889333448     -134.770713
9.354                 0.88912623     -135.041182
9.355                0.888920115     -135.312207
9.356                0.888715115     -135.583786
9.357                0.888511239      -135.85592
9.358                0.888308501     -136.128606
9.359                0.888106911     -136.401843
9.36                 0.887906481     -136.675631
9.361                0.887707222     -136.949967
9.362                0.887509147     -137.224851
9.363                0.887312266     -137.500282
9.364                0.887116591     -137.776257
9.365                0.886922134     -138.052776
9.366                0.886728905     -138.329836
9.367                0.886536918     -138.607438
9.368                0.886346182     -138.885578
9.369                 0.88615671     -139.164257
9.37                 0.885968512     -139.443471
9.371                0.885781601      -139.72322
9.372                0.885595988     -140.003501
9.373                0.885411684     -140.284314
9.374                0.885228701     -140.565657
9.375                 0.88504705     -140.847527
9.376                0.884866742     -141.129923
9.377                0.884687788     -141.412844
9.378                0.884510201     -141.696287
9.379                0.884333991     -141.980251
9.38                  0.88415917     -142.264734
9.381                0.883985748     -142.549734
9.382                0.883813738     -142.835248
9.383                 0.88364315     -143.121276
9.384                0.883473995     -143.407814
9.385                0.883306285     -143.694861
9.386                 0.88314003     -143.982415
9.387                0.882975241     -144.270474
9.388                0.882811931     -144.559036
9.389                0.882650109     -144.848097
9.39                 0.882489786     -145.137657
9.391                0.882330973     -145.427713
9.392                0.882173682     -145.718262
9.393                0.882017923     -146.009303
9.394                0.881863706     -146.300833
9.395                0.881711043     -146.592849
9.396                0.881559943     -146.885349
