! TOUCHSTONE file generated by CST DESIGN STUDIO
! Date and time: Tue Feb  4 12:42:30 2025
! Project name: C:\Work\MatlabApps\UnitCellOptimizationMatlab\CST\unitcell.cst
! Tree item: Tasks\Sweep1\SPara1\S-Parameters
! Header version: 2024
! Port assignment regex: !\s*Touchstone port\s*([0-9]+)\s*=\s*(CST MWS port|CST DES external port|CST DES block port)\s*(.+)\s* \(\"(.*)\"\)(\s*mode\s*([0-9]+))?.*
! Touchstone port assignment:
! Touchstone port 1 = CST DES external port 1 ("")
# GHz S MA R 50
9                    0.971966552     -78.5261918
9.001                0.971785927      -78.659384
9.002                 0.97160416     -78.7929049
9.003                0.971421254     -78.9267551
9.004                0.971237213     -79.0609355
9.005                 0.97105204     -79.1954468
9.006                0.970865739     -79.3302899
9.007                0.970678316     -79.4654655
9.008                0.970489772     -79.6009745
9.009                0.970300114     -79.7368177
9.01                 0.970109344     -79.8729959
9.011                0.969917466     -80.0095099
9.012                0.969724486     -80.1463605
9.013                0.969530406     -80.2835487
9.014                0.969335231     -80.4210752
9.015                0.969138966     -80.5589408
9.016                0.968941613     -80.6971466
9.017                0.968743179     -80.8356933
9.018                0.968543666     -80.9745817
9.019                0.968343079     -81.1138129
9.02                 0.968141422     -81.2533876
9.021                  0.9679387     -81.3933068
9.022                0.967734917     -81.5335714
9.023                0.967530077     -81.6741822
9.024                0.967324184     -81.8151401
9.025                0.967117243     -81.9564462
9.026                0.966909258     -82.0981013
9.027                0.966700234     -82.2401063
9.028                0.966490175     -82.3824622
9.029                0.966279085       -82.52517
9.03                 0.966066969     -82.6682304
9.031                0.965853831     -82.8116447
9.032                0.965639675     -82.9554135
9.033                0.965424507     -83.0995381
9.034                 0.96520833     -83.2440192
9.035                 0.96499115     -83.3888579
9.036                0.964772969     -83.5340552
9.037                0.964553794      -83.679612
9.038                0.964333628     -83.8255293
9.039                0.964112477     -83.9718082
9.04                 0.963890344     -84.1184496
9.041                0.963667234     -84.2654546
9.042                0.963443152     -84.4128241
9.043                0.963218102     -84.5605592
9.044                0.962992089     -84.7086609
9.045                0.962765118     -84.8571302
9.046                0.962537192     -85.0059681
9.047                0.962308318     -85.1551757
9.048                0.962078499     -85.3047541
9.049                0.961847739     -85.4547042
9.05                 0.961616044     -85.6050271
9.051                0.961383419      -85.755724
9.052                0.961149867     -85.9067957
9.053                0.960915394     -86.0582435
9.054                0.960680005     -86.2100683
9.055                0.960443703     -86.3622713
9.056                0.960206494     -86.5148535
9.057                0.959968382     -86.6678159
9.058                0.959729373     -86.8211598
9.059                 0.95948947     -86.9748862
9.06                 0.959248679     -87.1289961
9.061                0.959007004     -87.2834906
9.062                 0.95876445      -87.438371
9.063                0.958521022     -87.5936382
9.064                0.958276725     -87.7492934
9.065                0.958031563     -87.9053377
9.066                0.957785542     -88.0617722
9.067                0.957538665      -88.218598
9.068                0.957290938     -88.3758163
9.069                0.957042366     -88.5334282
9.07                 0.956792954     -88.6914348
9.071                0.956542706     -88.8498372
9.072                0.956291627     -89.0086366
9.073                0.956039723     -89.1678342
9.074                0.955786997      -89.327431
9.075                0.955533455     -89.4874282
9.076                0.955279102      -89.647827
9.077                0.955023943     -89.8086285
9.078                0.954767983     -89.9698339
9.079                0.954511226     -90.1314443
9.08                 0.954253678     -90.2934608
9.081                0.953995343     -90.4558848
9.082                0.953736227     -90.6187173
9.083                0.953476335     -90.7819594
9.084                0.953215671     -90.9456124
9.085                 0.95295424     -91.1096775
9.086                0.952692049     -91.2741557
9.087                  0.9524291     -91.4390484
9.088                0.952165401     -91.6043566
9.089                0.951900956     -91.7700816
9.09                 0.951635769     -91.9362245
9.091                0.951369846     -92.1027865
9.092                0.951103193     -92.2697689
9.093                0.950835814     -92.4371727
9.094                0.950567714     -92.6049992
9.095                0.950298899     -92.7732496
9.096                0.950029374     -92.9419251
9.097                0.949759143     -93.1110269
9.098                0.949488213     -93.2805561
9.099                0.949216589     -93.4505141
9.1                  0.948944275     -93.6209019
9.101                0.948671278     -93.7917207
9.102                0.948397601     -93.9629719
9.103                0.948123252     -94.1346565
9.104                0.947848234     -94.3067758
9.105                0.947572554      -94.479331
9.106                0.947296217     -94.6523233
9.107                0.947019227      -94.825754
9.108                0.946741591     -94.9996241
9.109                0.946463315     -95.1739349
9.11                 0.946184402     -95.3486877
9.111                 0.94590486     -95.5238836
9.112                0.945624693     -95.6995239
9.113                0.945343907     -95.8756097
9.114                0.945062508     -96.0521423
9.115                0.944780501     -96.2291228
9.116                0.944497891     -96.4065526
9.117                0.944214685     -96.5844327
9.118                0.943930888     -96.7627644
9.119                0.943646506      -96.941549
9.12                 0.943361543     -97.1207876
9.121                0.943076008     -97.3004813
9.122                0.942789903     -97.4806316
9.123                0.942503237     -97.6612394
9.124                0.942216014     -97.8423061
9.125                 0.94192824     -98.0238329
9.126                0.941639921     -98.2058209
9.127                0.941351064     -98.3882713
9.128                0.941061673     -98.5711855
9.129                0.940771755     -98.7545644
9.13                 0.940481317     -98.9384094
9.131                0.940190363     -99.1227217
9.132                0.939898899     -99.3075024
9.133                0.939606933     -99.4927527
9.134                 0.93931447     -99.6784739
9.135                0.939021517      -99.864667
9.136                0.938728078     -100.051333
9.137                0.938434162     -100.238474
9.138                0.938139773     -100.426091
9.139                0.937844918     -100.614184
9.14                 0.937549603     -100.802755
9.141                0.937253836     -100.991805
9.142                0.936957621     -101.181335
9.143                0.936660966     -101.371347
9.144                0.936363876     -101.561841
9.145                 0.93606636      -101.75282
9.146                0.935768422     -101.944283
9.147                0.935470069     -102.136232
9.148                0.935171309     -102.328668
9.149                0.934872147     -102.521593
9.15                 0.934572591     -102.715008
9.151                0.934272646     -102.908913
9.152                0.933972321      -103.10331
9.153                0.933671621       -103.2982
9.154                0.933370553     -103.493584
9.155                0.933069125     -103.689463
9.156                0.932767342     -103.885839
9.157                0.932465213     -104.082712
9.158                0.932162744     -104.280083
9.159                0.931859941     -104.477954
9.16                 0.931556813     -104.676327
9.161                0.931253367       -104.8752
9.162                0.930949608     -105.074577
9.163                0.930645545     -105.274458
9.164                0.930341185     -105.474845
9.165                0.930036535     -105.675737
9.166                0.929731603     -105.877137
9.167                0.929426395     -106.079045
9.168                0.929120919     -106.281462
9.169                0.928815184      -106.48439
9.17                 0.928509195     -106.687829
9.171                0.928202961     -106.891781
9.172                 0.92789649     -107.096247
9.173                0.927589788     -107.301227
9.174                0.927282864     -107.506723
9.175                0.926975726     -107.712735
9.176                0.926668381     -107.919265
9.177                0.926360837     -108.126314
9.178                0.926053102     -108.333883
9.179                0.925745183     -108.541972
9.18                  0.92543709     -108.750583
9.181                 0.92512883     -108.959716
9.182                 0.92482041     -109.169373
9.183                 0.92451184     -109.379554
9.184                0.924203128     -109.590261
9.185                 0.92389428     -109.801494
9.186                0.923585307     -110.013255
9.187                0.923276216     -110.225543
9.188                0.922967016     -110.438361
9.189                0.922657715     -110.651709
9.19                 0.922348321     -110.865588
9.191                0.922038844     -111.079998
9.192                0.921729291     -111.294942
9.193                0.921419672     -111.510419
9.194                0.921109995      -111.72643
9.195                 0.92080027     -111.942976
9.196                0.920490503     -112.160059
9.197                0.920180706     -112.377678
9.198                0.919870886     -112.595835
9.199                0.919561053     -112.814531
9.2                  0.919251215     -113.033766
9.201                0.918941382     -113.253541
9.202                0.918631563     -113.473857
9.203                0.918321767     -113.694714
9.204                0.918012004     -113.916114
9.205                0.917702282     -114.138056
9.206                0.917392611     -114.360543
9.207                0.917083001     -114.583574
9.208                0.916773461      -114.80715
9.209                   0.916464     -115.031272
9.21                 0.916154629     -115.255941
9.211                0.915845356     -115.481157
9.212                0.915536192      -115.70692
9.213                0.915227147     -115.933233
9.214                0.914918229     -116.160094
9.215                 0.91460945     -116.387505
9.216                0.914300819     -116.615466
9.217                0.913992345     -116.843978
9.218                 0.91368404     -117.073041
9.219                0.913375913     -117.302656
9.22                 0.913067975     -117.532824
9.221                0.912760235     -117.763545
9.222                0.912452704     -117.994819
9.223                0.912145393     -118.226648
9.224                0.911838311     -118.459031
9.225                0.911531469     -118.691968
9.226                0.911224879     -118.925461
9.227                0.910918549      -119.15951
9.228                0.910612491     -119.394115
9.229                0.910306716     -119.629277
9.23                 0.910001235     -119.864995
9.231                0.909696057     -120.101271
9.232                0.909391195     -120.338105
9.233                0.909086658     -120.575496
9.234                0.908782459     -120.813446
9.235                0.908478607     -121.051954
9.236                0.908175115     -121.291021
9.237                0.907871993     -121.530648
9.238                0.907569252     -121.770833
9.239                0.907266904     -122.011578
9.24                  0.90696496     -122.252883
9.241                0.906663431     -122.494748
9.242                0.906362329     -122.737172
9.243                0.906061666     -122.980157
9.244                0.905761452     -123.223703
9.245                  0.9054617     -123.467809
9.246                 0.90516242     -123.712475
9.247                0.904863626     -123.957702
9.248                0.904565327     -124.203489
9.249                0.904267537     -124.449837
9.25                 0.903970267     -124.696746
9.251                 0.90367353     -124.944215
9.252                0.903377336     -125.192245
9.253                0.903081698     -125.440836
9.254                0.902786628     -125.689987
9.255                0.902492138     -125.939698
9.256                 0.90219824     -126.189969
9.257                0.901904946       -126.4408
9.258                 0.90161227     -126.692192
9.259                0.901320222     -126.944142
9.26                 0.901028815     -127.196653
9.261                0.900738063     -127.449722
9.262                0.900447976     -127.703351
9.263                0.900158568     -127.957538
9.264                0.899869851     -128.212283
9.265                0.899581837     -128.467587
9.266                 0.89929454     -128.723448
9.267                0.899007972     -128.979866
9.268                0.898722145     -129.236841
9.269                0.898437072     -129.494373
9.27                 0.898152767      -129.75246
9.271                0.897869241     -130.011104
9.272                0.897586508     -130.270302
9.273                0.897304581     -130.530054
9.274                0.897023472      -130.79036
9.275                0.896743195      -131.05122
9.276                0.896463762     -131.312632
9.277                0.896185186     -131.574597
9.278                0.895907481     -131.837112
9.279                0.895630659     -132.100179
9.28                 0.895354735     -132.363795
9.281                 0.89507972     -132.627961
9.282                0.894805628     -132.892675
9.283                0.894532472     -133.157937
9.284                0.894260266     -133.423746
9.285                0.893989022       -133.6901
9.286                0.893718755        -133.957
9.287                0.893449476     -134.224444
9.288                0.893181201     -134.492431
9.289                0.892913941     -134.760961
9.29                  0.89264771     -135.030032
9.291                0.892382523     -135.299643
9.292                0.892118391     -135.569794
9.293                0.891855329     -135.840482
9.294                 0.89159335     -136.111708
9.295                0.891332467      -136.38347
9.296                0.891072695     -136.655766
9.297                0.890814045     -136.928596
9.298                0.890556533     -137.201958
9.299                0.890300171     -137.475852
9.3                  0.890044972     -137.750275
9.301                0.889790951     -138.025227
9.302                0.889538121     -138.300706
9.303                0.889286495      -138.57671
9.304                0.889036088     -138.853239
9.305                0.888786911     -139.130291
9.306                 0.88853898     -139.407865
9.307                0.888292307     -139.685958
9.308                0.888046906      -139.96457
9.309                 0.88780279     -140.243698
9.31                 0.887559973     -140.523342
9.311                0.887318469       -140.8035
9.312                0.887078291     -141.084169
9.313                0.886839452     -141.365349
9.314                0.886601966     -141.647038
9.315                0.886365847     -141.929233
9.316                0.886131107     -142.211933
9.317                 0.88589776     -142.495137
9.318                 0.88566582     -142.778842
9.319                  0.8854353     -143.063046
9.32                 0.885206212     -143.347748
9.321                0.884978572     -143.632946
9.322                0.884752391     -143.918637
9.323                0.884527684      -144.20482
9.324                0.884304462     -144.491493
9.325                 0.88408274     -144.778653
9.326                0.883862531     -145.066299
9.327                0.883643848     -145.354428
9.328                0.883426703     -145.643038
9.329                0.883211111     -145.932127
9.33                 0.882997083     -146.221692
9.331                0.882784634     -146.511732
9.332                0.882573775     -146.802244
9.333                 0.88236452     -147.093226
9.334                0.882156882     -147.384676
9.335                0.881950873      -147.67659
9.336                0.881746506     -147.968967
9.337                0.881543793     -148.261804
9.338                0.881342748     -148.555098
9.339                0.881143383     -148.848848
9.34                  0.88094571      -149.14305
9.341                0.880749742     -149.437702
9.342                0.880555492     -149.732801
9.343                 0.88036297     -150.028344
9.344                0.880172191      -150.32433
9.345                0.879983165     -150.620754
9.346                0.879795906     -150.917615
9.347                0.879610424      -151.21491
9.348                0.879426732     -151.512635
9.349                0.879244842     -151.810788
9.35                 0.879064766     -152.109366
9.351                0.878886515     -152.408366
9.352                0.878710101     -152.707785
9.353                0.878535535      -153.00762
9.354                 0.87836283     -153.307868
9.355                0.878191995     -153.608527
9.356                0.878023043     -153.909592
9.357                0.877855985      -154.21106
9.358                0.877690831     -154.512929
9.359                0.877527593     -154.815196
9.36                 0.877366282     -155.117857
9.361                0.877206908     -155.420909
9.362                0.877049482     -155.724348
9.363                0.876894015     -156.028172
9.364                0.876740516     -156.332376
9.365                0.876588997     -156.636958
9.366                0.876439468     -156.941915
9.367                0.876291939     -157.247242
9.368                0.876146419     -157.552936
9.369                0.876002919     -157.858994
9.37                 0.875861448     -158.165412
9.371                0.875722016     -158.472187
9.372                0.875584633     -158.779314
9.373                0.875449308     -159.086792
9.374                 0.87531605     -159.394614
9.375                0.875184868     -159.702779
9.376                0.875055772     -160.011283
9.377                 0.87492877     -160.320121
9.378                0.874803871     -160.629289
9.379                0.874681083     -160.938785
9.38                 0.874560416     -161.248604
9.381                0.874441877     -161.558743
9.382                0.874325474     -161.869196
9.383                0.874211216     -162.179962
9.384                0.874099111     -162.491035
9.385                0.873989165     -162.802411
9.386                0.873881388     -163.114087
9.387                0.873775785     -163.426059
9.388                0.873672366     -163.738322
9.389                0.873571136     -164.050873
9.39                 0.873472102     -164.363707
9.391                0.873375272     -164.676821
9.392                0.873280652     -164.990209
9.393                0.873188249     -165.303869
9.394                0.873098069     -165.617795
9.395                0.873010118     -165.931983
9.396                0.872924402      -166.24643
