! TOUCHSTONE file generated by CST DESIGN STUDIO
! Date and time: Tue Feb  4 12:42:23 2025
! Project name: C:\Work\MatlabApps\UnitCellOptimizationMatlab\CST\unitcell.cst
! Tree item: Tasks\Sweep1\SPara1\S-Parameters
! Header version: 2024
! Port assignment regex: !\s*Touchstone port\s*([0-9]+)\s*=\s*(CST MWS port|CST DES external port|CST DES block port)\s*(.+)\s* \(\"(.*)\"\)(\s*mode\s*([0-9]+))?.*
! Touchstone port assignment:
! Touchstone port 1 = CST DES external port 1 ("")
# GHz S MA R 50
9                    0.973147155     -98.4199354
9.001                0.972896881     -98.6135553
9.002                0.972645304     -98.8076784
9.003                0.972392426     -99.0023056
9.004                 0.97213825      -99.197438
9.005                0.971882776     -99.3930764
9.006                0.971626006     -99.5892218
9.007                0.971367942     -99.7858751
9.008                0.971108586     -99.9830373
9.009                0.970847939     -100.180709
9.01                 0.970586005     -100.378892
9.011                0.970322784     -100.577586
9.012                 0.97005828     -100.776793
9.013                0.969792494     -100.976513
9.014                 0.96952543     -101.176748
9.015                0.969257088     -101.377498
9.016                0.968987473     -101.578764
9.017                0.968716586     -101.780547
9.018                 0.96844443     -101.982848
9.019                0.968171009     -102.185667
9.02                 0.967896325     -102.389007
9.021                0.967620381     -102.592866
9.022                 0.96734318     -102.797247
9.023                0.967064725     -103.002151
9.024                 0.96678502     -103.207577
9.025                0.966504069     -103.413527
9.026                0.966221874     -103.620002
9.027                0.965938439     -103.827003
9.028                0.965653768     -104.034529
9.029                0.965367864     -104.242583
9.03                 0.965080732     -104.451165
9.031                0.964792376     -104.660275
9.032                0.964502799     -104.869915
9.033                0.964212006     -105.080086
9.034                    0.96392     -105.290787
9.035                0.963626787      -105.50202
9.036                0.963332371     -105.713786
9.037                0.963036757     -105.926085
9.038                0.962739948     -106.138918
9.039                 0.96244195     -106.352286
9.04                 0.962142768     -106.566189
9.041                0.961842407     -106.780629
9.042                0.961540871     -106.995605
9.043                0.961238167     -107.211119
9.044                0.960934298     -107.427172
9.045                0.960629272     -107.643763
9.046                0.960323093     -107.860894
9.047                0.960015767     -108.078565
9.048                0.959707299     -108.296777
9.049                0.959397696     -108.515531
9.05                 0.959086964     -108.734827
9.051                0.958775108     -108.954666
9.052                0.958462135     -109.175048
9.053                 0.95814805     -109.395974
9.054                0.957832862     -109.617445
9.055                0.957516575     -109.839461
9.056                0.957199197     -110.062022
9.057                0.956880734      -110.28513
9.058                0.956561194     -110.508785
9.059                0.956240583     -110.732987
9.06                 0.955918908     -110.957737
9.061                0.955596177     -111.183036
9.062                0.955272396     -111.408883
9.063                0.954947574      -111.63528
9.064                0.954621718     -111.862227
9.065                0.954294836     -112.089724
9.066                0.953966935     -112.317771
9.067                0.953638023      -112.54637
9.068                0.953308109     -112.775521
9.069                  0.9529772     -113.005223
9.07                 0.952645306     -113.235478
9.071                0.952312433     -113.466286
9.072                0.951978591     -113.697647
9.073                0.951643789     -113.929562
9.074                0.951308035     -114.162031
9.075                0.950971338     -114.395053
9.076                0.950633707     -114.628631
9.077                0.950295152     -114.862763
9.078                0.949955681      -115.09745
9.079                0.949615304     -115.332693
9.08                 0.949274031     -115.568492
9.081                 0.94893187     -115.804846
9.082                0.948588833     -116.041757
9.083                0.948244928     -116.279224
9.084                0.947900166     -116.517247
9.085                0.947554557     -116.755828
9.086                0.947208111     -116.994965
9.087                0.946860839      -117.23466
9.088                0.946512751     -117.474911
9.089                0.946163858      -117.71572
9.09                  0.94581417     -117.957087
9.091                0.945463698     -118.199011
9.092                0.945112454     -118.441493
9.093                0.944760449     -118.684532
9.094                0.944407693      -118.92813
9.095                0.944054199     -119.172285
9.096                0.943699977     -119.416997
9.097                 0.94334504     -119.662268
9.098                0.942989399     -119.908096
9.099                0.942633067     -120.154482
9.1                  0.942276054     -120.401426
9.101                0.941918374     -120.648927
9.102                0.941560038     -120.896985
9.103                 0.94120106     -121.145601
9.104                0.940841451     -121.394774
9.105                0.940481224     -121.644505
9.106                0.940120392     -121.894792
9.107                0.939758968     -122.145635
9.108                0.939396966     -122.397035
9.109                0.939034397     -122.648992
9.11                 0.938671276     -122.901504
9.111                0.938307616     -123.154572
9.112                 0.93794343     -123.408195
9.113                0.937578732     -123.662374
9.114                0.937213536     -123.917107
9.115                0.936847856     -124.172395
9.116                0.936481706     -124.428236
9.117                  0.9361151     -124.684632
9.118                0.935748052      -124.94158
9.119                0.935380577     -125.199081
9.12                 0.935012689     -125.457135
9.121                0.934644404      -125.71574
9.122                0.934275734     -125.974897
9.123                0.933906697     -126.234605
9.124                0.933537305     -126.494862
9.125                0.933167576      -126.75567
9.126                0.932797523     -127.017026
9.127                0.932427163     -127.278931
9.128                0.932056511     -127.541384
9.129                0.931685582     -127.804384
9.13                 0.931314392     -128.067931
9.131                0.930942957     -128.332023
9.132                0.930571292     -128.596661
9.133                0.930199415     -128.861843
9.134                0.929827341     -129.127568
9.135                0.929455086     -129.393836
9.136                0.929082667     -129.660646
9.137                  0.9287101     -129.927997
9.138                0.928337403     -130.195888
9.139                 0.92796459     -130.464318
9.14                  0.92759168     -130.733287
9.141                 0.92721869     -131.002793
9.142                0.926845635     -131.272835
9.143                0.926472535     -131.543413
9.144                0.926099405     -131.814525
9.145                0.925726263     -132.086171
9.146                0.925353126     -132.358349
9.147                0.924980013     -132.631058
9.148                 0.92460694     -132.904297
9.149                0.924233926     -133.178065
9.15                 0.923860988      -133.45236
9.151                0.923488144     -133.727182
9.152                0.923115413     -134.002529
9.153                0.922742812     -134.278401
9.154                0.922370359     -134.554795
9.155                0.921998073      -134.83171
9.156                0.921625972     -135.109145
9.157                0.921254075     -135.387099
9.158                  0.9208824      -135.66557
9.159                0.920510966     -135.944557
9.16                 0.920139791     -136.224058
9.161                0.919768895     -136.504073
9.162                0.919398296     -136.784598
9.163                0.919028013     -137.065633
9.164                0.918658065     -137.347177
9.165                0.918288471     -137.629227
9.166                0.917919251     -137.911783
9.167                0.917550423     -138.194841
9.168                0.917182007     -138.478402
9.169                0.916814022     -138.762462
9.17                 0.916446488     -139.047021
9.171                0.916079424     -139.332076
9.172                 0.91571285     -139.617626
9.173                0.915346786     -139.903668
9.174                 0.91498125     -140.190202
9.175                0.914616263     -140.477224
9.176                0.914251844     -140.764734
9.177                0.913888014     -141.052729
9.178                0.913524792     -141.341208
9.179                0.913162198     -141.630167
9.18                 0.912800252     -141.919606
9.181                0.912438974     -142.209522
9.182                0.912078384     -142.499913
9.183                0.911718502     -142.790777
9.184                0.911359349     -143.082112
9.185                0.911000944     -143.373916
9.186                0.910643307     -143.666185
9.187                 0.91028646     -143.958919
9.188                0.909930421     -144.252115
9.189                0.909575212     -144.545771
9.19                 0.909220852     -144.839883
9.191                0.908867362      -145.13445
9.192                0.908514762      -145.42947
9.193                0.908163073      -145.72494
9.194                0.907812315     -146.020858
9.195                0.907462508      -146.31722
9.196                0.907113672     -146.614025
9.197                0.906765828      -146.91127
9.198                0.906418997     -147.208953
9.199                0.906073198      -147.50707
9.2                  0.905728452     -147.805619
9.201                 0.90538478     -148.104598
9.202                0.905042201     -148.404004
9.203                0.904700736     -148.703834
9.204                0.904360406     -149.004085
9.205                 0.90402123     -149.304754
9.206                0.903683229      -149.60584
9.207                0.903346424     -149.907338
9.208                0.903010834     -150.209246
9.209                0.902676479     -150.511561
9.21                  0.90234338      -150.81428
9.211                0.902011558       -151.1174
9.212                0.901681031     -151.420918
9.213                 0.90135182     -151.724832
9.214                0.901023946     -152.029137
9.215                0.900697428     -152.333831
9.216                0.900372286     -152.638911
9.217                 0.90004854     -152.944374
9.218                0.899726209     -153.250216
9.219                0.899405315     -153.556434
9.22                 0.899085876     -153.863025
9.221                0.898767912     -154.169986
9.222                0.898451442     -154.477313
9.223                0.898136487     -154.785003
9.224                0.897823065     -155.093053
9.225                0.897511197     -155.401459
9.226                0.897200901     -155.710218
9.227                0.896892196     -156.019327
9.228                0.896585103     -156.328781
9.229                0.896279639     -156.638578
9.23                 0.895975824     -156.948714
9.231                0.895673677     -157.259186
9.232                0.895373216     -157.569989
9.233                0.895074461      -157.88112
9.234                0.894777429     -158.192575
9.235                0.894482141     -158.504352
9.236                0.894188613     -158.816446
9.237                0.893896864     -159.128853
9.238                0.893606913      -159.44157
9.239                0.893318777     -159.754592
9.24                 0.893032474     -160.067917
9.241                0.892748023      -160.38154
9.242                0.892465441     -160.695457
9.243                0.892184746     -161.009665
9.244                0.891905955      -161.32416
9.245                0.891629085     -161.638937
9.246                0.891354154     -161.953993
9.247                0.891081179     -162.269324
9.248                0.890810177     -162.584925
9.249                0.890541164     -162.900794
9.25                 0.890274158     -163.216924
9.251                0.890009175     -163.533314
9.252                 0.88974623     -163.849958
9.253                0.889485342     -164.166852
9.254                0.889226525     -164.483992
9.255                0.888969795     -164.801375
9.256                0.888715168     -165.118995
9.257                0.888462661     -165.436849
9.258                0.888212287     -165.754932
9.259                0.887964064     -166.073241
9.26                 0.887718004      -166.39177
9.261                0.887474125     -166.710516
9.262                 0.88723244     -167.029474
9.263                0.886992964      -167.34864
9.264                0.886755711      -167.66801
9.265                0.886520696     -167.987578
9.266                0.886287933     -168.307342
9.267                0.886057435     -168.627296
9.268                0.885829216     -168.947435
9.269                 0.88560329     -169.267757
9.27                  0.88537967     -169.588255
9.271                 0.88515837     -169.908926
9.272                0.884939401     -170.229764
9.273                0.884722777     -170.550767
9.274                 0.88450851     -170.871928
9.275                0.884296613     -171.193243
9.276                0.884087098     -171.514709
9.277                0.883879976     -171.836319
9.278                0.883675259     -172.158071
9.279                0.883472959     -172.479958
9.28                 0.883273088     -172.801977
9.281                0.883075655     -173.124122
9.282                0.882880672      -173.44639
9.283                 0.88268815     -173.768775
9.284                0.882498099     -174.091273
9.285                0.882310529     -174.413879
9.286                 0.88212545     -174.736588
9.287                0.881942872     -175.059396
9.288                0.881762804     -175.382298
9.289                0.881585256      -175.70529
9.29                 0.881410237     -176.028365
9.291                0.881237756     -176.351521
9.292                 0.88106782     -176.674751
9.293                 0.88090044     -176.998052
9.294                0.880735622     -177.321418
9.295                0.880573374     -177.644845
9.296                0.880413705     -177.968327
9.297                0.880256622     -178.291861
9.298                0.880102132     -178.615441
9.299                0.879950242     -178.939062
9.3                  0.879800958      -179.26272
9.301                0.879654287      -179.58641
9.302                0.879510236     -179.910126
9.303                0.879368811      179.766135
9.304                0.879230016      179.442378
9.305                0.879093858       179.11861
9.306                0.878960342      178.794833
9.307                0.878829473      178.471054
9.308                0.878701256      178.147277
9.309                0.878575695      177.823506
9.31                 0.878452795      177.499747
9.311                0.878332559      177.176005
9.312                0.878214992      176.852285
9.313                0.878100097       176.52859
9.314                0.877987877      176.204926
9.315                0.877878336      175.881299
9.316                0.877771475      175.557712
9.317                0.877667299      175.234171
9.318                0.877565809       174.91068
9.319                0.877467006      174.587244
9.32                 0.877370894      174.263868
9.321                0.877277473      173.940558
9.322                0.877186745      173.617317
9.323                0.877098712       173.29415
9.324                0.877013373      172.971063
9.325                0.876930729      172.648059
9.326                0.876850781      172.325145
9.327                0.876773529      172.002325
9.328                0.876698973      171.679602
9.329                0.876627112      171.356983
9.33                 0.876557945      171.034472
9.331                0.876491473      170.712074
9.332                0.876427693      170.389793
9.333                0.876366604      170.067635
9.334                0.876308205      169.745603
9.335                0.876252494      169.423703
9.336                0.876199469      169.101939
9.337                0.876149127      168.780317
9.338                0.876101466       168.45884
9.339                0.876056484      168.137513
9.34                 0.876014176      167.816341
9.341                 0.87597454      167.495329
9.342                0.875937572      167.174482
9.343                0.875903269      166.853803
9.344                0.875871627      166.533298
9.345                0.875842641       166.21297
9.346                0.875816307      165.892826
9.347                 0.87579262      165.572868
9.348                0.875771576      165.253103
9.349                0.875753169      164.933533
9.35                 0.875737395      164.614164
9.351                0.875724246      164.295001
9.352                0.875713719      163.976047
9.353                0.875705806      163.657307
9.354                0.875700502      163.338786
9.355                  0.8756978      163.020488
9.356                0.875697694      162.702417
9.357                0.875700176      162.384578
9.358                 0.87570524      162.066976
9.359                0.875712878      161.749613
9.36                 0.875723083      161.432495
9.361                0.875735847      161.115627
9.362                0.875751163      160.799011
9.363                0.875769022      160.482654
9.364                0.875789416      160.166558
9.365                0.875812337      159.850728
9.366                0.875837775      159.535168
9.367                0.875865723      159.219883
9.368                0.875896171      158.904876
9.369                0.875929109      158.590151
9.37                 0.875964529      158.275714
9.371                0.876002421      157.961567
9.372                0.876042775      157.647715
9.373                 0.87608558      157.334161
9.374                0.876130828      157.020911
9.375                0.876178507      156.707967
9.376                0.876228608      156.395334
9.377                0.876281118      156.083016
9.378                0.876336029      155.771016
9.379                0.876393328      155.459339
9.38                 0.876453004      155.147987
9.381                0.876515047      154.836966
9.382                0.876579444      154.526279
9.383                0.876646185      154.215929
9.384                0.876715256      153.905921
9.385                0.876786648      153.596258
9.386                0.876860346      153.286943
9.387                0.876936339      152.977981
9.388                0.877014615      152.669374
9.389                0.877095161      152.361127
9.39                 0.877177965      152.053244
9.391                0.877263013      151.745727
9.392                0.877350294       151.43858
9.393                0.877439792      151.131807
9.394                0.877531497      150.825411
9.395                0.877625394      150.519395
9.396                0.877721469      150.213763
