! TOUCHSTONE file generated by CST DESIGN STUDIO
! Date and time: Tue Feb  4 12:42:37 2025
! Project name: C:\Work\MatlabApps\UnitCellOptimizationMatlab\CST\unitcell.cst
! Tree item: Tasks\Sweep1\SPara1\S-Parameters
! Header version: 2024
! Port assignment regex: !\s*Touchstone port\s*([0-9]+)\s*=\s*(CST MWS port|CST DES external port|CST DES block port)\s*(.+)\s* \(\"(.*)\"\)(\s*mode\s*([0-9]+))?.*
! Touchstone port assignment:
! Touchstone port 1 = CST DES external port 1 ("")
# GHz S MA R 50
9                    0.973398165     -60.9334514
9.001                0.973261918       -61.02031
9.002                0.973125385     -61.1073592
9.003                0.972988567     -61.1945996
9.004                0.972851462     -61.2820318
9.005                0.972714072     -61.3696565
9.006                0.972576397     -61.4574744
9.007                0.972438437     -61.5454861
9.008                0.972300193     -61.6336923
9.009                0.972161664     -61.7220936
9.01                 0.972022851     -61.8106908
9.011                0.971883753     -61.8994845
9.012                0.971744373     -61.9884754
9.013                0.971604709     -62.0776641
9.014                0.971464762     -62.1670515
9.015                0.971324532      -62.256638
9.016                0.971184019     -62.3464245
9.017                0.971043224     -62.4364115
9.018                0.970902147     -62.5265999
9.019                0.970760789     -62.6169903
9.02                 0.970619149     -62.7075835
9.021                0.970477227       -62.79838
9.022                0.970335025     -62.8893806
9.023                0.970192542     -62.9805861
9.024                0.970049778     -63.0719971
9.025                0.969906735     -63.1636143
9.026                0.969763411     -63.2554386
9.027                0.969619808     -63.3474705
9.028                0.969475925     -63.4397108
9.029                0.969331764     -63.5321603
9.03                 0.969187324     -63.6248196
9.031                0.969042605     -63.7176895
9.032                0.968897607     -63.8107708
9.033                0.968752332     -63.9040641
9.034                 0.96860678     -63.9975702
9.035                0.968460949     -64.0912899
9.036                0.968314842     -64.1852239
9.037                0.968168458     -64.2793729
9.038                0.968021797     -64.3737377
9.039                 0.96787486     -64.4683191
9.04                 0.967727647     -64.5631178
9.041                0.967580158     -64.6581346
9.042                0.967432394     -64.7533702
9.043                0.967284354     -64.8488254
9.044                 0.96713604      -64.944501
9.045                0.966987451     -65.0403977
9.046                0.966838588     -65.1365164
9.047                0.966689451     -65.2328577
9.048                 0.96654004     -65.3294226
9.049                0.966390355     -65.4262117
9.05                 0.966240398     -65.5232259
9.051                0.966090168     -65.6204659
9.052                0.965939665     -65.7179326
9.053                 0.96578889     -65.8156267
9.054                0.965637843      -65.913549
9.055                0.965486524     -66.0117004
9.056                0.965334934     -66.1100816
9.057                0.965183073     -66.2086936
9.058                0.965030941     -66.3075369
9.059                0.964878538     -66.4066126
9.06                 0.964725866     -66.5059214
9.061                0.964572924     -66.6054641
9.062                0.964419712     -66.7052416
9.063                0.964266231     -66.8052547
9.064                0.964112481     -66.9055042
9.065                0.963958462     -67.0059909
9.066                0.963804175     -67.1067157
9.067                 0.96364962     -67.2076795
9.068                0.963494798     -67.3088831
9.069                0.963339708     -67.4103272
9.07                 0.963184351     -67.5120129
9.071                0.963028727     -67.6139409
9.072                0.962872837     -67.7161121
9.073                0.962716681     -67.8185273
9.074                0.962560259     -67.9211874
9.075                0.962403572     -68.0240934
9.076                 0.96224662      -68.127246
9.077                0.962089403     -68.2306461
9.078                0.961931921     -68.3342946
9.079                0.961774175     -68.4381924
9.08                 0.961616166     -68.5423404
9.081                0.961457893     -68.6467394
9.082                0.961299357     -68.7513903
9.083                0.961140558     -68.8562942
9.084                0.960981497     -68.9614517
9.085                0.960822174     -69.0668639
9.086                0.960662589     -69.1725316
9.087                0.960502743     -69.2784558
9.088                0.960342635     -69.3846373
9.089                0.960182267     -69.4910771
9.09                 0.960021639      -69.597776
9.091                0.959860751     -69.7047351
9.092                0.959699603     -69.8119552
9.093                0.959538196     -69.9194373
9.094                 0.95937653     -70.0271823
9.095                0.959214605     -70.1351911
9.096                0.959052423     -70.2434646
9.097                0.958889982     -70.3520038
9.098                0.958727284     -70.4608097
9.099                 0.95856433     -70.5698832
9.1                  0.958401118     -70.6792252
9.101                 0.95823765     -70.7888367
9.102                0.958073927     -70.8987186
9.103                0.957909948      -71.008872
9.104                0.957745713     -71.1192977
9.105                0.957581224     -71.2299968
9.106                0.957416481     -71.3409702
9.107                0.957251484     -71.4522189
9.108                0.957086233     -71.5637439
9.109                0.956920729     -71.6755461
9.11                 0.956754973     -71.7876265
9.111                0.956588964     -71.8999861
9.112                0.956422703      -72.012626
9.113                0.956256191     -72.1255471
9.114                0.956089428     -72.2387503
9.115                0.955922414     -72.3522368
9.116                 0.95575515     -72.4660075
9.117                0.955587636     -72.5800634
9.118                0.955419873     -72.6944056
9.119                0.955251861      -72.809035
9.12                 0.955083601     -72.9239527
9.121                0.954915092     -73.0391596
9.122                0.954746336     -73.1546569
9.123                0.954577333     -73.2704455
9.124                0.954408083     -73.3865265
9.125                0.954238587     -73.5029009
9.126                0.954068845     -73.6195698
9.127                0.953898858     -73.7365342
9.128                0.953728626     -73.8537951
9.129                 0.95355815     -73.9713536
9.13                  0.95338743     -74.0892108
9.131                0.953216467     -74.2073677
9.132                0.953045261     -74.3258253
9.133                0.952873812     -74.4445848
9.134                0.952702122     -74.5636472
9.135                 0.95253019     -74.6830136
9.136                0.952358017      -74.802685
9.137                0.952185604     -74.9226625
9.138                0.952012952     -75.0429472
9.139                 0.95184006     -75.1635402
9.14                 0.951666929     -75.2844427
9.141                 0.95149356     -75.4056555
9.142                0.951319953       -75.52718
9.143                0.951146109     -75.6490171
9.144                0.950972029      -75.771168
9.145                0.950797712     -75.8936337
9.146                0.950623161     -76.0164155
9.147                0.950448374     -76.1395143
9.148                0.950273352     -76.2629314
9.149                0.950098098     -76.3866678
9.15                 0.949922609     -76.5107246
9.151                0.949746889     -76.6351031
9.152                0.949570936     -76.7598042
9.153                0.949394752     -76.8848292
9.154                0.949218337     -77.0101792
9.155                0.949041692     -77.1358553
9.156                0.948864818     -77.2618586
9.157                0.948687715     -77.3881904
9.158                0.948510383     -77.5148517
9.159                0.948332824     -77.6418438
9.16                 0.948155037     -77.7691677
9.161                0.947977025     -77.8968247
9.162                0.947798787     -78.0248159
9.163                0.947620323     -78.1531424
9.164                0.947441636     -78.2818055
9.165                0.947262725     -78.4108063
9.166                0.947083591      -78.540146
9.167                0.946904235     -78.6698257
9.168                0.946724657     -78.7998467
9.169                0.946544858     -78.9302102
9.17                  0.94636484     -79.0609172
9.171                0.946184602     -79.1919692
9.172                0.946004145     -79.3233671
9.173                0.945823471     -79.4551122
9.174                 0.94564258     -79.5872058
9.175                0.945461472      -79.719649
9.176                0.945280149     -79.8524431
9.177                0.945098611     -79.9855892
9.178                0.944916859     -80.1190886
9.179                0.944734893     -80.2529425
9.18                 0.944552716     -80.3871521
9.181                0.944370327     -80.5217186
9.182                0.944187727     -80.6566434
9.183                0.944004918     -80.7919275
9.184                0.943821899     -80.9275723
9.185                0.943638673     -81.0635789
9.186                0.943455239     -81.1999487
9.187                0.943271598     -81.3366828
9.188                0.943087752     -81.4737826
9.189                0.942903702     -81.6112492
9.19                 0.942719448     -81.7490839
9.191                0.942534991     -81.8872881
9.192                0.942350332     -82.0258628
9.193                0.942165473     -82.1648095
9.194                0.941980413     -82.3041293
9.195                0.941795155     -82.4438235
9.196                0.941609698     -82.5838935
9.197                0.941424045     -82.7243405
9.198                0.941238195     -82.8651657
9.199                0.941052151     -83.0063704
9.2                  0.940865913      -83.147956
9.201                0.940679481     -83.2899237
9.202                0.940492858     -83.4322747
9.203                0.940306044     -83.5750105
9.204                0.940119041     -83.7181323
9.205                0.939931849     -83.8616413
9.206                0.939744469     -84.0055389
9.207                0.939556903     -84.1498264
9.208                0.939369151     -84.2945051
9.209                0.939181216     -84.4395763
9.21                 0.938993097     -84.5850413
9.211                0.938804796     -84.7309014
9.212                0.938616315     -84.8771579
9.213                0.938427655     -85.0238122
9.214                0.938238816     -85.1708656
9.215                  0.9380498     -85.3183194
9.216                0.937860609     -85.4661749
9.217                0.937671243     -85.6144334
9.218                0.937481704     -85.7630963
9.219                0.937291993     -85.9121649
9.22                 0.937102111     -86.0616406
9.221                 0.93691206     -86.2115247
9.222                 0.93672184     -86.3618184
9.223                0.936531455     -86.5125233
9.224                0.936340904     -86.6636405
9.225                0.936150189     -86.8151715
9.226                0.935959311     -86.9671176
9.227                0.935768272     -87.1194801
9.228                0.935577074     -87.2722605
9.229                0.935385718     -87.4254599
9.23                 0.935194205     -87.5790799
9.231                0.935002536     -87.7331218
9.232                0.934810714     -87.8875869
9.233                 0.93461874     -88.0424765
9.234                0.934426615     -88.1977921
9.235                 0.93423434      -88.353535
9.236                0.934041918     -88.5097066
9.237                0.933849351     -88.6663083
9.238                0.933656638     -88.8233413
9.239                0.933463784     -88.9808071
9.24                 0.933270788     -89.1387071
9.241                0.933077652     -89.2970426
9.242                0.932884379      -89.455815
9.243                 0.93269097     -89.6150257
9.244                0.932497426      -89.774676
9.245                 0.93230375     -89.9347674
9.246                0.932109944     -90.0953012
9.247                0.931916008     -90.2562788
9.248                0.931721945     -90.4177015
9.249                0.931527757     -90.5795708
9.25                 0.931333445     -90.7418881
9.251                0.931139012     -90.9046547
9.252                0.930944459     -91.0678719
9.253                0.930749788     -91.2315413
9.254                0.930555001     -91.3956642
9.255                0.930360101     -91.5602419
9.256                0.930165088     -91.7252759
9.257                0.929969966     -91.8907676
9.258                0.929774736     -92.0567182
9.259                  0.9295794     -92.2231293
9.26                 0.929383961     -92.3900023
9.261                 0.92918842     -92.5573384
9.262                0.928992779     -92.7251391
9.263                0.928797041     -92.8934058
9.264                0.928601208     -93.0621399
9.265                0.928405282     -93.2313427
9.266                0.928209265     -93.4010157
9.267                 0.92801316     -93.5711603
9.268                0.927816969     -93.7417778
9.269                0.927620694     -93.9128696
9.27                 0.927424337     -94.0844371
9.271                0.927227902     -94.2564818
9.272                0.927031389     -94.4290049
9.273                0.926834802     -94.6020079
9.274                0.926638143     -94.7754921
9.275                0.926441415     -94.9494591
9.276                 0.92624462       -95.12391
9.277                 0.92604776     -95.2988464
9.278                0.925850838     -95.4742696
9.279                0.925653857      -95.650181
9.28                  0.92545682     -95.8265819
9.281                0.925259728     -96.0034738
9.282                0.925062585      -96.180858
9.283                0.924865393     -96.3587359
9.284                0.924668155     -96.5371089
9.285                0.924470874     -96.7159783
9.286                0.924273552     -96.8953456
9.287                0.924076193     -97.0752121
9.288                0.923878799     -97.2555791
9.289                0.923681373     -97.4364481
9.29                 0.923483918     -97.6178203
9.291                0.923286437     -97.7996972
9.292                0.923088932     -97.9820801
9.293                0.922891408     -98.1649704
9.294                0.922693866     -98.3483694
9.295                0.922496311     -98.5322785
9.296                0.922298744      -98.716699
9.297                 0.92210117     -98.9016322
9.298                0.921903591     -99.0870796
9.299                0.921706011     -99.2730425
9.3                  0.921508432     -99.4595221
9.301                0.921310858     -99.6465199
9.302                0.921113293     -99.8340371
9.303                 0.92091574     -100.022075
9.304                0.920718201     -100.210635
9.305                0.920520681     -100.399719
9.306                0.920323182     -100.589327
9.307                0.920125709     -100.779461
9.308                0.919928265     -100.970123
9.309                0.919730853     -101.161313
9.31                 0.919533477     -101.353034
9.311                0.919336141     -101.545285
9.312                0.919138848      -101.73807
9.313                0.918941602     -101.931387
9.314                0.918744406     -102.125241
9.315                0.918547265      -102.31963
9.316                0.918350182     -102.514557
9.317                 0.91815316     -102.710023
9.318                0.917956205     -102.906029
9.319                0.917759319     -103.102577
9.32                 0.917562508     -103.299668
9.321                0.917365773     -103.497302
9.322                0.917169121     -103.695481
9.323                0.916972554     -103.894207
9.324                0.916776077     -104.093481
9.325                0.916579695     -104.293303
9.326                 0.91638341     -104.493675
9.327                0.916187228     -104.694599
9.328                0.915991152     -104.896075
9.329                0.915795188     -105.098105
9.33                 0.915599338     -105.300689
9.331                0.915403609      -105.50383
9.332                0.915208003     -105.707528
9.333                0.915012526     -105.911784
9.334                0.914817182     -106.116599
9.335                0.914621976     -106.321976
9.336                0.914426912     -106.527913
9.337                0.914231995     -106.734414
9.338                0.914037229     -106.941479
9.339                0.913842619     -107.149109
9.34                 0.913648171     -107.357306
9.341                0.913453888     -107.566069
9.342                0.913259775     -107.775401
9.343                0.913065838     -107.985303
9.344                0.912872082     -108.195775
9.345                0.912678511     -108.406819
9.346                 0.91248513     -108.618435
9.347                0.912291944     -108.830625
9.348                0.912098959      -109.04339
9.349                0.911906179     -109.256731
9.35                 0.911713611     -109.470648
9.351                0.911521258     -109.685143
9.352                0.911329126     -109.900217
9.353                0.911137221     -110.115871
9.354                0.910945548     -110.332105
9.355                0.910754113     -110.548921
9.356                 0.91056292      -110.76632
9.357                0.910371975     -110.984302
9.358                0.910181284     -111.202868
9.359                0.909990853      -111.42202
9.36                 0.909800686     -111.641758
9.361                 0.90961079     -111.862083
9.362                 0.90942117     -112.082996
9.363                0.909231832     -112.304498
9.364                0.909042783      -112.52659
9.365                0.908854027     -112.749272
9.366                 0.90866557     -112.972545
9.367                0.908477419     -113.196411
9.368                0.908289579     -113.420869
9.369                0.908102057     -113.645921
9.37                 0.907914859     -113.871568
9.371                 0.90772799     -114.097809
9.372                0.907541457     -114.324647
9.373                0.907355266     -114.552081
9.374                0.907169424     -114.780112
9.375                0.906983935     -115.008742
9.376                0.906798808      -115.23797
9.377                0.906614048     -115.467798
9.378                0.906429661     -115.698225
9.379                0.906245655     -115.929253
9.38                 0.906062035     -116.160882
9.381                0.905878809     -116.393113
9.382                0.905695982     -116.625946
9.383                0.905513561     -116.859382
9.384                0.905331554     -117.093422
9.385                0.905149966     -117.328066
9.386                0.904968805     -117.563313
9.387                0.904788078     -117.799166
9.388                 0.90460779     -118.035624
9.389                 0.90442795     -118.272689
9.39                 0.904248564     -118.510359
9.391                0.904069638     -118.748636
9.392                0.903891181      -118.98752
9.393                0.903713199     -119.227011
9.394                0.903535699      -119.46711
9.395                0.903358689     -119.707818
9.396                0.903182175     -119.949133
