! TOUCHSTONE file generated by CST DESIGN STUDIO
! Date and time: Tue Feb  4 13:09:05 2025
! Project name: C:\Work\MatlabApps\UnitCellOptimizationMatlab\CST\unitcell.cst
! Tree item: Tasks\Sweep1\SPara1\S-Parameters
! Header version: 2024
! Port assignment regex: !\s*Touchstone port\s*([0-9]+)\s*=\s*(CST MWS port|CST DES external port|CST DES block port)\s*(.+)\s* \(\"(.*)\"\)(\s*mode\s*([0-9]+))?.*
! Touchstone port assignment:
! Touchstone port 1 = CST DES external port 1 ("")
# GHz S MA R 50
9                    0.925748317     -75.8511703
9.001                 0.92558496     -75.9705428
9.002                0.925421489     -76.0902531
9.003                0.925257902     -76.2103025
9.004                0.925094199     -76.3306921
9.005                0.924930378     -76.4514234
9.006                0.924766439     -76.5724975
9.007                0.924602381     -76.6939158
9.008                0.924438202     -76.8156795
9.009                0.924273901     -76.9377898
9.01                 0.924109479     -77.0602482
9.011                0.923944932     -77.1830558
9.012                0.923780262      -77.306214
9.013                0.923615466      -77.429724
9.014                0.923450543     -77.5535872
9.015                0.923285493     -77.6778049
9.016                0.923120315     -77.8023783
9.017                0.922955007     -77.9273088
9.018                0.922789569     -78.0525977
9.019                0.922623999     -78.1782464
9.02                 0.922458297      -78.304256
9.021                0.922292462     -78.4306281
9.022                0.922126492     -78.5573638
9.023                0.921960386     -78.6844646
9.024                0.921794144     -78.8119317
9.025                0.921627765     -78.9397666
9.026                0.921461247     -79.0679705
9.027                 0.92129459     -79.1965448
9.028                0.921127793     -79.3254908
9.029                0.920960854     -79.4548099
9.03                 0.920793773     -79.5845035
9.031                0.920626548      -79.714573
9.032                0.920459179     -79.8450196
9.033                0.920291664     -79.9758448
9.034                0.920124003     -80.1070499
9.035                0.919956195     -80.2386363
9.036                0.919788239     -80.3706054
9.037                0.919620133     -80.5029585
9.038                0.919451877     -80.6356971
9.039                 0.91928347     -80.7688226
9.04                 0.919114911     -80.9023362
9.041                0.918946198     -81.0362395
9.042                0.918777332     -81.1705339
9.043                 0.91860831     -81.3052207
9.044                0.918439133     -81.4403013
9.045                0.918269798     -81.5757771
9.046                0.918100306     -81.7116496
9.047                0.917930654     -81.8479202
9.048                0.917760843     -81.9845903
9.049                0.917590871     -82.1216613
9.05                 0.917420738     -82.2591347
9.051                0.917250442     -82.3970118
9.052                0.917079983     -82.5352941
9.053                0.916909359     -82.6739831
9.054                 0.91673857     -82.8130801
9.055                0.916567615     -82.9525867
9.056                0.916396493     -83.0925042
9.057                0.916225203     -83.2328341
9.058                0.916053744     -83.3735779
9.059                0.915882116      -83.514737
9.06                 0.915710317     -83.6563129
9.061                0.915538347      -83.798307
9.062                0.915366204     -83.9407209
9.063                0.915193888     -84.0835558
9.064                0.915021399     -84.2268134
9.065                0.914848734     -84.3704951
9.066                0.914675895     -84.5146024
9.067                0.914502878     -84.6591368
9.068                0.914329685     -84.8040996
9.069                0.914156314     -84.9494925
9.07                 0.913982764     -85.0953169
9.071                0.913809035     -85.2415742
9.072                0.913635125     -85.3882661
9.073                0.913461034     -85.5353939
9.074                0.913286762     -85.6829591
9.075                0.913112307     -85.8309634
9.076                0.912937669     -85.9794081
9.077                0.912762847     -86.1282947
9.078                 0.91258784     -86.2776249
9.079                0.912412649        -86.4274
9.08                 0.912237271     -86.5776216
9.081                0.912061706     -86.7282912
9.082                0.911885955     -86.8794103
9.083                0.911710015     -87.0309805
9.084                0.911533887     -87.1830032
9.085                0.911357569       -87.33548
9.086                0.911181062     -87.4884124
9.087                0.911004365     -87.6418019
9.088                0.910827476     -87.7956501
9.089                0.910650397     -87.9499585
9.09                 0.910473125     -88.1047285
9.091                 0.91029566     -88.2599618
9.092                0.910118003     -88.4156599
9.093                0.909940152     -88.5718243
9.094                0.909762106     -88.7284566
9.095                0.909583867     -88.8855583
9.096                0.909405432     -89.0431309
9.097                0.909226802     -89.2011759
9.098                0.909047976     -89.3596951
9.099                0.908868953     -89.5186897
9.1                  0.908689734     -89.6781616
9.101                0.908510318      -89.838112
9.102                0.908330705     -89.9985427
9.103                0.908150894     -90.1594552
9.104                0.907970885      -90.320851
9.105                0.907790677     -90.4827317
9.106                0.907610271     -90.6450988
9.107                0.907429666     -90.8079539
9.108                0.907248862     -90.9712985
9.109                0.907067858     -91.1351343
9.11                 0.906886655     -91.2994627
9.111                0.906705253     -91.4642853
9.112                 0.90652365     -91.6296037
9.113                0.906341847     -91.7954195
9.114                0.906159845     -91.9617342
9.115                0.905977641     -92.1285493
9.116                0.905795238     -92.2958664
9.117                0.905612634     -92.4636872
9.118                 0.90542983     -92.6320131
9.119                0.905246825     -92.8008457
9.12                  0.90506362     -92.9701866
9.121                0.904880215     -93.1400373
9.122                 0.90469661     -93.3103994
9.123                0.904512804     -93.4812745
9.124                0.904328798     -93.6526641
9.125                0.904144592     -93.8245697
9.126                0.903960186     -93.9969931
9.127                0.903775581     -94.1699356
9.128                0.903590776     -94.3433989
9.129                0.903405773     -94.5173845
9.13                  0.90322057      -94.691894
9.131                0.903035169      -94.866929
9.132                 0.90284957     -95.0424909
9.133                0.902663772     -95.2185814
9.134                0.902477778      -95.395202
9.135                0.902291586     -95.5723543
9.136                0.902105197     -95.7500397
9.137                0.901918613       -95.92826
9.138                0.901731833     -96.1070165
9.139                0.901544857     -96.2863109
9.14                 0.901357687     -96.4661447
9.141                0.901170323     -96.6465195
9.142                0.900982766     -96.8274367
9.143                0.900795016      -97.008898
9.144                0.900607074     -97.1909048
9.145                0.900418941     -97.3734587
9.146                0.900230617     -97.5565613
9.147                0.900042104      -97.740214
9.148                0.899853402     -97.9244184
9.149                0.899664511      -98.109176
9.15                 0.899475434     -98.2944883
9.151                 0.89928617     -98.4803569
9.152                0.899096721     -98.6667833
9.153                0.898907088      -98.853769
9.154                0.898717272     -99.0413154
9.155                0.898527273     -99.2294241
9.156                0.898337094     -99.4180967
9.157                0.898146734     -99.6073345
9.158                0.897956196     -99.7971391
9.159                0.897765481      -99.987512
9.16                 0.897574589     -100.178455
9.161                0.897383523     -100.369969
9.162                0.897192283     -100.562055
9.163                0.897000871     -100.754716
9.164                0.896809288     -100.947952
9.165                0.896617536     -101.141766
9.166                0.896425616     -101.336158
9.167                 0.89623353     -101.531131
9.168                 0.89604128     -101.726684
9.169                0.895848866     -101.922821
9.17                 0.895656292     -102.119542
9.171                0.895463558     -102.316849
9.172                0.895270666     -102.514743
9.173                0.895077618     -102.713225
9.174                0.894884416     -102.912298
9.175                0.894691062     -103.111962
9.176                0.894497558      -103.31222
9.177                0.894303906     -103.513071
9.178                0.894110108     -103.714518
9.179                0.893916165     -103.916562
9.18                 0.893722081     -104.119204
9.181                0.893527857     -104.322446
9.182                0.893333495      -104.52629
9.183                0.893138999     -104.730735
9.184                0.892944369     -104.935785
9.185                0.892749609      -105.14144
9.186                0.892554722     -105.347701
9.187                0.892359708      -105.55457
9.188                0.892164572     -105.762048
9.189                0.891969315     -105.970136
9.19                 0.891773941     -106.178836
9.191                0.891578452     -106.388149
9.192                 0.89138285     -106.598077
9.193                0.891187139      -106.80862
9.194                0.890991322     -107.019779
9.195                  0.8907954     -107.231557
9.196                0.890599379     -107.443954
9.197                0.890403259     -107.656971
9.198                0.890207045      -107.87061
9.199                0.890010739     -108.084872
9.2                  0.889814346     -108.299758
9.201                0.889617867     -108.515269
9.202                0.889421307     -108.731407
9.203                0.889224668     -108.948172
9.204                0.889027955     -109.165566
9.205                 0.88883117      -109.38359
9.206                0.888634317     -109.602244
9.207                0.888437401     -109.821531
9.208                0.888240423     -110.041451
9.209                0.888043389     -110.262005
9.21                 0.887846302     -110.483195
9.211                0.887649165     -110.705021
9.212                0.887451984     -110.927485
9.213                0.887254761     -111.150587
9.214                0.887057501     -111.374328
9.215                0.886860207      -111.59871
9.216                0.886662885     -111.823733
9.217                0.886465538     -112.049399
9.218                 0.88626817     -112.275709
9.219                0.886070786     -112.502662
9.22                 0.885873391     -112.730261
9.221                0.885675988     -112.958506
9.222                0.885478582     -113.187399
9.223                0.885281179     -113.416939
9.224                0.885083782     -113.647128
9.225                0.884886396     -113.877967
9.226                0.884689027     -114.109456
9.227                0.884491678     -114.341597
9.228                0.884294356      -114.57439
9.229                0.884097064     -114.807835
9.23                 0.883899809     -115.041935
9.231                0.883702594     -115.276689
9.232                0.883505427     -115.512097
9.233                 0.88330831     -115.748162
9.234                0.883111251     -115.984884
9.235                0.882914254     -116.222262
9.236                0.882717326     -116.460299
9.237                 0.88252047     -116.698994
9.238                0.882323694     -116.938348
9.239                0.882127003     -117.178362
9.24                 0.881930402     -117.419036
9.241                0.881733897     -117.660371
9.242                0.881537495     -117.902367
9.243                0.881341202     -118.145025
9.244                0.881145022     -118.388345
9.245                0.880948963     -118.632329
9.246                0.880753031     -118.876975
9.247                0.880557231     -119.122286
9.248                0.880361571      -119.36826
9.249                0.880166056     -119.614899
9.25                 0.879970694     -119.862202
9.251                 0.87977549     -120.110171
9.252                0.879580451     -120.358805
9.253                0.879385584     -120.608105
9.254                0.879190896     -120.858071
9.255                0.878996394     -121.108703
9.256                0.878802084     -121.360001
9.257                0.878607973     -121.611966
9.258                0.878414068     -121.864598
9.259                0.878220378     -122.117897
9.26                 0.878026907     -122.371863
9.261                0.877833665     -122.626496
9.262                0.877640658     -122.881796
9.263                0.877447894     -123.137763
9.264                 0.87725538     -123.394397
9.265                0.877063123     -123.651699
9.266                0.876871132     -123.909668
9.267                0.876679414     -124.168303
9.268                0.876487976     -124.427606
9.269                0.876296827     -124.687575
9.27                 0.876105974     -124.948211
9.271                0.875915426     -125.209513
9.272                0.875725189     -125.471482
9.273                0.875535274     -125.734116
9.274                0.875345687     -125.997416
9.275                0.875156437     -126.261382
9.276                0.874967532     -126.526012
9.277                 0.87477898     -126.791307
9.278                 0.87459079     -127.057267
9.279                0.874402971      -127.32389
9.28                 0.874215531     -127.591176
9.281                0.874028478     -127.859125
9.282                0.873841822     -128.127737
9.283                0.873655571      -128.39701
9.284                0.873469734     -128.666944
9.285                0.873284319     -128.937539
9.286                0.873099336     -129.208794
9.287                0.872914795     -129.480707
9.288                0.872730702      -129.75328
9.289                0.872547069     -130.026509
9.29                 0.872363904     -130.300396
9.291                0.872181217     -130.574939
9.292                0.871999016     -130.850137
9.293                0.871817312     -131.125989
9.294                0.871636113     -131.402494
9.295                0.871455429     -131.679652
9.296                 0.87127527     -131.957461
9.297                0.871095645     -132.235921
9.298                0.870916564      -132.51503
9.299                0.870738037     -132.794786
9.3                  0.870560073      -133.07519
9.301                0.870382683      -133.35624
9.302                0.870205875     -133.637934
9.303                0.870029661     -133.920272
9.304                 0.86985405     -134.203251
9.305                0.869679052     -134.486871
9.306                0.869504677     -134.771131
9.307                0.869330936     -135.056028
9.308                0.869157838     -135.341562
9.309                0.868985395      -135.62773
9.31                 0.868813615     -135.914533
9.311                0.868642509     -136.201966
9.312                0.868472089     -136.490031
9.313                0.868302363     -136.778723
9.314                0.868133343     -137.068043
9.315                0.867965039     -137.357988
9.316                0.867797462     -137.648556
9.317                0.867630622     -137.939746
9.318                0.867464529     -138.231556
9.319                0.867299195     -138.523984
9.32                  0.86713463     -138.817027
9.321                0.866970845     -139.110685
9.322                0.866807851     -139.404954
9.323                0.866645657     -139.699834
9.324                0.866484276     -139.995321
9.325                0.866323717     -140.291414
9.326                0.866163992     -140.588111
9.327                0.866005112     -140.885409
9.328                0.865847087     -141.183306
9.329                0.865689928       -141.4818
9.33                 0.865533647     -141.780888
9.331                0.865378253     -142.080568
9.332                0.865223759     -142.380838
9.333                0.865070175     -142.681695
9.334                0.864917512     -142.983137
9.335                0.864765782     -143.285161
9.336                0.864614994     -143.587764
9.337                 0.86446516     -143.890944
9.338                0.864316292     -144.194699
9.339                  0.8641684     -144.499025
9.34                 0.864021495     -144.803919
9.341                0.863875588      -145.10938
9.342                 0.86373069     -145.415403
9.343                0.863586813     -145.721987
9.344                0.863443967     -146.029127
9.345                0.863302164     -146.336822
9.346                0.863161414     -146.645069
9.347                0.863021728     -146.953863
9.348                0.862883118     -147.263202
9.349                0.862745594     -147.573083
9.35                 0.862609168     -147.883503
9.351                 0.86247385     -148.194458
9.352                0.862339651     -148.505946
9.353                0.862206582     -148.817962
9.354                0.862074655     -149.130504
9.355                0.861943879     -149.443567
9.356                0.861814267     -149.757149
9.357                0.861685827     -150.071247
9.358                0.861558573     -150.385855
9.359                0.861432513     -150.700972
9.36                  0.86130766     -151.016593
9.361                0.861184023     -151.332715
9.362                0.861061613     -151.649333
9.363                0.860940441     -151.966445
9.364                0.860820518     -152.284046
9.365                0.860701853     -152.602133
9.366                0.860584458     -152.920701
9.367                0.860468343     -153.239747
9.368                0.860353519     -153.559267
9.369                0.860239994     -153.879256
9.37                 0.860127781     -154.199711
9.371                0.860016889     -154.520628
9.372                0.859907328     -154.842002
9.373                0.859799109      -155.16383
9.374                0.859692241     -155.486106
9.375                0.859586734     -155.808828
9.376                0.859482599      -156.13199
9.377                0.859379845     -156.455588
9.378                0.859278481     -156.779618
9.379                0.859178519     -157.104076
9.38                 0.859079967     -157.428956
9.381                0.858982834     -157.754255
9.382                0.858887131     -158.079968
9.383                0.858792867     -158.406091
9.384                 0.85870005     -158.732618
9.385                0.858608691     -159.059545
9.386                0.858518798     -159.386867
9.387                0.858430381     -159.714581
9.388                0.858343448      -160.04268
9.389                0.858258008     -160.371161
9.39                  0.85817407     -160.700017
9.391                0.858091643     -161.029246
9.392                0.858010735     -161.358841
9.393                0.857931355     -161.688797
9.394                0.857853511      -162.01911
9.395                0.857777211     -162.349775
9.396                0.857702464     -162.680787
