! TOUCHSTONE file generated by CST DESIGN STUDIO
! Date and time: Tue Feb  4 13:09:08 2025
! Project name: C:\Work\MatlabApps\UnitCellOptimizationMatlab\CST\unitcell.cst
! Tree item: Tasks\Sweep1\SPara1\S-Parameters
! Header version: 2024
! Port assignment regex: !\s*Touchstone port\s*([0-9]+)\s*=\s*(CST MWS port|CST DES external port|CST DES block port)\s*(.+)\s* \(\"(.*)\"\)(\s*mode\s*([0-9]+))?.*
! Touchstone port assignment:
! Touchstone port 1 = CST DES external port 1 ("")
# GHz S MA R 50
9                    0.939620212     -65.8287346
9.001                0.939511957      -65.923518
9.002                0.939403656     -66.0185598
9.003                0.939295308      -66.113861
9.004                 0.93918691     -66.2094226
9.005                 0.93907846     -66.3052455
9.006                0.938969957     -66.4013306
9.007                0.938861398     -66.4976788
9.008                0.938752782     -66.5942912
9.009                0.938644106     -66.6911686
9.01                 0.938535369      -66.788312
9.011                0.938426568     -66.8857224
9.012                0.938317702     -66.9834007
9.013                0.938208769     -67.0813479
9.014                0.938099766     -67.1795649
9.015                0.937990691     -67.2780527
9.016                0.937881543     -67.3768123
9.017                 0.93777232     -67.4758446
9.018                0.937663019     -67.5751507
9.019                0.937553639     -67.6747314
9.02                 0.937444177     -67.7745878
9.021                0.937334632     -67.8747209
9.022                0.937225001     -67.9751317
9.023                0.937115282     -68.0758211
9.024                0.937005474     -68.1767901
9.025                0.936895575     -68.2780397
9.026                0.936785581      -68.379571
9.027                0.936675492      -68.481385
9.028                0.936565306     -68.5834825
9.029                0.936455019     -68.6858648
9.03                 0.936344631     -68.7885327
9.031                0.936234139     -68.8914873
9.032                0.936123542     -68.9947296
9.033                0.936012836     -69.0982606
9.034                0.935902021     -69.2020814
9.035                0.935791093      -69.306193
9.036                0.935680052     -69.4105963
9.037                0.935568894     -69.5152926
9.038                0.935457619     -69.6202827
9.039                0.935346223     -69.7255678
9.04                 0.935234705     -69.8311488
9.041                0.935123063     -69.9370269
9.042                0.935011295     -70.0432031
9.043                0.934899398     -70.1496784
9.044                0.934787371     -70.2564539
9.045                0.934675211     -70.3635307
9.046                0.934562917     -70.4709098
9.047                0.934450486     -70.5785923
9.048                0.934337917     -70.6865792
9.049                0.934225207     -70.7948717
9.05                 0.934112354     -70.9034709
9.051                0.933999357     -71.0123777
9.052                0.933886212     -71.1215933
9.053                0.933772919     -71.2311189
9.054                0.933659474     -71.3409554
9.055                0.933545877     -71.4511039
9.056                0.933432124     -71.5615657
9.057                0.933318214     -71.6723417
9.058                0.933204144     -71.7834331
9.059                0.933089914      -71.894841
9.06                  0.93297552     -72.0065665
9.061                 0.93286096     -72.1186107
9.062                0.932746233     -72.2309747
9.063                0.932631336     -72.3436598
9.064                0.932516267     -72.4566669
9.065                0.932401024     -72.5699972
9.066                0.932285606     -72.6836519
9.067                0.932170009     -72.7976321
9.068                0.932054233     -72.9119389
9.069                0.931938274     -73.0265735
9.07                 0.931822132     -73.1415371
9.071                0.931705803     -73.2568307
9.072                0.931589285     -73.3724555
9.073                0.931472578     -73.4884127
9.074                0.931355677     -73.6047035
9.075                0.931238582      -73.721329
9.076                0.931121291     -73.8382904
9.077                0.931003801     -73.9555888
9.078                 0.93088611     -74.0732255
9.079                0.930768216     -74.1912016
9.08                 0.930650117     -74.3095182
9.081                0.930531811     -74.4281767
9.082                0.930413297     -74.5471781
9.083                0.930294571     -74.6665237
9.084                0.930175631     -74.7862146
9.085                0.930056477     -74.9062521
9.086                0.929937105     -75.0266373
9.087                0.929817514     -75.1473715
9.088                0.929697701     -75.2684559
9.089                0.929577665     -75.3898916
9.09                 0.929457403       -75.51168
9.091                0.929336914     -75.6338222
9.092                0.929216194     -75.7563194
9.093                0.929095243     -75.8791729
9.094                0.928974059     -76.0023839
9.095                0.928852638     -76.1259536
9.096                0.928730979     -76.2498834
9.097                0.928609081     -76.3741743
9.098                 0.92848694     -76.4988277
9.099                0.928364556     -76.6238448
9.1                  0.928241925     -76.7492268
9.101                0.928119046     -76.8749751
9.102                0.927995917     -77.0010908
9.103                0.927872536     -77.1275753
9.104                  0.9277489     -77.2544297
9.105                0.927625009     -77.3816555
9.106                0.927500859     -77.5092537
9.107                0.927376448     -77.6372258
9.108                0.927251776     -77.7655729
9.109                0.927126839     -77.8942964
9.11                 0.927001635     -78.0233976
9.111                0.926876163     -78.1528777
9.112                0.926750421      -78.282738
9.113                0.926624407     -78.4129799
9.114                0.926498118     -78.5436045
9.115                0.926371553     -78.6746133
9.116                0.926244709     -78.8060075
9.117                0.926117585     -78.9377885
9.118                0.925990179     -79.0699575
9.119                0.925862488     -79.2025158
9.12                 0.925734511     -79.3354648
9.121                0.925606246     -79.4688059
9.122                0.925477691     -79.6025402
9.123                0.925348844     -79.7366692
9.124                0.925219703     -79.8711941
9.125                0.925090265     -80.0061164
9.126                 0.92496053     -80.1414373
9.127                0.924830494     -80.2771582
9.128                0.924700157     -80.4132804
9.129                0.924569516     -80.5498053
9.13                  0.92443857     -80.6867342
9.131                0.924307315     -80.8240684
9.132                0.924175752     -80.9618094
9.133                0.924043877     -81.0999585
9.134                0.923911688      -81.238517
9.135                0.923779185     -81.3774863
9.136                0.923646364     -81.5168678
9.137                0.923513225     -81.6566628
9.138                0.923379765     -81.7968727
9.139                0.923245982     -81.9374989
9.14                 0.923111875     -82.0785428
9.141                0.922977441     -82.2200057
9.142                 0.92284268      -82.361889
9.143                0.922707588     -82.5041942
9.144                0.922572165     -82.6469225
9.145                0.922436408     -82.7900755
9.146                0.922300316     -82.9336544
9.147                0.922163886     -83.0776607
9.148                0.922027118     -83.2220958
9.149                0.921890009     -83.3669611
9.15                 0.921752558     -83.5122579
9.151                0.921614762     -83.6579878
9.152                0.921476621      -83.804152
9.153                0.921338131     -83.9507521
9.154                0.921199293     -84.0977894
9.155                0.921060103     -84.2452654
9.156                0.920920561     -84.3931814
9.157                0.920780664     -84.5415389
9.158                0.920640411     -84.6903393
9.159                0.920499801     -84.8395841
9.16                 0.920358831     -84.9892746
9.161                  0.9202175     -85.1394123
9.162                0.920075806     -85.2899987
9.163                0.919933748     -85.4410351
9.164                0.919791324      -85.592523
9.165                0.919648532     -85.7444639
9.166                0.919505372     -85.8968591
9.167                0.919361841     -86.0497102
9.168                0.919217937     -86.2030185
9.169                 0.91907366     -86.3567856
9.17                 0.918929008     -86.5110128
9.171                0.918783979     -86.6657016
9.172                0.918638572     -86.8208535
9.173                0.918492785     -86.9764699
9.174                0.918346617     -87.1325523
9.175                0.918200067     -87.2891021
9.176                0.918053132     -87.4461208
9.177                0.917905813     -87.6036099
9.178                0.917758106     -87.7615708
9.179                0.917610011     -87.9200049
9.18                 0.917461527     -88.0789138
9.181                0.917312652     -88.2382989
9.182                0.917163384     -88.3981617
9.183                0.917013723     -88.5585036
9.184                0.916863667     -88.7193261
9.185                0.916713216     -88.8806307
9.186                0.916562366     -89.0424188
9.187                0.916411119      -89.204692
9.188                0.916259471     -89.3674516
9.189                0.916107423     -89.5306992
9.19                 0.915954972     -89.6944363
9.191                0.915802118     -89.8586643
9.192                 0.91564886     -90.0233846
9.193                0.915495196     -90.1885989
9.194                0.915341126     -90.3543084
9.195                0.915186648     -90.5205148
9.196                0.915031761     -90.6872195
9.197                0.914876464      -90.854424
9.198                0.914720757     -91.0221297
9.199                0.914564637     -91.1903382
9.2                  0.914408106     -91.3590509
9.201                 0.91425116     -91.5282692
9.202                  0.9140938     -91.6979948
9.203                0.913936024     -91.8682289
9.204                0.913777833     -92.0389732
9.205                0.913619224     -92.2102291
9.206                0.913460197     -92.3819981
9.207                0.913300751     -92.5542816
9.208                0.913140886     -92.7270812
9.209                0.912980601     -92.9003982
9.21                 0.912819895     -93.0742343
9.211                0.912658767     -93.2485908
9.212                0.912497217     -93.4234692
9.213                0.912335244      -93.598871
9.214                0.912172847     -93.7747977
9.215                0.912010027     -93.9512507
9.216                0.911846782     -94.1282315
9.217                0.911683112     -94.3057416
9.218                0.911519017     -94.4837824
9.219                0.911354495     -94.6623554
9.22                 0.911189548     -94.8414621
9.221                0.911024173      -95.021104
9.222                0.910858371     -95.2012824
9.223                0.910692142     -95.3819988
9.224                0.910525485     -95.5632547
9.225                  0.9103584     -95.7450516
9.226                0.910190887     -95.9273909
9.227                0.910022946      -96.110274
9.228                0.909854576     -96.2937024
9.229                0.909685778     -96.4776776
9.23                 0.909516551     -96.6622009
9.231                0.909346895     -96.8472738
9.232                 0.90917681     -97.0328978
9.233                0.909006297     -97.2190742
9.234                0.908835355     -97.4058046
9.235                0.908663984     -97.5930903
9.236                0.908492185     -97.7809327
9.237                0.908319958     -97.9693333
9.238                0.908147302     -98.1582935
9.239                0.907974219     -98.3478147
9.24                 0.907800709     -98.5378982
9.241                0.907626771     -98.7285456
9.242                0.907452407     -98.9197582
9.243                0.907277616     -99.1115374
9.244                0.907102399     -99.3038845
9.245                0.906926757      -99.496801
9.246                0.906750691     -99.6902883
9.247                  0.9065742     -99.8843477
9.248                0.906397285     -100.078981
9.249                0.906219948     -100.274188
9.25                 0.906042188     -100.469972
9.251                0.905864007     -100.666334
9.252                0.905685406     -100.863274
9.253                0.905506384     -101.060795
9.254                0.905326944     -101.258898
9.255                0.905147086     -101.457583
9.256                0.904966811     -101.656852
9.257                 0.90478612     -101.856708
9.258                0.904605015      -102.05715
9.259                0.904423496      -102.25818
9.26                 0.904241565       -102.4598
9.261                0.904059222      -102.66201
9.262                 0.90387647     -102.864813
9.263                0.903693309     -103.068209
9.264                0.903509741       -103.2722
9.265                0.903325768     -103.476786
9.266                 0.90314139      -103.68197
9.267                 0.90295661     -103.887752
9.268                0.902771429     -104.094134
9.269                0.902585849     -104.301116
9.27                 0.902399871     -104.508701
9.271                0.902213498     -104.716889
9.272                 0.90202673     -104.925682
9.273                0.901839571      -105.13508
9.274                0.901652021     -105.345085
9.275                0.901464084     -105.555698
9.276                 0.90127576     -105.766921
9.277                0.901087053     -105.978754
9.278                0.900897964     -106.191198
9.279                0.900708495     -106.404256
9.28                  0.90051865     -106.617927
9.281                0.900328429     -106.832213
9.282                0.900137837     -107.047115
9.283                0.899946874     -107.262634
9.284                0.899755544     -107.478771
9.285                 0.89956385     -107.695528
9.286                0.899371793     -107.912905
9.287                0.899179377     -108.130904
9.288                0.898986605     -108.349525
9.289                0.898793479      -108.56877
9.29                 0.898600002     -108.788639
9.291                0.898406178     -109.009133
9.292                0.898212009     -109.230254
9.293                0.898017499     -109.452003
9.294                0.897822651      -109.67438
9.295                0.897627467     -109.897387
9.296                0.897431952     -110.121024
9.297                0.897236109     -110.345292
9.298                0.897039941     -110.570192
9.299                0.896843452     -110.795726
9.3                  0.896646645     -111.021893
9.301                0.896449524     -111.248695
9.302                0.896252093     -111.476133
9.303                0.896054356     -111.704208
9.304                0.895856317     -111.932919
9.305                0.895657979     -112.162269
9.306                0.895459347     -112.392258
9.307                0.895260424     -112.622887
9.308                0.895061216     -112.854156
9.309                0.894861725     -113.086067
9.31                 0.894661958     -113.318619
9.311                0.894461917     -113.551814
9.312                0.894261608     -113.785652
9.313                0.894061034     -114.020135
9.314                0.893860202     -114.255262
9.315                0.893659115     -114.491034
9.316                0.893457778     -114.727452
9.317                0.893256197     -114.964517
9.318                0.893054376     -115.202229
9.319                0.892852319     -115.440589
9.32                 0.892650033     -115.679597
9.321                0.892447523     -115.919254
9.322                0.892244793      -116.15956
9.323                 0.89204185     -116.400516
9.324                0.891838698     -116.642122
9.325                0.891635343     -116.884378
9.326                 0.89143179     -117.127286
9.327                0.891228047     -117.370846
9.328                0.891024117     -117.615057
9.329                0.890820007      -117.85992
9.33                 0.890615723     -118.105437
9.331                0.890411271     -118.351606
9.332                0.890206657     -118.598428
9.333                0.890001888     -118.845904
9.334                0.889796968     -119.094033
9.335                0.889591906     -119.342817
9.336                0.889386706     -119.592254
9.337                0.889181377     -119.842346
9.338                0.888975924     -120.093093
9.339                0.888770354     -120.344494
9.34                 0.888564673      -120.59655
9.341                0.888358889     -120.849261
9.342                0.888153009     -121.102627
9.343                0.887947039     -121.356648
9.344                0.887740987     -121.611323
9.345                 0.88753486     -121.866654
9.346                0.887328665      -122.12264
9.347                0.887122409      -122.37928
9.348                0.886916101     -122.636575
9.349                0.886709747     -122.894525
9.35                 0.886503354     -123.153129
9.351                0.886296932     -123.412388
9.352                0.886090487     -123.672301
9.353                0.885884028     -123.932867
9.354                0.885677562     -124.194088
9.355                0.885471097     -124.455961
9.356                0.885264642     -124.718488
9.357                0.885058204     -124.981667
9.358                0.884851793     -125.245499
9.359                0.884645415     -125.509982
9.36                 0.884439081     -125.775117
9.361                0.884232798     -126.040903
9.362                0.884026575      -126.30734
9.363                0.883820421     -126.574426
9.364                0.883614344     -126.842162
9.365                0.883408354     -127.110547
9.366                0.883202459      -127.37958
9.367                0.882996668     -127.649261
9.368                0.882790991     -127.919589
9.369                0.882585437     -128.190563
9.37                 0.882380014     -128.462183
9.371                0.882174733     -128.734447
9.372                0.881969603     -129.007355
9.373                0.881764633     -129.280906
9.374                0.881559833       -129.5551
9.375                0.881355213     -129.829935
9.376                0.881150782      -130.10541
9.377                 0.88094655     -130.381524
9.378                0.880742528     -130.658277
9.379                0.880538724     -130.935668
9.38                  0.88033515     -131.213694
9.381                0.880131816     -131.492356
9.382                0.879928731     -131.771652
9.383                0.879725906     -132.051581
9.384                0.879523351     -132.332141
9.385                0.879321077     -132.613332
9.386                0.879119094     -132.895152
9.387                0.878917413       -133.1776
9.388                0.878716045     -133.460674
9.389                   0.878515     -133.744373
9.39                 0.878314289     -134.028696
9.391                0.878113924     -134.313641
9.392                0.877913914     -134.599207
9.393                0.877714271     -134.885391
9.394                0.877515006     -135.172193
9.395                 0.87731613     -135.459612
9.396                0.877117654     -135.747644
