! TOUCHSTONE file generated by CST DESIGN STUDIO
! Date and time: Tue Feb  4 13:09:02 2025
! Project name: C:\Work\MatlabApps\UnitCellOptimizationMatlab\CST\unitcell.cst
! Tree item: Tasks\Sweep1\SPara1\S-Parameters
! Header version: 2024
! Port assignment regex: !\s*Touchstone port\s*([0-9]+)\s*=\s*(CST MWS port|CST DES external port|CST DES block port)\s*(.+)\s* \(\"(.*)\"\)(\s*mode\s*([0-9]+))?.*
! Touchstone port assignment:
! Touchstone port 1 = CST DES external port 1 ("")
# GHz S MA R 50
9                    0.910219683       -87.08954
9.001                0.909988519     -87.2389549
9.002                0.909757285     -87.3888057
9.003                0.909525981     -87.5390941
9.004                0.909294608     -87.6898216
9.005                0.909063166     -87.8409898
9.006                0.908831655     -87.9926002
9.007                0.908600076     -88.1446545
9.008                 0.90836843     -88.2971542
9.009                0.908136716     -88.4501008
9.01                 0.907904936     -88.6034961
9.011                0.907673089     -88.7573415
9.012                0.907441177     -88.9116387
9.013                0.907209199     -89.0663893
9.014                0.906977157     -89.2215948
9.015                0.906745051     -89.3772568
9.016                0.906512882      -89.533377
9.017                0.906280649     -89.6899569
9.018                0.906048354     -89.8469982
9.019                0.905815998     -90.0045024
9.02                 0.905583581     -90.1624712
9.021                0.905351103     -90.3209061
9.022                0.905118566     -90.4798088
9.023                0.904885969     -90.6391809
9.024                0.904653315      -90.799024
9.025                0.904420603     -90.9593398
9.026                0.904187834     -91.1201297
9.027                0.903955009     -91.2813955
9.028                 0.90372213     -91.4431387
9.029                0.903489195      -91.605361
9.03                 0.903256208     -91.7680641
9.031                0.903023167     -91.9312494
9.032                0.902790075     -92.0949187
9.033                0.902556932     -92.2590736
9.034                0.902323739     -92.4237157
9.035                0.902090497     -92.5888466
9.036                0.901857207      -92.754468
9.037                 0.90162387     -92.9205815
9.038                0.901390487     -93.0871886
9.039                0.901157059     -93.2542911
9.04                 0.900923587     -93.4218906
9.041                0.900690073     -93.5899887
9.042                0.900456516      -93.758587
9.043                 0.90022292     -93.9276872
9.044                0.899989283     -94.0972909
9.045                0.899755609     -94.2673997
9.046                0.899521897     -94.4380152
9.047                 0.89928815     -94.6091392
9.048                0.899054369     -94.7807732
9.049                0.898820554     -94.9529188
9.05                 0.898586708     -95.1255777
9.051                0.898352831     -95.2987515
9.052                0.898118925     -95.4724419
9.053                0.897884991     -95.6466505
9.054                0.897651031     -95.8213788
9.055                0.897417047     -95.9966286
9.056                0.897183039     -96.1724015
9.057                 0.89694901      -96.348699
9.058                 0.89671496     -96.5255229
9.059                0.896480893     -96.7028747
9.06                 0.896246808     -96.8807561
9.061                0.896012708     -97.0591687
9.062                0.895778595     -97.2381141
9.063                 0.89554447     -97.4175939
9.064                0.895310335     -97.5976097
9.065                0.895076191     -97.7781632
9.066                0.894842042      -97.959256
9.067                0.894607888     -98.1408897
9.068                0.894373732     -98.3230659
9.069                0.894139574     -98.5057863
9.07                 0.893905419     -98.6890523
9.071                0.893671267     -98.8728656
9.072                 0.89343712     -99.0572279
9.073                0.893202981     -99.2421407
9.074                0.892968851     -99.4276056
9.075                0.892734734     -99.6136243
9.076                 0.89250063     -99.8001982
9.077                0.892266543     -99.9873291
9.078                0.892032474     -100.175018
9.079                0.891798427     -100.363268
9.08                 0.891564402     -100.552079
9.081                0.891330404     -100.741453
9.082                0.891096433     -100.931392
9.083                0.890862493     -101.121897
9.084                0.890628587      -101.31297
9.085                0.890394716     -101.504613
9.086                0.890160883     -101.696827
9.087                0.889927092     -101.889613
9.088                0.889693345     -102.082974
9.089                0.889459644      -102.27691
9.09                 0.889225992     -102.471423
9.091                0.888992392     -102.666515
9.092                0.888758848     -102.862187
9.093                0.888525361     -103.058441
9.094                0.888291936     -103.255278
9.095                0.888058574       -103.4527
9.096                 0.88782528     -103.650709
9.097                0.887592055     -103.849305
9.098                0.887358904      -104.04849
9.099                 0.88712583     -104.248267
9.1                  0.886892836     -104.448635
9.101                0.886659924     -104.649597
9.102                  0.8864271     -104.851154
9.103                0.886194365     -105.053308
9.104                0.885961723     -105.256061
9.105                0.885729179     -105.459412
9.106                0.885496735     -105.663365
9.107                0.885264395      -105.86792
9.108                0.885032163     -106.073078
9.109                0.884800043     -106.278842
9.11                 0.884568038     -106.485213
9.111                0.884336152     -106.692192
9.112                0.884104389      -106.89978
9.113                0.883872754     -107.107979
9.114                0.883641249      -107.31679
9.115                0.883409879     -107.526215
9.116                0.883178648     -107.736254
9.117                0.882947561      -107.94691
9.118                0.882716621     -108.158183
9.119                0.882485833     -108.370076
9.12                 0.882255202     -108.582588
9.121                 0.88202473     -108.795722
9.122                0.881794424     -109.009479
9.123                0.881564287      -109.22386
9.124                0.881334325     -109.438866
9.125                0.881104541     -109.654499
9.126                 0.88087494     -109.870759
9.127                0.880645527     -110.087649
9.128                0.880416308     -110.305169
9.129                0.880187286     -110.523321
9.13                 0.879958466     -110.742105
9.131                0.879729855     -110.961524
9.132                0.879501456     -111.181577
9.133                0.879273275     -111.402267
9.134                0.879045316     -111.623594
9.135                0.878817586      -111.84556
9.136                 0.87859009     -112.068165
9.137                0.878362832     -112.291411
9.138                0.878135819     -112.515299
9.139                0.877909055      -112.73983
9.14                 0.877682547     -112.965005
9.141                0.877456299     -113.190825
9.142                0.877230318     -113.417291
9.143                0.877004609     -113.644405
9.144                0.876779178     -113.872166
9.145                0.876554031     -114.100577
9.146                0.876329174     -114.329638
9.147                0.876104613      -114.55935
9.148                0.875880353     -114.789714
9.149                0.875656402     -115.020731
9.15                 0.875432765     -115.252401
9.151                0.875209448     -115.484727
9.152                0.874986457     -115.717708
9.153                  0.8747638     -115.951346
9.154                0.874541483      -116.18564
9.155                0.874319511     -116.420593
9.156                0.874097892     -116.656205
9.157                0.873876632     -116.892477
9.158                0.873655738     -117.129409
9.159                0.873435217     -117.367003
9.16                 0.873215076     -117.605258
9.161                 0.87299532     -117.844176
9.162                0.872775959     -118.083758
9.163                0.872556998     -118.324003
9.164                0.872338444     -118.564913
9.165                0.872120305     -118.806489
9.166                0.871902588      -119.04873
9.167                  0.8716853     -119.291638
9.168                 0.87146845     -119.535213
9.169                0.871252043     -119.779455
9.17                 0.871036087     -120.024366
9.171                0.870820591     -120.269945
9.172                0.870605562     -120.516193
9.173                0.870391007     -120.763111
9.174                0.870176934     -121.010698
9.175                0.869963352     -121.258956
9.176                0.869750267     -121.507884
9.177                0.869537689     -121.757484
9.178                0.869325624     -122.007755
9.179                0.869114081     -122.258698
9.18                 0.868903069     -122.510312
9.181                0.868692595     -122.762599
9.182                0.868482668     -123.015558
9.183                0.868273296      -123.26919
9.184                0.868064487     -123.523494
9.185                0.867856251     -123.778472
9.186                0.867648594     -124.034123
9.187                0.867441527     -124.290446
9.188                0.867235058     -124.547443
9.189                0.867029195     -124.805114
9.19                 0.866823948     -125.063457
9.191                0.866619324     -125.322474
9.192                0.866415334     -125.582164
9.193                0.866211986     -125.842527
9.194                0.866009288     -126.103563
9.195                0.865807251     -126.365272
9.196                0.865605884     -126.627654
9.197                0.865405194     -126.890708
9.198                0.865205193     -127.154434
9.199                0.865005888     -127.418833
9.2                   0.86480729     -127.683903
9.201                0.864609408     -127.949645
9.202                0.864412251     -128.216057
9.203                 0.86421583     -128.483141
9.204                0.864020152     -128.750895
9.205                 0.86382523     -129.019318
9.206                 0.86363107     -129.288411
9.207                0.863437685     -129.558173
9.208                0.863245083     -129.828603
9.209                0.863053275       -130.0997
9.21                 0.862862269     -130.371465
9.211                0.862672077     -130.643896
9.212                0.862482708     -130.916994
9.213                0.862294173     -131.190756
9.214                0.862106481     -131.465182
9.215                0.861919642     -131.740272
9.216                0.861733667     -132.016024
9.217                0.861548566     -132.292439
9.218                 0.86136435     -132.569514
9.219                0.861181027      -132.84725
9.22                  0.86099861     -133.125644
9.221                0.860817109     -133.404696
9.222                0.860636533     -133.684406
9.223                0.860456893     -133.964771
9.224                  0.8602782     -134.245791
9.225                0.860100464     -134.527465
9.226                0.859923697     -134.809791
9.227                0.859747907     -135.092769
9.228                0.859573108     -135.376396
9.229                0.859399307     -135.660672
9.23                 0.859226518     -135.945596
9.231                 0.85905475     -136.231165
9.232                0.858884014     -136.517379
9.233                 0.85871432     -136.804236
9.234                0.858545681     -137.091734
9.235                0.858378106     -137.379872
9.236                0.858211606     -137.668649
9.237                0.858046193     -137.958063
9.238                0.857881877     -138.248111
9.239                0.857718669     -138.538793
9.24                  0.85755658     -138.830107
9.241                0.857395621      -139.12205
9.242                0.857235803     -139.414622
9.243                0.857077137      -139.70782
9.244                0.856919633     -140.001641
9.245                0.856763304     -140.296086
9.246                0.856608159      -140.59115
9.247                 0.85645421     -140.886833
9.248                0.856301468     -141.183132
9.249                0.856149944     -141.480045
9.25                 0.855999649      -141.77757
9.251                0.855850594     -142.075704
9.252                 0.85570279     -142.374446
9.253                0.855556247     -142.673793
9.254                0.855410977     -142.973742
9.255                0.855266991     -143.274293
9.256                  0.8551243     -143.575441
9.257                0.854982915     -143.877184
9.258                0.854842846      -144.17952
9.259                0.854704105     -144.482447
9.26                 0.854566703     -144.785962
9.261                 0.85443065     -145.090061
9.262                0.854295957     -145.394744
9.263                0.854162635     -145.700005
9.264                0.854030695     -146.005844
9.265                0.853900148     -146.312257
9.266                0.853771005     -146.619241
9.267                0.853643275     -146.926793
9.268                0.853516971     -147.234911
9.269                0.853392102     -147.543591
9.27                 0.853268679      -147.85283
9.271                0.853146713     -148.162626
9.272                0.853026214     -148.472975
9.273                0.852907193     -148.783873
9.274                 0.85278966     -149.095318
9.275                0.852673626     -149.407307
9.276                0.852559101     -149.719835
9.277                0.852446095       -150.0329
9.278                0.852334619     -150.346499
9.279                0.852224682     -150.660627
9.28                 0.852116295     -150.975282
9.281                0.852009468      -151.29046
9.282                0.851904211     -151.606156
9.283                0.851800534     -151.922369
9.284                0.851698447     -152.239093
9.285                0.851597959     -152.556325
9.286                 0.85149908     -152.874062
9.287                0.851401821       -153.1923
9.288                 0.85130619     -153.511034
9.289                0.851212196     -153.830261
9.29                 0.851119851     -154.149978
9.291                0.851029162     -154.470179
9.292                0.850940139     -154.790861
9.293                0.850852791      -155.11202
9.294                0.850767128     -155.433652
9.295                0.850683158     -155.755753
9.296                 0.85060089     -156.078318
9.297                0.850520333     -156.401343
9.298                0.850441496     -156.724824
9.299                0.850364387     -157.048757
9.3                  0.850289015     -157.373137
9.301                0.850215388      -157.69796
9.302                0.850143515     -158.023221
9.303                0.850073404     -158.348917
9.304                0.850005062     -158.675042
9.305                0.849938498     -159.001591
9.306                 0.84987372     -159.328561
9.307                0.849810735     -159.655947
9.308                0.849749551     -159.983743
9.309                0.849690175     -160.311946
9.31                 0.849632616      -160.64055
9.311                0.849576879      -160.96955
9.312                0.849522973     -161.298943
9.313                0.849470904     -161.628722
9.314                0.849420679     -161.958884
9.315                0.849372305     -162.289422
9.316                0.849325788     -162.620333
9.317                0.849281135     -162.951611
9.318                0.849238352      -163.28325
9.319                0.849197446     -163.615247
9.32                 0.849158422     -163.947595
9.321                0.849121287      -164.28029
9.322                0.849086045     -164.613327
9.323                0.849052704     -164.946699
9.324                0.849021267     -165.280403
9.325                0.848991741     -165.614432
9.326                0.848964131     -165.948781
9.327                0.848938441     -166.283445
9.328                0.848914676     -166.618419
9.329                0.848892842     -166.953696
9.33                 0.848872943     -167.289273
9.331                0.848854982     -167.625142
9.332                0.848838965     -167.961299
9.333                0.848824896     -168.297738
9.334                0.848812777     -168.634454
9.335                0.848802613      -168.97144
9.336                0.848794408     -169.308691
9.337                0.848788165     -169.646203
9.338                0.848783887     -169.983968
9.339                0.848781576     -170.321981
9.34                 0.848781237     -170.660236
9.341                0.848782872     -170.998728
9.342                0.848786482     -171.337452
9.343                0.848792072       -171.6764
9.344                0.848799642     -172.015567
9.345                0.848809194     -172.354947
9.346                0.848820731     -172.694536
9.347                0.848834254     -173.034325
9.348                0.848849765      -173.37431
9.349                0.848867265     -173.714485
9.35                 0.848886754     -174.054844
9.351                0.848908235      -174.39538
9.352                0.848931707     -174.736088
9.353                0.848957171     -175.076962
9.354                0.848984627     -175.417996
9.355                0.849014076     -175.759183
9.356                0.849045518     -176.100517
9.357                0.849078952     -176.441993
9.358                0.849114378     -176.783604
9.359                0.849151796     -177.125345
9.36                 0.849191204     -177.467209
9.361                0.849232601     -177.809189
9.362                0.849275988     -178.151281
9.363                0.849321361     -178.493477
9.364                 0.84936872     -178.835771
9.365                0.849418063     -179.178158
9.366                0.849469388     -179.520631
9.367                0.849522693     -179.863184
9.368                0.849577976       179.79419
9.369                0.849635234      179.451496
9.37                 0.849694464      179.108741
9.371                0.849755665      178.765931
9.372                0.849818832      178.423072
9.373                0.849883962      178.080171
9.374                0.849951052      177.737234
9.375                0.850020099      177.394266
9.376                0.850091099      177.051275
9.377                0.850164047      176.708266
9.378                 0.85023894      176.365246
9.379                0.850315773      176.022221
9.38                 0.850394541      175.679197
9.381                0.850475241      175.336181
9.382                0.850557867      174.993179
9.383                0.850642414      174.650196
9.384                0.850728876       174.30724
9.385                0.850817249      173.964316
9.386                0.850907527      173.621432
9.387                0.850999703      173.278592
9.388                0.851093773      172.935803
9.389                0.851189729      172.593072
9.39                 0.851287566      172.250404
9.391                0.851387276      171.907806
9.392                0.851488854      171.565285
9.393                0.851592293      171.222845
9.394                0.851697585      170.880494
9.395                0.851804723      170.538238
9.396                  0.8519137      170.196082
