! TOUCHSTONE file generated by CST DESIGN STUDIO
! Date and time: Tue Feb  4 13:09:03 2025
! Project name: C:\Work\MatlabApps\UnitCellOptimizationMatlab\CST\unitcell.cst
! Tree item: Tasks\Sweep1\SPara1\S-Parameters
! Header version: 2024
! Port assignment regex: !\s*Touchstone port\s*([0-9]+)\s*=\s*(CST MWS port|CST DES external port|CST DES block port)\s*(.+)\s* \(\"(.*)\"\)(\s*mode\s*([0-9]+))?.*
! Touchstone port assignment:
! Touchstone port 1 = CST DES external port 1 ("")
# GHz S MA R 50
9                    0.918124942     -81.3405414
9.001                0.917927004     -81.4744476
9.002                0.917728966     -81.6087364
9.003                0.917530828     -81.7434092
9.004                0.917332591     -81.8784674
9.005                0.917134255     -82.0139125
9.006                0.916935818      -82.149746
9.007                0.916737281     -82.2859692
9.008                0.916538645     -82.4225838
9.009                0.916339907     -82.5595911
9.01                  0.91614107     -82.6969926
9.011                0.915942132     -82.8347899
9.012                0.915743093     -82.9729843
9.013                0.915543953     -83.1115774
9.014                0.915344712     -83.2505707
9.015                 0.91514537     -83.3899656
9.016                0.914945927     -83.5297636
9.017                0.914746382     -83.6699663
9.018                0.914546736     -83.8105751
9.019                0.914346988     -83.9515915
9.02                 0.914147138     -84.0930171
9.021                0.913947186     -84.2348534
9.022                0.913747132     -84.3771018
9.023                0.913546976     -84.5197639
9.024                0.913346718     -84.6628412
9.025                0.913146357     -84.8063352
9.026                0.912945894     -84.9502475
9.027                0.912745328     -85.0945796
9.028                0.912544659     -85.2393329
9.029                0.912343887     -85.3845091
9.03                 0.912143012     -85.5301096
9.031                0.911942035     -85.6761361
9.032                0.911740954       -85.82259
9.033                 0.91153977      -85.969473
9.034                0.911338483     -86.1167864
9.035                0.911137092      -86.264532
9.036                0.910935598     -86.4127112
9.037                0.910734001     -86.5613256
9.038                  0.9105323     -86.7103767
9.039                0.910330496     -86.8598662
9.04                 0.910128588     -87.0097956
9.041                0.909926576     -87.1601664
9.042                0.909724461     -87.3109802
9.043                0.909522243     -87.4622386
9.044                0.909319921     -87.6139431
9.045                0.909117495     -87.7660954
9.046                0.908914966     -87.9186969
9.047                0.908712333     -88.0717494
9.048                0.908509597     -88.2252543
9.049                0.908306758     -88.3792132
9.05                 0.908103815     -88.5336278
9.051                0.907900769     -88.6884996
9.052                 0.90769762     -88.8438302
9.053                0.907494368     -88.9996212
9.054                0.907291013     -89.1558741
9.055                0.907087556     -89.3125907
9.056                0.906883995     -89.4697724
9.057                0.906680332     -89.6274209
9.058                0.906476567     -89.7855377
9.059                  0.9062727     -89.9441245
9.06                 0.906068731     -90.1031829
9.061                 0.90586466     -90.2627145
9.062                0.905660487     -90.4227208
9.063                0.905456213     -90.5832036
9.064                0.905251839     -90.7441643
9.065                0.905047363     -90.9056046
9.066                0.904842787     -91.0675261
9.067                0.904638111     -91.2299304
9.068                0.904433335     -91.3928192
9.069                 0.90422846      -91.556194
9.07                 0.904023485     -91.7200565
9.071                0.903818412     -91.8844082
9.072                 0.90361324     -92.0492509
9.073                0.903407971      -92.214586
9.074                0.903202603     -92.3804152
9.075                0.902997139     -92.5467402
9.076                0.902791578     -92.7135625
9.077                0.902585921     -92.8808838
9.078                0.902380169     -93.0487057
9.079                0.902174321     -93.2170298
9.08                 0.901968379     -93.3858577
9.081                0.901762343      -93.555191
9.082                0.901556213     -93.7250314
9.083                0.901349991     -93.8953805
9.084                0.901143677     -94.0662398
9.085                0.900937271     -94.2376111
9.086                0.900730774     -94.4094959
9.087                0.900524188     -94.5818958
9.088                0.900317512     -94.7548125
9.089                0.900110748     -94.9282476
9.09                 0.899903895     -95.1022027
9.091                0.899696956     -95.2766794
9.092                0.899489931     -95.4516793
9.093                0.899282821      -95.627204
9.094                0.899075626     -95.8032552
9.095                0.898868348     -95.9798344
9.096                0.898660988     -96.1569433
9.097                0.898453546     -96.3345834
9.098                0.898246023     -96.5127565
9.099                0.898038421      -96.691464
9.1                  0.897830741     -96.8707076
9.101                0.897622983     -97.0504888
9.102                 0.89741515     -97.2308094
9.103                0.897207241     -97.4116708
9.104                0.896999258     -97.5930747
9.105                0.896791203     -97.7750227
9.106                0.896583077     -97.9575163
9.107                 0.89637488     -98.1405572
9.108                0.896166615     -98.3241469
9.109                0.895958282      -98.508287
9.11                 0.895749883     -98.6929791
9.111                0.895541419     -98.8782248
9.112                0.895332893     -99.0640256
9.113                0.895124304     -99.2503831
9.114                0.894915656     -99.4372989
9.115                0.894706949     -99.6247746
9.116                0.894498185     -99.8128117
9.117                0.894289365     -100.001412
9.118                0.894080492     -100.190576
9.119                0.893871567     -100.380307
9.12                 0.893662591     -100.570605
9.121                0.893453567     -100.761472
9.122                0.893244497     -100.952911
9.123                0.893035381     -101.144921
9.124                0.892826223     -101.337505
9.125                0.892617024     -101.530664
9.126                0.892407785       -101.7244
9.127                 0.89219851     -101.918715
9.128                  0.8919892     -102.113609
9.129                0.891779857     -102.309084
9.13                 0.891570483     -102.505143
9.131                0.891361081     -102.701785
9.132                0.891151653     -102.899014
9.133                0.890942201      -103.09683
9.134                0.890732727     -103.295234
9.135                0.890523233     -103.494229
9.136                0.890313723     -103.693815
9.137                0.890104199     -103.893994
9.138                0.889894663     -104.094768
9.139                0.889685117     -104.296138
9.14                 0.889475565     -104.498106
9.141                0.889266009     -104.700672
9.142                0.889056451     -104.903839
9.143                0.888846894     -105.107607
9.144                0.888637342     -105.311978
9.145                0.888427797     -105.516954
9.146                0.888218261     -105.722536
9.147                0.888008739     -105.928725
9.148                0.887799232     -106.135523
9.149                0.887589744     -106.342931
9.15                 0.887380278      -106.55095
9.151                0.887170837     -106.759582
9.152                0.886961425     -106.968827
9.153                0.886752044     -107.178689
9.154                0.886542697     -107.389166
9.155                0.886333389     -107.600262
9.156                0.886124123     -107.811977
9.157                0.885914902     -108.024313
9.158                0.885705729      -108.23727
9.159                0.885496608     -108.450851
9.16                 0.885287543     -108.665056
9.161                0.885078538     -108.879886
9.162                0.884869596     -109.095344
9.163                0.884660721     -109.311429
9.164                0.884451917     -109.528144
9.165                0.884243187     -109.745489
9.166                0.884034537     -109.963466
9.167                0.883825969     -110.182075
9.168                0.883617488     -110.401319
9.169                0.883409098     -110.621198
9.17                 0.883200803     -110.841713
9.171                0.882992608     -111.062865
9.172                0.882784516     -111.284656
9.173                0.882576533     -111.507086
9.174                0.882368663     -111.730157
9.175                0.882160909      -111.95387
9.176                0.881953278     -112.178225
9.177                0.881745773     -112.403225
9.178                0.881538398     -112.628869
9.179                 0.88133116     -112.855159
9.18                 0.881124062     -113.082096
9.181                 0.88091711     -113.309681
9.182                0.880710308     -113.537914
9.183                0.880503662     -113.766797
9.184                0.880297176     -113.996331
9.185                0.880090856     -114.226516
9.186                0.879884707     -114.457354
9.187                0.879678734     -114.688845
9.188                0.879472942     -114.920991
9.189                0.879267338     -115.153791
9.19                 0.879061925     -115.387247
9.191                0.878856711      -115.62136
9.192                  0.8786517     -115.856131
9.193                0.878446898     -116.091559
9.194                 0.87824231     -116.327647
9.195                0.878037944     -116.564394
9.196                0.877833804     -116.801802
9.197                0.877629896     -117.039871
9.198                0.877426227     -117.278602
9.199                0.877222802     -117.517995
9.2                  0.877019627     -117.758051
9.201                0.876816709     -117.998771
9.202                0.876614055     -118.240155
9.203                0.876411669     -118.482205
9.204                 0.87620956     -118.724919
9.205                0.876007732       -118.9683
9.206                0.875806193     -119.212347
9.207                 0.87560495     -119.457061
9.208                0.875404008     -119.702442
9.209                0.875203375     -119.948491
9.21                 0.875003057     -120.195209
9.211                0.874803062     -120.442595
9.212                0.874603396      -120.69065
9.213                0.874404067     -120.939374
9.214                 0.87420508     -121.188768
9.215                0.874006444     -121.438833
9.216                0.873808166     -121.689567
9.217                0.873610252     -121.940972
9.218                0.873412711     -122.193047
9.219                 0.87321555     -122.445794
9.22                 0.873018775     -122.699212
9.221                0.872822396       -122.9533
9.222                0.872626418     -123.208061
9.223                0.872430851     -123.463492
9.224                0.872235701     -123.719595
9.225                0.872040976      -123.97637
9.226                0.871846685     -124.233816
9.227                0.871652835     -124.491934
9.228                0.871459435     -124.750723
9.229                0.871266492     -125.010184
9.23                 0.871074014     -125.270316
9.231                0.870882009     -125.531119
9.232                0.870690487     -125.792593
9.233                0.870499455     -126.054737
9.234                0.870308921     -126.317553
9.235                0.870118895     -126.581039
9.236                0.869929384     -126.845194
9.237                0.869740397      -127.11002
9.238                0.869551943     -127.375515
9.239                 0.86936403     -127.641679
9.24                 0.869176667     -127.908511
9.241                0.868989864     -128.176012
9.242                0.868803628      -128.44418
9.243                0.868617969     -128.713015
9.244                0.868432895     -128.982517
9.245                0.868248417     -129.252685
9.246                0.868064543     -129.523519
9.247                0.867881281     -129.795017
9.248                0.867698642      -130.06718
9.249                0.867516634     -130.340006
9.25                 0.867335268     -130.613495
9.251                0.867154551     -130.887645
9.252                0.866974495     -131.162457
9.253                0.866795107     -131.437929
9.254                0.866616398      -131.71406
9.255                0.866438378      -131.99085
9.256                0.866261056     -132.268297
9.257                0.866084441     -132.546401
9.258                0.865908543     -132.825161
9.259                0.865733373     -133.104574
9.26                  0.86555894     -133.384641
9.261                0.865385253     -133.665361
9.262                0.865212324     -133.946731
9.263                0.865040161     -134.228751
9.264                0.864868775      -134.51142
9.265                0.864698175     -134.794736
9.266                0.864528373     -135.078698
9.267                0.864359378     -135.363305
9.268                0.864191199     -135.648555
9.269                0.864023849     -135.934447
9.27                 0.863857336     -136.220978
9.271                 0.86369167     -136.508149
9.272                0.863526863     -136.795957
9.273                0.863362925       -137.0844
9.274                0.863199865     -137.373478
9.275                0.863037695     -137.663187
9.276                0.862876425     -137.953527
9.277                0.862716065     -138.244496
9.278                0.862556625     -138.536092
9.279                0.862398117     -138.828314
9.28                 0.862240551     -139.121158
9.281                0.862083936     -139.414624
9.282                0.861928285     -139.708709
9.283                0.861773608     -140.003411
9.284                0.861619914     -140.298729
9.285                0.861467215      -140.59466
9.286                0.861315522     -140.891202
9.287                0.861164844     -141.188353
9.288                0.861015194      -141.48611
9.289                 0.86086658     -141.784472
9.29                 0.860719015     -142.083436
9.291                0.860572509        -142.383
9.292                0.860427072     -142.683162
9.293                0.860282715     -142.983918
9.294                 0.86013945     -143.285266
9.295                0.859997285     -143.587205
9.296                0.859856234     -143.889731
9.297                0.859716305     -144.192841
9.298                 0.85957751     -144.496534
9.299                 0.85943986     -144.800806
9.3                  0.859303364     -145.105655
9.301                0.859168035     -145.411078
9.302                0.859033882     -145.717072
9.303                0.858900916     -146.023634
9.304                0.858769148     -146.330761
9.305                0.858638588     -146.638451
9.306                0.858509247       -146.9467
9.307                0.858381136     -147.255505
9.308                0.858254265     -147.564863
9.309                0.858128645     -147.874772
9.31                 0.858004286     -148.185227
9.311                0.857881198     -148.496226
9.312                0.857759393     -148.807765
9.313                 0.85763888     -149.119842
9.314                 0.85751967     -149.432452
9.315                0.857401774     -149.745592
9.316                0.857285201      -150.05926
9.317                0.857169962      -150.37345
9.318                0.857056067     -150.688161
9.319                0.856943526     -151.003388
9.32                 0.856832349     -151.319127
9.321                0.856722547     -151.635375
9.322                 0.85661413     -151.952129
9.323                0.856507107     -152.269385
9.324                0.856401489     -152.587138
9.325                0.856297284     -152.905385
9.326                0.856194504     -153.224122
9.327                0.856093158     -153.543345
9.328                0.855993255      -153.86305
9.329                0.855894806     -154.183234
9.33                 0.855797819     -154.503892
9.331                0.855702305     -154.825019
9.332                0.855608272     -155.146613
9.333                 0.85551573     -155.468668
9.334                0.855424688     -155.791181
9.335                0.855335156     -156.114147
9.336                0.855247143     -156.437562
9.337                0.855160657     -156.761422
9.338                0.855075707     -157.085722
9.339                0.854992303     -157.410457
9.34                 0.854910453     -157.735624
9.341                0.854830166     -158.061218
9.342                0.854751451     -158.387235
9.343                0.854674315     -158.713668
9.344                0.854598768     -159.040516
9.345                0.854524817     -159.367771
9.346                0.854452471      -159.69543
9.347                0.854381739     -160.023489
9.348                0.854312627     -160.351941
9.349                0.854245144     -160.680783
9.35                 0.854179297      -161.01001
9.351                0.854115095     -161.339616
9.352                0.854052545     -161.669597
9.353                0.853991654     -161.999948
9.354                 0.85393243     -162.330664
9.355                 0.85387488      -162.66174
9.356                0.853819011      -162.99317
9.357                0.853764829      -163.32495
9.358                0.853712342     -163.657074
9.359                0.853661557     -163.989538
9.36                  0.85361248     -164.322336
9.361                0.853565118     -164.655463
9.362                0.853519476     -164.988913
9.363                0.853475561     -165.322682
9.364                 0.85343338     -165.656764
9.365                0.853392938     -165.991153
9.366                0.853354241     -166.325845
9.367                0.853317294     -166.660833
9.368                0.853282103     -166.996113
9.369                0.853248674     -167.331679
9.37                 0.853217012     -167.667525
9.371                0.853187121     -168.003646
9.372                0.853159007     -168.340036
9.373                0.853132675      -168.67669
9.374                0.853108128     -169.013602
9.375                0.853085373     -169.350766
9.376                0.853064412     -169.688177
9.377                0.853045251     -170.025829
9.378                0.853027893     -170.363716
9.379                0.853012342     -170.701833
9.38                 0.852998601     -171.040173
9.381                0.852986676     -171.378732
9.382                0.852976567     -171.717502
9.383                 0.85296828     -172.056479
9.384                0.852961817     -172.395656
9.385                0.852957181     -172.735028
9.386                0.852954375     -173.074588
9.387                0.852953401     -173.414332
9.388                0.852954262     -173.754251
9.389                0.852956959     -174.094342
9.39                 0.852961496     -174.434598
9.391                0.852967874     -174.775012
9.392                0.852976094     -175.115579
9.393                0.852986159     -175.456293
9.394                0.852998069     -175.797148
9.395                0.853011827     -176.138138
9.396                0.853027432     -176.479256
