! TOUCHSTONE file generated by CST DESIGN STUDIO
! Date and time: Tue Feb  4 13:09:06 2025
! Project name: C:\Work\MatlabApps\UnitCellOptimizationMatlab\CST\unitcell.cst
! Tree item: Tasks\Sweep1\SPara1\S-Parameters
! Header version: 2024
! Port assignment regex: !\s*Touchstone port\s*([0-9]+)\s*=\s*(CST MWS port|CST DES external port|CST DES block port)\s*(.+)\s* \(\"(.*)\"\)(\s*mode\s*([0-9]+))?.*
! Touchstone port assignment:
! Touchstone port 1 = CST DES external port 1 ("")
# GHz S MA R 50
9                    0.932942298     -70.6730434
9.001                0.932810147     -70.7795448
9.002                0.932677872     -70.8863403
9.003                0.932545472     -70.9934309
9.004                0.932412945     -71.1008177
9.005                0.932280291     -71.2085019
9.006                0.932147509     -71.3164845
9.007                0.932014596     -71.4247666
9.008                0.931881553     -71.5333493
9.009                0.931748377     -71.6422338
9.01                 0.931615069     -71.7514211
9.011                0.931481625     -71.8609123
9.012                0.931348046     -71.9707087
9.013                 0.93121433     -72.0808112
9.014                0.931080477     -72.1912211
9.015                0.930946483     -72.3019394
9.016                 0.93081235     -72.4129674
9.017                0.930678075      -72.524306
9.018                0.930543657     -72.6359565
9.019                0.930409095     -72.7479201
9.02                 0.930274387     -72.8601978
9.021                0.930139533     -72.9727908
9.022                0.930004532     -73.0857003
9.023                0.929869381     -73.1989275
9.024                0.929734081     -73.3124734
9.025                0.929598629     -73.4263393
9.026                0.929463024     -73.5405263
9.027                0.929327266     -73.6550356
9.028                0.929191352     -73.7698684
9.029                0.929055282     -73.8850259
9.03                 0.928919055     -74.0005092
9.031                0.928782668     -74.1163196
9.032                0.928646122     -74.2324582
9.033                0.928509414     -74.3489263
9.034                0.928372544     -74.4657249
9.035                0.928235509     -74.5828554
9.036                 0.92809831      -74.700319
9.037                0.927960944     -74.8181168
9.038                 0.92782341       -74.93625
9.039                0.927685708       -75.05472
9.04                 0.927547835     -75.1735279
9.041                0.927409791     -75.2926748
9.042                0.927271574     -75.4121622
9.043                0.927133182     -75.5319912
9.044                0.926994616     -75.6521629
9.045                0.926855873     -75.7726788
9.046                0.926716952       -75.89354
9.047                0.926577851     -76.0147477
9.048                0.926438571     -76.1363033
9.049                0.926299108     -76.2582079
9.05                 0.926159462     -76.3804629
9.051                0.926019632     -76.5030695
9.052                0.925879616     -76.6260289
9.053                0.925739413     -76.7493424
9.054                0.925599022     -76.8730114
9.055                0.925458442      -76.997037
9.056                 0.92531767     -77.1214206
9.057                0.925176706     -77.2461635
9.058                0.925035549     -77.3712668
9.059                0.924894197      -77.496732
9.06                 0.924752649     -77.6225603
9.061                0.924610903     -77.7487531
9.062                0.924468959     -77.8753115
9.063                0.924326815      -78.002237
9.064                0.924184469     -78.1295308
9.065                0.924041921     -78.2571942
9.066                0.923899169     -78.3852287
9.067                0.923756212     -78.5136354
9.068                0.923613048     -78.6424157
9.069                0.923469676     -78.7715709
9.07                 0.923326095     -78.9011024
9.071                0.923182304     -79.0310115
9.072                0.923038301     -79.1612995
9.073                0.922894085     -79.2919678
9.074                0.922749655     -79.4230177
9.075                0.922605009     -79.5544506
9.076                0.922460146     -79.6862678
9.077                0.922315065     -79.8184707
9.078                0.922169764     -79.9510606
9.079                0.922024243     -80.0840389
9.08                   0.9218785     -80.2174069
9.081                0.921732533     -80.3511661
9.082                0.921586342     -80.4853178
9.083                0.921439925     -80.6198633
9.084                0.921293281     -80.7548041
9.085                0.921146408     -80.8901415
9.086                0.920999305     -81.0258769
9.087                0.920851972     -81.1620117
9.088                0.920704406     -81.2985473
9.089                0.920556607     -81.4354851
9.09                 0.920408573     -81.5728264
9.091                0.920260304     -81.7105728
9.092                0.920111796     -81.8487255
9.093                0.919963051      -81.987286
9.094                0.919814066     -82.1262557
9.095                0.919664839      -82.265636
9.096                0.919515371     -82.4054284
9.097                0.919365659     -82.5456342
9.098                0.919215703     -82.6862549
9.099                0.919065501     -82.8272918
9.1                  0.918915051     -82.9687465
9.101                0.918764354     -83.1106203
9.102                0.918613407     -83.2529147
9.103                0.918462209     -83.3956312
9.104                 0.91831076     -83.5387711
9.105                0.918159058     -83.6823359
9.106                0.918007101      -83.826327
9.107                 0.91785489     -83.9707459
9.108                0.917702421     -84.1155941
9.109                0.917549696      -84.260873
9.11                 0.917396711      -84.406584
9.111                0.917243467     -84.5527286
9.112                0.917089961     -84.6993083
9.113                0.916936194     -84.8463246
9.114                0.916782163     -84.9937788
9.115                0.916627868     -85.1416725
9.116                0.916473308     -85.2900072
9.117                0.916318481     -85.4387842
9.118                0.916163386     -85.5880052
9.119                0.916008023     -85.7376715
9.12                  0.91585239     -85.8877847
9.121                0.915696487     -86.0383462
9.122                0.915540312     -86.1893575
9.123                0.915383864     -86.3408201
9.124                0.915227142     -86.4927355
9.125                0.915070146     -86.6451051
9.126                0.914912874     -86.7979306
9.127                0.914755325     -86.9512133
9.128                0.914597498     -87.1049548
9.129                0.914439393     -87.2591565
9.13                 0.914281008       -87.41382
9.131                0.914122343     -87.5689468
9.132                0.913963396     -87.7245383
9.133                0.913804167     -87.8805962
9.134                0.913644655     -88.0371218
9.135                0.913484859     -88.1941167
9.136                0.913324778     -88.3515824
9.137                0.913164411     -88.5095204
9.138                0.913003757     -88.6679323
9.139                0.912842816     -88.8268195
9.14                 0.912681587     -88.9861836
9.141                0.912520069     -89.1460261
9.142                0.912358261     -89.3063484
9.143                0.912196162     -89.4671522
9.144                0.912033772      -89.628439
9.145                0.911871091     -89.7902102
9.146                0.911708116     -89.9524674
9.147                0.911544849     -90.1152121
9.148                0.911381287     -90.2784458
9.149                 0.91121743     -90.4421701
9.15                 0.911053279     -90.6063865
9.151                0.910888831     -90.7710966
9.152                0.910724087     -90.9363018
9.153                0.910559045     -91.1020036
9.154                0.910393706     -91.2682037
9.155                0.910228069     -91.4349035
9.156                0.910062133     -91.6021046
9.157                0.909895898     -91.7698085
9.158                0.909729364     -91.9380167
9.159                0.909562529     -92.1067307
9.16                 0.909395394     -92.2759522
9.161                0.909227957     -92.4456825
9.162                 0.90906022     -92.6159234
9.163                0.908892181     -92.7866762
9.164                0.908723839     -92.9579425
9.165                0.908555196     -93.1297238
9.166                0.908386249     -93.3020217
9.167                   0.908217     -93.4748377
9.168                0.908047448     -93.6481734
9.169                0.907877592     -93.8220301
9.17                 0.907707432     -93.9964096
9.171                0.907536969     -94.1713133
9.172                0.907366202     -94.3467426
9.173                0.907195131     -94.5226993
9.174                0.907023756     -94.6991847
9.175                0.906852077     -94.8762004
9.176                0.906680093     -95.0537479
9.177                0.906507806     -95.2318287
9.178                0.906335214     -95.4104444
9.179                0.906162318     -95.5895964
9.18                 0.905989118     -95.7692863
9.181                0.905815614     -95.9495156
9.182                0.905641807     -96.1302858
9.183                0.905467695     -96.3115983
9.184                 0.90529328     -96.4934548
9.185                0.905118563     -96.6758567
9.186                0.904943542     -96.8588055
9.187                0.904768218     -97.0423027
9.188                0.904592592     -97.2263497
9.189                0.904416665     -97.4109482
9.19                 0.904240435     -97.5960996
9.191                0.904063905     -97.7818053
9.192                0.903887074     -97.9680668
9.193                0.903709943     -98.1548857
9.194                0.903532512     -98.3422634
9.195                0.903354782     -98.5302013
9.196                0.903176754      -98.718701
9.197                0.902998428     -98.9077639
9.198                0.902819805     -99.0973915
9.199                0.902640885     -99.2875852
9.2                   0.90246167     -99.4783465
9.201                 0.90228216     -99.6696768
9.202                0.902102356     -99.8615776
9.203                0.901922258      -100.05405
9.204                0.901741869     -100.247096
9.205                0.901561188     -100.440717
9.206                0.901380217     -100.634914
9.207                0.901198956     -100.829689
9.208                0.901017408     -101.025043
9.209                0.900835572     -101.220977
9.21                  0.90065345     -101.417493
9.211                0.900471044     -101.614592
9.212                0.900288354     -101.812276
9.213                0.900105382     -102.010546
9.214                0.899922129     -102.209403
9.215                0.899738597     -102.408849
9.216                0.899554786     -102.608886
9.217                0.899370699     -102.809514
9.218                0.899186337     -103.010734
9.219                0.899001702     -103.212549
9.22                 0.898816794      -103.41496
9.221                0.898631617     -103.617967
9.222                 0.89844617     -103.821573
9.223                0.898260457     -104.025778
9.224                0.898074479     -104.230584
9.225                0.897888238     -104.435992
9.226                0.897701736     -104.642004
9.227                0.897514975      -104.84862
9.228                0.897327956     -105.055843
9.229                0.897140682     -105.263672
9.23                 0.896953155     -105.472111
9.231                0.896765377     -105.681159
9.232                 0.89657735     -105.890818
9.233                0.896389077     -106.101089
9.234                 0.89620056     -106.311974
9.235                0.896011801     -106.523473
9.236                0.895822803     -106.735589
9.237                0.895633568     -106.948321
9.238                0.895444099     -107.161672
9.239                0.895254398     -107.375642
9.24                 0.895064468     -107.590233
9.241                0.894874312     -107.805446
9.242                0.894683933     -108.021282
9.243                0.894493332     -108.237741
9.244                0.894302514     -108.454826
9.245                0.894111482     -108.672537
9.246                0.893920237     -108.890875
9.247                0.893728784     -109.109842
9.248                0.893537125     -109.329439
9.249                0.893345264     -109.549665
9.25                 0.893153203     -109.770524
9.251                0.892960947     -109.992015
9.252                0.892768499      -110.21414
9.253                0.892575861     -110.436899
9.254                0.892383038     -110.660294
9.255                0.892190033     -110.884326
9.256                 0.89199685     -111.108995
9.257                0.891803492     -111.334303
9.258                0.891609964      -111.56025
9.259                0.891416268     -111.786838
9.26                  0.89122241     -112.014067
9.261                0.891028392     -112.241938
9.262                 0.89083422     -112.470452
9.263                0.890639896      -112.69961
9.264                0.890445426     -112.929412
9.265                0.890250813     -113.159861
9.266                0.890056061     -113.390955
9.267                0.889861176     -113.622697
9.268                0.889666162     -113.855087
9.269                0.889471023     -114.088125
9.27                 0.889275763     -114.321813
9.271                0.889080388     -114.556151
9.272                0.888884902     -114.791139
9.273                0.888689309      -115.02678
9.274                0.888493615     -115.263072
9.275                0.888297826     -115.500018
9.276                0.888101944     -115.737616
9.277                0.887905977     -115.975869
9.278                0.887709928     -116.214777
9.279                0.887513804      -116.45434
9.28                 0.887317609     -116.694558
9.281                0.887121349     -116.935433
9.282                0.886925029     -117.176965
9.283                0.886728655     -117.419154
9.284                0.886532232     -117.662001
9.285                0.886335767     -117.905506
9.286                0.886139264      -118.14967
9.287                 0.88594273     -118.394493
9.288                0.885746171     -118.639975
9.289                0.885549592     -118.886117
9.29                    0.885353     -119.132919
9.291                  0.8851564     -119.380382
9.292                0.884959799     -119.628505
9.293                0.884763204      -119.87729
9.294                 0.88456662     -120.126735
9.295                0.884370054     -120.376843
9.296                0.884173513     -120.627611
9.297                0.883977003     -120.879042
9.298                0.883780531     -121.131135
9.299                0.883584103      -121.38389
9.3                  0.883387726     -121.637307
9.301                0.883191408     -121.891386
9.302                0.882995155     -122.146127
9.303                0.882798974     -122.401531
9.304                0.882602872     -122.657598
9.305                0.882406857     -122.914326
9.306                0.882210936     -123.171717
9.307                0.882015116      -123.42977
9.308                0.881819405     -123.688485
9.309                0.881623809     -123.947861
9.31                 0.881428338       -124.2079
9.311                0.881232998       -124.4686
9.312                0.881037797     -124.729961
9.313                0.880842743     -124.991983
9.314                0.880647844     -125.254666
9.315                0.880453108      -125.51801
9.316                0.880258542     -125.782013
9.317                0.880064156     -126.046676
9.318                0.879869957     -126.311999
9.319                0.879675953      -126.57798
9.32                 0.879482153      -126.84462
9.321                0.879288565     -127.111917
9.322                0.879095198     -127.379872
9.323                0.878902061     -127.648484
9.324                0.878709161     -127.917752
9.325                0.878516508     -128.187675
9.326                 0.87832411     -128.458253
9.327                0.878131977     -128.729486
9.328                0.877940117     -129.001372
9.329                0.877748539     -129.273911
9.33                 0.877557252     -129.547101
9.331                0.877366267     -129.820943
9.332                 0.87717559     -130.095435
9.333                0.876985233     -130.370576
9.334                0.876795204     -130.646366
9.335                0.876605513     -130.922804
9.336                0.876416169     -131.199887
9.337                0.876227182     -131.477617
9.338                0.876038562      -131.75599
9.339                0.875850317     -132.035007
9.34                 0.875662459     -132.314666
9.341                0.875474996     -132.594966
9.342                0.875287939     -132.875906
9.343                0.875101298     -133.157485
9.344                0.874915082       -133.4397
9.345                0.874729302     -133.722552
9.346                0.874543968     -134.006038
9.347                 0.87435909     -134.290157
9.348                0.874174678     -134.574908
9.349                0.873990743     -134.860289
9.35                 0.873807295     -135.146299
9.351                0.873624344     -135.432936
9.352                0.873441902     -135.720199
9.353                0.873259977     -136.008086
9.354                0.873078582     -136.296595
9.355                0.872897727     -136.585725
9.356                0.872717422     -136.875474
9.357                0.872537678      -137.16584
9.358                0.872358506     -137.456821
9.359                0.872179917     -137.748415
9.36                 0.872001922     -138.040621
9.361                0.871824532     -138.333437
9.362                0.871647757     -138.626861
9.363                0.871471609      -138.92089
9.364                0.871296098     -139.215522
9.365                0.871121237     -139.510756
9.366                0.870947035      -139.80659
9.367                0.870773505      -140.10302
9.368                0.870600658     -140.400046
9.369                0.870428504     -140.697664
9.37                 0.870257055     -140.995872
9.371                0.870086322     -141.294668
9.372                0.869916318      -141.59405
9.373                0.869747052     -141.894016
9.374                0.869578537     -142.194562
9.375                0.869410784     -142.495686
9.376                0.869243805     -142.797386
9.377                 0.86907761     -143.099658
9.378                0.868912212     -143.402502
9.379                0.868747622     -143.705913
9.38                 0.868583852     -144.009889
9.381                0.868420913     -144.314427
9.382                0.868258817     -144.619525
9.383                0.868097576     -144.925179
9.384                  0.8679372     -145.231387
9.385                0.867777702     -145.538146
9.386                0.867619094     -145.845452
9.387                0.867461386     -146.153303
9.388                0.867304591     -146.461697
9.389                0.867148721     -146.770628
9.39                 0.866993786     -147.080095
9.391                0.866839799     -147.390095
9.392                0.866686772     -147.700623
9.393                0.866534715     -148.011677
9.394                0.866383642     -148.323254
9.395                0.866233562      -148.63535
9.396                0.866084489     -148.947961
