! TOUCHSTONE file generated by CST DESIGN STUDIO
! Date and time: Tue Feb  4 13:09:11 2025
! Project name: C:\Work\MatlabApps\UnitCellOptimizationMatlab\CST\unitcell.cst
! Tree item: Tasks\Sweep1\SPara1\S-Parameters
! Header version: 2024
! Port assignment regex: !\s*Touchstone port\s*([0-9]+)\s*=\s*(CST MWS port|CST DES external port|CST DES block port)\s*(.+)\s* \(\"(.*)\"\)(\s*mode\s*([0-9]+))?.*
! Touchstone port assignment:
! Touchstone port 1 = CST DES external port 1 ("")
# GHz S MA R 50
9                    0.951301129     -57.1457281
9.001                0.951237384     -57.2220701
9.002                0.951173586     -57.2986052
9.003                0.951109733     -57.3753341
9.004                0.951045823     -57.4522575
9.005                0.950981855      -57.529376
9.006                0.950917828     -57.6066903
9.007                 0.95085374     -57.6842011
9.008                0.950789588      -57.761909
9.009                0.950725373     -57.8398148
9.01                 0.950661092     -57.9179192
9.011                0.950596744     -57.9962227
9.012                0.950532327     -58.0747262
9.013                0.950467839     -58.1534303
9.014                 0.95040328     -58.2323356
9.015                0.950338647      -58.311443
9.016                0.950273939     -58.3907531
9.017                0.950209154     -58.4702665
9.018                0.950144291     -58.5499841
9.019                0.950079348     -58.6299064
9.02                 0.950014323     -58.7100343
9.021                0.949949216     -58.7903684
9.022                0.949884023     -58.8709094
9.023                0.949818745     -58.9516581
9.024                0.949753378     -59.0326152
9.025                0.949687922     -59.1137813
9.026                0.949622375     -59.1951573
9.027                0.949556734     -59.2767438
9.028                   0.949491     -59.3585415
9.029                0.949425169     -59.4405513
9.03                  0.94935924     -59.5227737
9.031                0.949293212     -59.6052097
9.032                0.949227082     -59.6878598
9.033                 0.94916085     -59.7707249
9.034                0.949094513     -59.8538057
9.035                0.949028071     -59.9371029
9.036                 0.94896152     -60.0206172
9.037                0.948894859     -60.1043495
9.038                0.948828088     -60.1883005
9.039                0.948761203     -60.2724709
9.04                 0.948694203     -60.3568614
9.041                0.948627087      -60.441473
9.042                0.948559853     -60.5263062
9.043                0.948492499     -60.6113619
9.044                0.948425024     -60.6966409
9.045                0.948357425     -60.7821438
9.046                0.948289701     -60.8678716
9.047                 0.94822185     -60.9538249
9.048                 0.94815387     -61.0400046
9.049                 0.94808576     -61.1264113
9.05                 0.948017518      -61.213046
9.051                0.947949142     -61.2999094
9.052                 0.94788063     -61.3870022
9.053                 0.94781198     -61.4743253
9.054                0.947743192     -61.5618795
9.055                0.947674262     -61.6496656
9.056                0.947605189     -61.7376843
9.057                0.947535972     -61.8259364
9.058                0.947466608     -61.9144228
9.059                0.947397096     -62.0031443
9.06                 0.947327433     -62.0921017
9.061                0.947257619     -62.1812958
9.062                0.947187651     -62.2707274
9.063                0.947117527     -62.3603973
9.064                0.947047246     -62.4503064
9.065                0.946976805     -62.5404554
9.066                0.946906203     -62.6308453
9.067                0.946835438     -62.7214768
9.068                0.946764508     -62.8123507
9.069                0.946693412     -62.9034679
9.07                 0.946622147     -62.9948293
9.071                0.946550711     -63.0864357
9.072                0.946479102     -63.1782879
9.073                 0.94640732     -63.2703867
9.074                0.946335361     -63.3627331
9.075                0.946263224     -63.4553278
9.076                0.946190907     -63.5481718
9.077                0.946118408     -63.6412658
9.078                0.946045725     -63.7346108
9.079                0.945972857     -63.8282076
9.08                 0.945899801     -63.9220571
9.081                0.945826555     -64.0161601
9.082                0.945753118     -64.1105175
9.083                0.945679487     -64.2051302
9.084                 0.94560566     -64.2999991
9.085                0.945531637     -64.3951251
9.086                0.945457414      -64.490509
9.087                 0.94538299     -64.5861517
9.088                0.945308362     -64.6820541
9.089                0.945233529     -64.7782171
9.09                 0.945158489     -64.8746416
9.091                 0.94508324     -64.9713286
9.092                 0.94500778     -65.0682788
9.093                0.944932106     -65.1654932
9.094                0.944856218     -65.2629728
9.095                0.944780112     -65.3607184
9.096                0.944703787     -65.4587309
9.097                0.944627241     -65.5570113
9.098                0.944550472     -65.6555605
9.099                0.944473477     -65.7543794
9.1                  0.944396256     -65.8534689
9.101                0.944318805       -65.95283
9.102                0.944241123     -66.0524635
9.103                0.944163208     -66.1523706
9.104                0.944085057     -66.2525519
9.105                0.944006669     -66.3530086
9.106                0.943928042     -66.4537416
9.107                0.943849173     -66.5547517
9.108                 0.94377006       -66.65604
9.109                0.943690702     -66.7576075
9.11                 0.943611097      -66.859455
9.111                0.943531242     -66.9615835
9.112                0.943451135      -67.063994
9.113                0.943370774     -67.1666875
9.114                0.943290157     -67.2696649
9.115                0.943209282     -67.3729272
9.116                0.943128147     -67.4764754
9.117                 0.94304675     -67.5803105
9.118                0.942965089     -67.6844335
9.119                0.942883161     -67.7888452
9.12                 0.942800965     -67.8935468
9.121                0.942718498     -67.9985392
9.122                0.942635758     -68.1038234
9.123                0.942552744     -68.2094005
9.124                0.942469452     -68.3152713
9.125                0.942385882      -68.421437
9.126                 0.94230203     -68.5278985
9.127                0.942217895     -68.6346568
9.128                0.942133475      -68.741713
9.129                0.942048767     -68.8490681
9.13                 0.941963769     -68.9567231
9.131                0.941878479      -69.064679
9.132                0.941792896     -69.1729369
9.133                0.941707016     -69.2814978
9.134                0.941620838     -69.3903627
9.135                0.941534359     -69.4995326
9.136                0.941447578     -69.6090087
9.137                0.941360491     -69.7187919
9.138                0.941273098     -69.8288833
9.139                0.941185396     -69.9392839
9.14                 0.941097382     -70.0499949
9.141                0.941009055     -70.1610172
9.142                0.940920412      -70.272352
9.143                0.940831451     -70.3840002
9.144                 0.94074217      -70.495963
9.145                0.940652567     -70.6082415
9.146                0.940562639     -70.7208366
9.147                0.940472385     -70.8337496
9.148                0.940381802     -70.9469814
9.149                0.940290888     -71.0605332
9.15                  0.94019964      -71.174406
9.151                0.940108057     -71.2886009
9.152                0.940016137     -71.4031191
9.153                0.939923877     -71.5179616
9.154                0.939831274     -71.6331296
9.155                0.939738327      -71.748624
9.156                0.939645034     -71.8644462
9.157                0.939551392     -71.9805971
9.158                  0.9394574     -72.0970778
9.159                0.939363054     -72.2138896
9.16                 0.939268352     -72.3310335
9.161                0.939173293     -72.4485106
9.162                0.939077874     -72.5663221
9.163                0.938982093     -72.6844691
9.164                0.938885948     -72.8029527
9.165                0.938789436     -72.9217742
9.166                0.938692556     -73.0409345
9.167                0.938595305     -73.1604349
9.168                 0.93849768     -73.2802765
9.169                 0.93839968     -73.4004605
9.17                 0.938301302     -73.5209881
9.171                0.938202544     -73.6418603
9.172                0.938103404     -73.7630783
9.173                 0.93800388     -73.8846434
9.174                0.937903969     -74.0065567
9.175                0.937803669     -74.1288193
9.176                0.937702978     -74.2514324
9.177                0.937601893     -74.3743973
9.178                0.937500413      -74.497715
9.179                0.937398536     -74.6213869
9.18                 0.937296258      -74.745414
9.181                0.937193577     -74.8697975
9.182                0.937090492     -74.9945388
9.183                   0.936987     -75.1196388
9.184                  0.9368831      -75.245099
9.185                0.936778787     -75.3709204
9.186                0.936674062     -75.4971043
9.187                 0.93656892     -75.6236519
9.188                0.936463361     -75.7505643
9.189                0.936357381     -75.8778429
9.19                 0.936250979     -76.0054889
9.191                0.936144152     -76.1335034
9.192                0.936036898     -76.2618877
9.193                0.935929214      -76.390643
9.194                  0.9358211     -76.5197707
9.195                0.935712551     -76.6492718
9.196                0.935603567     -76.7791476
9.197                0.935494144     -76.9093995
9.198                0.935384282     -77.0400286
9.199                0.935273976     -77.1710362
9.2                  0.935163226     -77.3024235
9.201                0.935052029     -77.4341918
9.202                0.934940383     -77.5663424
9.203                0.934828285     -77.6988765
9.204                0.934715733     -77.8317954
9.205                0.934602726     -77.9651004
9.206                 0.93448926     -78.0987927
9.207                0.934375335     -78.2328736
9.208                0.934260947     -78.3673444
9.209                0.934146094     -78.5022064
9.21                 0.934030774     -78.6374608
9.211                0.933914985      -78.773109
9.212                0.933798725     -78.9091522
9.213                0.933681992     -79.0455917
9.214                0.933564783     -79.1824289
9.215                0.933447097      -79.319665
9.216                 0.93332893     -79.4573013
9.217                0.933210282     -79.5953392
9.218                0.933091149     -79.7337799
9.219                 0.93297153     -79.8726247
9.22                 0.932851422     -80.0118751
9.221                0.932730824     -80.1515322
9.222                0.932609733     -80.2915974
9.223                0.932488147     -80.4320721
9.224                0.932366064     -80.5729575
9.225                0.932243482      -80.714255
9.226                0.932120398     -80.8559659
9.227                0.931996812     -80.9980915
9.228                 0.93187272     -81.1406333
9.229                 0.93174812     -81.2835924
9.23                 0.931623011     -81.4269704
9.231                 0.93149739     -81.5707684
9.232                0.931371255     -81.7149879
9.233                0.931244605     -81.8596302
9.234                0.931117437     -82.0046966
9.235                0.930989749     -82.1501886
9.236                0.930861539     -82.2961074
9.237                0.930732805     -82.4424545
9.238                0.930603546     -82.5892311
9.239                0.930473758     -82.7364387
9.24                  0.93034344     -82.8840786
9.241                0.930212591     -83.0321522
9.242                0.930081208     -83.1806608
9.243                0.929949289     -83.3296059
9.244                0.929816832     -83.4789888
9.245                0.929683835     -83.6288108
9.246                0.929550297     -83.7790734
9.247                0.929416215      -83.929778
9.248                0.929281588     -84.0809258
9.249                0.929146413     -84.2325184
9.25                 0.929010689     -84.3845571
9.251                0.928874415     -84.5370432
9.252                0.928737587     -84.6899782
9.253                0.928600204     -84.8433635
9.254                0.928462265     -84.9972005
9.255                0.928323767     -85.1514905
9.256                0.928184709      -85.306235
9.257                0.928045089     -85.4614353
9.258                0.927904905     -85.6170929
9.259                0.927764155     -85.7732091
9.26                 0.927622839     -85.9297854
9.261                0.927480953     -86.0868232
9.262                0.927338496     -86.2443239
9.263                0.927195467     -86.4022888
9.264                0.927051864     -86.5607194
9.265                0.926907685     -86.7196172
9.266                0.926762929     -86.8789834
9.267                0.926617593     -87.0388196
9.268                0.926471677     -87.1991272
9.269                0.926325179     -87.3599075
9.27                 0.926178096      -87.521162
9.271                0.926030429     -87.6828921
9.272                0.925882174     -87.8450992
9.273                0.925733331     -88.0077848
9.274                0.925583898     -88.1709502
9.275                0.925433873     -88.3345969
9.276                0.925283256     -88.4987263
9.277                0.925132044     -88.6633398
9.278                0.924980236     -88.8284388
9.279                0.924827832     -88.9940249
9.28                 0.924674828     -89.1600993
9.281                0.924521225     -89.3266636
9.282                0.924367021      -89.493719
9.283                0.924212214     -89.6612672
9.284                0.924056803     -89.8293095
9.285                0.923900788     -89.9978472
9.286                0.923744165     -90.1668819
9.287                0.923586936      -90.336415
9.288                0.923429098     -90.5064479
9.289                0.923270649      -90.676982
9.29                  0.92311159     -90.8480187
9.291                0.922951919     -91.0195595
9.292                0.922791635     -91.1916058
9.293                0.922630736      -91.364159
9.294                0.922469222     -91.5372206
9.295                0.922307092     -91.7107919
9.296                0.922144344     -91.8848743
9.297                0.921980979     -92.0594694
9.298                0.921816994     -92.2345785
9.299                0.921652389      -92.410203
9.3                  0.921487164     -92.5863444
9.301                0.921321317      -92.763004
9.302                0.921154847     -92.9401833
9.303                0.920987754     -93.1178837
9.304                0.920820037     -93.2961066
9.305                0.920651696     -93.4748535
9.306                0.920482729     -93.6541256
9.307                0.920313137     -93.8339245
9.308                0.920142917     -94.0142516
9.309                0.919972071     -94.1951082
9.31                 0.919800597     -94.3764957
9.311                0.919628495     -94.5584155
9.312                0.919455765     -94.7408691
9.313                0.919282405     -94.9238579
9.314                0.919108416     -95.1073831
9.315                0.918933797     -95.2914463
9.316                0.918758549     -95.4760487
9.317                 0.91858267     -95.6611919
9.318                 0.91840616     -95.8468771
9.319                 0.91822902     -96.0331058
9.32                 0.918051249     -96.2198793
9.321                0.917872847     -96.4071989
9.322                0.917693814     -96.5950662
9.323                 0.91751415     -96.7834823
9.324                0.917333854     -96.9724488
9.325                0.917152928     -97.1619669
9.326                0.916971371      -97.352038
9.327                0.916789183     -97.5426634
9.328                0.916606364     -97.7338445
9.329                0.916422915     -97.9255827
9.33                 0.916238836     -98.1178792
9.331                0.916054127     -98.3107355
9.332                0.915868789     -98.5041528
9.333                0.915682822     -98.6981325
9.334                0.915496226     -98.8926758
9.335                0.915309002     -99.0877841
9.336                0.915121151     -99.2834588
9.337                0.914932673      -99.479701
9.338                0.914743569     -99.6765122
9.339                0.914553839     -99.8738935
9.34                 0.914363484     -100.071846
9.341                0.914172506     -100.270372
9.342                0.913980905     -100.469472
9.343                0.913788681     -100.669147
9.344                0.913595836     -100.869398
9.345                0.913402372     -101.070228
9.346                0.913208288     -101.271636
9.347                0.913013586     -101.473625
9.348                0.912818267     -101.676195
9.349                0.912622333     -101.879349
9.35                 0.912425785     -102.083086
9.351                0.912228624     -102.287408
9.352                0.912030852     -102.492317
9.353                0.911832469     -102.697814
9.354                0.911633478       -102.9039
9.355                0.911433881     -103.110575
9.356                0.911233678     -103.317842
9.357                0.911032872     -103.525701
9.358                0.910831464     -103.734153
9.359                0.910629456     -103.943201
9.36                  0.91042685     -104.152844
9.361                0.910223649     -104.363084
9.362                0.910019853     -104.573922
9.363                0.909815466      -104.78536
9.364                0.909610489     -104.997398
9.365                0.909404925     -105.210037
9.366                0.909198776     -105.423279
9.367                0.908992043     -105.637124
9.368                0.908784731     -105.851574
9.369                0.908576841      -106.06663
9.37                 0.908368375     -106.282292
9.371                0.908159337     -106.498562
9.372                0.907949729     -106.715441
9.373                0.907739554      -106.93293
9.374                0.907528814      -107.15103
9.375                0.907317513     -107.369741
9.376                0.907105654     -107.589066
9.377                 0.90689324     -107.809004
9.378                0.906680273     -108.029557
9.379                0.906466758     -108.250725
9.38                 0.906252697     -108.472511
9.381                0.906038093     -108.694913
9.382                0.905822951     -108.917934
9.383                0.905607274     -109.141575
9.384                0.905391065     -109.365835
9.385                0.905174328     -109.590717
9.386                0.904957067     -109.816221
9.387                0.904739285     -110.042347
9.388                0.904520987     -110.269097
9.389                0.904302177     -110.496471
9.39                 0.904082858     -110.724471
9.391                0.903863035     -110.953096
9.392                0.903642712     -111.182348
9.393                0.903421893     -111.412228
9.394                0.903200583     -111.642736
9.395                0.902978786     -111.873872
9.396                0.902756508     -112.105639
