! TOUCHSTONE file generated by CST DESIGN STUDIO
! Date and time: Tue Feb  4 16:41:31 2025
! Project name: C:\Work\MatlabApps\UnitCellOptimizationMatlab\CST\unitcell.cst
! Tree item: Tasks\Sweep1\SPara1\S-Parameters
! Header version: 2024
! Port assignment regex: !\s*Touchstone port\s*([0-9]+)\s*=\s*(CST MWS port|CST DES external port|CST DES block port)\s*(.+)\s* \(\"(.*)\"\)(\s*mode\s*([0-9]+))?.*
! Touchstone port assignment:
! Touchstone port 1 = CST DES external port 1 ("")
# GHz S MA R 50
9                    0.852010244     -115.785937
9.001                0.851787361     -116.051115
9.002                0.851564621     -116.317214
9.003                0.851342028     -116.584236
9.004                0.851119591     -116.852182
9.005                0.850897315     -117.121054
9.006                0.850675206     -117.390853
9.007                0.850453272      -117.66158
9.008                0.850231519     -117.933237
9.009                0.850009953     -118.205825
9.01                 0.849788583     -118.479346
9.011                0.849567415       -118.7538
9.012                0.849346456     -119.029189
9.013                0.849125714     -119.305514
9.014                0.848905196     -119.582775
9.015                 0.84868491     -119.860975
9.016                0.848464864     -120.140114
9.017                0.848245065     -120.420193
9.018                0.848025522     -120.701214
9.019                0.847806244     -120.983176
9.02                 0.847587237     -121.266081
9.021                0.847368511      -121.54993
9.022                0.847150074     -121.834724
9.023                0.846931935     -122.120463
9.024                0.846714103     -122.407148
9.025                0.846496587     -122.694779
9.026                0.846279396     -122.983358
9.027                0.846062539     -123.272885
9.028                0.845846025      -123.56336
9.029                0.845629865     -123.854784
9.03                 0.845414067     -124.147157
9.031                0.845198642      -124.44048
9.032                0.844983599     -124.734753
9.033                0.844768949     -125.029976
9.034                0.844554701      -125.32615
9.035                0.844340867     -125.623275
9.036                0.844127456     -125.921351
9.037                0.843914479     -126.220377
9.038                0.843701947     -126.520355
9.039                0.843489871     -126.821284
9.04                 0.843278261     -127.123163
9.041                 0.84306713     -127.425994
9.042                0.842856487     -127.729775
9.043                0.842646345     -128.034506
9.044                0.842436714     -128.340187
9.045                0.842227608     -128.646818
9.046                0.842019036     -128.954399
9.047                0.841811013     -129.262928
9.048                0.841603548     -129.572406
9.049                0.841396655     -129.882831
9.05                 0.841190346     -130.194203
9.051                0.840984633     -130.506522
9.052                 0.84077953     -130.819787
9.053                0.840575047     -131.133996
9.054                0.840371199     -131.449149
9.055                0.840167998     -131.765244
9.056                0.839965457     -132.082282
9.057                 0.83976359      -132.40026
9.058                 0.83956241     -132.719179
9.059                 0.83936193     -133.039035
9.06                 0.839162163     -133.359828
9.061                0.838963124     -133.681558
9.062                0.838764825     -134.004221
9.063                0.838567282     -134.327818
9.064                0.838370507     -134.652345
9.065                0.838174516     -134.977803
9.066                0.837979322     -135.304188
9.067                0.837784939     -135.631499
9.068                0.837591382     -135.959735
9.069                0.837398665     -136.288893
9.07                 0.837206804     -136.618971
9.071                0.837015812     -136.949968
9.072                0.836825704     -137.281881
9.073                0.836636497     -137.614707
9.074                0.836448203     -137.948446
9.075                0.836260839     -138.283094
9.076                 0.83607442     -138.618648
9.077                0.835888961     -138.955107
9.078                0.835704478     -139.292468
9.079                0.835520985     -139.630728
9.08                 0.835338498     -139.969884
9.081                0.835157034     -140.309934
9.082                0.834976607     -140.650874
9.083                0.834797233     -140.992702
9.084                0.834618929     -141.335414
9.085                 0.83444171     -141.679008
9.086                0.834265591      -142.02348
9.087                 0.83409059     -142.368827
9.088                0.833916722     -142.715045
9.089                0.833744003     -143.062131
9.09                  0.83357245     -143.410082
9.091                0.833402078     -143.758894
9.092                0.833232905     -144.108562
9.093                0.833064945     -144.459084
9.094                0.832898217     -144.810456
9.095                0.832732735     -145.162673
9.096                0.832568517     -145.515731
9.097                0.832405579     -145.869627
9.098                0.832243938     -146.224355
9.099                0.832083609     -146.579912
9.1                  0.831924611     -146.936294
9.101                0.831766958     -147.293496
9.102                0.831610668     -147.651513
9.103                0.831455758      -148.01034
9.104                0.831302244     -148.369974
9.105                0.831150142     -148.730408
9.106                0.830999469     -149.091639
9.107                0.830850242     -149.453661
9.108                0.830702478      -149.81647
9.109                0.830556192     -150.180059
9.11                 0.830411402     -150.544424
9.111                0.830268124      -150.90956
9.112                0.830126375      -151.27546
9.113                 0.82998617      -151.64212
9.114                0.829847527     -152.009535
9.115                0.829710463     -152.377697
9.116                0.829574992     -152.746602
9.117                0.829441132     -153.116243
9.118                0.829308899     -153.486616
9.119                0.829178309     -153.857713
9.12                 0.829049379     -154.229529
9.121                0.828922124     -154.602057
9.122                 0.82879656     -154.975291
9.123                0.828672704     -155.349225
9.124                0.828550572     -155.723853
9.125                0.828430178     -156.099168
9.126                0.828311539     -156.475162
9.127                0.828194671     -156.851831
9.128                0.828079589     -157.229166
9.129                0.827966309     -157.607162
9.13                 0.827854846      -157.98581
9.131                0.827745214     -158.365105
9.132                 0.82763743     -158.745038
9.133                0.827531508     -159.125603
9.134                0.827427464     -159.506793
9.135                0.827325311       -159.8886
9.136                0.827225065     -160.271017
9.137                 0.82712674     -160.654036
9.138                0.827030351      -161.03765
9.139                0.826935911     -161.421852
9.14                 0.826843435     -161.806632
9.141                0.826752937     -162.191984
9.142                 0.82666443       -162.5779
9.143                0.826577928     -162.964372
9.144                0.826493445     -163.351392
9.145                0.826410994     -163.738951
9.146                0.826330587     -164.127042
9.147                0.826252238     -164.515656
9.148                 0.82617596     -164.904785
9.149                0.826101765     -165.294421
9.15                 0.826029665     -165.684555
9.151                0.825959673     -166.075179
9.152                  0.8258918     -166.466284
9.153                0.825826059     -166.857861
9.154                0.825762461     -167.249903
9.155                0.825701017     -167.642399
9.156                0.825641738     -168.035342
9.157                0.825584636     -168.428722
9.158                 0.82552972      -168.82253
9.159                0.825477002     -169.216758
9.16                 0.825426491     -169.611396
9.161                0.825378198     -170.006435
9.162                0.825332133     -170.401867
9.163                0.825288304     -170.797681
9.164                0.825246722     -171.193869
9.165                0.825207394      -171.59042
9.166                 0.82517033     -171.987327
9.167                0.825135539     -172.384579
9.168                0.825103029     -172.782167
9.169                0.825072807     -173.180081
9.17                 0.825044881     -173.578312
9.171                0.825019259      -173.97685
9.172                0.824995948     -174.375686
9.173                0.824974955     -174.774809
9.174                0.824956287      -175.17421
9.175                0.824939949     -175.573879
9.176                0.824925948     -175.973807
9.177                 0.82491429     -176.373984
9.178                 0.82490498     -176.774398
9.179                0.824898023     -177.175042
9.18                 0.824893425     -177.575904
9.181                 0.82489119     -177.976975
9.182                0.824891322     -178.378245
9.183                0.824893825     -178.779703
9.184                0.824898703      -179.18134
9.185                 0.82490596     -179.583146
9.186                0.824915598     -179.985109
9.187                0.824927621      179.612779
9.188                 0.82494203      179.210529
9.189                0.824958829      178.808151
9.19                 0.824978019      178.405656
9.191                0.824999601      178.003053
9.192                0.825023578      177.600353
9.193                0.825049949      177.197566
9.194                0.825078716      176.794703
9.195                0.825109879      176.391773
9.196                0.825143437      175.988787
9.197                0.825179392      175.585755
9.198                0.825217742      175.182688
9.199                0.825258486      174.779595
9.2                  0.825301623      174.376488
9.201                0.825347151      173.973375
9.202                 0.82539507      173.570269
9.203                0.825445376      173.167178
9.204                0.825498067      172.764113
9.205                 0.82555314      172.361085
9.206                0.825610593      171.958103
9.207                0.825670421      171.555179
9.208                0.825732622      171.152321
9.209                0.825797192      170.749541
9.21                 0.825864125      170.346849
9.211                0.825933417      169.944255
9.212                0.826005064      169.541768
9.213                 0.82607906        169.1394
9.214                  0.8261554       168.73716
9.215                0.826234078      168.335059
9.216                0.826315087      167.933106
9.217                0.826398422      167.531312
9.218                0.826484076      167.129687
9.219                0.826572041       166.72824
9.22                 0.826662311      166.326982
9.221                0.826754877      165.925922
9.222                0.826849733      165.525071
9.223                0.826946869      165.124439
9.224                0.827046278      164.724035
9.225                0.827147951      164.323869
9.226                0.827251878      163.923951
9.227                0.827358051       163.52429
9.228                 0.82746646      163.124897
9.229                0.827577095      162.725781
9.23                 0.827689946      162.326952
9.231                0.827805003      161.928419
9.232                0.827922256      161.530192
9.233                0.828041693       161.13228
9.234                0.828163304      160.734692
9.235                0.828287077      160.337439
9.236                0.828413001      159.940528
9.237                0.828541063      159.543971
9.238                0.828671252      159.147775
9.239                0.828803556       158.75195
9.24                 0.828937962      158.356506
9.241                0.829074457      157.961451
9.242                0.829213029      157.566793
9.243                0.829353664      157.172543
9.244                 0.82949635      156.778709
9.245                0.829641071        156.3853
9.246                0.829787815      155.992324
9.247                0.829936568       155.59979
9.248                0.830087315      155.207707
9.249                0.830240043      154.816084
9.25                 0.830394736      154.424929
9.251                 0.83055138      154.034249
9.252                 0.83070996      153.644055
9.253                0.830870461      153.254353
9.254                0.831032867      152.865153
9.255                0.831197164      152.476462
9.256                0.831363335      152.088288
9.257                0.831531365       151.70064
9.258                0.831701239      151.313525
9.259                0.831872939      150.926951
9.26                  0.83204645      150.540926
9.261                0.832221755      150.155458
9.262                0.832398838      149.770554
9.263                0.832577683      149.386222
9.264                0.832758273      149.002469
9.265                 0.83294059      148.619303
9.266                0.833124619       148.23673
9.267                0.833310341      147.854759
9.268                 0.83349774      147.473397
9.269                0.833686799      147.092649
9.27                 0.833877499      146.712525
9.271                0.834069824      146.333029
9.272                0.834263757       145.95417
9.273                0.834459279      145.575954
9.274                0.834656372      145.198387
9.275                 0.83485502      144.821477
9.276                0.835055204      144.445229
9.277                0.835256906       144.06965
9.278                0.835460108      143.694747
9.279                0.835664792      143.320526
9.28                 0.835870941      142.946992
9.281                0.836078535      142.574153
9.282                0.836287557      142.202013
9.283                0.836497989      141.830579
9.284                0.836709812      141.459857
9.285                0.836923008      141.089853
9.286                0.837137558      140.720571
9.287                0.837353445      140.352018
9.288                 0.83757065        139.9842
9.289                0.837789155      139.617121
9.29                 0.838008941      139.250786
9.291                0.838229989      138.885202
9.292                0.838452282      138.520373
9.293                0.838675801      138.156305
9.294                0.838900528      137.793001
9.295                0.839126443      137.430468
9.296                 0.83935353       137.06871
9.297                0.839581769      136.707732
9.298                0.839811142      136.347537
9.299                0.840041631      135.988132
9.3                  0.840273218       135.62952
9.301                0.840505884      135.271706
9.302                0.840739611      134.914694
9.303                 0.84097438      134.558488
9.304                0.841210175      134.203092
9.305                0.841446976      133.848511
9.306                0.841684766      133.494748
9.307                0.841923526      133.141807
9.308                0.842163239      132.789692
9.309                0.842403887      132.438407
9.31                 0.842645451      132.087955
9.311                0.842887915       131.73834
9.312                 0.84313126      131.389566
9.313                0.843375468      131.041635
9.314                0.843620523      130.694551
9.315                0.843866406      130.348318
9.316                0.844113101      130.002937
9.317                 0.84436059      129.658414
9.318                0.844608855      129.314749
9.319                0.844857879      128.971947
9.32                 0.845107646       128.63001
9.321                0.845358138      128.288941
9.322                0.845609339      127.948743
9.323                0.845861231      127.609417
9.324                0.846113798      127.270967
9.325                0.846367023      126.933396
9.326                 0.84662089      126.596704
9.327                0.846875382      126.260896
9.328                0.847130483      125.925972
9.329                0.847386176      125.591936
9.33                 0.847642446      125.258788
9.331                0.847899277      124.926532
9.332                0.848156652      124.595168
9.333                0.848414556        124.2647
9.334                0.848672973      123.935128
9.335                0.848931888      123.606455
9.336                0.849191284      123.278681
9.337                0.849451148      122.951809
9.338                0.849711463       122.62584
9.339                0.849972214      122.300776
9.34                 0.850233387      121.976617
9.341                0.850494967      121.653365
9.342                0.850756938      121.331022
9.343                0.851019287      121.009588
9.344                0.851281998      120.689065
9.345                0.851545058      120.369453
9.346                0.851808452      120.050754
9.347                0.852072166      119.732969
9.348                0.852336186      119.416097
9.349                0.852600498      119.100141
9.35                 0.852865089      118.785101
9.351                0.853129945      118.470977
9.352                0.853395053      118.157769
9.353                0.853660398       117.84548
9.354                0.853925969      117.534108
9.355                0.854191751      117.223655
9.356                0.854457733      116.914121
9.357                0.854723901      116.605506
9.358                0.854990242       116.29781
9.359                0.855256744      115.991034
9.36                 0.855523395      115.685177
9.361                0.855790183       115.38024
9.362                0.856057095      115.076223
9.363                0.856324119      114.773125
9.364                0.856591243      114.470947
9.365                0.856858456      114.169689
9.366                0.857125747       113.86935
9.367                0.857393103       113.56993
9.368                0.857660514      113.271429
9.369                0.857927968      112.973846
9.37                 0.858195454      112.677182
9.371                0.858462961      112.381435
9.372                0.858730479      112.086605
9.373                0.858997997      111.792692
9.374                0.859265505      111.499695
9.375                0.859532991      111.207613
9.376                0.859800447      110.916447
9.377                0.860067861      110.626194
9.378                0.860335223      110.336855
9.379                0.860602525      110.048428
9.38                 0.860869756      109.760913
9.381                0.861136907      109.474309
9.382                0.861403968      109.188615
9.383                 0.86167093       108.90383
9.384                0.861937783      108.619953
9.385                 0.86220452      108.336982
9.386                 0.86247113      108.054918
9.387                0.862737605      107.773759
9.388                0.863003937      107.493503
9.389                0.863270116       107.21415
9.39                 0.863536135      106.935698
9.391                0.863801984      106.658146
9.392                0.864067657      106.381492
9.393                0.864333145      106.105736
9.394                 0.86459844      105.830876
9.395                0.864863533      105.556911
9.396                0.865128419      105.283839
