! TOUCHSTONE file generated by CST DESIGN STUDIO
! Date and time: Tue Feb  4 16:41:45 2025
! Project name: C:\Work\MatlabApps\UnitCellOptimizationMatlab\CST\unitcell.cst
! Tree item: Tasks\Sweep1\SPara1\S-Parameters
! Header version: 2024
! Port assignment regex: !\s*Touchstone port\s*([0-9]+)\s*=\s*(CST MWS port|CST DES external port|CST DES block port)\s*(.+)\s* \(\"(.*)\"\)(\s*mode\s*([0-9]+))?.*
! Touchstone port assignment:
! Touchstone port 1 = CST DES external port 1 ("")
# GHz S MA R 50
9                    0.956012353     -57.7138158
9.001                0.955947052     -57.7981497
9.002                 0.95588136      -57.882703
9.003                0.955815274     -57.9674767
9.004                0.955748793     -58.0524713
9.005                0.955681913     -58.1376877
9.006                0.955614634     -58.2231267
9.007                0.955546952      -58.308789
9.008                0.955478866     -58.3946753
9.009                0.955410374     -58.4807865
9.01                 0.955341472     -58.5671233
9.011                 0.95527216     -58.6536865
9.012                0.955202435     -58.7404769
9.013                0.955132294     -58.8274953
9.014                0.955061736     -58.9147424
9.015                0.954990758      -59.002219
9.016                0.954919358     -59.0899259
9.017                0.954847534      -59.177864
9.018                0.954775283      -59.266034
9.019                0.954702603     -59.3544367
9.02                 0.954629493      -59.443073
9.021                0.954555949     -59.5319436
9.022                0.954481969     -59.6210493
9.023                0.954407552      -59.710391
9.024                0.954332694     -59.7999695
9.025                0.954257394     -59.8897855
9.026                0.954181649       -59.97984
9.027                0.954105457     -60.0701337
9.028                0.954028816     -60.1606675
9.029                0.953951722     -60.2514422
9.03                 0.953874175     -60.3424586
9.031                0.953796171     -60.4337177
9.032                0.953717708     -60.5252201
9.033                0.953638783     -60.6169668
9.034                0.953559395     -60.7089587
9.035                0.953479541     -60.8011965
9.036                0.953399218     -60.8936811
9.037                0.953318424     -60.9864134
9.038                0.953237157     -61.0793943
9.039                0.953155414     -61.1726245
9.04                 0.953073193     -61.2661051
9.041                0.952990491     -61.3598367
9.042                0.952907306     -61.4538205
9.043                0.952823635     -61.5480571
9.044                0.952739476     -61.6425475
9.045                0.952654827     -61.7372925
9.046                0.952569684     -61.8322931
9.047                0.952484046     -61.9275502
9.048                0.952397909     -62.0230646
9.049                0.952311272     -62.1188373
9.05                 0.952224132      -62.214869
9.051                0.952136486     -62.3111609
9.052                0.952048332     -62.4077137
9.053                0.951959667     -62.5045283
9.054                0.951870489     -62.6016058
9.055                0.951780795     -62.6989469
9.056                0.951690582     -62.7965527
9.057                0.951599848      -62.894424
9.058                 0.95150859     -62.9925618
9.059                0.951416806      -63.090967
9.06                 0.951324493     -63.1896405
9.061                0.951231648     -63.2885834
9.062                0.951138269     -63.3877965
9.063                0.951044353     -63.4872807
9.064                0.950949898     -63.5870371
9.065                0.950854901     -63.6870666
9.066                0.950759358     -63.7873701
9.067                0.950663268     -63.8879486
9.068                0.950566628      -63.988803
9.069                0.950469435     -64.0899344
9.07                 0.950371687     -64.1913437
9.071                 0.95027338     -64.2930319
9.072                0.950174512         -64.395
9.073                 0.95007508     -64.4972489
9.074                0.949975082     -64.5997796
9.075                0.949874515     -64.7025931
9.076                0.949773376     -64.8056905
9.077                0.949671662     -64.9090727
9.078                 0.94956937     -65.0127406
9.079                0.949466498     -65.1166954
9.08                 0.949363043     -65.2209381
9.081                0.949259003     -65.3254695
9.082                0.949154373     -65.4302908
9.083                0.949049153      -65.535403
9.084                0.948943338     -65.6408071
9.085                0.948836926     -65.7465041
9.086                0.948729914     -65.8524951
9.087                0.948622299     -65.9587811
9.088                0.948514079      -66.065363
9.089                 0.94840525     -66.1722421
9.09                  0.94829581     -66.2794193
9.091                0.948185756     -66.3868956
9.092                0.948075085     -66.4946722
9.093                0.947963794     -66.6027501
9.094                0.947851881     -66.7111302
9.095                0.947739341     -66.8198138
9.096                0.947626174     -66.9288019
9.097                0.947512374     -67.0380955
9.098                 0.94739794     -67.1476958
9.099                0.947282869     -67.2576037
9.1                  0.947167158     -67.3678205
9.101                0.947050804     -67.4783471
9.102                0.946933803     -67.5891847
9.103                0.946816154     -67.7003344
9.104                0.946697852     -67.8117972
9.105                0.946578896     -67.9235743
9.106                0.946459281     -68.0356668
9.107                0.946339006     -68.1480758
9.108                0.946218067     -68.2608024
9.109                0.946096461     -68.3738478
9.11                 0.945974185      -68.487213
9.111                0.945851237     -68.6008991
9.112                0.945727612     -68.7149074
9.113                0.945603309      -68.829239
9.114                0.945478324     -68.9438949
9.115                0.945352653     -69.0588764
9.116                0.945226295     -69.1741845
9.117                0.945099247     -69.2898205
9.118                0.944971504     -69.4057855
9.119                0.944843064     -69.5220806
9.12                 0.944713924     -69.6387071
9.121                0.944584081      -69.755666
9.122                0.944453532     -69.8729586
9.123                0.944322274     -69.9905861
9.124                0.944190303     -70.1085495
9.125                0.944057617     -70.2268502
9.126                0.943924213     -70.3454892
9.127                0.943790087     -70.4644678
9.128                0.943655237     -70.5837872
9.129                0.943519659     -70.7034486
9.13                  0.94338335     -70.8234531
9.131                0.943246308     -70.9438021
9.132                0.943108528     -71.0644966
9.133                0.942970009      -71.185538
9.134                0.942830746     -71.3069274
9.135                0.942690737     -71.4286661
9.136                0.942549979     -71.5507552
9.137                0.942408469     -71.6731961
9.138                0.942266202       -71.79599
9.139                0.942123178     -71.9191381
9.14                 0.941979391     -72.0426416
9.141                0.941834839     -72.1665019
9.142                 0.94168952     -72.2907201
9.143                0.941543429     -72.4152975
9.144                0.941396564     -72.5402355
9.145                0.941248922     -72.6655351
9.146                0.941100499     -72.7911978
9.147                0.940951292     -72.9172248
9.148                0.940801299     -73.0436173
9.149                0.940650515     -73.1703767
9.15                 0.940498939     -73.2975042
9.151                0.940346566     -73.4250012
9.152                0.940193394     -73.5528689
9.153                0.940039419     -73.6811087
9.154                0.939884639     -73.8097217
9.155                 0.93972905     -73.9387094
9.156                0.939572649     -74.0680731
9.157                0.939415433      -74.197814
9.158                0.939257399     -74.3279335
9.159                0.939098543     -74.4584329
9.16                 0.938938863     -74.5893136
9.161                0.938778356     -74.7205769
9.162                0.938617017      -74.852224
9.163                0.938454845     -74.9842564
9.164                0.938291836     -75.1166754
9.165                0.938127987     -75.2494823
9.166                0.937963295     -75.3826785
9.167                0.937797756     -75.5162654
9.168                0.937631368     -75.6502443
9.169                0.937464127     -75.7846166
9.17                 0.937296031     -75.9193836
9.171                0.937127076     -76.0545468
9.172                0.936957259     -76.1901074
9.173                0.936786577     -76.3260669
9.174                0.936615027     -76.4624267
9.175                0.936442606     -76.5991881
9.176                 0.93626931     -76.7363526
9.177                0.936095137     -76.8739216
9.178                0.935920084     -77.0118963
9.179                0.935744147     -77.1502784
9.18                 0.935567324      -77.289069
9.181                0.935389611     -77.4282698
9.182                0.935211005      -77.567882
9.183                0.935031504     -77.7079072
9.184                0.934851104     -77.8483467
9.185                0.934669802      -77.989202
9.186                0.934487596     -78.1304744
9.187                0.934304481     -78.2721655
9.188                0.934120456     -78.4142767
9.189                0.933935517     -78.5568094
9.19                 0.933749661      -78.699765
9.191                0.933562886     -78.8431451
9.192                0.933375188      -78.986951
9.193                0.933186564     -79.1311843
9.194                0.932997011     -79.2758464
9.195                0.932806527     -79.4209387
9.196                0.932615108     -79.5664628
9.197                0.932422752     -79.7124201
9.198                0.932229455      -79.858812
9.199                0.932035215     -80.0056402
9.2                  0.931840029      -80.152906
9.201                0.931643895     -80.3006109
9.202                0.931446808     -80.4487565
9.203                0.931248766     -80.5973442
9.204                0.931049768     -80.7463756
9.205                0.930849808      -80.895852
9.206                0.930648886     -81.0457752
9.207                0.930446998     -81.1961464
9.208                0.930244141     -81.3469674
9.209                0.930040312     -81.4982395
9.21                  0.92983551     -81.6499644
9.211                0.929629731     -81.8021434
9.212                0.929422972     -81.9547782
9.213                 0.92921523     -82.1078703
9.214                0.929006504     -82.2614213
9.215                 0.92879679     -82.4154326
9.216                0.928586087     -82.5699058
9.217                 0.92837439     -82.7248424
9.218                0.928161698      -82.880244
9.219                0.927948007     -83.0361122
9.22                 0.927733317     -83.1924484
9.221                0.927517623     -83.3492543
9.222                0.927300924     -83.5065314
9.223                0.927083216     -83.6642813
9.224                0.926864498     -83.8225055
9.225                0.926644767     -83.9812057
9.226                0.926424021     -84.1403833
9.227                0.926202257     -84.3000399
9.228                0.925979473     -84.4601772
9.229                0.925755666     -84.6207967
9.23                 0.925530835     -84.7818999
9.231                0.925304977     -84.9434885
9.232                0.925078089     -85.1055641
9.233                 0.92485017     -85.2681283
9.234                0.924621216     -85.4311825
9.235                0.924391227     -85.5947285
9.236                  0.9241602     -85.7587679
9.237                0.923928133     -85.9233021
9.238                0.923695023     -86.0883329
9.239                0.923460869     -86.2538619
9.24                 0.923225668     -86.4198906
9.241                 0.92298942     -86.5864206
9.242                 0.92275212     -86.7534536
9.243                0.922513769     -86.9209912
9.244                0.922274363     -87.0890349
9.245                0.922033901     -87.2575865
9.246                0.921792381     -87.4266475
9.247                0.921549802     -87.5962196
9.248                0.921306161     -87.7663043
9.249                0.921061457     -87.9369033
9.25                 0.920815688     -88.1080182
9.251                0.920568853     -88.2796507
9.252                 0.92032095     -88.4518023
9.253                0.920071977     -88.6244747
9.254                0.919821932     -88.7976696
9.255                0.919570815     -88.9713886
9.256                0.919318624     -89.1456332
9.257                0.919065358     -89.3204052
9.258                0.918811014     -89.4957062
9.259                0.918555593     -89.6715377
9.26                 0.918299092     -89.8479016
9.261                 0.91804151     -90.0247993
9.262                0.917782847     -90.2022325
9.263                  0.9175231     -90.3802029
9.264                0.917262269     -90.5587121
9.265                0.917000354     -90.7377618
9.266                0.916737352     -90.9173536
9.267                0.916473263     -91.0974891
9.268                0.916208086       -91.27817
9.269                 0.91594182     -91.4593979
9.27                 0.915674465     -91.6411745
9.271                 0.91540602     -91.8235014
9.272                0.915136483     -92.0063802
9.273                0.914865855     -92.1898127
9.274                0.914594135     -92.3738003
9.275                0.914321322     -92.5583449
9.276                0.914047416      -92.743448
9.277                0.913772417     -92.9291113
9.278                0.913496323     -93.1153364
9.279                0.913219136     -93.3021249
9.28                 0.912940853     -93.4894785
9.281                0.912661477     -93.6773989
9.282                0.912381006     -93.8658876
9.283                 0.91209944     -94.0549463
9.284                0.911816779     -94.2445767
9.285                0.911533024     -94.4347803
9.286                0.911248174     -94.6255588
9.287                 0.91096223     -94.8169139
9.288                0.910675192     -95.0088471
9.289                0.910387061     -95.2013602
9.29                 0.910097836     -95.3944546
9.291                0.909807519     -95.5881321
9.292                 0.90951611     -95.7823943
9.293                0.909223609     -95.9772428
9.294                0.908930017     -96.1726791
9.295                0.908635336      -96.368705
9.296                0.908339565      -96.565322
9.297                0.908042706     -96.7625317
9.298                 0.90774476     -96.9603358
9.299                0.907445728     -97.1587358
9.3                  0.907145611     -97.3577333
9.301                 0.90684441       -97.55733
9.302                0.906542127     -97.7575275
9.303                0.906238763     -97.9583272
9.304                0.905934319     -98.1597309
9.305                0.905628798       -98.36174
9.306                  0.9053222     -98.5643562
9.307                0.905014527      -98.767581
9.308                0.904705782     -98.9714161
9.309                0.904395966     -99.1758629
9.31                 0.904085082     -99.3809231
9.311                 0.90377313     -99.5865981
9.312                0.903460114     -99.7928896
9.313                0.903146036      -99.999799
9.314                0.902830897     -100.207328
9.315                0.902514702     -100.415478
9.316                0.902197451     -100.624251
9.317                0.901879148     -100.833647
9.318                0.901559795      -101.04367
9.319                0.901239396     -101.254319
9.32                 0.900917953     -101.465597
9.321                0.900595469     -101.677506
9.322                0.900271947     -101.890045
9.323                0.899947392     -102.103218
9.324                0.899621804     -102.317026
9.325                 0.89929519      -102.53147
9.326                0.898967551     -102.746551
9.327                0.898638892     -102.962271
9.328                0.898309216     -103.178631
9.329                0.897978527     -103.395634
9.33                  0.89764683     -103.613279
9.331                0.897314127      -103.83157
9.332                0.896980424     -104.050506
9.333                0.896645725      -104.27009
9.334                0.896310034     -104.490323
9.335                0.895973355     -104.711206
9.336                0.895635694     -104.932741
9.337                0.895297055     -105.154929
9.338                0.894957443     -105.377772
9.339                0.894616862      -105.60127
9.34                 0.894275319     -105.825425
9.341                0.893932818     -106.050239
9.342                0.893589365     -106.275713
9.343                0.893244965     -106.501847
9.344                0.892899623     -106.728644
9.345                0.892553346     -106.956105
9.346                0.892206139      -107.18423
9.347                0.891858008     -107.413022
9.348                 0.89150896     -107.642481
9.349                0.891159001     -107.872609
9.35                 0.890808136     -108.103406
9.351                0.890456373     -108.334875
9.352                0.890103718     -108.567016
9.353                0.889750177      -108.79983
9.354                0.889395759     -109.033319
9.355                0.889040469     -109.267484
9.356                0.888684315     -109.502326
9.357                0.888327304     -109.737846
9.358                0.887969444     -109.974045
9.359                0.887610742     -110.210924
9.36                 0.887251206     -110.448485
9.361                0.886890843     -110.686728
9.362                0.886529663     -110.925654
9.363                0.886167672     -111.165265
9.364                 0.88580488     -111.405562
9.365                0.885441294     -111.646545
9.366                0.885076923     -111.888216
9.367                0.884711776     -112.130575
9.368                0.884345862     -112.373624
9.369                0.883979189     -112.617363
9.37                 0.883611767     -112.861794
9.371                0.883243606     -113.106916
9.372                0.882874714     -113.352732
9.373                0.882505101     -113.599242
9.374                0.882134777     -113.846446
9.375                0.881763753     -114.094347
9.376                0.881392036     -114.342943
9.377                 0.88101964     -114.592237
9.378                0.880646572     -114.842229
9.379                0.880272845      -115.09292
9.38                 0.879898468      -115.34431
9.381                0.879523453       -115.5964
9.382                 0.87914781     -115.849191
9.383                0.878771551     -116.102684
9.384                0.878394687     -116.356879
9.385                0.878017229     -116.611777
9.386                0.877639189     -116.867378
9.387                0.877260579     -117.123683
9.388                0.876881411     -117.380692
9.389                0.876501696     -117.638407
9.39                 0.876121448     -117.896827
9.391                0.875740678     -118.155953
9.392                0.875359399     -118.415786
9.393                0.874977624     -118.676325
9.394                0.874595366     -118.937572
9.395                0.874212638     -119.199526
9.396                0.873829453     -119.462189
