! TOUCHSTONE file generated by CST DESIGN STUDIO
! Date and time: Tue Feb  4 16:41:43 2025
! Project name: C:\Work\MatlabApps\UnitCellOptimizationMatlab\CST\unitcell.cst
! Tree item: Tasks\Sweep1\SPara1\S-Parameters
! Header version: 2024
! Port assignment regex: !\s*Touchstone port\s*([0-9]+)\s*=\s*(CST MWS port|CST DES external port|CST DES block port)\s*(.+)\s* \(\"(.*)\"\)(\s*mode\s*([0-9]+))?.*
! Touchstone port assignment:
! Touchstone port 1 = CST DES external port 1 ("")
# GHz S MA R 50
9                    0.949056212      -62.331642
9.001                0.949001851     -62.4304659
9.002                0.948947081     -62.5294772
9.003                0.948891865     -62.6286782
9.004                0.948836171     -62.7280708
9.005                0.948779967     -62.8276575
9.006                0.948723223     -62.9274404
9.007                 0.94866591     -63.0274217
9.008                   0.948608     -63.1276039
9.009                0.948549467     -63.2279892
9.01                 0.948490286     -63.3285799
9.011                0.948430434     -63.4293784
9.012                0.948369887      -63.530387
9.013                0.948308625     -63.6316081
9.014                0.948246628      -63.733044
9.015                0.948183876     -63.8346971
9.016                0.948120352     -63.9365698
9.017                0.948056039     -64.0386644
9.018                 0.94799092     -64.1409832
9.019                0.947924981     -64.2435286
9.02                 0.947858209     -64.3463029
9.021                0.947790589     -64.4493084
9.022                 0.94772211     -64.5525475
9.023                0.947652759     -64.6560224
9.024                0.947582528     -64.7597354
9.025                0.947511405     -64.8636888
9.026                0.947439381     -64.9678847
9.027                0.947366448     -65.0723255
9.028                0.947292598     -65.1770133
9.029                0.947217824     -65.2819503
9.03                 0.947142119     -65.3871388
9.031                0.947065476     -65.4925808
9.032                0.946987891     -65.5982785
9.033                0.946909357     -65.7042339
9.034                0.946829871     -65.8104493
9.035                0.946749428     -65.9169267
9.036                0.946668024     -66.0236681
9.037                0.946585656     -66.1306755
9.038                0.946502321      -66.237951
9.039                0.946418016     -66.3454966
9.04                 0.946332738     -66.4533143
9.041                0.946246486      -66.561406
9.042                0.946159257     -66.6697737
9.043                0.946071051     -66.7784192
9.044                0.945981865     -66.8873445
9.045                0.945891699     -66.9965515
9.046                0.945800552     -67.1060421
9.047                0.945708423     -67.2158181
9.048                0.945615311     -67.3258813
9.049                0.945521217     -67.4362336
9.05                 0.945426139     -67.5468767
9.051                0.945330079     -67.6578125
9.052                0.945233036     -67.7690427
9.053                 0.94513501     -67.8805691
9.054                0.945036002     -67.9923935
9.055                0.944936011     -68.1045175
9.056                0.944835039     -68.2169429
9.057                0.944733087     -68.3296714
9.058                0.944630154     -68.4427047
9.059                0.944526241     -68.5560445
9.06                 0.944421349     -68.6696923
9.061                 0.94431548       -68.78365
9.062                0.944208633     -68.8979191
9.063                0.944100809     -69.0125013
9.064                 0.94399201     -69.1273982
9.065                0.943882237     -69.2426115
9.066                 0.94377149     -69.3581426
9.067                 0.94365977     -69.4739933
9.068                0.943547078     -69.5901651
9.069                0.943433416     -69.7066596
9.07                 0.943318783     -69.8234783
9.071                0.943203182     -69.9406229
9.072                0.943086612     -70.0580949
9.073                0.942969075     -70.1758959
9.074                0.942850572     -70.2940273
9.075                0.942731104     -70.4124908
9.076                 0.94261067     -70.5312878
9.077                0.942489274       -70.65042
9.078                0.942366914     -70.7698887
9.079                0.942243592     -70.8896957
9.08                 0.942119309     -71.0098422
9.081                0.941994065     -71.1303299
9.082                0.941867861     -71.2511603
9.083                0.941740697     -71.3723349
9.084                0.941612575     -71.4938551
9.085                0.941483494     -71.6157225
9.086                0.941353456     -71.7379386
9.087                 0.94122246     -71.8605048
9.088                0.941090508     -71.9834226
9.089                0.940957599     -72.1066935
9.09                 0.940823735     -72.2303191
9.091                0.940688914     -72.3543007
9.092                0.940553139     -72.4786399
9.093                0.940416408     -72.6033381
9.094                0.940278722     -72.7283968
9.095                0.940140081     -72.8538174
9.096                0.940000486     -72.9796016
9.097                0.939859936     -73.1057506
9.098                0.939718431     -73.2322661
9.099                0.939575972     -73.3591494
9.1                  0.939432558     -73.4864021
9.101                0.939288189     -73.6140256
9.102                0.939142865     -73.7420213
9.103                0.938996586     -73.8703908
9.104                0.938849352     -73.9991355
9.105                0.938701162      -74.128257
9.106                0.938552015     -74.2577565
9.107                0.938401913     -74.3876358
9.108                0.938250854     -74.5178961
9.109                0.938098838      -74.648539
9.11                 0.937945863      -74.779566
9.111                0.937791931     -74.9109785
9.112                 0.93763704     -75.0427781
9.113                 0.93748119     -75.1749661
9.114                0.937324379     -75.3075441
9.115                0.937166608     -75.4405136
9.116                0.937007875      -75.573876
9.117                 0.93684818     -75.7076328
9.118                0.936687523     -75.8417855
9.119                0.936525901     -75.9763357
9.12                 0.936363314     -76.1112847
9.121                0.936199763     -76.2466341
9.122                0.936035244     -76.3823854
9.123                0.935869758     -76.5185401
9.124                0.935703304     -76.6550997
9.125                 0.93553588     -76.7920656
9.126                0.935367485     -76.9294394
9.127                0.935198119     -77.0672226
9.128                 0.93502778     -77.2054167
9.129                0.934856468     -77.3440232
9.13                  0.93468418     -77.4830436
9.131                0.934510915     -77.6224795
9.132                0.934336673     -77.7623323
9.133                0.934161453     -77.9026036
9.134                0.933985252     -78.0432949
9.135                 0.93380807     -78.1844077
9.136                0.933629905     -78.3259435
9.137                0.933450756      -78.467904
9.138                0.933270621     -78.6102906
9.139                0.933089499     -78.7531048
9.14                 0.932907389     -78.8963483
9.141                 0.93272429     -79.0400225
9.142                0.932540199      -79.184129
9.143                0.932355115     -79.3286693
9.144                0.932169037      -79.473645
9.145                0.931981962     -79.6190577
9.146                0.931793891     -79.7649089
9.147                0.931604821     -79.9112002
9.148                 0.93141475     -80.0579331
9.149                0.931223677     -80.2051092
9.15                   0.9310316     -80.3527301
9.151                0.930838518     -80.5007973
9.152                0.930644429     -80.6493124
9.153                0.930449331     -80.7982771
9.154                0.930253223     -80.9476929
9.155                0.930056103     -81.0975613
9.156                0.929857969      -81.247884
9.157                 0.92965882     -81.3986625
9.158                0.929458654     -81.5498985
9.159                0.929257469     -81.7015936
9.16                 0.929055263     -81.8537493
9.161                0.928852035     -82.0063672
9.162                0.928647784     -82.1594491
9.163                0.928442506     -82.3129964
9.164                0.928236201     -82.4670107
9.165                0.928028867     -82.6214938
9.166                0.927820501     -82.7764472
9.167                0.927611103     -82.9318726
9.168                0.927400671     -83.0877715
9.169                0.927189202     -83.2441456
9.17                 0.926976695     -83.4009966
9.171                0.926763149      -83.558326
9.172                0.926548561     -83.7161355
9.173                0.926332929     -83.8744268
9.174                0.926116253     -84.0332014
9.175                0.925898529     -84.1924611
9.176                0.925679757     -84.3522074
9.177                0.925459935     -84.5124421
9.178                0.925239061     -84.6731667
9.179                0.925017133      -84.834383
9.18                  0.92479415     -84.9960925
9.181                0.924570109     -85.1582971
9.182                 0.92434501     -85.3209982
9.183                0.924118849     -85.4841976
9.184                0.923891627      -85.647897
9.185                 0.92366334      -85.812098
9.186                0.923433988     -85.9768022
9.187                0.923203569     -86.1420115
9.188                 0.92297208     -86.3077274
9.189                0.922739521     -86.4739516
9.19                  0.92250589     -86.6406859
9.191                0.922271185     -86.8079318
9.192                0.922035405     -86.9756911
9.193                0.921798548     -87.1439655
9.194                0.921560612     -87.3127566
9.195                0.921321596     -87.4820662
9.196                0.921081499     -87.6518959
9.197                0.920840319     -87.8222475
9.198                0.920598054     -87.9931226
9.199                0.920354703     -88.1645229
9.2                  0.920110265     -88.3364502
9.201                0.919864738     -88.5089061
9.202                0.919618121     -88.6818924
9.203                0.919370413     -88.8554107
9.204                0.919121612     -89.0294628
9.205                0.918871716     -89.2040503
9.206                0.918620726      -89.379175
9.207                0.918368638     -89.5548386
9.208                0.918115453     -89.7310428
9.209                0.917861169     -89.9077893
9.21                 0.917605784     -90.0850798
9.211                0.917349299      -90.262916
9.212                0.917091711     -90.4412997
9.213                0.916833019     -90.6202326
9.214                0.916573223     -90.7997163
9.215                0.916312322     -90.9797526
9.216                0.916050314     -91.1603433
9.217                0.915787199       -91.34149
9.218                0.915522976     -91.5231944
9.219                0.915257644     -91.7054583
9.22                 0.914991202     -91.8882833
9.221                 0.91472365     -92.0716713
9.222                0.914454986     -92.2556239
9.223                0.914185211     -92.4401428
9.224                0.913914322     -92.6252298
9.225                0.913642321     -92.8108866
9.226                0.913369206     -92.9971148
9.227                0.913094977     -93.1839163
9.228                0.912819634     -93.3712926
9.229                0.912543175     -93.5592456
9.23                 0.912265602     -93.7477769
9.231                0.911986912     -93.9368883
9.232                0.911707107     -94.1265815
9.233                0.911426186     -94.3168581
9.234                0.911144149     -94.5077199
9.235                0.910860996     -94.6991686
9.236                0.910576726     -94.8912059
9.237                 0.91029134     -95.0838335
9.238                0.910004838     -95.2770531
9.239                 0.90971722     -95.4708664
9.24                 0.909428487     -95.6652751
9.241                0.909138638     -95.8602809
9.242                0.908847674     -96.0558855
9.243                0.908555595     -96.2520905
9.244                0.908262402     -96.4488977
9.245                0.907968095     -96.6463087
9.246                0.907672675     -96.8443253
9.247                0.907376142     -97.0429491
9.248                0.907078498     -97.2421818
9.249                0.906779743      -97.442025
9.25                 0.906479878     -97.6424804
9.251                0.906178904     -97.8435498
9.252                0.905876821     -98.0452346
9.253                0.905573632     -98.2475367
9.254                0.905269336     -98.4504577
9.255                0.904963936     -98.6539991
9.256                0.904657433     -98.8581627
9.257                0.904349828     -99.0629501
9.258                0.904041122     -99.2683629
9.259                0.903731318     -99.4744028
9.26                 0.903420416     -99.6810714
9.261                0.903108418     -99.8883702
9.262                0.902795327     -100.096301
9.263                0.902481144     -100.304865
9.264                0.902165871     -100.514065
9.265                0.901849511     -100.723901
9.266                0.901532064     -100.934375
9.267                0.901213535      -101.14549
9.268                0.900893924     -101.357246
9.269                0.900573234     -101.569645
9.27                 0.900251468     -101.782688
9.271                0.899928629     -101.996378
9.272                0.899604719     -102.210715
9.273                 0.89927974     -102.425702
9.274                0.898953697      -102.64134
9.275                0.898626592     -102.857629
9.276                0.898298427     -103.074573
9.277                0.897969207     -103.292172
9.278                0.897638934     -103.510428
9.279                0.897307611     -103.729343
9.28                 0.896975244     -103.948917
9.281                0.896641834     -104.169152
9.282                0.896307386     -104.390051
9.283                0.895971904     -104.611613
9.284                0.895635391     -104.833841
9.285                0.895297851     -105.056737
9.286                 0.89495929     -105.280301
9.287                 0.89461971     -105.504535
9.288                0.894279117      -105.72944
9.289                0.893937515     -105.955018
9.29                 0.893594909     -106.181271
9.291                0.893251302     -106.408199
9.292                0.892906702     -106.635803
9.293                0.892561111     -106.864087
9.294                0.892214535     -107.093049
9.295                 0.89186698     -107.322693
9.296                0.891518452     -107.553019
9.297                0.891168954     -107.784028
9.298                0.890818494     -108.015723
9.299                0.890467076     -108.248103
9.3                  0.890114707     -108.481171
9.301                0.889761392     -108.714927
9.302                0.889407139     -108.949374
9.303                0.889051952     -109.184511
9.304                0.888695839     -109.420341
9.305                0.888338806     -109.656864
9.306                 0.88798086     -109.894081
9.307                0.887622007     -110.131995
9.308                0.887262255     -110.370606
9.309                 0.88690161     -110.609914
9.31                  0.88654008     -110.849922
9.311                0.886177672      -111.09063
9.312                0.885814393      -111.33204
9.313                0.885450252     -111.574152
9.314                0.885085257     -111.816967
9.315                0.884719414     -112.060487
9.316                0.884352732     -112.304713
9.317                 0.88398522     -112.549645
9.318                0.883616886     -112.795284
9.319                0.883247737     -113.041632
9.32                 0.882877785      -113.28869
9.321                0.882507035     -113.536457
9.322                0.882135499     -113.784936
9.323                0.881763185     -114.034127
9.324                0.881390103     -114.284031
9.325                0.881016261     -114.534648
9.326                0.880641669     -114.785981
9.327                0.880266338     -115.038028
9.328                0.879890277     -115.290792
9.329                0.879513497     -115.544272
9.33                 0.879136007     -115.798471
9.331                0.878757818     -116.053387
9.332                 0.87837894     -116.309022
9.333                0.877999385     -116.565378
9.334                0.877619164     -116.822453
9.335                0.877238286     -117.080249
9.336                0.876856764     -117.338767
9.337                0.876474609     -117.598007
9.338                0.876091833      -117.85797
9.339                0.875708447     -118.118655
9.34                 0.875324464     -118.380064
9.341                0.874939894     -118.642198
9.342                0.874554751     -118.905056
9.343                0.874169047     -119.168638
9.344                0.873782795     -119.432946
9.345                0.873396007      -119.69798
9.346                0.873008697     -119.963739
9.347                0.872620876     -120.230225
9.348                 0.87223256     -120.497438
9.349                0.871843761     -120.765377
9.35                 0.871454492     -121.034043
9.351                0.871064768     -121.303436
9.352                0.870674602     -121.573557
9.353                0.870284009     -121.844405
9.354                0.869893003     -122.115981
9.355                0.869501599     -122.388284
9.356                0.869109811     -122.661315
9.357                0.868717654     -122.935074
9.358                0.868325142     -123.209561
9.359                0.867932292     -123.484774
9.36                 0.867539119     -123.760716
9.361                0.867145638     -124.037385
9.362                0.866751865      -124.31478
9.363                0.866357815     -124.592903
9.364                0.865963505     -124.871753
9.365                0.865568952     -125.151329
9.366                0.865174171     -125.431632
9.367                0.864779179      -125.71266
9.368                0.864383993     -125.994414
9.369                 0.86398863     -126.276893
9.37                 0.863593106     -126.560096
9.371                 0.86319744     -126.844024
9.372                0.862801649     -127.128676
9.373                 0.86240575      -127.41405
9.374                0.862009762     -127.700147
9.375                0.861613701     -127.986967
9.376                0.861217587     -128.274507
9.377                0.860821437     -128.562768
9.378                0.860425271     -128.851749
9.379                0.860029106     -129.141449
9.38                 0.859632962     -129.431867
9.381                0.859236858     -129.723002
9.382                0.858840812     -130.014854
9.383                0.858444845     -130.307422
9.384                0.858048975     -130.600704
9.385                0.857653223     -130.894699
9.386                0.857257607     -131.189408
9.387                0.856862149     -131.484827
9.388                0.856466868     -131.780957
9.389                0.856071784     -132.077796
9.39                 0.855676919     -132.375343
9.391                0.855282292     -132.673596
9.392                0.854887924     -132.972554
9.393                0.854493837     -133.272217
9.394                0.854100051     -133.572581
9.395                0.853706588     -133.873647
9.396                0.853313468     -134.175413
