! TOUCHSTONE file generated by CST DESIGN STUDIO
! Date and time: Tue Feb  4 16:41:36 2025
! Project name: C:\Work\MatlabApps\UnitCellOptimizationMatlab\CST\unitcell.cst
! Tree item: Tasks\Sweep1\SPara1\S-Parameters
! Header version: 2024
! Port assignment regex: !\s*Touchstone port\s*([0-9]+)\s*=\s*(CST MWS port|CST DES external port|CST DES block port)\s*(.+)\s* \(\"(.*)\"\)(\s*mode\s*([0-9]+))?.*
! Touchstone port assignment:
! Touchstone port 1 = CST DES external port 1 ("")
# GHz S MA R 50
9                    0.904409945     -87.7972885
9.001                0.904252458      -87.968874
9.002                 0.90409404     -88.1410466
9.003                0.903934689     -88.3138085
9.004                0.903774401     -88.4871616
9.005                0.903613173     -88.6611081
9.006                0.903451003     -88.8356499
9.007                0.903287886     -89.0107891
9.008                0.903123821     -89.1865277
9.009                0.902958804     -89.3628679
9.01                 0.902792832     -89.5398116
9.011                0.902625902     -89.7173609
9.012                0.902458011      -89.895518
9.013                0.902289157     -90.0742847
9.014                0.902119336     -90.2536634
9.015                0.901948545     -90.4336559
9.016                0.901776782     -90.6142643
9.017                0.901604044     -90.7954908
9.018                0.901430328     -90.9773374
9.019                0.901255631     -91.1598062
9.02                  0.90107995     -91.3428993
9.021                0.900903283     -91.5266187
9.022                0.900725627     -91.7109665
9.023                 0.90054698     -91.8959449
9.024                0.900367338     -92.0815558
9.025                0.900186699     -92.2678014
9.026                 0.90000506     -92.4546838
9.027                 0.89982242     -92.6422051
9.028                0.899638775     -92.8303673
9.029                0.899454123     -93.0191725
9.03                 0.899268461     -93.2086228
9.031                0.899081788     -93.3987203
9.032                  0.8988941     -93.5894671
9.033                0.898705396     -93.7808653
9.034                0.898515672      -93.972917
9.035                0.898324928     -94.1656242
9.036                 0.89813316     -94.3589891
9.037                0.897940366     -94.5530137
9.038                0.897746544     -94.7477001
9.039                0.897551693     -94.9430504
9.04                  0.89735581     -95.1390667
9.041                0.897158892     -95.3357511
9.042                0.896960939     -95.5331056
9.043                0.896761948     -95.7311324
9.044                0.896561918     -95.9298334
9.045                0.896360845     -96.1292109
9.046                 0.89615873     -96.3292668
9.047                0.895955569     -96.5300033
9.048                0.895751362     -96.7314223
9.049                0.895546106      -96.933526
9.05                   0.8953398     -97.1363165
9.051                0.895132443     -97.3397958
9.052                0.894924033     -97.5439659
9.053                0.894714569     -97.7488289
9.054                0.894504049     -97.9543869
9.055                0.894292473     -98.1606419
9.056                0.894079838     -98.3675959
9.057                0.893866143     -98.5752511
9.058                0.893651388     -98.7836094
9.059                0.893435572     -98.9926728
9.06                 0.893218694     -99.2024435
9.061                0.893000752     -99.4129233
9.062                0.892781745     -99.6241144
9.063                0.892561674     -99.8360187
9.064                0.892340537     -100.048638
9.065                0.892118334     -100.261975
9.066                0.891895064     -100.476031
9.067                0.891670726     -100.690808
9.068                0.891445321     -100.906309
9.069                0.891218847     -101.122534
9.07                 0.890991305     -101.339487
9.071                0.890762694     -101.557169
9.072                0.890533015     -101.775582
9.073                0.890302267     -101.994728
9.074                 0.89007045     -102.214609
9.075                0.889837565     -102.435227
9.076                0.889603611     -102.656583
9.077                0.889368589     -102.878681
9.078                  0.8891325     -103.101521
9.079                0.888895343     -103.325105
9.08                  0.88865712     -103.549436
9.081                0.888417831     -103.774515
9.082                0.888177476     -104.000344
9.083                0.887936057     -104.226925
9.084                0.887693575      -104.45426
9.085                0.887450031     -104.682351
9.086                0.887205425     -104.911199
9.087                0.886959759     -105.140806
9.088                0.886713034     -105.371175
9.089                0.886465252     -105.602306
9.09                 0.886216415     -105.834202
9.091                0.885966523     -106.066864
9.092                0.885715579     -106.300295
9.093                0.885463585     -106.534495
9.094                0.885210542     -106.769467
9.095                0.884956453     -107.005212
9.096                0.884701319     -107.241733
9.097                0.884445144      -107.47903
9.098                0.884187929     -107.717105
9.099                0.883929677      -107.95596
9.1                  0.883670391     -108.195597
9.101                0.883410073     -108.436018
9.102                0.883148726     -108.677223
9.103                0.882886354     -108.919214
9.104                 0.88262296     -109.161993
9.105                0.882358546     -109.405562
9.106                0.882093116     -109.649923
9.107                0.881826674     -109.895075
9.108                0.881559224     -110.141022
9.109                0.881290768     -110.387764
9.11                 0.881021311     -110.635303
9.111                0.880750858     -110.883641
9.112                0.880479411     -111.132779
9.113                0.880206976     -111.382718
9.114                0.879933558     -111.633459
9.115                0.879659159     -111.885005
9.116                0.879383786     -112.137355
9.117                0.879107444     -112.390513
9.118                0.878830136     -112.644478
9.119                0.878551869     -112.899253
9.12                 0.878272648     -113.154838
9.121                0.877992477     -113.411235
9.122                0.877711364     -113.668444
9.123                0.877429313     -113.926468
9.124                0.877146331     -114.185306
9.125                0.876862423     -114.444961
9.126                0.876577596     -114.705434
9.127                0.876291856     -114.966725
9.128                0.876005209     -115.228835
9.129                0.875717663     -115.491766
9.13                 0.875429225     -115.755519
9.131                0.875139901     -116.020094
9.132                0.874849698     -116.285492
9.133                0.874558624     -116.551715
9.134                0.874266686     -116.818763
9.135                0.873973892     -117.086637
9.136                0.873680251     -117.355338
9.137                0.873385769     -117.624866
9.138                0.873090455     -117.895223
9.139                0.872794318      -118.16641
9.14                 0.872497366     -118.438425
9.141                0.872199607     -118.711272
9.142                0.871901051      -118.98495
9.143                0.871601707     -119.259459
9.144                0.871301584     -119.534801
9.145                0.871000692     -119.810975
9.146                0.870699039     -120.087983
9.147                0.870396636     -120.365825
9.148                0.870093493       -120.6445
9.149                 0.86978962     -120.924011
9.15                 0.869485027     -121.204356
9.151                0.869179725     -121.485537
9.152                0.868873724     -121.767553
9.153                0.868567036     -122.050405
9.154                0.868259671     -122.334093
9.155                0.867951641     -122.618617
9.156                0.867642957     -122.903977
9.157                0.867333631     -123.190174
9.158                0.867023675     -123.477207
9.159                0.866713101     -123.765077
9.16                 0.866401921     -124.053783
9.161                0.866090147     -124.343325
9.162                0.865777792     -124.633704
9.163                0.865464869     -124.924918
9.164                0.865151391     -125.216969
9.165                0.864837371     -125.509855
9.166                0.864522823     -125.803576
9.167                0.864207759     -126.098132
9.168                0.863892195     -126.393523
9.169                0.863576143     -126.689747
9.17                 0.863259618     -126.986806
9.171                0.862942635     -127.284697
9.172                0.862625208     -127.583422
9.173                0.862307351     -127.882978
9.174                0.861989081     -128.183365
9.175                0.861670411     -128.484583
9.176                0.861351357     -128.786631
9.177                0.861031935     -129.089508
9.178                0.860712161     -129.393213
9.179                 0.86039205     -129.697745
9.18                  0.86007162     -130.003104
9.181                0.859750885     -130.309288
9.182                0.859429862     -130.616296
9.183                 0.85910857     -130.924127
9.184                0.858787023      -131.23278
9.185                 0.85846524     -131.542254
9.186                0.858143237     -131.852547
9.187                0.857821033     -132.163659
9.188                0.857498645     -132.475587
9.189                0.857176091      -132.78833
9.19                 0.856853388     -133.101888
9.191                0.856530556     -133.416257
9.192                0.856207613     -133.731437
9.193                0.855884577     -134.047427
9.194                0.855561467     -134.364223
9.195                0.855238303     -134.681825
9.196                0.854915103     -135.000231
9.197                0.854591887     -135.319439
9.198                0.854268674     -135.639447
9.199                0.853945485     -135.960252
9.2                  0.853622339     -136.281853
9.201                0.853299257     -136.604248
9.202                0.852976258     -136.927435
9.203                0.852653363      -137.25141
9.204                0.852330593     -137.576173
9.205                0.852007968      -137.90172
9.206                0.851685511     -138.228049
9.207                0.851363241     -138.555159
9.208                 0.85104118     -138.883045
9.209                0.850719349     -139.211706
9.21                 0.850397771     -139.541138
9.211                0.850076467      -139.87134
9.212                0.849755459     -140.202308
9.213                0.849434769     -140.534039
9.214                 0.84911442     -140.866531
9.215                0.848794433     -141.199781
9.216                0.848474832     -141.533785
9.217                0.848155638      -141.86854
9.218                0.847836876     -142.204043
9.219                0.847518568     -142.540292
9.22                 0.847200736     -142.877282
9.221                0.846883405      -143.21501
9.222                0.846566598     -143.553473
9.223                0.846250338     -143.892667
9.224                0.845934649     -144.232589
9.225                0.845619555     -144.573235
9.226                0.845305079     -144.914601
9.227                0.844991245     -145.256684
9.228                0.844678079     -145.599479
9.229                0.844365603     -145.942984
9.23                 0.844053842     -146.287193
9.231                0.843742821     -146.632103
9.232                0.843432563     -146.977709
9.233                0.843123095     -147.324008
9.234                 0.84281444     -147.670995
9.235                0.842506622     -148.018667
9.236                0.842199668     -148.367017
9.237                0.841893602     -148.716043
9.238                0.841588448      -149.06574
9.239                0.841284233     -149.416102
9.24                  0.84098098     -149.767126
9.241                0.840678716     -150.118806
9.242                0.840377465     -150.471138
9.243                0.840077253     -150.824118
9.244                0.839778106     -151.177739
9.245                0.839480047     -151.531998
9.246                0.839183104     -151.886888
9.247                0.838887301     -152.242406
9.248                0.838592664     -152.598545
9.249                0.838299218       -152.9553
9.25                 0.838006989     -153.312667
9.251                0.837716002      -153.67064
9.252                0.837426284     -154.029213
9.253                0.837137858     -154.388381
9.254                0.836850752     -154.748138
9.255                 0.83656499     -155.108479
9.256                0.836280598     -155.469398
9.257                0.835997602     -155.830889
9.258                0.835716027     -156.192946
9.259                0.835435898     -156.555563
9.26                 0.835157241     -156.918735
9.261                0.834880082     -157.282456
9.262                0.834604445     -157.646718
9.263                0.834330356     -158.011517
9.264                 0.83405784     -158.376846
9.265                0.833786922     -158.742699
9.266                0.833517627     -159.109069
9.267                0.833249981      -159.47595
9.268                0.832984009     -159.843335
9.269                0.832719734     -160.211218
9.27                 0.832457183     -160.579593
9.271                0.832196379     -160.948452
9.272                0.831937348      -161.31779
9.273                0.831680113     -161.687598
9.274                  0.8314247     -162.057872
9.275                0.831171132     -162.428603
9.276                0.830919434     -162.799784
9.277                 0.83066963      -163.17141
9.278                0.830421743     -163.543472
9.279                0.830175798     -163.915963
9.28                 0.829931817     -164.288877
9.281                0.829689825     -164.662207
9.282                0.829449845     -165.035944
9.283                0.829211899     -165.410082
9.284                0.828976012     -165.784614
9.285                0.828742205     -166.159531
9.286                0.828510501     -166.534827
9.287                0.828280924     -166.910495
9.288                0.828053494     -167.286525
9.289                0.827828235     -167.662912
9.29                 0.827605168     -168.039647
9.291                0.827384315     -168.416722
9.292                0.827165697     -168.794131
9.293                0.826949336     -169.171864
9.294                0.826735252     -169.549915
9.295                0.826523467     -169.928276
9.296                0.826314001     -170.306938
9.297                0.826106875     -170.685893
9.298                0.825902108     -171.065134
9.299                0.825699721     -171.444653
9.3                  0.825499733     -171.824442
9.301                0.825302164     -172.204492
9.302                0.825107033     -172.584796
9.303                0.824914358     -172.965345
9.304                0.824724159     -173.346131
9.305                0.824536453     -173.727146
9.306                 0.82435126     -174.108381
9.307                0.824168595     -174.489829
9.308                0.823988478     -174.871481
9.309                0.823810925     -175.253329
9.31                 0.823635954     -175.635364
9.311                 0.82346358     -176.017579
9.312                0.823293821     -176.399963
9.313                0.823126692      -176.78251
9.314                0.822962209     -177.165211
9.315                0.822800388     -177.548057
9.316                0.822641244      -177.93104
9.317                0.822484791     -178.314151
9.318                0.822331043     -178.697382
9.319                0.822180016     -179.080724
9.32                 0.822031723     -179.464169
9.321                0.821886177     -179.847707
9.322                0.821743392      179.768668
9.323                0.821603381      179.384967
9.324                0.821466155      179.001198
9.325                0.821331727      178.617369
9.326                 0.82120011      178.233489
9.327                0.821071313      177.849567
9.328                0.820945349      177.465611
9.329                0.820822229       177.08163
9.33                 0.820701962      176.697632
9.331                0.820584558      176.313627
9.332                0.820470028      175.929623
9.333                0.820358381      175.545628
9.334                0.820249625      175.161651
9.335                 0.82014377      174.777701
9.336                0.820040823      174.393787
9.337                0.819940793      174.009916
9.338                0.819843686      173.626099
9.339                0.819749511      173.242343
9.34                 0.819658273      172.858656
9.341                 0.81956998      172.475049
9.342                0.819484637      172.091528
9.343                 0.81940225      171.708104
9.344                0.819322824      171.324783
9.345                0.819246364      170.941576
9.346                0.819172875       170.55849
9.347                0.819102361      170.175534
9.348                0.819034825      169.792717
9.349                0.818970272      169.410047
9.35                 0.818908704      169.027532
9.351                0.818850123      168.645181
9.352                0.818794533      168.263002
9.353                0.818741935      167.881004
9.354                 0.81869233      167.499195
9.355                 0.81864572      167.117584
9.356                0.818602106      166.736179
9.357                0.818561488      166.354987
9.358                0.818523866      165.974018
9.359                 0.81848924       165.59328
9.36                 0.818457609       165.21278
9.361                0.818428972      164.832528
9.362                0.818403328       164.45253
9.363                0.818380676      164.072796
9.364                0.818361012      163.693333
9.365                0.818344335       163.31415
9.366                0.818330642      162.935254
9.367                0.818319929      162.556653
9.368                0.818312193      162.178355
9.369                0.818307431      161.800369
9.37                 0.818305637      161.422701
9.371                0.818306808      161.045361
9.372                0.818310939      160.668354
9.373                0.818318024       160.29169
9.374                0.818328058      159.915376
9.375                0.818341034       159.53942
9.376                0.818356947      159.163828
9.377                 0.81837579      158.788609
9.378                0.818397556      158.413771
9.379                0.818422238      158.039319
9.38                 0.818449829      157.665263
9.381                 0.81848032      157.291609
9.382                0.818513703      156.918364
9.383                 0.81854997      156.545536
9.384                0.818589112      156.173132
9.385                 0.81863112      155.801159
9.386                0.818675985      155.429624
9.387                0.818723697      155.058534
9.388                0.818774245      154.687896
9.389                 0.81882762      154.317717
9.39                 0.818883812      153.948004
9.391                0.818942808      153.578763
9.392                0.819004599      153.210002
9.393                0.819069173      152.841726
9.394                0.819136517      152.473943
9.395                0.819206621      152.106659
9.396                0.819279472      151.739881
