! TOUCHSTONE file generated by CST DESIGN STUDIO
! Date and time: Tue Feb  4 16:41:47 2025
! Project name: C:\Work\MatlabApps\UnitCellOptimizationMatlab\CST\unitcell.cst
! Tree item: Tasks\Sweep1\SPara1\S-Parameters
! Header version: 2024
! Port assignment regex: !\s*Touchstone port\s*([0-9]+)\s*=\s*(CST MWS port|CST DES external port|CST DES block port)\s*(.+)\s* \(\"(.*)\"\)(\s*mode\s*([0-9]+))?.*
! Touchstone port assignment:
! Touchstone port 1 = CST DES external port 1 ("")
# GHz S MA R 50
9                    0.961755195      -53.628544
9.001                0.961702514     -53.7032826
9.002                0.961649518     -53.7782054
9.003                0.961596207     -53.8533129
9.004                0.961542577     -53.9286057
9.005                0.961488627     -54.0040846
9.006                0.961434356       -54.07975
9.007                0.961379762     -54.1556026
9.008                0.961324843      -54.231643
9.009                0.961269596     -54.3078719
9.01                 0.961214022     -54.3842898
9.011                0.961158117     -54.4608975
9.012                0.961101879     -54.5376955
9.013                0.961045308     -54.6146844
9.014                0.960988401      -54.691865
9.015                0.960931157     -54.7692378
9.016                0.960873573     -54.8468035
9.017                0.960815648     -54.9245627
9.018                 0.96075738     -55.0025161
9.019                0.960698767     -55.0806643
9.02                 0.960639808      -55.159008
9.021                  0.9605805     -55.2375478
9.022                0.960520841     -55.3162844
9.023                 0.96046083     -55.3952185
9.024                0.960400465     -55.4743506
9.025                0.960339744     -55.5536815
9.026                0.960278665     -55.6332119
9.027                0.960217226     -55.7129423
9.028                0.960155426     -55.7928736
9.029                0.960093262     -55.8730062
9.03                 0.960030732      -55.953341
9.031                0.959967834     -56.0338786
9.032                0.959904568     -56.1146197
9.033                 0.95984093      -56.195565
9.034                0.959776918      -56.276715
9.035                0.959712531     -56.3580707
9.036                0.959647767     -56.4396325
9.037                0.959582624     -56.5214013
9.038                0.959517099     -56.6033778
9.039                0.959451191     -56.6855625
9.04                 0.959384898     -56.7679563
9.041                0.959318218     -56.8505598
9.042                0.959251149     -56.9333737
9.043                0.959183688     -57.0163988
9.044                0.959115834     -57.0996357
9.045                0.959047585     -57.1830853
9.046                0.958978938     -57.2667481
9.047                0.958909892     -57.3506249
9.048                0.958840445     -57.4347165
9.049                0.958770594     -57.5190235
9.05                 0.958700337     -57.6035468
9.051                0.958629673     -57.6882869
9.052                0.958558599     -57.7732448
9.053                0.958487113      -57.858421
9.054                0.958415213     -57.9438164
9.055                0.958342898     -58.0294316
9.056                0.958270164     -58.1152675
9.057                0.958197009     -58.2013248
9.058                0.958123432     -58.2876042
9.059                0.958049431     -58.3741065
9.06                 0.957975003     -58.4608324
9.061                0.957900146     -58.5477827
9.062                0.957824858     -58.6349582
9.063                0.957749137     -58.7223596
9.064                 0.95767298     -58.8099878
9.065                0.957596386     -58.8978434
9.066                0.957519352     -58.9859272
9.067                0.957441876     -59.0742401
9.068                0.957363956     -59.1627828
9.069                 0.95728559      -59.251556
9.07                 0.957206774     -59.3405607
9.071                0.957127509     -59.4297975
9.072                 0.95704779     -59.5192673
9.073                0.956967615     -59.6089708
9.074                0.956886983     -59.6989089
9.075                0.956805892     -59.7890823
9.076                0.956724338     -59.8794919
9.077                0.956642319     -59.9701385
9.078                0.956559835     -60.0610228
9.079                0.956476881     -60.1521458
9.08                 0.956393456     -60.2435081
9.081                0.956309557     -60.3351107
9.082                0.956225183     -60.4269543
9.083                 0.95614033     -60.5190398
9.084                0.956054997      -60.611368
9.085                0.955969181     -60.7039397
9.086                 0.95588288     -60.7967559
9.087                0.955796091     -60.8898172
9.088                0.955708813     -60.9831246
9.089                0.955621042     -61.0766789
9.09                 0.955532777     -61.1704809
9.091                0.955444014     -61.2645315
9.092                0.955354753     -61.3588316
9.093                0.955264989      -61.453382
9.094                0.955174722     -61.5481836
9.095                0.955083948     -61.6432372
9.096                0.954992665     -61.7385437
9.097                 0.95490087      -61.834104
9.098                0.954808562     -61.9299189
9.099                0.954715737     -62.0259894
9.1                  0.954622394     -62.1223163
9.101                 0.95452853     -62.2189004
9.102                0.954434142     -62.3157428
9.103                0.954339228     -62.4128442
9.104                0.954243786     -62.5102056
9.105                0.954147812     -62.6078278
9.106                0.954051305     -62.7057118
9.107                0.953954263     -62.8038584
9.108                0.953856681     -62.9022687
9.109                0.953758559     -63.0009434
9.11                 0.953659894     -63.0998835
9.111                0.953560682     -63.1990899
9.112                0.953460922     -63.2985635
9.113                0.953360611     -63.3983053
9.114                0.953259747     -63.4983162
9.115                0.953158326     -63.5985971
9.116                0.953056347     -63.6991489
9.117                0.952953806     -63.7999727
9.118                0.952850702     -63.9010692
9.119                0.952747032     -64.0024396
9.12                 0.952642793     -64.1040846
9.121                0.952537982     -64.2060054
9.122                0.952432597     -64.3082028
9.123                0.952326636     -64.4106777
9.124                0.952220096     -64.5134312
9.125                0.952112973     -64.6164643
9.126                0.952005267     -64.7197778
9.127                0.951896973     -64.8233727
9.128                 0.95178809     -64.9272502
9.129                0.951678614      -65.031411
9.13                 0.951568544     -65.1358562
9.131                0.951457876     -65.2405868
9.132                0.951346607     -65.3456038
9.133                0.951234737     -65.4509082
9.134                 0.95112226      -65.556501
9.135                0.951009176     -65.6623831
9.136                 0.95089548     -65.7685556
9.137                0.950781171     -65.8750195
9.138                0.950666247     -65.9817758
9.139                0.950550703     -66.0888255
9.14                 0.950434538     -66.1961696
9.141                0.950317748     -66.3038093
9.142                0.950200332     -66.4117454
9.143                0.950082286      -66.519979
9.144                0.949963608     -66.6285112
9.145                0.949844296      -66.737343
9.146                0.949724345     -66.8464754
9.147                0.949603754     -66.9559095
9.148                 0.94948252     -67.0656464
9.149                 0.94936064      -67.175687
9.15                 0.949238111     -67.2860325
9.151                0.949114931     -67.3966839
9.152                0.948991097     -67.5076423
9.153                0.948866607     -67.6189087
9.154                0.948741456     -67.7304842
9.155                0.948615644       -67.84237
9.156                0.948489166     -67.9545669
9.157                0.948362021     -68.0670763
9.158                0.948234205     -68.1798991
9.159                0.948105716     -68.2930364
9.16                 0.947976551     -68.4064894
9.161                0.947846707     -68.5202591
9.162                0.947716181     -68.6343467
9.163                0.947584971     -68.7487532
9.164                0.947453074     -68.8634797
9.165                0.947320486     -68.9785274
9.166                0.947187206     -69.0938974
9.167                0.947053231     -69.2095909
9.168                0.946918557     -69.3256088
9.169                0.946783182     -69.4419525
9.17                 0.946647103     -69.5586229
9.171                0.946510317     -69.6756213
9.172                0.946372822     -69.7929488
9.173                0.946234615     -69.9106065
9.174                0.946095692     -70.0285955
9.175                0.945956052     -70.1469172
9.176                0.945815691     -70.2655725
9.177                0.945674606     -70.3845627
9.178                0.945532795     -70.5038889
9.179                0.945390254     -70.6235523
9.18                 0.945246982     -70.7435541
9.181                0.945102975     -70.8638954
9.182                 0.94495823     -70.9845775
9.183                0.944812745     -71.1056015
9.184                0.944666517     -71.2269685
9.185                0.944519543     -71.3486799
9.186                0.944371819     -71.4707368
9.187                0.944223344     -71.5931404
9.188                0.944074115     -71.7158919
9.189                0.943924128     -71.8389925
9.19                 0.943773381     -71.9624434
9.191                0.943621872     -72.0862459
9.192                0.943469596     -72.2104012
9.193                0.943316552     -72.3349105
9.194                0.943162737      -72.459775
9.195                0.943008147     -72.5849959
9.196                 0.94285278     -72.7105746
9.197                0.942696634     -72.8365122
9.198                0.942539705       -72.96281
9.199                 0.94238199     -73.0894693
9.2                  0.942223487     -73.2164912
9.201                0.942064194     -73.3438771
9.202                0.941904106     -73.4716282
9.203                0.941743222     -73.5997458
9.204                0.941581538     -73.7282311
9.205                0.941419053     -73.8570855
9.206                0.941255762     -73.9863102
9.207                0.941091664     -74.1159064
9.208                0.940926754     -74.2458756
9.209                0.940761032     -74.3762189
9.21                 0.940594494     -74.5069376
9.211                0.940427136     -74.6380332
9.212                0.940258958     -74.7695067
9.213                0.940089954     -74.9013597
9.214                0.939920124     -75.0335933
9.215                0.939749464     -75.1662089
9.216                0.939577971     -75.2992079
9.217                0.939405643     -75.4325914
9.218                0.939232477      -75.566361
9.219                 0.93905847     -75.7005178
9.22                 0.938883619     -75.8350632
9.221                0.938707922     -75.9699986
9.222                0.938531377     -76.1053254
9.223                0.938353979     -76.2410447
9.224                0.938175728     -76.3771581
9.225                0.937996619     -76.5136668
9.226                0.937816651     -76.6505723
9.227                 0.93763582     -76.7878758
9.228                0.937454125     -76.9255787
9.229                0.937271561     -77.0636825
9.23                 0.937088128     -77.2021885
9.231                0.936903821      -77.341098
9.232                0.936718639     -77.4804125
9.233                0.936532579     -77.6201333
9.234                0.936345638     -77.7602618
9.235                0.936157814     -77.9007994
9.236                0.935969104     -78.0417475
9.237                0.935779506     -78.1831076
9.238                0.935589016      -78.324881
9.239                0.935397633      -78.467069
9.24                 0.935205353     -78.6096733
9.241                0.935012175      -78.752695
9.242                0.934818096     -78.8961358
9.243                0.934623113     -79.0399969
9.244                0.934427224     -79.1842799
9.245                0.934230427     -79.3289861
9.246                0.934032718      -79.474117
9.247                0.933834096      -79.619674
9.248                0.933634558     -79.7656585
9.249                0.933434102     -79.9120721
9.25                 0.933232724     -80.0589162
9.251                0.933030424     -80.2061921
9.252                0.932827198     -80.3539014
9.253                0.932623045     -80.5020456
9.254                0.932417961      -80.650626
9.255                0.932211945     -80.7996442
9.256                0.932004994     -80.9491016
9.257                0.931797105     -81.0989997
9.258                0.931588278       -81.24934
9.259                0.931378509     -81.4001239
9.26                 0.931167796      -81.551353
9.261                0.930956137     -81.7030287
9.262                 0.93074353     -81.8551525
9.263                0.930529972      -82.007726
9.264                0.930315462     -82.1607505
9.265                0.930099998     -82.3142277
9.266                0.929883577     -82.4681589
9.267                0.929666196     -82.6225458
9.268                0.929447855     -82.7773898
9.269                0.929228551     -82.9326924
9.27                 0.929008283     -83.0884552
9.271                0.928787047     -83.2446796
9.272                0.928564842     -83.4013673
9.273                0.928341667     -83.5585196
9.274                0.928117519     -83.7161382
9.275                0.927892396     -83.8742246
9.276                0.927666297     -84.0327803
9.277                0.927439219     -84.1918069
9.278                0.927211161     -84.3513058
9.279                0.926982122     -84.5112787
9.28                 0.926752099      -84.671727
9.281                 0.92652109     -84.8326524
9.282                0.926289094     -84.9940563
9.283                 0.92605611     -85.1559403
9.284                0.925822135      -85.318306
9.285                0.925587168      -85.481155
9.286                0.925351208     -85.6444887
9.287                0.925114252     -85.8083088
9.288                  0.9248763     -85.9726169
9.289                 0.92463735     -86.1374144
9.29                   0.9243974     -86.3027029
9.291                 0.92415645     -86.4684841
9.292                0.923914496     -86.6347595
9.293                 0.92367154     -86.8015307
9.294                0.923427578     -86.9687993
9.295                 0.92318261     -87.1365667
9.296                0.922936635     -87.3048347
9.297                 0.92268965     -87.4736048
9.298                0.922441656     -87.6428786
9.299                0.922192651     -87.8126576
9.3                  0.921942634     -87.9829435
9.301                0.921691604     -88.1537379
9.302                 0.92143956     -88.3250423
9.303                0.921186501     -88.4968583
9.304                0.920932426     -88.6691876
9.305                0.920677333     -88.8420317
9.306                0.920421224     -89.0153923
9.307                0.920164095     -89.1892708
9.308                0.919905948      -89.363669
9.309                 0.91964678     -89.5385884
9.31                 0.919386592     -89.7140307
9.311                0.919125383     -89.8899974
9.312                0.918863152     -90.0664901
9.313                0.918599899     -90.2435105
9.314                0.918335623     -90.4210601
9.315                0.918070324     -90.5991406
9.316                0.917804001     -90.7777535
9.317                0.917536654     -90.9569006
9.318                0.917268284     -91.1365833
9.319                0.916998888     -91.3168032
9.32                 0.916728469     -91.4975621
9.321                0.916457025     -91.6788615
9.322                0.916184556      -91.860703
9.323                0.915911062     -92.0430883
9.324                0.915636544     -92.2260188
9.325                0.915361001     -92.4094963
9.326                0.915084434     -92.5935224
9.327                0.914806842     -92.7780986
9.328                0.914528227     -92.9632266
9.329                0.914248588      -93.148908
9.33                 0.913967926     -93.3351443
9.331                0.913686242     -93.5219372
9.332                0.913403535     -93.7092884
9.333                0.913119807     -93.8971993
9.334                0.912835057     -94.0856716
9.335                0.912549288     -94.2747069
9.336                0.912262499     -94.4643068
9.337                0.911974691      -94.654473
9.338                0.911685866     -94.8452069
9.339                0.911396024     -95.0365102
9.34                 0.911105166     -95.2283845
9.341                0.910813294     -95.4208314
9.342                0.910520408     -95.6138525
9.343                 0.91022651     -95.8074493
9.344                0.909931601     -96.0016235
9.345                0.909635683     -96.1963766
9.346                0.909338757     -96.3917102
9.347                0.909040824     -96.5876259
9.348                0.908741887     -96.7841253
9.349                0.908441946     -96.9812099
9.35                 0.908141004     -97.1788814
9.351                0.907839062     -97.3771412
9.352                0.907536122      -97.575991
9.353                0.907232187     -97.7754323
9.354                0.906927259     -97.9754666
9.355                0.906621339     -98.1760956
9.356                0.906314429     -98.3773207
9.357                0.906006533     -98.5791436
9.358                0.905697653     -98.7815657
9.359                 0.90538779     -98.9845886
9.36                 0.905076948     -99.1882139
9.361                 0.90476513      -99.392443
9.362                0.904452337     -99.5972775
9.363                0.904138573     -99.8027189
9.364                0.903823841     -100.008769
9.365                0.903508144     -100.215428
9.366                0.903191484       -100.4227
9.367                0.902873866     -100.630584
9.368                0.902555292     -100.839082
9.369                0.902235766     -101.048197
9.37                 0.901915291     -101.257929
9.371                0.901593871     -101.468279
9.372                0.901271509     -101.679251
9.373                 0.90094821     -101.890843
9.374                0.900623976      -102.10306
9.375                0.900298813     -102.315901
9.376                0.899972724     -102.529368
9.377                0.899645713     -102.743462
9.378                0.899317784     -102.958186
9.379                0.898988943      -103.17354
9.38                 0.898659193     -103.389526
9.381                0.898328538     -103.606145
9.382                0.897996985     -103.823399
9.383                0.897664537     -104.041289
9.384                0.897331199     -104.259816
9.385                0.896996976     -104.478983
9.386                0.896661874     -104.698789
9.387                0.896325897     -104.919237
9.388                0.895989052     -105.140327
9.389                0.895651343     -105.362062
9.39                 0.895312775     -105.584443
9.391                0.894973356      -105.80747
9.392                0.894633089     -106.031145
9.393                0.894291983      -106.25547
9.394                0.893950041     -106.480446
9.395                0.893607271     -106.706073
9.396                0.893263679     -106.932354
