! TOUCHSTONE file generated by CST DESIGN STUDIO
! Date and time: Tue Feb  4 16:41:30 2025
! Project name: C:\Work\MatlabApps\UnitCellOptimizationMatlab\CST\unitcell.cst
! Tree item: Tasks\Sweep1\SPara1\S-Parameters
! Header version: 2024
! Port assignment regex: !\s*Touchstone port\s*([0-9]+)\s*=\s*(CST MWS port|CST DES external port|CST DES block port)\s*(.+)\s* \(\"(.*)\"\)(\s*mode\s*([0-9]+))?.*
! Touchstone port assignment:
! Touchstone port 1 = CST DES external port 1 ("")
# GHz S MA R 50
9                    0.833977299     -126.278117
9.001                0.833776169     -126.577682
9.002                 0.83357596     -126.878217
9.003                0.833376684     -127.179723
9.004                0.833178353       -127.4822
9.005                0.832980978     -127.785647
9.006                0.832784573     -128.090066
9.007                0.832589149     -128.395455
9.008                0.832394719     -128.701815
9.009                0.832201294     -129.009146
9.01                 0.832008888     -129.317447
9.011                0.831817513     -129.626719
9.012                0.831627182      -129.93696
9.013                0.831437907     -130.248171
9.014                0.831249702     -130.560352
9.015                0.831062579     -130.873501
9.016                0.830876551     -131.187618
9.017                0.830691632     -131.502703
9.018                0.830507835     -131.818755
9.019                0.830325173     -132.135773
9.02                  0.83014366     -132.453756
9.021                0.829963308     -132.772704
9.022                0.829784133     -133.092615
9.023                0.829606147     -133.413489
9.024                0.829429363     -133.735324
9.025                0.829253797     -134.058119
9.026                0.829079461     -134.381873
9.027                 0.82890637     -134.706585
9.028                0.828734538     -135.032254
9.029                0.828563978     -135.358877
9.03                 0.828394706     -135.686454
9.031                0.828226735     -136.014982
9.032                0.828060079      -136.34446
9.033                0.827894753     -136.674887
9.034                0.827730771     -137.006261
9.035                0.827568148     -137.338578
9.036                0.827406899     -137.671839
9.037                0.827247037      -138.00604
9.038                0.827088577      -138.34118
9.039                0.826931535     -138.677256
9.04                 0.826775924     -139.014266
9.041                 0.82662176     -139.352207
9.042                0.826469057     -139.691078
9.043                 0.82631783     -140.030875
9.044                0.826168095     -140.371596
9.045                0.826019865     -140.713239
9.046                0.825873155       -141.0558
9.047                0.825727982     -141.399277
9.048                0.825584359     -141.743666
9.049                0.825442302     -142.088965
9.05                 0.825301825     -142.435171
9.051                0.825162944      -142.78228
9.052                0.825025674     -143.130289
9.053                0.824890029     -143.479194
9.054                0.824756025     -143.828993
9.055                0.824623676     -144.179682
9.056                0.824492998     -144.531257
9.057                0.824364005     -144.883713
9.058                0.824236713     -145.237049
9.059                0.824111137     -145.591259
9.06                  0.82398729      -145.94634
9.061                 0.82386519     -146.302287
9.062                0.823744849     -146.659096
9.063                0.823626284     -147.016764
9.064                0.823509508     -147.375285
9.065                0.823394537     -147.734656
9.066                0.823281386     -148.094871
9.067                0.823170069     -148.455927
9.068                0.823060601     -148.817818
9.069                0.822952995      -149.18054
9.07                 0.822847268     -149.544088
9.071                0.822743434     -149.908456
9.072                0.822641506      -150.27364
9.073                0.822541499     -150.639635
9.074                0.822443427     -151.006435
9.075                0.822347305     -151.374035
9.076                0.822253147     -151.742429
9.077                0.822160966     -152.111613
9.078                0.822070777     -152.481579
9.079                0.821982593     -152.852324
9.08                 0.821896428      -153.22384
9.081                0.821812296     -153.596123
9.082                 0.82173021     -153.969165
9.083                0.821650183     -154.342961
9.084                0.821572229     -154.717505
9.085                0.821496362     -155.092791
9.086                0.821422593     -155.468812
9.087                0.821350936     -155.845561
9.088                0.821281404     -156.223033
9.089                0.821214009      -156.60122
9.09                 0.821148764     -156.980116
9.091                0.821085681     -157.359715
9.092                0.821024772     -157.740008
9.093                 0.82096605      -158.12099
9.094                0.820909525     -158.502653
9.095                 0.82085521      -158.88499
9.096                0.820803116     -159.267994
9.097                0.820753255     -159.651657
9.098                0.820705638     -160.035972
9.099                0.820660275     -160.420933
9.1                  0.820617178      -160.80653
9.101                0.820576357     -161.192756
9.102                0.820537823     -161.579605
9.103                0.820501585     -161.967067
9.104                0.820467653     -162.355135
9.105                0.820436039     -162.743801
9.106                 0.82040675     -163.133057
9.107                0.820379797     -163.522895
9.108                0.820355188     -163.913307
9.109                0.820332932     -164.304284
9.11                 0.820313039     -164.695817
9.111                0.820295516       -165.0879
9.112                0.820280372     -165.480522
9.113                0.820267615     -165.873675
9.114                0.820257252     -166.267351
9.115                 0.82024929     -166.661542
9.116                0.820243738     -167.056237
9.117                0.820240603     -167.451428
9.118                0.820239889     -167.847107
9.119                0.820241606     -168.243264
9.12                 0.820245757      -168.63989
9.121                 0.82025235     -169.036976
9.122                 0.82026139     -169.434513
9.123                0.820272882     -169.832491
9.124                0.820286832     -170.230902
9.125                0.820303244     -170.629735
9.126                0.820322122     -171.028981
9.127                0.820343472     -171.428631
9.128                0.820367297     -171.828676
9.129                  0.8203936     -172.229104
9.13                 0.820422385     -172.629908
9.131                0.820453656     -173.031076
9.132                0.820487414       -173.4326
9.133                0.820523663     -173.834469
9.134                0.820562404     -174.236674
9.135                0.820603639     -174.639204
9.136                 0.82064737     -175.042049
9.137                0.820693599       -175.4452
9.138                0.820742325     -175.848646
9.139                 0.82079355     -176.252378
9.14                 0.820847274     -176.656384
9.141                0.820903498     -177.060655
9.142                0.820962219     -177.465181
9.143                0.821023439     -177.869951
9.144                0.821087156     -178.274955
9.145                0.821153369     -178.680182
9.146                0.821222076     -179.085623
9.147                0.821293275     -179.491266
9.148                0.821366965     -179.897102
9.149                0.821443142      179.696881
9.15                 0.821521803      179.290692
9.151                0.821602946      178.884343
9.152                0.821686567      178.477843
9.153                0.821772662      178.071204
9.154                0.821861227      177.664435
9.155                0.821952257      177.257549
9.156                0.822045748      176.850554
9.157                0.822141694      176.443463
9.158                 0.82224009      176.036285
9.159                0.822340931      175.629031
9.16                 0.822444209      175.221712
9.161                0.822549919      174.814338
9.162                0.822658054      174.406921
9.163                0.822768607      173.999471
9.164                0.822881571      173.591998
9.165                0.822996937      173.184514
9.166                0.823114698      172.777028
9.167                0.823234846      172.369552
9.168                0.823357372      171.962097
9.169                0.823482267      171.554673
9.17                 0.823609522       171.14729
9.171                0.823739127       170.73996
9.172                0.823871072      170.332693
9.173                0.824005348      169.925499
9.174                0.824141944       169.51839
9.175                 0.82428085      169.111376
9.176                0.824422053      168.704467
9.177                0.824565544      168.297675
9.178                 0.82471131      167.891009
9.179                0.824859339       167.48448
9.18                 0.825009621      167.078099
9.181                0.825162141      166.671876
9.182                0.825316888      166.265821
9.183                0.825473848      165.859946
9.184                0.825633008       165.45426
9.185                0.825794356      165.048774
9.186                0.825957876      164.643498
9.187                0.826123556      164.238442
9.188                 0.82629138      163.833617
9.189                0.826461335      163.429032
9.19                 0.826633406      163.024699
9.191                0.826807577      162.620627
9.192                0.826983834      162.216826
9.193                0.827162162      161.813307
9.194                0.827342544      161.410079
9.195                0.827524964      161.007152
9.196                0.827709407      160.604536
9.197                0.827895857      160.202241
9.198                0.828084296      159.800277
9.199                0.828274708      159.398654
9.2                  0.828467077      158.997381
9.201                0.828661385      158.596467
9.202                0.828857614      158.195924
9.203                0.829055748      157.795759
9.204                0.829255769      157.395983
9.205                0.829457659      156.996604
9.206                0.829661399      156.597633
9.207                0.829866973      156.199079
9.208                0.830074361       155.80095
9.209                0.830283545      155.403256
9.21                 0.830494506      155.006006
9.211                0.830707225      154.609209
9.212                0.830921685      154.212874
9.213                0.831137865       153.81701
9.214                0.831355746      153.421626
9.215                 0.83157531       153.02673
9.216                0.831796537      152.632332
9.217                0.832019406      152.238439
9.218                  0.8322439       151.84506
9.219                0.832469997      151.452204
9.22                 0.832697678      151.059879
9.221                0.832926923      150.668093
9.222                0.833157712      150.276855
9.223                0.833390025      149.886173
9.224                0.833623842      149.496054
9.225                0.833859143      149.106508
9.226                0.834095906      148.717541
9.227                0.834334112      148.329161
9.228                0.834573741      147.941377
9.229                0.834814771      147.554196
9.23                 0.835057183      147.167625
9.231                0.835300955      146.781672
9.232                0.835546067      146.396345
9.233                0.835792498      146.011651
9.234                0.836040228      145.627596
9.235                0.836289236      145.244189
9.236                0.836539502      144.861436
9.237                0.836791003      144.479344
9.238                 0.83704372       144.09792
9.239                0.837297632      143.717171
9.24                 0.837552718      143.337104
9.241                0.837808958      142.957725
9.242                 0.83806633      142.579041
9.243                0.838324814      142.201059
9.244                0.838584389      141.823784
9.245                0.838845034      141.447223
9.246                0.839106729      141.071382
9.247                0.839369453      140.696267
9.248                0.839633186      140.321885
9.249                0.839897907      139.948241
9.25                 0.840163595      139.575341
9.251                0.840430229       139.20319
9.252                0.840697791      138.831796
9.253                0.840966258      138.461162
9.254                0.841235611      138.091294
9.255                 0.84150583      137.722199
9.256                0.841776894      137.353881
9.257                0.842048783      136.986345
9.258                0.842321477      136.619597
9.259                0.842594957      136.253641
9.26                 0.842869202      135.888483
9.261                0.843144192      135.524127
9.262                0.843419908      135.160578
9.263                0.843696331      134.797841
9.264                 0.84397344       134.43592
9.265                0.844251216       134.07482
9.266                0.844529641      133.714545
9.267                0.844808694        133.3551
9.268                0.845088357      132.996489
9.269                 0.84536861      132.638715
9.27                 0.845649435      132.281784
9.271                0.845930813      131.925698
9.272                0.846212725      131.570463
9.273                0.846495153      131.216081
9.274                0.846778078      130.862556
9.275                0.847061482      130.509892
9.276                0.847345347      130.158093
9.277                0.847629655      129.807162
9.278                0.847914387      129.457102
9.279                0.848199527      129.107916
9.28                 0.848485056      128.759609
9.281                0.848770958      128.412182
9.282                0.849057213      128.065639
9.283                0.849343806      127.719983
9.284                 0.84963072      127.375217
9.285                0.849917937      127.031343
9.286                 0.85020544      126.688364
9.287                0.850493213      126.346283
9.288                 0.85078124      126.005103
9.289                0.851069504      125.664826
9.29                 0.851357989      125.325453
9.291                0.851646678      124.986988
9.292                0.851935557      124.649433
9.293                0.852224609       124.31279
9.294                0.852513819      123.977061
9.295                0.852803171      123.642248
9.296                 0.85309265      123.308353
9.297                 0.85338224      122.975377
9.298                0.853671928      122.643323
9.299                0.853961699      122.312192
9.3                  0.854251536      121.981986
9.301                0.854541427      121.652706
9.302                0.854831357      121.324354
9.303                0.855121312      120.996932
9.304                0.855411278       120.67044
9.305                 0.85570124       120.34488
9.306                0.855991186      120.020253
9.307                0.856281102       119.69656
9.308                0.856570975      119.373802
9.309                0.856860791      119.051981
9.31                 0.857150537      118.731097
9.311                0.857440202      118.411151
9.312                0.857729771      118.092144
9.313                0.858019233      117.774076
9.314                0.858308576      117.456949
9.315                0.858597787      117.140762
9.316                0.858886854      116.825517
9.317                0.859175765      116.511214
9.318                0.859464509      116.197853
9.319                0.859753075      115.885434
9.32                  0.86004145      115.573959
9.321                0.860329625      115.263427
9.322                0.860617587      114.953838
9.323                0.860905326      114.645193
9.324                0.861192832      114.337491
9.325                0.861480093      114.030733
9.326                  0.8617671      113.724918
9.327                0.862053843      113.420047
9.328                0.862340311      113.116119
9.329                0.862626494      112.813135
9.33                 0.862912384      112.511093
9.331                0.863197969      112.209993
9.332                0.863483241      111.909836
9.333                0.863768192      111.610621
9.334                 0.86405281      111.312346
9.335                0.864337089      111.015013
9.336                0.864621018       110.71862
9.337                 0.86490459      110.423166
9.338                0.865187796      110.128651
9.339                0.865470627      109.835075
9.34                 0.865753076      109.542436
9.341                0.866035135      109.250734
9.342                0.866316795      108.959967
9.343                0.866598049      108.670136
9.344                0.866878889      108.381239
9.345                0.867159308      108.093274
9.346                0.867439299      107.806242
9.347                0.867718855      107.520141
9.348                0.867997968       107.23497
9.349                0.868276632      106.950727
9.35                  0.86855484      106.667412
9.351                0.868832586      106.385024
9.352                0.869109863      106.103561
9.353                0.869386664      105.823022
9.354                0.869662985      105.543405
9.355                0.869938818      105.264709
9.356                0.870214157      104.986934
9.357                0.870488998      104.710077
9.358                0.870763335      104.434136
9.359                0.871037161      104.159111
9.36                 0.871310472         103.885
9.361                0.871583262      103.611802
9.362                0.871855526      103.339514
9.363                 0.87212726      103.068135
9.364                0.872398458      102.797664
9.365                0.872669116      102.528099
9.366                0.872939229      102.259438
9.367                0.873208792      101.991679
9.368                0.873477802      101.724821
9.369                0.873746254      101.458861
9.37                 0.874014143      101.193799
9.371                0.874281466      100.929631
9.372                0.874548219      100.666357
9.373                0.874814398      100.403974
9.374                0.875079999      100.142481
9.375                0.875345019      99.8818747
9.376                0.875609454      99.6221541
9.377                0.875873301      99.3633171
9.378                0.876136556      99.1053615
9.379                0.876399217      98.8482854
9.38                  0.87666128      98.5920865
9.381                0.876922743       98.336763
9.382                0.877183602      98.0823126
9.383                0.877443855      97.8287331
9.384                0.877703498      97.5760226
9.385                0.877962531      97.3241788
9.386                0.878220949      97.0731995
9.387                0.878478751      96.8230824
9.388                0.878735934      96.5738255
9.389                0.878992496      96.3254264
9.39                 0.879248435      96.0778829
9.391                0.879503749      95.8311927
9.392                0.879758436      95.5853535
9.393                0.880012494       95.340363
9.394                0.880265922      95.0962189
9.395                0.880518717      94.8529189
9.396                0.880770878      94.6104605
