! TOUCHSTONE file generated by CST DESIGN STUDIO
! Date and time: Tue Feb  4 13:42:59 2025
! Project name: C:\Work\MatlabApps\UnitCellOptimizationMatlab\CST\unitcell.cst
! Tree item: Tasks\Sweep1\SPara1\S-Parameters
! Header version: 2024
! Port assignment regex: !\s*Touchstone port\s*([0-9]+)\s*=\s*(CST MWS port|CST DES external port|CST DES block port)\s*(.+)\s* \(\"(.*)\"\)(\s*mode\s*([0-9]+))?.*
! Touchstone port assignment:
! Touchstone port 1 = CST DES external port 1 ("")
# GHz S MA R 50
9                    0.939292287     -73.1819631
9.001                0.939061729     -73.3099403
9.002                0.938830092     -73.4382802
9.003                0.938597373      -73.566984
9.004                0.938363568      -73.696053
9.005                0.938128674     -73.8254886
9.006                0.937892688      -73.955292
9.007                0.937655606     -74.0854645
9.008                0.937417425     -74.2160076
9.009                0.937178143     -74.3469224
9.01                 0.936937754     -74.4782103
9.011                0.936696257     -74.6098727
9.012                0.936453649     -74.7419108
9.013                0.936209925     -74.8743261
9.014                0.935965082     -75.0071198
9.015                0.935719118     -75.1402934
9.016                0.935472029     -75.2738481
9.017                0.935223811     -75.4077854
9.018                0.934974463     -75.5421066
9.019                 0.93472398      -75.676813
9.02                 0.934472359     -75.8119061
9.021                0.934219598     -75.9473872
9.022                0.933965693     -76.0832578
9.023                0.933710641     -76.2195191
9.024                0.933454438     -76.3561726
9.025                0.933197083     -76.4932197
9.026                0.932938571     -76.6306617
9.027                  0.9326789     -76.7685002
9.028                0.932418067     -76.9067365
9.029                0.932156069     -77.0453721
9.03                 0.931892902     -77.1844083
9.031                0.931628564     -77.3238465
9.032                0.931363051     -77.4636883
9.033                0.931096362     -77.6039351
9.034                0.930828492     -77.7445882
9.035                 0.93055944     -77.8856492
9.036                0.930289202     -78.0271195
9.037                0.930017776     -78.1690006
9.038                0.929745158     -78.3112939
9.039                0.929471345     -78.4540008
9.04                 0.929196336      -78.597123
9.041                0.928920128     -78.7406618
9.042                0.928642717     -78.8846187
9.043                0.928364101     -79.0289952
9.044                0.928084278     -79.1737928
9.045                0.927803244     -79.3190131
9.046                0.927520998     -79.4646574
9.047                0.927237536     -79.6107274
9.048                0.926952856     -79.7572245
9.049                0.926666957     -79.9041503
9.05                 0.926379834     -80.0515063
9.051                0.926091487      -80.199294
9.052                0.925801912     -80.3475149
9.053                0.925511107     -80.4961706
9.054                 0.92521907     -80.6452626
9.055                0.924925799     -80.7947926
9.056                0.924631292      -80.944762
9.057                0.924335546     -81.0951723
9.058                0.924038559     -81.2460253
9.059                0.923740329     -81.3973224
9.06                 0.923440854     -81.5490652
9.061                0.923140133     -81.7012553
9.062                0.922838163     -81.8538944
9.063                0.922534943     -82.0069839
9.064                 0.92223047     -82.1605255
9.065                0.921924743     -82.3145208
9.066                 0.92161776     -82.4689714
9.067                0.921309519     -82.6238789
9.068                 0.92100002      -82.779245
9.069                 0.92068926     -82.9350712
9.07                 0.920377238     -83.0913592
9.071                0.920063952     -83.2481107
9.072                0.919749402     -83.4053273
9.073                0.919433585     -83.5630106
9.074                0.919116501     -83.7211623
9.075                0.918798149     -83.8797841
9.076                0.918478528     -84.0388776
9.077                0.918157636     -84.1984445
9.078                0.917835472     -84.3584864
9.079                0.917512037     -84.5190052
9.08                 0.917187328     -84.6800023
9.081                0.916861346     -84.8414797
9.082                 0.91653409     -85.0034389
9.083                0.916205559     -85.1658816
9.084                0.915875753     -85.3288096
9.085                0.915544672     -85.4922246
9.086                0.915212315     -85.6561284
9.087                0.914878683     -85.8205226
9.088                0.914543775      -85.985409
9.089                0.914207592     -86.1507894
9.09                 0.913870134     -86.3166655
9.091                  0.9135314      -86.483039
9.092                0.913191393     -86.6499118
9.093                0.912850111     -86.8172856
9.094                0.912507557     -86.9851621
9.095                 0.91216373     -87.1535432
9.096                0.911818632     -87.3224307
9.097                0.911472264     -87.4918264
9.098                0.911124626      -87.661732
9.099                0.910775722     -87.8321494
9.1                  0.910425551     -88.0030804
9.101                0.910074117     -88.1745269
9.102                 0.90972142     -88.3464906
9.103                0.909367462     -88.5189735
9.104                0.909012247     -88.6919773
9.105                0.908655777     -88.8655039
9.106                0.908298053     -89.0395553
9.107                0.907939079     -89.2141332
9.108                0.907578858     -89.3892395
9.109                0.907217393     -89.5648762
9.11                 0.906854688     -89.7410452
9.111                0.906490746     -89.9177483
9.112                0.906125571     -90.0949874
9.113                0.905759167     -90.2727645
9.114                 0.90539154     -90.4510816
9.115                0.905022692     -90.6299405
9.116                 0.90465263     -90.8093433
9.117                0.904281359     -90.9892918
9.118                0.903908884      -91.169788
9.119                0.903535211      -91.350834
9.12                 0.903160346     -91.5324317
9.121                0.902784296      -91.714583
9.122                0.902407068     -91.8972901
9.123                0.902028669     -92.0805549
9.124                0.901649107     -92.2643795
9.125                 0.90126839     -92.4487659
9.126                0.900886526     -92.6337161
9.127                0.900503525     -92.8192322
9.128                0.900119395     -93.0053162
9.129                0.899734147     -93.1919703
9.13                 0.899347791     -93.3791966
9.131                0.898960339      -93.566997
9.132                0.898571801     -93.7553738
9.133                 0.89818219     -93.9443291
9.134                0.897791519      -94.133865
9.135                0.897399801     -94.3239837
9.136                0.897007051     -94.5146872
9.137                0.896613282     -94.7059778
9.138                0.896218512     -94.8978577
9.139                0.895822756      -95.090329
9.14                 0.895426032     -95.2833939
9.141                0.895028358     -95.4770547
9.142                0.894629753     -95.6713135
9.143                0.894230237     -95.8661726
9.144                0.893829832     -96.0616343
9.145                 0.89342856     -96.2577008
9.146                0.893026445     -96.4543743
9.147                0.892623512     -96.6516571
9.148                0.892219786     -96.8495514
9.149                0.891815296     -97.0480597
9.15                  0.89141007      -97.247184
9.151                0.891004139     -97.4469268
9.152                0.890597537     -97.6472902
9.153                0.890190296     -97.8482766
9.154                0.889782453     -98.0498882
9.155                0.889374047     -98.2521274
9.156                0.888965118     -98.4549963
9.157                0.888555709     -98.6584972
9.158                0.888145864     -98.8626324
9.159                0.887735631      -99.067404
9.16                 0.887325062     -99.2728142
9.161                 0.88691421     -99.4788652
9.162                 0.88650313      -99.685559
9.163                0.886091885     -99.8928978
9.164                0.885680537     -100.100883
9.165                0.885269153     -100.309518
9.166                0.884857807     -100.518803
9.167                0.884446573      -100.72874
9.168                0.884035533     -100.939332
9.169                0.883624773     -101.150578
9.17                 0.883214383     -101.362482
9.171                0.882804461     -101.575043
9.172                0.882395109     -101.788264
9.173                0.881986437     -102.002144
9.174                0.881578562     -102.216683
9.175                0.881171606     -102.431883
9.176                0.880765701     -102.647743
9.177                0.880360987     -102.864262
9.178                0.879957611     -103.081439
9.179                0.879555731     -103.299272
9.18                 0.879155514     -103.517759
9.181                0.878757136     -103.736897
9.182                0.878360785     -103.956681
9.183                 0.87796666     -104.177109
9.184                0.877574968     -104.398172
9.185                0.877185932     -104.619865
9.186                0.876799782     -104.842178
9.187                0.876416762     -105.065103
9.188                0.876037126     -105.288626
9.189                0.875661138     -105.512734
9.19                 0.875289073     -105.737412
9.191                 0.87492121     -105.962639
9.192                0.874557838     -106.188396
9.193                0.874199247     -106.414657
9.194                0.873845725     -106.641393
9.195                0.873497556     -106.868573
9.196                0.873155012     -107.096159
9.197                0.872818346     -107.324109
9.198                 0.87248778     -107.552377
9.199                0.872163497      -107.78091
9.2                  0.871845624     -108.009648
9.201                0.871534218     -108.238526
9.202                0.871229243     -108.467473
9.203                0.870930546     -108.696409
9.204                0.870637837      -108.92525
9.205                0.870350651     -109.153905
9.206                0.870068322     -109.382277
9.207                0.869789946     -109.610269
9.208                0.869514351     -109.837778
9.209                0.869240059     -110.064706
9.21                 0.868965264      -110.29096
9.211                0.868687812     -110.516455
9.212                0.868405193     -110.741121
9.213                0.868114556     -110.964909
9.214                0.867812743     -111.187796
9.215                0.867496347     -111.409795
9.216                0.867161806     -111.630954
9.217                0.866805519     -111.851368
9.218                0.866423996     -112.071175
9.219                0.866014017     -112.290564
9.22                 0.865572808     -112.509765
9.221                0.865098203     -112.729047
9.222                0.864588787     -112.948711
9.223                0.864043995     -113.169073
9.224                0.863464167     -113.390456
9.225                0.862850539     -113.613173
9.226                0.862205176     -113.837515
9.227                0.861530862     -114.063737
9.228                0.860830938     -114.292055
9.229                0.860109132     -114.522633
9.23                 0.859369373     -114.755588
9.231                0.858615616     -114.990986
9.232                0.857851699     -115.228847
9.233                0.857081215     -115.469152
9.234                0.856307428     -115.711848
9.235                0.855533217     -115.956855
9.236                0.854761049     -116.204076
9.237                 0.85399298     -116.453398
9.238                0.853230667     -116.704703
9.239                0.852475401      -116.95787
9.24                 0.851728147     -117.212778
9.241                0.850989578     -117.469313
9.242                0.850260125     -117.727364
9.243                0.849540014     -117.986828
9.244                0.848829305     -118.247613
9.245                0.848127922     -118.509631
9.246                 0.84743569     -118.772805
9.247                0.846752354     -119.037067
9.248                0.846077602     -119.302355
9.249                0.845411084     -119.568615
9.25                 0.844752424     -119.835799
9.251                0.844101235     -120.103867
9.252                0.843457124     -120.372781
9.253                0.842819702      -120.64251
9.254                0.842188586     -120.913029
9.255                0.841563407     -121.184314
9.256                0.840943809     -121.456345
9.257                0.840329453     -121.729106
9.258                0.839720018     -122.002582
9.259                0.839115199     -122.276763
9.26                 0.838514713     -122.551637
9.261                0.837918291     -122.827198
9.262                0.837325685     -123.103437
9.263                0.836736661      -123.38035
9.264                0.836151004     -123.657933
9.265                0.835568514     -123.936181
9.266                0.834989005     -124.215093
9.267                0.834412305     -124.494666
9.268                0.833838257     -124.774898
9.269                0.833266714     -125.055789
9.27                 0.832697544     -125.337338
9.271                0.832130622     -125.619544
9.272                0.831565835     -125.902409
9.273                0.831003081     -126.185931
9.274                0.830442264     -126.470112
9.275                0.829883297     -126.754952
9.276                0.829326103     -127.040451
9.277                0.828770609     -127.326611
9.278                0.828216749     -127.613432
9.279                0.827664467     -127.900915
9.28                 0.827113707      -128.18906
9.281                0.826564422      -128.47787
9.282                0.826016569     -128.767343
9.283                0.825470111     -129.057483
9.284                0.824925012     -129.348288
9.285                0.824381243      -129.63976
9.286                0.823838778     -129.931901
9.287                0.823297593     -130.224709
9.288                 0.82275767     -130.518187
9.289                0.822218992     -130.812334
9.29                 0.821681545     -131.107151
9.291                0.821145317     -131.402639
9.292                0.820610301     -131.698797
9.293                 0.82007649     -131.995628
9.294                0.819543879     -132.293129
9.295                0.819012468     -132.591303
9.296                0.818482255     -132.890148
9.297                0.817953242     -133.189665
9.298                0.817425432     -133.489854
9.299                 0.81689883     -133.790715
9.3                  0.816373442     -134.092248
9.301                0.815849277     -134.394452
9.302                0.815326342     -134.697327
9.303                0.814804648     -135.000873
9.304                0.814284206      -135.30509
9.305                0.813765029     -135.609976
9.306                 0.81324713     -135.915531
9.307                0.812730524     -136.221755
9.308                0.812215225     -136.528646
9.309                0.811701251     -136.836205
9.31                 0.811188617      -137.14443
9.311                0.810677342     -137.453319
9.312                0.810167445     -137.762874
9.313                0.809658943     -138.073091
9.314                0.809151858      -138.38397
9.315                 0.80864621      -138.69551
9.316                 0.80814202     -139.007709
9.317                0.807639308     -139.320566
9.318                0.807138099      -139.63408
9.319                0.806638413     -139.948249
9.32                 0.806140275     -140.263072
9.321                0.805643707     -140.578547
9.322                0.805148734     -140.894672
9.323                0.804655381     -141.211446
9.324                0.804163671     -141.528866
9.325                 0.80367363     -141.846931
9.326                0.803185284     -142.165639
9.327                0.802698658     -142.484988
9.328                0.802213779     -142.804976
9.329                0.801730673     -143.125601
9.33                 0.801249366      -143.44686
9.331                0.800769885     -143.768751
9.332                0.800292258     -144.091272
9.333                0.799816512      -144.41442
9.334                0.799342675     -144.738194
9.335                0.798870774     -145.062589
9.336                0.798400838     -145.387605
9.337                0.797932894     -145.713238
9.338                0.797466972     -146.039485
9.339                0.797003099     -146.366344
9.34                 0.796541305     -146.693812
9.341                0.796081617     -147.021886
9.342                0.795624066     -147.350563
9.343                0.795168679      -147.67984
9.344                0.794715487     -148.009713
9.345                0.794264518      -148.34018
9.346                0.793815801     -148.671238
9.347                0.793369367     -149.002883
9.348                0.792925244     -149.335112
9.349                0.792483462     -149.667921
9.35                 0.792044051     -150.001307
9.351                 0.79160704     -150.335266
9.352                0.791172458     -150.669796
9.353                0.790740336     -151.004891
9.354                0.790310703      -151.34055
9.355                0.789883588     -151.676766
9.356                0.789459022     -152.013538
9.357                0.789037033     -152.350861
9.358                0.788617652     -152.688731
9.359                0.788200907     -153.027143
9.36                 0.787786829     -153.366095
9.361                0.787375447     -153.705582
9.362                0.786966791     -154.045599
9.363                0.786560889     -154.386142
9.364                0.786157771     -154.727208
9.365                0.785757467     -155.068792
9.366                0.785360004     -155.410888
9.367                0.784965414     -155.753494
9.368                0.784573723     -156.096604
9.369                0.784184962     -156.440213
9.37                 0.783799159     -156.784318
9.371                0.783416342     -157.128913
9.372                 0.78303654     -157.473993
9.373                0.782659782     -157.819554
9.374                0.782286096     -158.165591
9.375                0.781915509     -158.512099
9.376                0.781548049     -158.859073
9.377                0.781183745     -159.206507
9.378                0.780822624     -159.554398
9.379                0.780464714     -159.902739
9.38                 0.780110041     -160.251525
9.381                0.779758632     -160.600752
9.382                0.779410516     -160.950413
9.383                0.779065717     -161.300504
9.384                0.778724263     -161.651019
9.385                 0.77838618     -162.001952
9.386                0.778051493     -162.353299
9.387                 0.77772023     -162.705052
9.388                0.777392415     -163.057208
9.389                0.777068073      -163.40976
9.39                  0.77674723     -163.762702
9.391                 0.77642991     -164.116029
9.392                0.776116139     -164.469735
9.393                 0.77580594     -164.823814
9.394                0.775499337      -165.17826
9.395                0.775196355     -165.533067
9.396                0.774897016     -165.888229
