! TOUCHSTONE file generated by CST DESIGN STUDIO
! Date and time: Tue Feb  4 13:43:01 2025
! Project name: C:\Work\MatlabApps\UnitCellOptimizationMatlab\CST\unitcell.cst
! Tree item: Tasks\Sweep1\SPara1\S-Parameters
! Header version: 2024
! Port assignment regex: !\s*Touchstone port\s*([0-9]+)\s*=\s*(CST MWS port|CST DES external port|CST DES block port)\s*(.+)\s* \(\"(.*)\"\)(\s*mode\s*([0-9]+))?.*
! Touchstone port assignment:
! Touchstone port 1 = CST DES external port 1 ("")
# GHz S MA R 50
9                    0.948456279     -66.5930369
9.001                0.948272454     -66.7014345
9.002                0.948087673     -66.8101166
9.003                0.947901935     -66.9190843
9.004                0.947715237     -67.0283384
9.005                0.947527575     -67.1378799
9.006                0.947338949     -67.2477099
9.007                0.947149355     -67.3578292
9.008                 0.94695879     -67.4682388
9.009                0.946767252     -67.5789398
9.01                 0.946574739     -67.6899331
9.011                0.946381247     -67.8012196
9.012                0.946186775     -67.9128005
9.013                 0.94599132     -68.0246766
9.014                0.945794879     -68.1368489
9.015                 0.94559745     -68.2493186
9.016                 0.94539903     -68.3620865
9.017                0.945199617     -68.4751537
9.018                0.944999207     -68.5885212
9.019                  0.9447978       -68.70219
9.02                 0.944595391     -68.8161611
9.021                 0.94439198     -68.9304356
9.022                0.944187562     -69.0450145
9.023                0.943982136     -69.1598988
9.024                0.943775698     -69.2750896
9.025                0.943568248     -69.3905878
9.026                0.943359781     -69.5063947
9.027                0.943150296     -69.6225111
9.028                 0.94293979     -69.7389382
9.029                 0.94272826     -69.8556769
9.03                 0.942515704     -69.9727285
9.031                 0.94230212     -70.0900939
9.032                0.942087505     -70.2077742
9.033                0.941871857     -70.3257704
9.034                0.941655173     -70.4440838
9.035                 0.94143745     -70.5627153
9.036                0.941218686      -70.681666
9.037                 0.94099888      -70.800937
9.038                0.940778027     -70.9205295
9.039                0.940556126     -71.0404444
9.04                 0.940333175      -71.160683
9.041                0.940109171     -71.2812463
9.042                0.939884111     -71.4021355
9.043                0.939657993     -71.5233516
9.044                0.939430815     -71.6448957
9.045                0.939202574     -71.7667691
9.046                0.938973268     -71.8889728
9.047                0.938742895      -72.011508
9.048                0.938511451     -72.1343758
9.049                0.938278935     -72.2575773
9.05                 0.938045345     -72.3811137
9.051                0.937810677     -72.5049861
9.052                 0.93757493     -72.6291957
9.053                0.937338102     -72.7537437
9.054                0.937100189     -72.8786312
9.055                0.936861189     -73.0038593
9.056                0.936621101     -73.1294294
9.057                0.936379922     -73.2553424
9.058                0.936137649     -73.3815997
9.059                0.935894281     -73.5082023
9.06                 0.935649814     -73.6351516
9.061                0.935404247     -73.7624486
9.062                0.935157578     -73.8900946
9.063                0.934909804     -74.0180907
9.064                0.934660922     -74.1464383
9.065                0.934410932     -74.2751384
9.066                0.934159829     -74.4041924
9.067                0.933907613     -74.5336014
9.068                0.933654281     -74.6633666
9.069                0.933399831     -74.7934893
9.07                  0.93314426     -74.9239708
9.071                0.932887567     -75.0548122
9.072                0.932629749     -75.1860147
9.073                0.932370804     -75.3175798
9.074                 0.93211073     -75.4495085
9.075                0.931849525     -75.5818021
9.076                0.931587186      -75.714462
9.077                0.931323712     -75.8474893
9.078                0.931059101     -75.9808854
9.079                 0.93079335     -76.1146514
9.08                 0.930526458     -76.2487888
9.081                0.930258422     -76.3832987
9.082                 0.92998924     -76.5181825
9.083                 0.92971891     -76.6534414
9.084                0.929447431     -76.7890767
9.085                  0.9291748     -76.9250898
9.086                0.928901015     -77.0614819
9.087                0.928626075     -77.1982544
9.088                0.928349977     -77.3354085
9.089                 0.92807272     -77.4729456
9.09                 0.927794302      -77.610867
9.091                 0.92751472      -77.749174
9.092                0.927233973     -77.8878679
9.093                0.926952059     -78.0269501
9.094                0.926668976      -78.166422
9.095                0.926384723     -78.3062848
9.096                0.926099297     -78.4465399
9.097                0.925812697     -78.5871887
9.098                0.925524921     -78.7282325
9.099                0.925235968     -78.8696727
9.1                  0.924945835     -79.0115107
9.101                0.924654521     -79.1537477
9.102                0.924362024     -79.2963852
9.103                0.924068343     -79.4394246
9.104                0.923773476     -79.5828672
9.105                0.923477421     -79.7267145
9.106                0.923180177     -79.8709678
9.107                0.922881743     -80.0156285
9.108                0.922582115      -80.160698
9.109                0.922281295     -80.3061777
9.11                 0.921979278     -80.4520691
9.111                0.921676065     -80.5983734
9.112                0.921371654     -80.7450923
9.113                0.921066043      -80.892227
9.114                0.920759231      -81.039779
9.115                0.920451217     -81.1877497
9.116                0.920141999     -81.3361406
9.117                0.919831576     -81.4849531
9.118                0.919519947     -81.6341886
9.119                 0.91920711     -81.7838487
9.12                 0.918893065     -81.9339346
9.121                0.918577809     -82.0844479
9.122                0.918261342     -82.2353901
9.123                0.917943663     -82.3867626
9.124                0.917624771     -82.5385668
9.125                0.917304664     -82.6908043
9.126                0.916983342     -82.8434765
9.127                0.916660803     -82.9965848
9.128                0.916337047     -83.1501309
9.129                0.916012072     -83.3041161
9.13                 0.915685878      -83.458542
9.131                0.915358464       -83.61341
9.132                0.915029829     -83.7687216
9.133                0.914699971     -83.9244784
9.134                0.914368891     -84.0806819
9.135                0.914036588     -84.2373335
9.136                0.913703061     -84.3944347
9.137                0.913368309     -84.5519872
9.138                0.913032331     -84.7099923
9.139                0.912695128     -84.8684517
9.14                 0.912356698     -85.0273668
9.141                0.912017041     -85.1867392
9.142                0.911676156     -85.3465705
9.143                0.911334043     -85.5068621
9.144                0.910990703     -85.6676156
9.145                0.910646133     -85.8288326
9.146                0.910300334     -85.9905145
9.147                0.909953307      -86.152663
9.148                0.909605049     -86.3152796
9.149                0.909255562     -86.4783659
9.15                 0.908904845     -86.6419234
9.151                0.908552899     -86.8059537
9.152                0.908199722     -86.9704584
9.153                0.907845315      -87.135439
9.154                0.907489679     -87.3008971
9.155                0.907132813     -87.4668343
9.156                0.906774717     -87.6332522
9.157                0.906415391     -87.8001523
9.158                0.906054837     -87.9675363
9.159                0.905693053     -88.1354057
9.16                 0.905330041     -88.3037622
9.161                  0.9049658     -88.4726073
9.162                0.904600332     -88.6419426
9.163                0.904233637     -88.8117697
9.164                0.903865715     -88.9820903
9.165                0.903496567     -89.1529059
9.166                0.903126193     -89.3242182
9.167                0.902754595     -89.4960287
9.168                0.902381773     -89.6683391
9.169                0.902007728      -89.841151
9.17                  0.90163246     -90.0144661
9.171                0.901255972     -90.1882858
9.172                0.900878263      -90.362612
9.173                0.900499334     -90.5374461
9.174                0.900119188     -90.7127899
9.175                0.899737825     -90.8886449
9.176                0.899355246     -91.0650129
9.177                0.898971453     -91.2418953
9.178                0.898586447     -91.4192939
9.179                 0.89820023     -91.5972103
9.18                 0.897812803     -91.7756462
9.181                0.897424167     -91.9546031
9.182                0.897034324     -92.1340828
9.183                0.896643277     -92.3140869
9.184                0.896251026      -92.494617
9.185                0.895857573     -92.6756747
9.186                0.895462922     -92.8572618
9.187                0.895067072     -93.0393799
9.188                0.894670027     -93.2220306
9.189                0.894271789     -93.4052155
9.19                  0.89387236     -93.5889364
9.191                0.893471742      -93.773195
9.192                0.893069937     -93.9579927
9.193                0.892666949     -94.1433314
9.194                0.892262779     -94.3292126
9.195                 0.89185743     -94.5156381
9.196                0.891450904     -94.7026094
9.197                0.891043205     -94.8901283
9.198                0.890634336     -95.0781964
9.199                0.890224298     -95.2668154
9.2                  0.889813096     -95.4559869
9.201                0.889400732     -95.6457126
9.202                 0.88898721     -95.8359941
9.203                0.888572532     -96.0268331
9.204                0.888156702     -96.2182313
9.205                0.887739723     -96.4101904
9.206                  0.8873216     -96.6027119
9.207                0.886902335     -96.7957976
9.208                0.886481932      -96.989449
9.209                0.886060395      -97.183668
9.21                 0.885637728      -97.378456
9.211                0.885213934     -97.5738148
9.212                0.884789019     -97.7697461
9.213                0.884362985     -97.9662514
9.214                0.883935838     -98.1633324
9.215                0.883507581     -98.3609908
9.216                 0.88307822     -98.5592283
9.217                0.882647757     -98.7580464
9.218                0.882216199     -98.9574469
9.219                 0.88178355     -99.1574313
9.22                 0.881349814     -99.3580013
9.221                0.880914998     -99.5591585
9.222                0.880479104     -99.7609046
9.223                 0.88004214     -99.9632413
9.224                 0.87960411      -100.16617
9.225                0.879165019     -100.369693
9.226                0.878724873      -100.57381
9.227                0.878283677     -100.778525
9.228                0.877841438     -100.983839
9.229                 0.87739816     -101.189753
9.23                  0.87695385     -101.396268
9.231                0.876508515     -101.603388
9.232                0.876062159     -101.811112
9.233                0.875614789     -102.019443
9.234                0.875166412     -102.228382
9.235                0.874717033     -102.437931
9.236                0.874266661     -102.648091
9.237                  0.8738153     -102.858864
9.238                0.873362959     -103.070252
9.239                0.872909644     -103.282257
9.24                 0.872455362     -103.494879
9.241                 0.87200012      -103.70812
9.242                0.871543926     -103.921982
9.243                0.871086787     -104.136466
9.244                0.870628711     -104.351575
9.245                0.870169705     -104.567309
9.246                0.869709777      -104.78367
9.247                0.869248935     -105.000659
9.248                0.868787187     -105.218279
9.249                0.868324541      -105.43653
9.25                 0.867861006     -105.655414
9.251                 0.86739659     -105.874933
9.252                0.866931302     -106.095087
9.253                0.866465151      -106.31588
9.254                0.865998144     -106.537311
9.255                0.865530292     -106.759383
9.256                0.865061604     -106.982097
9.257                0.864592088     -107.205454
9.258                0.864121754     -107.429456
9.259                0.863650612     -107.654104
9.26                 0.863178671       -107.8794
9.261                0.862705941     -108.105345
9.262                0.862232433     -108.331941
9.263                0.861758156     -108.559189
9.264                 0.86128312     -108.787089
9.265                0.860807336     -109.015645
9.266                0.860330815     -109.244856
9.267                0.859853567     -109.474725
9.268                0.859375604     -109.705253
9.269                0.858896935      -109.93644
9.27                 0.858417573     -110.168289
9.271                0.857937528     -110.400801
9.272                0.857456812     -110.633977
9.273                0.856975436     -110.867818
9.274                0.856493413     -111.102325
9.275                0.856010755       -111.3375
9.276                0.855527472     -111.573345
9.277                0.855043578     -111.809859
9.278                0.854559085     -112.047045
9.279                0.854074006     -112.284904
9.28                 0.853588352     -112.523436
9.281                0.853102138     -112.762644
9.282                0.852615375     -113.002528
9.283                0.852128078     -113.243089
9.284                0.851640259     -113.484329
9.285                0.851151932     -113.726248
9.286                0.850663111     -113.968848
9.287                0.850173809      -114.21213
9.288                0.849684041     -114.456094
9.289                 0.84919382     -114.700743
9.29                 0.848703161     -114.946077
9.291                0.848212078     -115.192096
9.292                0.847720587     -115.438803
9.293                0.847228701     -115.686197
9.294                0.846736435      -115.93428
9.295                0.846243806     -116.183053
9.296                0.845750828     -116.432517
9.297                0.845257516     -116.682673
9.298                0.844763886     -116.933521
9.299                0.844269955     -117.185063
9.3                  0.843775738     -117.437299
9.301                 0.84328125      -117.69023
9.302                0.842786509     -117.943857
9.303                0.842291531     -118.198181
9.304                0.841796333     -118.453202
9.305                0.841300931     -118.708922
9.306                0.840805342      -118.96534
9.307                0.840309584     -119.222458
9.308                0.839813674     -119.480277
9.309                0.839317629     -119.738796
9.31                 0.838821467     -119.998017
9.311                0.838325206     -120.257941
9.312                0.837828864     -120.518567
9.313                0.837332459     -120.779896
9.314                 0.83683601      -121.04193
9.315                0.836339534     -121.304668
9.316                0.835843051      -121.56811
9.317                0.835346579     -121.832259
9.318                0.834850138     -122.097113
9.319                0.834353747     -122.362673
9.32                 0.833857425     -122.628939
9.321                0.833361192     -122.895913
9.322                0.832865066     -123.163594
9.323                 0.83236907     -123.431983
9.324                0.831873221     -123.701079
9.325                0.831377541     -123.970884
9.326                 0.83088205     -124.241396
9.327                0.830386768     -124.512618
9.328                0.829891717     -124.784548
9.329                0.829396917     -125.057186
9.33                 0.828902389     -125.330534
9.331                0.828408154      -125.60459
9.332                0.827914234     -125.879355
9.333                 0.82742065      -126.15483
9.334                0.826927425     -126.431013
9.335                0.826434579     -126.707905
9.336                0.825942135     -126.985506
9.337                0.825450115     -127.263815
9.338                0.824958542     -127.542833
9.339                0.824467438     -127.822559
9.34                 0.823976825     -128.102993
9.341                0.823486727     -128.384135
9.342                0.822997167     -128.665985
9.343                0.822508167     -128.948541
9.344                 0.82201975     -129.231804
9.345                0.821531941     -129.515774
9.346                0.821044764      -129.80045
9.347                 0.82055824     -130.085831
9.348                0.820072395     -130.371917
9.349                0.819587253     -130.658707
9.35                 0.819102838     -130.946201
9.351                0.818619173     -131.234398
9.352                0.818136285     -131.523297
9.353                0.817654196     -131.812899
9.354                0.817172932     -132.103201
9.355                0.816692518     -132.394204
9.356                0.816212978     -132.685906
9.357                0.815734338     -132.978306
9.358                0.815256624     -133.271404
9.359                 0.81477986     -133.565199
9.36                 0.814304072      -133.85969
9.361                0.813829286     -134.154875
9.362                0.813355527     -134.450754
9.363                0.812882821     -134.747325
9.364                0.812411195     -135.044587
9.365                0.811940675      -135.34254
9.366                0.811471286     -135.641181
9.367                0.811003055      -135.94051
9.368                0.810536009     -136.240525
9.369                0.810070173     -136.541225
9.37                 0.809605576     -136.842609
9.371                0.809142243     -137.144674
9.372                0.808680201      -137.44742
9.373                0.808219477     -137.750845
9.374                0.807760099     -138.054946
9.375                0.807302093     -138.359724
9.376                0.806845487     -138.665175
9.377                0.806390308     -138.971299
9.378                0.805936584     -139.278093
9.379                0.805484341     -139.585556
9.38                 0.805033607     -139.893685
9.381                0.804584411     -140.202479
9.382                0.804136779     -140.511935
9.383                0.803690739     -140.822052
9.384                 0.80324632     -141.132828
9.385                0.802803549     -141.444261
9.386                0.802362453     -141.756347
9.387                0.801923062     -142.069086
9.388                0.801485402     -142.382474
9.389                0.801049502      -142.69651
9.39                 0.800615391     -143.011191
9.391                0.800183095     -143.326514
9.392                0.799752644     -143.642477
9.393                0.799324065     -143.959078
9.394                0.798897387     -144.276315
9.395                0.798472638     -144.594183
9.396                0.798049846     -144.912681
