! TOUCHSTONE file generated by CST DESIGN STUDIO
! Date and time: Tue Feb  4 13:42:51 2025
! Project name: C:\Work\MatlabApps\UnitCellOptimizationMatlab\CST\unitcell.cst
! Tree item: Tasks\Sweep1\SPara1\S-Parameters
! Header version: 2024
! Port assignment regex: !\s*Touchstone port\s*([0-9]+)\s*=\s*(CST MWS port|CST DES external port|CST DES block port)\s*(.+)\s* \(\"(.*)\"\)(\s*mode\s*([0-9]+))?.*
! Touchstone port assignment:
! Touchstone port 1 = CST DES external port 1 ("")
# GHz S MA R 50
9                    0.869028533     -122.514731
9.001                0.868585194     -122.816352
9.002                0.868140633     -123.118874
9.003                0.867694864     -123.422296
9.004                0.867247905      -123.72662
9.005                0.866799772     -124.031844
9.006                0.866350484      -124.33797
9.007                0.865900056     -124.644996
9.008                0.865448508     -124.952922
9.009                0.864995857     -125.261748
9.01                 0.864542121     -125.571474
9.011                0.864087321     -125.882099
9.012                0.863631474     -126.193623
9.013                  0.8631746     -126.506046
9.014                 0.86271672     -126.819366
9.015                0.862257852     -127.133584
9.016                0.861798018     -127.448698
9.017                0.861337238     -127.764708
9.018                0.860875534     -128.081614
9.019                0.860412926     -128.399413
9.02                 0.859949436     -128.718106
9.021                0.859485087     -129.037692
9.022                0.859019901     -129.358169
9.023                0.858553899     -129.679537
9.024                0.858087107     -130.001794
9.025                0.857619546     -130.324939
9.026                 0.85715124     -130.648971
9.027                0.856682214     -130.973889
9.028                0.856212491     -131.299691
9.029                0.855742096     -131.626376
9.03                 0.855271054     -131.953942
9.031                0.854799391     -132.282388
9.032                0.854327131     -132.611713
9.033                0.853854301     -132.941914
9.034                0.853380927      -133.27299
9.035                0.852907036     -133.604939
9.036                0.852432653     -133.937759
9.037                0.851957807     -134.271449
9.038                0.851482525     -134.606006
9.039                0.851006834     -134.941428
9.04                 0.850530763     -135.277713
9.041                 0.85005434     -135.614859
9.042                0.849577593     -135.952864
9.043                0.849100552     -136.291725
9.044                0.848623246      -136.63144
9.045                0.848145704     -136.972007
9.046                0.847667957     -137.313422
9.047                0.847190033     -137.655683
9.048                0.846711965     -137.998789
9.049                0.846233782     -138.342734
9.05                 0.845755515     -138.687518
9.051                0.845277197     -139.033137
9.052                0.844798857     -139.379589
9.053                0.844320529     -139.726869
9.054                0.843842244     -140.074975
9.055                0.843364035     -140.423904
9.056                0.842885934     -140.773652
9.057                0.842407974     -141.124216
9.058                0.841930188     -141.475593
9.059                 0.84145261      -141.82778
9.06                 0.840975274     -142.180772
9.061                0.840498213     -142.534565
9.062                0.840021461     -142.889158
9.063                0.839545053     -143.244544
9.064                0.839069023     -143.600721
9.065                0.838593406     -143.957685
9.066                0.838118238     -144.315431
9.067                0.837643552     -144.673956
9.068                0.837169386     -145.033255
9.069                0.836695774     -145.393324
9.07                 0.836222753     -145.754159
9.071                0.835750358     -146.115754
9.072                0.835278626     -146.478107
9.073                0.834807593     -146.841212
9.074                0.834337296     -147.205064
9.075                0.833867771     -147.569659
9.076                0.833399055     -147.934992
9.077                0.832931187     -148.301058
9.078                0.832464201     -148.667852
9.079                0.831998138     -149.035369
9.08                 0.831533032     -149.403604
9.081                0.831068924     -149.772551
9.082                0.830605849     -150.142206
9.083                0.830143847     -150.512563
9.084                0.829682954     -150.883616
9.085                 0.82922321     -151.255361
9.086                0.828764652      -151.62779
9.087                0.828307319       -152.0009
9.088                 0.82785125     -152.374683
9.089                0.827396482     -152.749135
9.09                 0.826943054     -153.124249
9.091                0.826491005     -153.500019
9.092                0.826040373     -153.876439
9.093                0.825591198     -154.253503
9.094                0.825143517     -154.631204
9.095                 0.82469737     -155.009538
9.096                0.824252796     -155.388496
9.097                0.823809833     -155.768072
9.098                 0.82336852     -156.148261
9.099                0.822928895     -156.529055
9.1                  0.822490999     -156.910448
9.101                0.822054869     -157.292432
9.102                0.821620544     -157.675002
9.103                0.821188063      -158.05815
9.104                0.820757465     -158.441869
9.105                0.820328787     -158.826152
9.106                 0.81990207     -159.210993
9.107                 0.81947735     -159.596383
9.108                0.819054668     -159.982315
9.109                 0.81863406     -160.368783
9.11                 0.818215565     -160.755778
9.111                0.817799222     -161.143293
9.112                0.817385067     -161.531321
9.113                 0.81697314     -161.919854
9.114                0.816563478     -162.308885
9.115                0.816156118     -162.698405
9.116                0.815751097     -163.088406
9.117                0.815348454     -163.478882
9.118                0.814948226     -163.869823
9.119                0.814550448     -164.261222
9.12                 0.814155158      -164.65307
9.121                0.813762393     -165.045361
9.122                0.813372188     -165.438084
9.123                0.812984581     -165.831233
9.124                0.812599606     -166.224798
9.125                  0.8122173     -166.618771
9.126                0.811837698     -167.013145
9.127                0.811460835     -167.407909
9.128                0.811086746     -167.803057
9.129                0.810715466     -168.198578
9.13                  0.81034703     -168.594465
9.131                 0.80998147     -168.990708
9.132                0.809618822     -169.387299
9.133                0.809259119      -169.78423
9.134                0.808902393      -170.18149
9.135                0.808548679     -170.579072
9.136                0.808198008     -170.976966
9.137                0.807850413     -171.375163
9.138                0.807505925     -171.773653
9.139                0.807164576     -172.172429
9.14                 0.806826398     -172.571481
9.141                0.806491422     -172.970799
9.142                0.806159677     -173.370375
9.143                0.805831194     -173.770198
9.144                0.805506002      -174.17026
9.145                0.805184132     -174.570551
9.146                0.804865611     -174.971062
9.147                0.804550469     -175.371784
9.148                0.804238733     -175.772706
9.149                0.803930431      -176.17382
9.15                 0.803625591     -176.575116
9.151                0.803324239     -176.976584
9.152                0.803026401     -177.378214
9.153                0.802732104     -177.779998
9.154                0.802441373     -178.181925
9.155                0.802154233     -178.583986
9.156                0.801870709      -178.98617
9.157                0.801590824     -179.388469
9.158                0.801314603     -179.790873
9.159                0.801042068      179.806628
9.16                 0.800773242      179.404045
9.161                0.800508147      179.001386
9.162                0.800246805      178.598662
9.163                0.799989237      178.195883
9.164                0.799735464      177.793057
9.165                0.799485505      177.390196
9.166                0.799239381      176.987308
9.167                 0.79899711      176.584404
9.168                0.798758711      176.181494
9.169                0.798524202      175.778588
9.17                   0.7982936      175.375694
9.171                0.798066923      174.972824
9.172                0.797844187      174.569987
9.173                0.797625408      174.167193
9.174                0.797410601      173.764452
9.175                0.797199782      173.361774
9.176                0.796992963      172.959167
9.177                0.796790159      172.556644
9.178                0.796591384      172.154212
9.179                0.796396649      171.751882
9.18                 0.796205967      171.349665
9.181                0.796019349      170.947568
9.182                0.795836807      170.545603
9.183                 0.79565835      170.143779
9.184                0.795483988      169.742106
9.185                0.795313731      169.340594
9.186                0.795147588      168.939252
9.187                0.794985565      168.538089
9.188                0.794827672      168.137116
9.189                0.794673914      167.736342
9.19                 0.794524299      167.335777
9.191                0.794378833      166.935431
9.192                0.794237519      166.535312
9.193                0.794100365       166.13543
9.194                0.793967372      165.735796
9.195                0.793838546      165.336417
9.196                0.793713889      164.937304
9.197                0.793593403      164.538466
9.198                0.793477091      164.139913
9.199                0.793364954      163.741653
9.2                  0.793256993      163.343695
9.201                0.793153209       162.94605
9.202                  0.7930536      162.548726
9.203                0.792958166      162.151732
9.204                0.792866906      161.755078
9.205                0.792779818      161.358772
9.206                  0.7926969      160.962823
9.207                0.792618148       160.56724
9.208                0.792543559      160.172032
9.209                0.792473129      159.777208
9.21                 0.792406854      159.382777
9.211                0.792344728      158.988747
9.212                0.792286747      158.595127
9.213                0.792232903      158.201926
9.214                0.792183191      157.809151
9.215                0.792137603      157.416812
9.216                0.792096132      157.024917
9.217                0.792058769      156.633475
9.218                0.792025507      156.242493
9.219                0.791996335      155.851979
9.22                 0.791971245      155.461943
9.221                0.791950227      155.072391
9.222                 0.79193327      154.683333
9.223                0.791920363      154.294775
9.224                0.791911494      153.906727
9.225                0.791906653      153.519195
9.226                0.791905826      153.132187
9.227                0.791909002      152.745712
9.228                0.791916166      152.359777
9.229                0.791927305      151.974388
9.23                 0.791942405      151.589555
9.231                0.791961453      151.205283
9.232                0.791984432      150.821581
9.233                0.792011328      150.438456
9.234                0.792042124      150.055915
9.235                0.792076806      149.673964
9.236                0.792115357      149.292612
9.237                0.792157759      148.911864
9.238                0.792203995      148.531728
9.239                0.792254049      148.152211
9.24                 0.792307902      147.773319
9.241                0.792365535      147.395059
9.242                0.792426931      147.017437
9.243                 0.79249207       146.64046
9.244                0.792560933      146.264135
9.245                0.792633501      145.888467
9.246                0.792709752      145.513463
9.247                0.792789668      145.139128
9.248                0.792873228       144.76547
9.249                 0.79296041      144.392494
9.25                 0.793051194      144.020206
9.251                0.793145558      143.648611
9.252                0.793243481      143.277716
9.253                 0.79334494      142.907526
9.254                0.793449913      142.538046
9.255                0.793558378      142.169283
9.256                0.793670312      141.801241
9.257                0.793785692      141.433926
9.258                0.793904494      141.067343
9.259                0.794026696      140.701497
9.26                 0.794152274      140.336394
9.261                0.794281203      139.972037
9.262                0.794413459      139.608433
9.263                0.794549019      139.245586
9.264                0.794687857      138.883501
9.265                0.794829949      138.522182
9.266                 0.79497527      138.161634
9.267                0.795123795      137.801861
9.268                0.795275499      137.442869
9.269                0.795430357       137.08466
9.27                 0.795588342      136.727239
9.271                0.795749429      136.370612
9.272                0.795913592       136.01478
9.273                0.796080805      135.659749
9.274                0.796251043      135.305523
9.275                0.796424279      134.952105
9.276                0.796600486      134.599499
9.277                0.796779638      134.247708
9.278                0.796961708      133.896737
9.279                 0.79714667      133.546589
9.28                 0.797334498      133.197266
9.281                0.797525163      132.848774
9.282                 0.79771864      132.501113
9.283                0.797914901      132.154289
9.284                0.798113919      131.808304
9.285                0.798315668      131.463161
9.286                0.798520119      131.118862
9.287                0.798727246      130.775412
9.288                0.798937021      130.432812
9.289                0.799149417      130.091065
9.29                 0.799364406      129.750174
9.291                0.799581962      129.410142
9.292                0.799802057       129.07097
9.293                0.800024664      128.732662
9.294                0.800249754       128.39522
9.295                0.800477301      128.058646
9.296                0.800707276      127.722941
9.297                0.800939654      127.388109
9.298                0.801174406      127.054151
9.299                0.801411504      126.721069
9.3                  0.801650922      126.388865
9.301                0.801892631      126.057542
9.302                0.802136605      125.727099
9.303                0.802382817       125.39754
9.304                0.802631238      125.068866
9.305                0.802881842      124.741079
9.306                0.803134601      124.414179
9.307                0.803389488      124.088169
9.308                0.803646477      123.763049
9.309                 0.80390554      123.438821
9.31                  0.80416665      123.115487
9.311                0.804429779      122.793046
9.312                0.804694902      122.471501
9.313                0.804961992      122.150852
9.314                0.805231021      121.831101
9.315                0.805501963      121.512247
9.316                0.805774792      121.194293
9.317                 0.80604948      120.877238
9.318                0.806326003      120.561084
9.319                0.806604332      120.245831
9.32                 0.806884442      119.931479
9.321                0.807166308       119.61803
9.322                0.807449902      119.305483
9.323                  0.8077352      118.993839
9.324                0.808022174      118.683098
9.325                  0.8083108      118.373262
9.326                0.808601052      118.064329
9.327                0.808892905        117.7563
9.328                0.809186333      117.449175
9.329                 0.80948131      117.142954
9.33                 0.809777813      116.837638
9.331                0.810075815      116.533226
9.332                0.810375292      116.229718
9.333                0.810676219      115.927114
9.334                0.810978573      115.625414
9.335                0.811282327      115.324617
9.336                0.811587458      115.024724
9.337                0.811893942      114.725734
9.338                0.812201754      114.427646
9.339                0.812510871       114.13046
9.34                 0.812821269      113.834176
9.341                0.813132925      113.538793
9.342                0.813445814      113.244311
9.343                0.813759914      112.950729
9.344                0.814075201      112.658045
9.345                0.814391652      112.366261
9.346                0.814709245      112.075374
9.347                0.815027957      111.785384
9.348                0.815347764      111.496291
9.349                0.815668646      111.208093
9.35                 0.815990579      110.920789
9.351                0.816313541      110.634379
9.352                0.816637511      110.348861
9.353                0.816962466      110.064235
9.354                0.817288386      109.780499
9.355                0.817615248      109.497653
9.356                0.817943031      109.215695
9.357                0.818271715      108.934623
9.358                0.818601277      108.654438
9.359                0.818931698      108.375137
9.36                 0.819262957       108.09672
9.361                0.819595032      107.819184
9.362                0.819927905      107.542529
9.363                0.820261554      107.266754
9.364                0.820595961      106.991856
9.365                0.820931104      106.717835
9.366                0.821266964      106.444689
9.367                0.821603523      106.172416
9.368                0.821940759      105.901015
9.369                0.822278656      105.630485
9.37                 0.822617192      105.360824
9.371                 0.82295635      105.092029
9.372                0.823296111      104.824101
9.373                0.823636457      104.557036
9.374                0.823977368      104.290834
9.375                0.824318828      104.025492
9.376                0.824660818      103.761008
9.377                 0.82500332      103.497382
9.378                0.825346316      103.234611
9.379                 0.82568979      102.972694
9.38                 0.826033723      102.711628
9.381                0.826378099      102.451412
9.382                0.826722901      102.192043
9.383                0.827068112      101.933521
9.384                0.827413715      101.675843
9.385                0.827759694      101.419007
9.386                0.828106032      101.163011
9.387                0.828452714      100.907853
9.388                0.828799723      100.653531
9.389                0.829147044      100.400043
9.39                 0.829494661      100.147388
9.391                0.829842558      99.8955624
9.392                 0.83019072      99.6445649
9.393                0.830539132      99.3943934
9.394                0.830887779      99.1450456
9.395                0.831236647      98.8965195
9.396                 0.83158572      98.6488129
