! TOUCHSTONE file generated by CST DESIGN STUDIO
! Date and time: Tue Feb  4 13:43:02 2025
! Project name: C:\Work\MatlabApps\UnitCellOptimizationMatlab\CST\unitcell.cst
! Tree item: Tasks\Sweep1\SPara1\S-Parameters
! Header version: 2024
! Port assignment regex: !\s*Touchstone port\s*([0-9]+)\s*=\s*(CST MWS port|CST DES external port|CST DES block port)\s*(.+)\s* \(\"(.*)\"\)(\s*mode\s*([0-9]+))?.*
! Touchstone port assignment:
! Touchstone port 1 = CST DES external port 1 ("")
# GHz S MA R 50
9                    0.956000171     -60.8980999
9.001                0.955845475     -60.9905258
9.002                0.955690074     -61.0831777
9.003                0.955533964     -61.1760565
9.004                0.955377145     -61.2691629
9.005                0.955219615     -61.3624977
9.006                 0.95506137     -61.4560615
9.007                 0.95490241     -61.5498553
9.008                0.954742732     -61.6438796
9.009                0.954582335     -61.7381354
9.01                 0.954421215     -61.8326234
9.011                0.954259372     -61.9273443
9.012                0.954096803     -62.0222989
9.013                0.953933507     -62.1174881
9.014                 0.95376948     -62.2129126
9.015                0.953604722     -62.3085732
9.016                 0.95343923     -62.4044706
9.017                0.953273002     -62.5006058
9.018                0.953106036     -62.5969794
9.019                 0.95293833     -62.6935923
9.02                 0.952769883     -62.7904452
9.021                0.952600691     -62.8875391
9.022                0.952430754     -62.9848747
9.023                0.952260069     -63.0824527
9.024                0.952088633     -63.1802741
9.025                0.951916446     -63.2783397
9.026                0.951743504     -63.3766502
9.027                0.951569807     -63.4752066
9.028                0.951395351     -63.5740096
9.029                0.951220135       -63.67306
9.03                 0.951044158     -63.7723588
9.031                0.950867416     -63.8719067
9.032                0.950689907     -63.9717046
9.033                0.950511631     -64.0717533
9.034                0.950332584     -64.1720537
9.035                0.950152765     -64.2726067
9.036                0.949972171     -64.3734131
9.037                0.949790802     -64.4744737
9.038                0.949608654     -64.5757895
9.039                0.949425725     -64.6773613
9.04                 0.949242014     -64.7791899
9.041                0.949057518     -64.8812763
9.042                0.948872236     -64.9836214
9.043                0.948686166     -65.0862259
9.044                0.948499304     -65.1890908
9.045                 0.94831165      -65.292217
9.046                0.948123202     -65.3956054
9.047                0.947933957     -65.4992568
9.048                0.947743913     -65.6031722
9.049                0.947553068     -65.7073525
9.05                 0.947361421     -65.8117986
9.051                0.947168969     -65.9165114
9.052                 0.94697571     -66.0214918
9.053                0.946781642     -66.1267407
9.054                0.946586763     -66.2322591
9.055                0.946391071     -66.3380478
9.056                0.946194565     -66.4441079
9.057                0.945997241     -66.5504401
9.058                0.945799098     -66.6570456
9.059                0.945600135     -66.7639252
9.06                 0.945400348     -66.8710798
9.061                0.945199737     -66.9785105
9.062                0.944998298     -67.0862181
9.063                0.944796031     -67.1942036
9.064                0.944592932      -67.302468
9.065                   0.944389     -67.4110123
9.066                0.944184233     -67.5198373
9.067                0.943978629     -67.6289441
9.068                0.943772186     -67.7383337
9.069                0.943564902      -67.848007
9.07                 0.943356775      -67.957965
9.071                0.943147802     -68.0682087
9.072                0.942937983     -68.1787391
9.073                0.942727314     -68.2895572
9.074                0.942515795      -68.400664
9.075                0.942303422     -68.5120604
9.076                0.942090194     -68.6237476
9.077                0.941876109     -68.7357264
9.078                0.941661166      -68.847998
9.079                0.941445361     -68.9605632
9.08                 0.941228693     -69.0734233
9.081                0.941011161     -69.1865791
9.082                0.940792761     -69.3000317
9.083                0.940573493     -69.4137821
9.084                0.940353354     -69.5278315
9.085                0.940132342     -69.6421807
9.086                0.939910455     -69.7568309
9.087                0.939687692     -69.8717831
9.088                 0.93946405     -69.9870384
9.089                0.939239528     -70.1025978
9.09                 0.939014123     -70.2184624
9.091                0.938787834     -70.3346333
9.092                0.938560659     -70.4511115
9.093                0.938332595      -70.567898
9.094                0.938103642     -70.6849941
9.095                0.937873796     -70.8024007
9.096                0.937643056     -70.9201189
9.097                0.937411421     -71.0381499
9.098                0.937178887     -71.1564948
9.099                0.936945455     -71.2751545
9.1                   0.93671112     -71.3941303
9.101                0.936475883     -71.5134232
9.102                 0.93623974     -71.6330344
9.103                 0.93600269     -71.7529649
9.104                0.935764731     -71.8732159
9.105                0.935525862     -71.9937886
9.106                 0.93528608     -72.1146839
9.107                0.935045383     -72.2359032
9.108                 0.93480377     -72.3574474
9.109                0.934561239     -72.4793178
9.11                 0.934317788     -72.6015155
9.111                0.934073416     -72.7240417
9.112                 0.93382812     -72.8468974
9.113                0.933581898     -72.9700839
9.114                 0.93333475     -73.0936023
9.115                0.933086673     -73.2174538
9.116                0.932837665     -73.3416396
9.117                0.932587725     -73.4661607
9.118                0.932336851     -73.5910185
9.119                0.932085041     -73.7162141
9.12                 0.931832293     -73.8417487
9.121                0.931578607     -73.9676235
9.122                0.931323979     -74.0938396
9.123                0.931068409     -74.2203983
9.124                0.930811894     -74.3473008
9.125                0.930554433     -74.4745483
9.126                0.930296025     -74.6021419
9.127                0.930036667      -74.730083
9.128                0.929776359     -74.8583728
9.129                0.929515097     -74.9870124
9.13                 0.929252882     -75.1160031
9.131                0.928989711     -75.2453462
9.132                0.928725582     -75.3750428
9.133                0.928460494     -75.5050943
9.134                0.928194446     -75.6355018
9.135                0.927927435     -75.7662667
9.136                0.927659461     -75.8973902
9.137                0.927390522     -76.0288735
9.138                0.927120616     -76.1607179
9.139                0.926849741     -76.2929247
9.14                 0.926577897     -76.4254952
9.141                0.926305082     -76.5584306
9.142                0.926031294     -76.6917322
9.143                0.925756531     -76.8254014
9.144                0.925480794     -76.9594393
9.145                0.925204079     -77.0938474
9.146                0.924926386     -77.2286269
9.147                0.924647713     -77.3637791
9.148                0.924368059     -77.4993053
9.149                0.924087422     -77.6352069
9.15                 0.923805801     -77.7714851
9.151                0.923523196     -77.9081413
9.152                0.923239603     -78.0451768
9.153                0.922955023      -78.182593
9.154                0.922669454     -78.3203911
9.155                0.922382895     -78.4585725
9.156                0.922095344     -78.5971387
9.157                  0.9218068     -78.7360908
9.158                0.921517262     -78.8754303
9.159                0.921226729     -79.0151586
9.16                   0.9209352     -79.1552769
9.161                0.920642674     -79.2957867
9.162                0.920349148     -79.4366893
9.163                0.920054623     -79.5779862
9.164                0.919759098     -79.7196786
9.165                 0.91946257      -79.861768
9.166                 0.91916504     -80.0042558
9.167                0.918866505     -80.1471433
9.168                0.918566966      -80.290432
9.169                0.918266421     -80.4341232
9.17                 0.917964869     -80.5782184
9.171                 0.91766231     -80.7227189
9.172                0.917358742     -80.8676263
9.173                0.917054164     -81.0129418
9.174                0.916748576      -81.158667
9.175                0.916441977     -81.3048032
9.176                0.916134366      -81.451352
9.177                0.915825741     -81.5983146
9.178                0.915516104     -81.7456926
9.179                0.915205452     -81.8934874
9.18                 0.914893785     -82.0417005
9.181                0.914581103     -82.1903332
9.182                0.914267404     -82.3393871
9.183                0.913952688     -82.4888637
9.184                0.913636955     -82.6387643
9.185                0.913320204     -82.7890905
9.186                0.913002434     -82.9398437
9.187                0.912683645     -83.0910254
9.188                0.912363837     -83.2426371
9.189                0.912043008     -83.3946803
9.19                 0.911721159     -83.5471564
9.191                0.911398289      -83.700067
9.192                0.911074398     -83.8534135
9.193                0.910749486     -84.0071975
9.194                0.910423552     -84.1614204
9.195                0.910096595     -84.3160838
9.196                0.909768617     -84.4711891
9.197                0.909439616     -84.6267379
9.198                0.909109592     -84.7827318
9.199                0.908778546     -84.9391721
9.2                  0.908446476     -85.0960605
9.201                0.908113384     -85.2533985
9.202                0.907779269     -85.4111876
9.203                0.907444132     -85.5694293
9.204                0.907107971     -85.7281253
9.205                0.906770788      -85.887277
9.206                0.906432582     -86.0468859
9.207                0.906093354     -86.2069537
9.208                0.905753104     -86.3674819
9.209                0.905411832     -86.5284721
9.21                 0.905069538     -86.6899258
9.211                0.904726223     -86.8518445
9.212                0.904381887     -87.0142299
9.213                0.904036531     -87.1770835
9.214                0.903690155     -87.3404069
9.215                0.903342759     -87.5042017
9.216                0.902994345     -87.6684694
9.217                0.902644912     -87.8332116
9.218                0.902294461       -87.99843
9.219                0.901942994     -88.1641261
9.22                  0.90159051     -88.3303015
9.221                 0.90123701     -88.4969578
9.222                0.900882496     -88.6640966
9.223                0.900526969     -88.8317195
9.224                0.900170428     -88.9998281
9.225                0.899812876     -89.1684241
9.226                0.899454312     -89.3375089
9.227                0.899094739     -89.5070843
9.228                0.898734157     -89.6771519
9.229                0.898372568     -89.8477132
9.23                 0.898009972     -90.0187699
9.231                0.897646372     -90.1903236
9.232                0.897281768      -90.362376
9.233                0.896916161     -90.5349287
9.234                0.896549554     -90.7079832
9.235                0.896181947     -90.8815412
9.236                0.895813343     -91.0556045
9.237                0.895443742     -91.2301745
9.238                0.895073147     -91.4052529
9.239                0.894701559     -91.5808414
9.24                  0.89432898     -91.7569417
9.241                0.893955413     -91.9335553
9.242                0.893580857     -92.1106839
9.243                0.893205317     -92.2883291
9.244                0.892828793     -92.4664927
9.245                0.892451288     -92.6451762
9.246                0.892072804     -92.8243813
9.247                0.891693344     -93.0041096
9.248                0.891312908     -93.1843629
9.249                0.890931501     -93.3651427
9.25                 0.890549124     -93.5464507
9.251                 0.89016578     -93.7282886
9.252                 0.88978147      -93.910658
9.253                0.889396199     -94.0935606
9.254                0.889009969      -94.276998
9.255                0.888622781      -94.460972
9.256                 0.88823464     -94.6454841
9.257                0.887845548     -94.8305361
9.258                0.887455508     -95.0161295
9.259                0.887064523     -95.2022661
9.26                 0.886672596     -95.3889475
9.261                 0.88627973     -95.5761754
9.262                0.885885929     -95.7639514
9.263                0.885491196     -95.9522772
9.264                0.885095534     -96.1411545
9.265                0.884698948     -96.3305849
9.266                0.884301439     -96.5205701
9.267                0.883903013     -96.7111117
9.268                0.883503672     -96.9022114
9.269                0.883103421     -97.0938709
9.27                 0.882702264     -97.2860918
9.271                0.882300204     -97.4788758
9.272                0.881897246     -97.6722245
9.273                0.881493393     -97.8661396
9.274                 0.88108865     -98.0606228
9.275                0.880683022     -98.2556757
9.276                0.880276512     -98.4512999
9.277                0.879869125     -98.6474971
9.278                0.879460866     -98.8442689
9.279                0.879051739      -99.041617
9.28                 0.878641749     -99.2395431
9.281                0.878230901     -99.4380487
9.282                0.877819201     -99.6371356
9.283                0.877406652     -99.8368053
9.284                 0.87699326     -100.037059
9.285                 0.87657903       -100.2379
9.286                0.876163968     -100.439328
9.287                0.875748079     -100.641345
9.288                0.875331368     -100.843954
9.289                0.874913842     -101.047155
9.29                 0.874495505      -101.25095
9.291                0.874076364     -101.455341
9.292                0.873656424      -101.66033
9.293                0.873235692     -101.865917
9.294                0.872814173     -102.072105
9.295                0.872391875     -102.278896
9.296                0.871968802      -102.48629
9.297                0.871544962      -102.69429
9.298                0.871120361     -102.902897
9.299                0.870695005     -103.112112
9.3                  0.870268902     -103.321937
9.301                0.869842058     -103.532375
9.302                0.869414481     -103.743425
9.303                0.868986177     -103.955091
9.304                0.868557153     -104.167372
9.305                0.868127417     -104.380272
9.306                0.867696976     -104.593791
9.307                0.867265837     -104.807931
9.308                0.866834009     -105.022694
9.309                0.866401499     -105.238081
9.31                 0.865968315     -105.454093
9.311                0.865534465     -105.670733
9.312                0.865099956     -105.888001
9.313                0.864664798     -106.105899
9.314                0.864228998     -106.324428
9.315                0.863792565     -106.543591
9.316                0.863355508     -106.763388
9.317                0.862917835     -106.983821
9.318                0.862479554     -107.204891
9.319                0.862040676       -107.4266
9.32                 0.861601208      -107.64895
9.321                0.861161161     -107.871941
9.322                0.860720543     -108.095576
9.323                0.860279365     -108.319854
9.324                0.859837634     -108.544779
9.325                0.859395362     -108.770351
9.326                0.858952558     -108.996572
9.327                0.858509232     -109.223443
9.328                0.858065394     -109.450965
9.329                0.857621054     -109.679139
9.33                 0.857176222     -109.907968
9.331                 0.85673091     -110.137453
9.332                0.856285128     -110.367593
9.333                0.855838886     -110.598392
9.334                0.855392195     -110.829851
9.335                0.854945066     -111.061969
9.336                0.854497511      -111.29475
9.337                0.854049541     -111.528193
9.338                0.853601167     -111.762301
9.339                0.853152401     -111.997074
9.34                 0.852703255     -112.232514
9.341                 0.85225374     -112.468622
9.342                0.851803868     -112.705399
9.343                0.851353651     -112.942846
9.344                0.850903102     -113.180965
9.345                0.850452234     -113.419756
9.346                0.850001058      -113.65922
9.347                0.849549587      -113.89936
9.348                0.849097835     -114.140175
9.349                0.848645813     -114.381667
9.35                 0.848193537     -114.623837
9.351                0.847741017     -114.866686
9.352                0.847288269     -115.110215
9.353                0.846835305     -115.354425
9.354                 0.84638214     -115.599317
9.355                0.845928786     -115.844891
9.356                0.845475259      -116.09115
9.357                0.845021572     -116.338094
9.358                 0.84456774     -116.585723
9.359                0.844113777     -116.834039
9.36                 0.843659697     -117.083042
9.361                0.843205516     -117.332734
9.362                0.842751248     -117.583115
9.363                0.842296908     -117.834186
9.364                0.841842511     -118.085947
9.365                0.841388074       -118.3384
9.366                0.840933611     -118.591546
9.367                0.840479138     -118.845384
9.368                 0.84002467     -119.099916
9.369                0.839570224     -119.355143
9.37                 0.839115816     -119.611065
9.371                0.838661462     -119.867682
9.372                0.838207179     -120.124996
9.373                0.837752982     -120.383006
9.374                0.837298889     -120.641714
9.375                0.836844916      -120.90112
9.376                0.836391081     -121.161225
9.377                  0.8359374     -121.422028
9.378                0.835483891     -121.683531
9.379                0.835030572     -121.945734
9.38                 0.834577459     -122.208638
9.381                0.834124571     -122.472242
9.382                0.833671926     -122.736547
9.383                0.833219541     -123.001553
9.384                0.832767435     -123.267261
9.385                0.832315626     -123.533671
9.386                0.831864132     -123.800784
9.387                0.831412973     -124.068599
9.388                0.830962166     -124.337116
9.389                0.830511731     -124.606336
9.39                 0.830061688      -124.87626
9.391                0.829612054     -125.146886
9.392                 0.82916285     -125.418215
9.393                0.828714094     -125.690248
9.394                0.828265808     -125.962984
9.395                0.827818009     -126.236423
9.396                0.827370719     -126.510565
