! TOUCHSTONE file generated by CST DESIGN STUDIO
! Date and time: Tue Feb  4 13:42:56 2025
! Project name: C:\Work\MatlabApps\UnitCellOptimizationMatlab\CST\unitcell.cst
! Tree item: Tasks\Sweep1\SPara1\S-Parameters
! Header version: 2024
! Port assignment regex: !\s*Touchstone port\s*([0-9]+)\s*=\s*(CST MWS port|CST DES external port|CST DES block port)\s*(.+)\s* \(\"(.*)\"\)(\s*mode\s*([0-9]+))?.*
! Touchstone port assignment:
! Touchstone port 1 = CST DES external port 1 ("")
# GHz S MA R 50
9                    0.915322987     -89.5702901
9.001                0.915001456     -89.7533225
9.002                0.914678249     -89.9369323
9.003                 0.91435336     -90.1211213
9.004                0.914026787     -90.3058913
9.005                0.913698525     -90.4912442
9.006                0.913368572     -90.6771817
9.007                0.913036923     -90.8637057
9.008                0.912703576      -91.050818
9.009                0.912368527     -91.2385204
9.01                 0.912031772     -91.4268148
9.011                0.911693309      -91.615703
9.012                0.911353134     -91.8051867
9.013                0.911011244     -91.9952679
9.014                0.910667637     -92.1859482
9.015                0.910322309     -92.3772297
9.016                0.909975258      -92.569114
9.017                0.909626481     -92.7616029
9.018                0.909275975     -92.9546984
9.019                0.908923737     -93.1484022
9.02                 0.908569765     -93.3427162
9.021                0.908214058     -93.5376421
9.022                0.907856611     -93.7331818
9.023                0.907497424     -93.9293371
9.024                0.907136494     -94.1261097
9.025                0.906773818     -94.3235016
9.026                0.906409396     -94.5215145
9.027                0.906043225     -94.7201502
9.028                0.905675303     -94.9194105
9.029                0.905305628     -95.1192973
9.03                   0.9049342     -95.3198123
9.031                0.904561017     -95.5209574
9.032                0.904186077     -95.7227342
9.033                0.903809378     -95.9251447
9.034                0.903430921     -96.1281906
9.035                0.903050703     -96.3318737
9.036                0.902668725     -96.5361958
9.037                0.902284984     -96.7411587
9.038                 0.90189948     -96.9467642
9.039                0.901512213     -97.1530139
9.04                 0.901123183     -97.3599098
9.041                0.900732388     -97.5674535
9.042                0.900339829     -97.7756469
9.043                0.899945505     -97.9844916
9.044                0.899549417     -98.1939895
9.045                0.899151564     -98.4041424
9.046                0.898751947     -98.6149518
9.047                0.898350566     -98.8264197
9.048                0.897947421     -99.0385477
9.049                0.897542514     -99.2513376
9.05                 0.897135845     -99.4647911
9.051                0.896727415     -99.6789099
9.052                0.896317225     -99.8936958
9.053                0.895905275      -100.10915
9.054                0.895491569     -100.325275
9.055                0.895076106     -100.542073
9.056                0.894658888     -100.759544
9.057                0.894239918      -100.97769
9.058                0.893819196     -101.196514
9.059                0.893396726     -101.416017
9.06                 0.892972509       -101.6362
9.061                0.892546547     -101.857066
9.062                0.892118844     -102.078615
9.063                0.891689401      -102.30085
9.064                0.891258222     -102.523772
9.065                0.890825309     -102.747383
9.066                0.890390666     -102.971684
9.067                0.889954295     -103.196678
9.068                0.889516201     -103.422365
9.069                0.889076387     -103.648747
9.07                 0.888634857     -103.875826
9.071                0.888191614     -104.103603
9.072                0.887746663      -104.33208
9.073                0.887300009     -104.561259
9.074                0.886851655     -104.791141
9.075                0.886401606     -105.021728
9.076                0.885949867      -105.25302
9.077                0.885496443      -105.48502
9.078                 0.88504134      -105.71773
9.079                0.884584562      -105.95115
9.08                 0.884126116     -106.185282
9.081                0.883666007     -106.420128
9.082                0.883204241     -106.655689
9.083                0.882740824     -106.891966
9.084                0.882275762     -107.128961
9.085                0.881809063     -107.366676
9.086                0.881340732     -107.605111
9.087                0.880870777     -107.844269
9.088                0.880399205      -108.08415
9.089                0.879926023     -108.324756
9.09                  0.87945124     -108.566088
9.091                0.878974861     -108.808148
9.092                0.878496896     -109.050937
9.093                0.878017353     -109.294456
9.094                0.877536241     -109.538707
9.095                0.877053566      -109.78369
9.096                 0.87656934     -110.029408
9.097                 0.87608357      -110.27586
9.098                0.875596266      -110.52305
9.099                0.875107437     -110.770977
9.1                  0.874617094     -111.019643
9.101                0.874125245      -111.26905
9.102                0.873631902     -111.519198
9.103                0.873137074     -111.770088
9.104                0.872640773     -112.021722
9.105                0.872143009       -112.2741
9.106                0.871643792     -112.527225
9.107                0.871143136     -112.781096
9.108                 0.87064105     -113.035715
9.109                0.870137547     -113.291084
9.11                  0.86963264     -113.547202
9.111                0.869126339     -113.804071
9.112                0.868618658     -114.061692
9.113                 0.86810961     -114.320066
9.114                0.867599207     -114.579194
9.115                0.867087462     -114.839077
9.116                0.866574391     -115.099715
9.117                0.866060005      -115.36111
9.118                0.865544319     -115.623263
9.119                0.865027347     -115.886173
9.12                 0.864509104     -116.149842
9.121                0.863989605     -116.414271
9.122                0.863468865     -116.679461
9.123                0.862946898     -116.945412
9.124                0.862423721     -117.212124
9.125                0.861899349       -117.4796
9.126                0.861373798     -117.747838
9.127                0.860847085     -118.016841
9.128                0.860319226     -118.286607
9.129                0.859790238     -118.557139
9.13                 0.859260138     -118.828437
9.131                0.858728944       -119.1005
9.132                0.858196673      -119.37333
9.133                0.857663343     -119.646927
9.134                0.857128972     -119.921292
9.135                0.856593579     -120.196424
9.136                0.856057182     -120.472325
9.137                0.855519801     -120.748994
9.138                0.854981454     -121.026432
9.139                0.854442162     -121.304639
9.14                 0.853901944     -121.583616
9.141                 0.85336082     -121.863362
9.142                 0.85281881     -122.143878
9.143                0.852275935     -122.425164
9.144                0.851732216      -122.70722
9.145                0.851187674     -122.990047
9.146                 0.85064233     -123.273643
9.147                0.850096207      -123.55801
9.148                0.849549326     -123.843148
9.149                0.849001709     -124.129055
9.15                  0.84845338     -124.415733
9.151                 0.84790436      -124.70318
9.152                0.847354673     -124.991398
9.153                0.846804342     -125.280385
9.154                 0.84625339     -125.570142
9.155                0.845701843     -125.860668
9.156                0.845149723     -126.151963
9.157                0.844597055     -126.444026
9.158                0.844043865     -126.736858
9.159                0.843490176     -127.030457
9.16                 0.842936015     -127.324824
9.161                0.842381406     -127.619958
9.162                0.841826375     -127.915858
9.163                0.841270949     -128.212524
9.164                0.840715154     -128.509955
9.165                0.840159017      -128.80815
9.166                0.839602563     -129.107109
9.167                0.839045821     -129.406832
9.168                0.838488817     -129.707316
9.169                 0.83793158     -130.008563
9.17                 0.837374137     -130.310569
9.171                0.836816516     -130.613336
9.172                0.836258746     -130.916861
9.173                0.835700855     -131.221144
9.174                0.835142873     -131.526184
9.175                0.834584827      -131.83198
9.176                0.834026749      -132.13853
9.177                0.833468667     -132.445833
9.178                0.832910612     -132.753889
9.179                0.832352612     -133.062695
9.18                   0.8317947     -133.372251
9.181                0.831236905     -133.682555
9.182                0.830679259     -133.993606
9.183                0.830121792     -134.305403
9.184                0.829564535     -134.617943
9.185                0.829007521     -134.931225
9.186                 0.82845078     -135.245248
9.187                0.827894346      -135.56001
9.188                 0.82733825      -135.87551
9.189                0.826782524     -136.191744
9.19                 0.826227202     -136.508713
9.191                0.825672316     -136.826414
9.192                0.825117899     -137.144844
9.193                0.824563984     -137.464003
9.194                0.824010606     -137.783887
9.195                0.823457796     -138.104496
9.196                0.822905591     -138.425826
9.197                0.822354022     -138.747876
9.198                0.821803126     -139.070643
9.199                0.821252935     -139.394126
9.2                  0.820703485     -139.718321
9.201                0.820154811     -140.043227
9.202                0.819606947     -140.368841
9.203                0.819059929      -140.69516
9.204                0.818513791     -141.022182
9.205                 0.81796857     -141.349905
9.206                  0.8174243     -141.678325
9.207                0.816881018      -142.00744
9.208                0.816338759     -142.337247
9.209                 0.81579756     -142.667744
9.21                 0.815257457     -142.998927
9.211                0.814718485     -143.330793
9.212                0.814180681      -143.66334
9.213                0.813644083     -143.996565
9.214                0.813108726     -144.330464
9.215                0.812574647     -144.665034
9.216                0.812041883     -145.000271
9.217                0.811510471     -145.336174
9.218                0.810980449     -145.672737
9.219                0.810451853     -146.009959
9.22                  0.80992472     -146.347835
9.221                0.809399088     -146.686361
9.222                0.808874994     -147.025535
9.223                0.808352476     -147.365353
9.224                0.807831572      -147.70581
9.225                0.807312318     -148.046903
9.226                0.806794752     -148.388629
9.227                0.806278912     -148.730983
9.228                0.805764837     -149.073962
9.229                0.805252562     -149.417561
9.23                 0.804742127     -149.761776
9.231                0.804233569     -150.106603
9.232                0.803726926     -150.452039
9.233                0.803222235     -150.798078
9.234                0.802719535     -151.144717
9.235                0.802218863     -151.491951
9.236                0.801720256     -151.839776
9.237                0.801223754     -152.188186
9.238                0.800729393     -152.537179
9.239                0.800237211     -152.886748
9.24                 0.799747246      -153.23689
9.241                0.799259535     -153.587599
9.242                0.798774116     -153.938872
9.243                0.798291026     -154.290702
9.244                0.797810304     -154.643085
9.245                0.797331985     -154.996017
9.246                0.796856108     -155.349491
9.247                 0.79638271     -155.703503
9.248                0.795911827     -156.058049
9.249                0.795443497     -156.413121
9.25                 0.794977756     -156.768717
9.251                0.794514642     -157.124829
9.252                0.794054191     -157.481453
9.253                0.793596439     -157.838583
9.254                0.793141422     -158.196214
9.255                0.792689178      -158.55434
9.256                0.792239742     -158.912955
9.257                 0.79179315     -159.272055
9.258                0.791349437     -159.631632
9.259                 0.79090864     -159.991682
9.26                 0.790470793     -160.352198
9.261                0.790035932     -160.713176
9.262                0.789604091     -161.074607
9.263                0.789175307     -161.436488
9.264                0.788749612     -161.798811
9.265                0.788327042      -162.16157
9.266                 0.78790763      -162.52476
9.267                0.787491411     -162.888374
9.268                0.787078418     -163.252406
9.269                0.786668684      -163.61685
9.27                 0.786262244     -163.981698
9.271                0.785859129     -164.346946
9.272                0.785459372     -164.712585
9.273                0.785063005     -165.078611
9.274                0.784670062     -165.445015
9.275                0.784280572     -165.811792
9.276                0.783894569     -166.178935
9.277                0.783512083     -166.546437
9.278                0.783133145     -166.914292
9.279                0.782757785     -167.282492
9.28                 0.782386035     -167.651031
9.281                0.782017923     -168.019901
9.282                0.781653479     -168.389097
9.283                0.781292733      -168.75861
9.284                0.780935713     -169.128434
9.285                0.780582448     -169.498562
9.286                0.780232967     -169.868987
9.287                0.779887296     -170.239701
9.288                0.779545464     -170.610697
9.289                0.779207497     -170.981969
9.29                 0.778873422     -171.353508
9.291                0.778543266     -171.725308
9.292                0.778217054     -172.097361
9.293                0.777894811     -172.469659
9.294                0.777576564     -172.842196
9.295                0.777262336     -173.214964
9.296                0.776952152     -173.587956
9.297                0.776646035     -173.961163
9.298                0.776344009     -174.334578
9.299                0.776046098     -174.708194
9.3                  0.775752322     -175.082004
9.301                0.775462705     -175.455999
9.302                0.775177269     -175.830171
9.303                0.774896033     -176.204514
9.304                 0.77461902      -176.57902
9.305                0.774346249      -176.95368
9.306                 0.77407774     -177.328487
9.307                0.773813513     -177.703433
9.308                0.773553585      -178.07851
9.309                0.773297977     -178.453711
9.31                 0.773046705     -178.829028
9.311                0.772799786     -179.204452
9.312                0.772557239     -179.579976
9.313                0.772319079     -179.955593
9.314                0.772085322      179.668707
9.315                0.771855984       179.29293
9.316                0.771631079      178.917086
9.317                0.771410622      178.541181
9.318                0.771194627      178.165223
9.319                0.770983107      177.789222
9.32                 0.770776076      177.413184
9.321                0.770573545      177.037117
9.322                0.770375526      176.661031
9.323                0.770182031      176.284932
9.324                0.769993071      175.908829
9.325                0.769808656      175.532729
9.326                0.769628795      175.156641
9.327                0.769453498      174.780573
9.328                0.769282774      174.404533
9.329                0.769116631      174.028528
9.33                 0.768955076      173.652568
9.331                0.768798118      173.276659
9.332                0.768645761       172.90081
9.333                0.768498013      172.525028
9.334                0.768354878      172.149323
9.335                0.768216363      171.773701
9.336                0.768082471      171.398171
9.337                0.767953207      171.022741
9.338                0.767828573      170.647419
9.339                0.767708574      170.272212
9.34                  0.76759321      169.897129
9.341                0.767482485      169.522177
9.342                0.767376399      169.147365
9.343                0.767274953        168.7727
9.344                0.767178147       168.39819
9.345                0.767085982      168.023843
9.346                0.766998456      167.649667
9.347                0.766915568       167.27567
9.348                0.766837317      166.901859
9.349                0.766763699      166.528242
9.35                 0.766694712      166.154827
9.351                0.766630354      165.781622
9.352                0.766570619      165.408634
9.353                0.766515503      165.035872
9.354                0.766465002      164.663341
9.355                0.766419111      164.291052
9.356                0.766377822       163.91901
9.357                0.766341131      163.547223
9.358                0.766309029      163.175699
9.359                0.766281511      162.804446
9.36                 0.766258567      162.433471
9.361                0.766240189       162.06278
9.362                0.766226369      161.692383
9.363                0.766217097      161.322285
9.364                0.766212363      160.952494
9.365                0.766212158      160.583018
9.366                 0.76621647      160.213864
9.367                0.766225288      159.845039
9.368                0.766238601      159.476549
9.369                0.766256396      159.108403
9.37                 0.766278662      158.740607
9.371                0.766305384      158.373169
9.372                0.766336549      158.006094
9.373                0.766372144      157.639391
9.374                0.766412155      157.273066
9.375                0.766456565      156.907125
9.376                0.766505361      156.541576
9.377                0.766558527      156.176426
9.378                0.766616047       155.81168
9.379                0.766677903      155.447347
9.38                 0.766744081      155.083431
9.381                0.766814561       154.71994
9.382                0.766889327      154.356881
9.383                0.766968361      153.994259
9.384                0.767051644      153.632082
9.385                0.767139158      153.270355
9.386                0.767230883      152.909084
9.387                  0.7673268      152.548277
9.388                0.767426889      152.187938
9.389                 0.76753113      151.828075
9.39                 0.767639503      151.468693
9.391                0.767751986      151.109799
9.392                0.767868558      150.751397
9.393                0.767989198      150.393495
9.394                0.768113884      150.036097
9.395                0.768242594      149.679211
9.396                0.768375305       149.32284
