! TOUCHSTONE file generated by CST DESIGN STUDIO
! Date and time: Tue Feb  4 13:43:04 2025
! Project name: C:\Work\MatlabApps\UnitCellOptimizationMatlab\CST\unitcell.cst
! Tree item: Tasks\Sweep1\SPara1\S-Parameters
! Header version: 2024
! Port assignment regex: !\s*Touchstone port\s*([0-9]+)\s*=\s*(CST MWS port|CST DES external port|CST DES block port)\s*(.+)\s* \(\"(.*)\"\)(\s*mode\s*([0-9]+))?.*
! Touchstone port assignment:
! Touchstone port 1 = CST DES external port 1 ("")
# GHz S MA R 50
9                    0.962182587      -55.965629
9.001                0.962052652     -56.0453443
9.002                0.961922195      -56.125242
9.003                0.961791216     -56.2053227
9.004                0.961659713     -56.2855871
9.005                0.961527685     -56.3660358
9.006                 0.96139513     -56.4466693
9.007                0.961262046     -56.5274883
9.008                0.961128433     -56.6084933
9.009                0.960994289     -56.6896851
9.01                 0.960859613     -56.7710642
9.011                0.960724402     -56.8526311
9.012                0.960588657     -56.9343867
9.013                0.960452374     -57.0163314
9.014                0.960315554     -57.0984659
9.015                0.960178194     -57.1807908
9.016                0.960040292     -57.2633068
9.017                0.959901849     -57.3460145
9.018                0.959762861     -57.4289146
9.019                0.959623328     -57.5120076
9.02                 0.959483248     -57.5952942
9.021                0.959342619     -57.6787751
9.022                0.959201441     -57.7624509
9.023                0.959059712     -57.8463223
9.024                 0.95891743     -57.9303899
9.025                0.958774594     -58.0146544
9.026                0.958631202     -58.0991164
9.027                0.958487253     -58.1837766
9.028                0.958342745     -58.2686357
9.029                0.958197677     -58.3536943
9.03                 0.958052048     -58.4389531
9.031                0.957905856     -58.5244128
9.032                0.957759099     -58.6100741
9.033                0.957611776     -58.6959376
9.034                0.957463886      -58.782004
9.035                0.957315426      -58.868274
9.036                0.957166396     -58.9547483
9.037                0.957016794     -59.0414276
9.038                0.956866619     -59.1283126
9.039                0.956715868     -59.2154039
9.04                 0.956564541     -59.3027023
9.041                0.956412636     -59.3902085
9.042                0.956260152     -59.4779232
9.043                0.956107086     -59.5658471
9.044                0.955953438     -59.6539809
9.045                0.955799206     -59.7423253
9.046                0.955644388     -59.8308811
9.047                0.955488983     -59.9196489
9.048                0.955332989     -60.0086296
9.049                0.955176405     -60.0978237
9.05                 0.955019229     -60.1872321
9.051                 0.95486146     -60.2768555
9.052                0.954703096     -60.3666946
9.053                0.954544135     -60.4567502
9.054                0.954384577      -60.547023
9.055                0.954224419     -60.6375138
9.056                 0.95406366     -60.7282232
9.057                0.953902299     -60.8191522
9.058                0.953740333     -60.9103013
9.059                0.953577762     -61.0016715
9.06                 0.953414583     -61.0932633
9.061                0.953250796     -61.1850778
9.062                0.953086398     -61.2771155
9.063                0.952921388     -61.3693772
9.064                0.952755764     -61.4618638
9.065                0.952589526      -61.554576
9.066                 0.95242267     -61.6475147
9.067                0.952255197     -61.7406805
9.068                0.952087103     -61.8340743
9.069                0.951918388     -61.9276969
9.07                 0.951749051     -62.0215491
9.071                0.951579088     -62.1156317
9.072                0.951408499     -62.2099455
9.073                0.951237282     -62.3044913
9.074                0.951065436     -62.3992699
9.075                0.950892959     -62.4942821
9.076                0.950719849     -62.5895288
9.077                0.950546105     -62.6850108
9.078                0.950371725     -62.7807289
9.079                0.950196707     -62.8766839
9.08                 0.950021051     -62.9728768
9.081                0.949844753     -63.0693082
9.082                0.949667813     -63.1659791
9.083                 0.94949023     -63.2628903
9.084                   0.949312     -63.3600427
9.085                0.949133124     -63.4574372
9.086                0.948953598     -63.5550745
9.087                0.948773422     -63.6529555
9.088                0.948592594     -63.7510812
9.089                0.948411112     -63.8494524
9.09                 0.948228975     -63.9480699
9.091                0.948046181     -64.0469347
9.092                0.947862727     -64.1460476
9.093                0.947678614     -64.2454096
9.094                0.947493838     -64.3450214
9.095                0.947308399     -64.4448841
9.096                0.947122294     -64.5449985
9.097                0.946935522     -64.6453655
9.098                0.946748081     -64.7459861
9.099                 0.94655997     -64.8468611
9.1                  0.946371187     -64.9479915
9.101                 0.94618173     -65.0493782
9.102                0.945991598     -65.1510221
9.103                0.945800788     -65.2529241
9.104                  0.9456093     -65.3550853
9.105                0.945417131     -65.4575065
9.106                0.945224279     -65.5601887
9.107                0.945030744     -65.6631329
9.108                0.944836523       -65.76634
9.109                0.944641615     -65.8698109
9.11                 0.944446018     -65.9735467
9.111                0.944249729     -66.0775482
9.112                0.944052749     -66.1818166
9.113                0.943855074     -66.2863528
9.114                0.943656702     -66.3911577
9.115                0.943457633     -66.4962323
9.116                0.943257865     -66.6015778
9.117                0.943057395      -66.707195
9.118                0.942856222     -66.8130849
9.119                0.942654345     -66.9192487
9.12                 0.942451761     -67.0256873
9.121                0.942248468     -67.1324017
9.122                0.942044465      -67.239393
9.123                 0.94183975     -67.3466622
9.124                0.941634322     -67.4542104
9.125                0.941428178     -67.5620387
9.126                0.941221316      -67.670148
9.127                0.941013735     -67.7785394
9.128                0.940805434     -67.8872141
9.129                0.940596409     -67.9961731
9.13                  0.94038666     -68.1054174
9.131                0.940176184     -68.2149483
9.132                0.939964979     -68.3247667
9.133                0.939753044     -68.4348738
9.134                0.939540377     -68.5452707
9.135                0.939326976     -68.6559586
9.136                0.939112838     -68.7669385
9.137                0.938897963     -68.8782116
9.138                0.938682347      -68.989779
9.139                 0.93846599      -69.101642
9.14                 0.938248889     -69.2138016
9.141                0.938031041      -69.326259
9.142                0.937812446     -69.4390154
9.143                0.937593101     -69.5520721
9.144                0.937373004     -69.6654301
9.145                0.937152152     -69.7790908
9.146                0.936930545     -69.8930553
9.147                0.936708179     -70.0073249
9.148                0.936485053     -70.1219007
9.149                0.936261164     -70.2367842
9.15                  0.93603651     -70.3519764
9.151                0.935811089     -70.4674787
9.152                0.935584899     -70.5832925
9.153                0.935357937     -70.6994188
9.154                0.935130202     -70.8158592
9.155                 0.93490169     -70.9326149
9.156                0.934672399     -71.0496872
9.157                0.934442327     -71.1670776
9.158                0.934211471     -71.2847873
9.159                 0.93397983     -71.4028177
9.16                 0.933747399     -71.5211703
9.161                0.933514177     -71.6398465
9.162                0.933280161     -71.7588477
9.163                0.933045348     -71.8781753
9.164                0.932809735     -71.9978309
9.165                0.932573319     -72.1178159
9.166                0.932336098     -72.2381318
9.167                0.932098068     -72.3587801
9.168                0.931859225     -72.4797625
9.169                0.931619568     -72.6010804
9.17                 0.931379092     -72.7227356
9.171                0.931137794     -72.8447295
9.172                 0.93089567      -72.967064
9.173                0.930652716     -73.0897406
9.174                0.930408929     -73.2127612
9.175                0.930164305     -73.3361273
9.176                0.929918839     -73.4598409
9.177                0.929672526     -73.5839038
9.178                0.929425364     -73.7083178
9.179                0.929177345     -73.8330847
9.18                 0.928928466     -73.9582067
9.181                0.928678722     -74.0836856
9.182                0.928428106     -74.2095235
9.183                0.928176613     -74.3357225
9.184                0.927924236     -74.4622847
9.185                 0.92767097     -74.5892124
9.186                0.927416806     -74.7165078
9.187                0.927161738     -74.8441732
9.188                0.926905759     -74.9722112
9.189                0.926648859     -75.1006241
9.19                 0.926391029     -75.2294146
9.191                0.926132261     -75.3585854
9.192                0.925872544     -75.4881391
9.193                0.925611867     -75.6180787
9.194                0.925350219     -75.7484073
9.195                0.925087586     -75.8791278
9.196                0.924823955     -76.0102436
9.197                0.924559311      -76.141758
9.198                0.924293638     -76.2736747
9.199                0.924026919     -76.4059974
9.2                  0.923759134     -76.5387299
9.201                0.923490262     -76.6718765
9.202                0.923220282     -76.8054416
9.203                0.922949166     -76.9394296
9.204                0.922676889     -77.0738456
9.205                 0.92240342     -77.2086948
9.206                0.922128725     -77.3439826
9.207                0.921852767      -77.479715
9.208                0.921575504     -77.6158984
9.209                 0.92129689     -77.7525394
9.21                 0.921016874     -77.8896455
9.211                0.920735398     -78.0272244
9.212                0.920452396     -78.1652847
9.213                0.920167796     -78.3038355
9.214                0.919881515     -78.4428869
9.215                0.919593457     -78.5824498
9.216                0.919303516     -78.7225361
9.217                0.919011569     -78.8631588
9.218                0.918717474     -79.0043323
9.219                0.918421069     -79.1460725
9.22                 0.918122165     -79.2883968
9.221                0.917820544     -79.4313247
9.222                0.917515948     -79.5748778
9.223                0.917208078     -79.7190801
9.224                0.916896578     -79.8639588
9.225                0.916581027     -80.0095442
9.226                 0.91626092     -80.1558703
9.227                0.915935654     -80.3029757
9.228                0.915604497      -80.450904
9.229                0.915266557     -80.5997044
9.23                 0.914920741      -80.749433
9.231                0.914565697     -80.9001531
9.232                 0.91419974     -81.0519363
9.233                0.913820749     -81.2048632
9.234                0.913426032     -81.3590236
9.235                0.913012139     -81.5145156
9.236                0.912574606     -81.6714436
9.237                0.912107597     -81.8299124
9.238                0.911603411     -81.9900147
9.239                0.911051799     -82.1518076
9.24                 0.910439037     -82.3152666
9.241                0.909746705     -82.4802002
9.242                0.908950248     -82.6460905
9.243                0.908017671     -82.8118038
9.244                0.906909663     -82.9750801
9.245                 0.90558458     -83.1316999
9.246                0.904016227     -83.2743522
9.247                0.902237774     -83.3918619
9.248                0.900418431     -83.4710711
9.249                0.898923337     -83.5052133
9.25                 0.898206461     -83.5073026
9.251                0.898477306     -83.5118101
9.252                0.899493164     -83.5524092
9.253                0.900785724     -83.6403978
9.254                0.901994664       -83.76752
9.255                 0.90296355     -83.9198396
9.256                0.903671271     -84.0859682
9.257                0.904152515     -84.2586642
9.258                0.904454125     -84.4338694
9.259                0.904618345     -84.6094906
9.26                 0.904678723      -84.784536
9.261                0.904660578     -84.9585998
9.262                0.904582654     -85.1315757
9.263                0.904458769     -85.3035041
9.264                0.904299145     -85.4744906
9.265                0.904111395     -85.6446649
9.266                0.903901246     -85.8141599
9.267                0.903673048     -85.9831015
9.268                0.903430137     -86.1516048
9.269                0.903175102     -86.3197726
9.27                 0.902909966     -86.4876959
9.271                0.902636332     -86.6554546
9.272                0.902355474     -86.8231189
9.273                 0.90206842     -86.9907501
9.274                0.901776001      -87.158402
9.275                0.901478896     -87.3261218
9.276                0.901177663     -87.4939513
9.277                0.900872765     -87.6619272
9.278                0.900564587      -87.830082
9.279                0.900253453     -87.9984447
9.28                 0.899939634     -88.1670409
9.281                0.899623361     -88.3358939
9.282                 0.89930483     -88.5050242
9.283                 0.89898421     -88.6744506
9.284                0.898661645     -88.8441898
9.285                 0.89833726     -89.0142572
9.286                0.898011163     -89.1846666
9.287                0.897683448     -89.3554308
9.288                0.897354198     -89.5265613
9.289                0.897023484     -89.6980688
9.29                 0.896691371     -89.8699632
9.291                0.896357915     -90.0422535
9.292                0.896023166     -90.2149481
9.293                0.895687167      -90.388055
9.294                0.895349959     -90.5615813
9.295                0.895011576      -90.735534
9.296                0.894672052     -90.9099193
9.297                0.894331414     -91.0847434
9.298                0.893989688     -91.2600119
9.299                0.893646898     -91.4357302
9.3                  0.893303066     -91.6119034
9.301                0.892958211     -91.7885362
9.302                0.892612351     -91.9656333
9.303                0.892265501      -92.143199
9.304                0.891917679     -92.3212376
9.305                0.891568896      -92.499753
9.306                0.891219167     -92.6787491
9.307                0.890868504     -92.8582295
9.308                0.890516917     -93.0381979
9.309                0.890164417     -93.2186577
9.31                 0.889811015     -93.3996122
9.311                0.889456719     -93.5810646
9.312                0.889101539     -93.7630181
9.313                0.888745482     -93.9454756
9.314                0.888388557     -94.1284402
9.315                0.888030771     -94.3119146
9.316                0.887672131     -94.4959018
9.317                0.887312645     -94.6804044
9.318                 0.88695232     -94.8654251
9.319                0.886591161     -95.0509666
9.32                 0.886229175     -95.2370313
9.321                0.885866368     -95.4236219
9.322                0.885502747     -95.6107407
9.323                0.885138317     -95.7983902
9.324                0.884773083     -95.9865728
9.325                0.884407052     -96.1752908
9.326                0.884040228     -96.3645465
9.327                0.883672618     -96.5543423
9.328                0.883304227     -96.7446802
9.329                0.882935059     -96.9355627
9.33                 0.882565121     -97.1269918
9.331                0.882194417     -97.3189697
9.332                0.881822954     -97.5114985
9.333                0.881450735     -97.7045803
9.334                0.881077766     -97.8982173
9.335                0.880704053     -98.0924115
9.336                  0.8803296     -98.2871649
9.337                0.879954413     -98.4824796
9.338                0.879578498     -98.6783575
9.339                0.879201858     -98.8748006
9.34                   0.8788245      -99.071811
9.341                0.878446429     -99.2693905
9.342                 0.87806765     -99.4675412
9.343                0.877688169     -99.6662648
9.344                 0.87730799     -99.8655634
9.345                 0.87692712     -100.065439
9.346                0.876545565     -100.265893
9.347                0.876163328     -100.466928
9.348                0.875780417     -100.668545
9.349                0.875396836     -100.870746
9.35                 0.875012593     -101.073533
9.351                0.874627691     -101.276908
9.352                0.874242138     -101.480873
9.353                0.873855939      -101.68543
9.354                  0.8734691     -101.890579
9.355                0.873081627     -102.096324
9.356                0.872693526     -102.302665
9.357                0.872304805     -102.509605
9.358                0.871915468     -102.717145
9.359                0.871525522     -102.925287
9.36                 0.871134974     -103.134033
9.361                 0.87074383     -103.343384
9.362                0.870352097     -103.553342
9.363                0.869959782     -103.763909
9.364                0.869566891     -103.975086
9.365                0.869173431     -104.186876
9.366                 0.86877941     -104.399279
9.367                0.868384834     -104.612297
9.368                 0.86798971     -104.825932
9.369                0.867594046     -105.040186
9.37                 0.867197849      -105.25506
9.371                0.866801127     -105.470556
9.372                0.866403887     -105.686675
9.373                0.866006136      -105.90342
9.374                0.865607883      -106.12079
9.375                0.865209135     -106.338789
9.376                  0.8648099     -106.557417
9.377                0.864410187     -106.776676
9.378                0.864010003     -106.996568
9.379                0.863609357     -107.217094
9.38                 0.863208257     -107.438256
9.381                0.862806711     -107.660055
9.382                0.862404728     -107.882492
9.383                0.862002317     -108.105569
9.384                0.861599487     -108.329288
9.385                0.861196246      -108.55365
9.386                0.860792604     -108.778656
9.387                 0.86038857     -109.004307
9.388                0.859984152     -109.230606
9.389                 0.85957936     -109.457553
9.39                 0.859174205     -109.685151
9.391                0.858768695     -109.913399
9.392                0.858362839       -110.1423
9.393                0.857956649     -110.371855
9.394                0.857550133     -110.602065
9.395                0.857143303     -110.832931
9.396                0.856736167     -111.064456
