! TOUCHSTONE file generated by CST DESIGN STUDIO
! Date and time: Tue Feb  4 13:43:07 2025
! Project name: C:\Work\MatlabApps\UnitCellOptimizationMatlab\CST\unitcell.cst
! Tree item: Tasks\Sweep1\SPara1\S-Parameters
! Header version: 2024
! Port assignment regex: !\s*Touchstone port\s*([0-9]+)\s*=\s*(CST MWS port|CST DES external port|CST DES block port)\s*(.+)\s* \(\"(.*)\"\)(\s*mode\s*([0-9]+))?.*
! Touchstone port assignment:
! Touchstone port 1 = CST DES external port 1 ("")
# GHz S MA R 50
9                    0.971408862     -47.9343675
9.001                0.971317447     -47.9961396
9.002                0.971225688     -48.0580331
9.003                0.971133583     -48.1200485
9.004                0.971041134     -48.1821859
9.005                0.970948338     -48.2444458
9.006                0.970855197     -48.3068286
9.007                 0.97076171     -48.3693346
9.008                0.970667876     -48.4319642
9.009                0.970573696     -48.4947177
9.01                 0.970479169     -48.5575956
9.011                0.970384294     -48.6205982
9.012                0.970289072     -48.6837258
9.013                0.970193503     -48.7469788
9.014                0.970097585     -48.8103577
9.015                0.970001319     -48.8738627
9.016                0.969904705     -48.9374943
9.017                0.969807742     -49.0012529
9.018                 0.96971043     -49.0651388
9.019                0.969612769     -49.1291525
9.02                 0.969514758     -49.1932942
9.021                0.969416398     -49.2575645
9.022                0.969317687     -49.3219636
9.023                0.969218627      -49.386492
9.024                0.969119216     -49.4511501
9.025                0.969019454     -49.5159382
9.026                0.968919341     -49.5808569
9.027                0.968818877     -49.6459064
9.028                0.968718062     -49.7110871
9.029                0.968616895     -49.7763996
9.03                 0.968515376     -49.8418441
9.031                0.968413505     -49.9074211
9.032                0.968311282      -49.973131
9.033                0.968208706     -50.0389742
9.034                0.968105777     -50.1049512
9.035                0.968002495     -50.1710623
9.036                 0.96789886     -50.2373079
9.037                0.967794871     -50.3036885
9.038                0.967690529     -50.3702046
9.039                0.967585832     -50.4368564
9.04                 0.967480781     -50.5036445
9.041                0.967375376     -50.5705693
9.042                0.967269617     -50.6376311
9.043                0.967163502     -50.7048305
9.044                0.967057032     -50.7721679
9.045                0.966950207     -50.8396437
9.046                0.966843026     -50.9072583
9.047                0.966735489     -50.9750122
9.048                0.966627596     -51.0429058
9.049                0.966519347     -51.1109396
9.05                 0.966410742     -51.1791141
9.051                 0.96630178     -51.2474295
9.052                 0.96619246     -51.3158865
9.053                0.966082784     -51.3844855
9.054                 0.96597275     -51.4532269
9.055                0.965862359     -51.5221112
9.056                 0.96575161     -51.5911388
9.057                0.965640502     -51.6603102
9.058                0.965529036     -51.7296259
9.059                0.965417212     -51.7990863
9.06                 0.965305029     -51.8686919
9.061                0.965192487     -51.9384431
9.062                0.965079586     -52.0083405
9.063                0.964966325     -52.0783846
9.064                0.964852704     -52.1485757
9.065                0.964738724     -52.2189144
9.066                0.964624383     -52.2894011
9.067                0.964509682     -52.3600364
9.068                0.964394621     -52.4308207
9.069                0.964279198     -52.5017545
9.07                 0.964163414     -52.5728383
9.071                0.964047269     -52.6440726
9.072                0.963930763     -52.7154579
9.073                0.963813894     -52.7869947
9.074                0.963696664     -52.8586834
9.075                0.963579071     -52.9305247
9.076                0.963461116     -53.0025189
9.077                0.963342798     -53.0746667
9.078                0.963224117     -53.1469685
9.079                0.963105072     -53.2194248
9.08                 0.962985664     -53.2920361
9.081                0.962865892      -53.364803
9.082                0.962745757     -53.4377259
9.083                0.962625256     -53.5108055
9.084                0.962504392     -53.5840421
9.085                0.962383162     -53.6574365
9.086                0.962261568     -53.7309889
9.087                0.962139608     -53.8047001
9.088                0.962017282     -53.8785706
9.089                0.961894591     -53.9526008
9.09                 0.961771534     -54.0267913
9.091                 0.96164811     -54.1011427
9.092                0.961524319     -54.1756555
9.093                0.961400162     -54.2503302
9.094                0.961275637     -54.3251675
9.095                0.961150745     -54.4001678
9.096                0.961025485     -54.4753317
9.097                0.960899858     -54.5506597
9.098                0.960773861     -54.6261525
9.099                0.960647496     -54.7018105
9.1                  0.960520763     -54.7776344
9.101                 0.96039366     -54.8536247
9.102                0.960266187      -54.929782
9.103                0.960138345     -55.0061069
9.104                0.960010133     -55.0825999
9.105                 0.95988155     -55.1592616
9.106                0.959752597     -55.2360926
9.107                0.959623272     -55.3130934
9.108                0.959493576     -55.3902648
9.109                0.959363509     -55.4676071
9.11                 0.959233069     -55.5451212
9.111                0.959102258     -55.6228074
9.112                0.958971074     -55.7006665
9.113                0.958839516      -55.778699
9.114                0.958707586     -55.8569056
9.115                0.958575282     -55.9352867
9.116                0.958442604     -56.0138432
9.117                0.958309551     -56.0925755
9.118                0.958176125     -56.1714842
9.119                0.958042323     -56.2505701
9.12                 0.957908145     -56.3298336
9.121                0.957773593     -56.4092755
9.122                0.957638664     -56.4888964
9.123                0.957503358     -56.5686968
9.124                0.957367676     -56.6486774
9.125                0.957231617     -56.7288389
9.126                 0.95709518     -56.8091819
9.127                0.956958365     -56.8897069
9.128                0.956821172     -56.9704148
9.129                0.956683601      -57.051306
9.13                  0.95654565     -57.1323813
9.131                 0.95640732     -57.2136414
9.132                 0.95626861     -57.2950867
9.133                0.956129519     -57.3767181
9.134                0.955990048     -57.4585362
9.135                0.955850196     -57.5405416
9.136                0.955709963      -57.622735
9.137                0.955569347     -57.7051171
9.138                 0.95542835     -57.7876886
9.139                0.955286969       -57.87045
9.14                 0.955145205     -57.9534022
9.141                0.955003058     -58.0365457
9.142                0.954860526     -58.1198813
9.143                 0.95471761     -58.2034097
9.144                0.954574309     -58.2871315
9.145                0.954430622     -58.3710474
9.146                 0.95428655     -58.4551581
9.147                0.954142091     -58.5394644
9.148                0.953997245     -58.6239669
9.149                0.953852012     -58.7086664
9.15                 0.953706391     -58.7935634
9.151                0.953560381     -58.8786589
9.152                0.953413983     -58.9639534
9.153                0.953267196     -59.0494477
9.154                0.953120019     -59.1351425
9.155                0.952972451     -59.2210386
9.156                0.952824493     -59.3071366
9.157                0.952676143     -59.3934373
9.158                0.952527401     -59.4799414
9.159                0.952378267     -59.5666497
9.16                  0.95222874     -59.6535628
9.161                0.952078819     -59.7406817
9.162                0.951928504     -59.8280069
9.163                0.951777795     -59.9155393
9.164                0.951626691     -60.0032795
9.165                0.951475191     -60.0912285
9.166                0.951323294     -60.1793868
9.167                0.951171001     -60.2677553
9.168                 0.95101831     -60.3563347
9.169                0.950865221     -60.4451259
9.17                 0.950711734     -60.5341296
9.171                0.950557847     -60.6233465
9.172                0.950403561     -60.7127774
9.173                0.950248874     -60.8024232
9.174                0.950093786     -60.8922846
9.175                0.949938296     -60.9823624
9.176                0.949782404     -61.0726573
9.177                0.949626109     -61.1631703
9.178                0.949469411     -61.2539021
9.179                0.949312308     -61.3448534
9.18                   0.9491548     -61.4360252
9.181                0.948996887     -61.5274181
9.182                0.948838568     -61.6190331
9.183                0.948679842      -61.710871
9.184                0.948520708     -61.8029325
9.185                0.948361166     -61.8952185
9.186                0.948201215     -61.9877298
9.187                0.948040855     -62.0804672
9.188                0.947880084     -62.1734316
9.189                0.947718902     -62.2666239
9.19                 0.947557309     -62.3600448
9.191                0.947395303     -62.4536952
9.192                0.947232884      -62.547576
9.193                0.947070051      -62.641688
9.194                0.946906803      -62.736032
9.195                 0.94674314      -62.830609
9.196                0.946579061     -62.9254197
9.197                0.946414565     -63.0204651
9.198                0.946249651      -63.115746
9.199                0.946084319     -63.2112633
9.2                  0.945918568     -63.3070179
9.201                0.945752397     -63.4030107
9.202                0.945585805     -63.4992425
9.203                0.945418792     -63.5957142
9.204                0.945251356     -63.6924267
9.205                0.945083497     -63.7893809
9.206                0.944915214     -63.8865778
9.207                0.944746507     -63.9840182
9.208                0.944577373      -64.081703
9.209                0.944407814     -64.1796331
9.21                 0.944237827     -64.2778095
9.211                0.944067412     -64.3762331
9.212                0.943896568     -64.4749047
9.213                0.943725294     -64.5738254
9.214                 0.94355359      -64.672996
9.215                0.943381454     -64.7724175
9.216                0.943208886     -64.8720907
9.217                0.943035884     -64.9720168
9.218                0.942862448     -65.0721965
9.219                0.942688577     -65.1726309
9.22                  0.94251427     -65.2733209
9.221                0.942339527     -65.3742674
9.222                0.942164345     -65.4754715
9.223                0.941988725      -65.576934
9.224                0.941812665      -65.678656
9.225                0.941636165     -65.7806384
9.226                0.941459223     -65.8828822
9.227                0.941281839     -65.9853883
9.228                0.941104012     -66.0881578
9.229                 0.94092574     -66.1911916
9.23                 0.940747023     -66.2944908
9.231                 0.94056786     -66.3980562
9.232                0.940388249      -66.501889
9.233                0.940208191     -66.6059901
9.234                0.940027683     -66.7103606
9.235                0.939846725     -66.8150014
9.236                0.939665316     -66.9199135
9.237                0.939483455      -67.025098
9.238                 0.93930114     -67.1305559
9.239                0.939118372     -67.2362882
9.24                 0.938935148      -67.342296
9.241                0.938751469     -67.4485802
9.242                0.938567332      -67.555142
9.243                0.938382737     -67.6619823
9.244                0.938197682     -67.7691022
9.245                0.938012168     -67.8765028
9.246                0.937826192      -67.984185
9.247                0.937639753     -68.0921501
9.248                0.937452852      -68.200399
9.249                0.937265485     -68.3089327
9.25                 0.937077653     -68.4177525
9.251                0.936889355     -68.5268593
9.252                0.936700589     -68.6362541
9.253                0.936511354     -68.7459382
9.254                0.936321649     -68.8559126
9.255                0.936131473     -68.9661783
9.256                0.935940825     -69.0767366
9.257                0.935749704     -69.1875883
9.258                0.935558109     -69.2987348
9.259                0.935366039      -69.410177
9.26                 0.935173492     -69.5219161
9.261                0.934980467     -69.6339532
9.262                0.934786964     -69.7462895
9.263                 0.93459298     -69.8589259
9.264                0.934398516     -69.9718638
9.265                 0.93420357     -70.0851041
9.266                0.934008141     -70.1986481
9.267                0.933812227     -70.3124969
9.268                0.933615828     -70.4266516
9.269                0.933418942     -70.5411133
9.27                 0.933221569     -70.6558833
9.271                0.933023706     -70.7709627
9.272                0.932825353     -70.8863526
9.273                 0.93262651     -71.0020541
9.274                0.932427173     -71.1180686
9.275                0.932227344     -71.2343971
9.276                0.932027019     -71.3510408
9.277                0.931826199      -71.468001
9.278                0.931624881     -71.5852787
9.279                0.931423065     -71.7028752
9.28                  0.93122075     -71.8207917
9.281                0.931017934     -71.9390293
9.282                0.930814617     -72.0575893
9.283                0.930610797     -72.1764729
9.284                0.930406472     -72.2956813
9.285                0.930201642     -72.4152157
9.286                0.929996306     -72.5350773
9.287                0.929790461     -72.6552673
9.288                0.929584108     -72.7757871
9.289                0.929377245     -72.8966377
9.29                 0.929169871     -73.0178205
9.291                0.928961984     -73.1393367
9.292                0.928753584     -73.2611875
9.293                0.928544668     -73.3833742
9.294                0.928335237      -73.505898
9.295                0.928125288     -73.6287602
9.296                0.927914821      -73.751962
9.297                0.927703835     -73.8755048
9.298                0.927492327     -73.9993897
9.299                0.927280298     -74.1236182
9.3                  0.927067745     -74.2481913
9.301                0.926854668     -74.3731105
9.302                0.926641065      -74.498377
9.303                0.926426936      -74.623992
9.304                0.926212278      -74.749957
9.305                0.925997091     -74.8762732
9.306                0.925781374     -75.0029418
9.307                0.925565126     -75.1299643
9.308                0.925348345     -75.2573419
9.309                0.925131029     -75.3850759
9.31                 0.924913179     -75.5131677
9.311                0.924694792     -75.6416186
9.312                0.924475868     -75.7704299
9.313                0.924256406     -75.8996029
9.314                0.924036403      -76.029139
9.315                 0.92381586     -76.1590395
9.316                0.923594774     -76.2893058
9.317                0.923373146     -76.4199392
9.318                0.923150972     -76.5509411
9.319                0.922928254     -76.6823128
9.32                 0.922704988     -76.8140558
9.321                0.922481175     -76.9461712
9.322                0.922256812     -77.0786606
9.323                  0.9220319     -77.2115254
9.324                0.921806436     -77.3447668
9.325                 0.92158042     -77.4783862
9.326                 0.92135385     -77.6123852
9.327                0.921126725     -77.7467649
9.328                0.920899045      -77.881527
9.329                0.920670808     -78.0166726
9.33                 0.920442013     -78.1522033
9.331                0.920212659     -78.2881205
9.332                0.919982745     -78.4244255
9.333                 0.91975227     -78.5611199
9.334                0.919521232     -78.6982049
9.335                0.919289631      -78.835682
9.336                0.919057466     -78.9735528
9.337                0.918824736     -79.1118185
9.338                0.918591439     -79.2504806
9.339                0.918357574     -79.3895406
9.34                 0.918123141     -79.5289998
9.341                0.917888139     -79.6688599
9.342                0.917652566     -79.8091221
9.343                0.917416422     -79.9497881
9.344                0.917179705     -80.0908591
9.345                0.916942414     -80.2323367
9.346                 0.91670455     -80.3742224
9.347                 0.91646611     -80.5165176
9.348                0.916227094     -80.6592238
9.349                0.915987501     -80.8023425
9.35                 0.915747329     -80.9458751
9.351                0.915506579     -81.0898232
9.352                0.915265249     -81.2341882
9.353                0.915023338     -81.3789717
9.354                0.914780845     -81.5241751
9.355                 0.91453777     -81.6697999
9.356                0.914294112     -81.8158476
9.357                0.914049869     -81.9623198
9.358                0.913805042      -82.109218
9.359                0.913559629     -82.2565436
9.36                  0.91331363     -82.4042982
9.361                0.913067043     -82.5524833
9.362                0.912819869     -82.7011004
9.363                0.912572105     -82.8501512
9.364                0.912323753      -82.999637
9.365                 0.91207481     -83.1495594
9.366                0.911825277     -83.2999201
9.367                0.911575152     -83.4507204
9.368                0.911324435     -83.6019621
9.369                0.911073125     -83.7536465
9.37                 0.910821222     -83.9057753
9.371                0.910568725     -84.0583501
9.372                0.910315634     -84.2113723
9.373                0.910061948     -84.3648436
9.374                0.909807666     -84.5187654
9.375                0.909552788     -84.6731395
9.376                0.909297314     -84.8279673
9.377                0.909041243     -84.9832505
9.378                0.908784575     -85.1389906
9.379                0.908527308     -85.2951891
9.38                 0.908269444     -85.4518478
9.381                0.908010981     -85.6089681
9.382                0.907751919     -85.7665516
9.383                0.907492258        -85.9246
9.384                0.907231997     -86.0831148
9.385                0.906971137     -86.2420977
9.386                0.906709676     -86.4015502
9.387                0.906447616      -86.561474
9.388                0.906184954     -86.7218705
9.389                0.905921693     -86.8827416
9.39                  0.90565783     -87.0440887
9.391                0.905393366     -87.2059135
9.392                0.905128302     -87.3682175
9.393                0.904862637     -87.5310025
9.394                 0.90459637       -87.69427
9.395                0.904329503     -87.8580217
9.396                0.904062034     -88.0222591
