! TOUCHSTONE file generated by CST DESIGN STUDIO
! Date and time: Tue Feb  4 14:27:44 2025
! Project name: C:\Work\MatlabApps\UnitCellOptimizationMatlab\CST\unitcell.cst
! Tree item: Tasks\Sweep1\SPara1\S-Parameters
! Header version: 2024
! Port assignment regex: !\s*Touchstone port\s*([0-9]+)\s*=\s*(CST MWS port|CST DES external port|CST DES block port)\s*(.+)\s* \(\"(.*)\"\)(\s*mode\s*([0-9]+))?.*
! Touchstone port assignment:
! Touchstone port 1 = CST DES external port 1 ("")
# GHz S MA R 50
9                    0.909997796     -84.7579008
9.001                0.909815093      -84.909931
9.002                   0.909632     -85.0624408
9.003                0.909448514     -85.2154322
9.004                0.909264633     -85.3689068
9.005                0.909080356     -85.5228662
9.006                0.908895679     -85.6773123
9.007                0.908710602     -85.8322467
9.008                0.908525121     -85.9876712
9.009                0.908339236     -86.1435875
9.01                 0.908152943     -86.2999974
9.011                0.907966242     -86.4569025
9.012                0.907779129     -86.6143047
9.013                0.907591604     -86.7722056
9.014                0.907403663      -86.930607
9.015                0.907215306     -87.0895107
9.016                 0.90702653     -87.2489184
9.017                0.906837334     -87.4088319
9.018                0.906647714     -87.5692529
9.019                0.906457671     -87.7301832
9.02                 0.906267201     -87.8916245
9.021                0.906076303     -88.0535786
9.022                0.905884975     -88.2160473
9.023                0.905693215     -88.3790324
9.024                0.905501022     -88.5425356
9.025                0.905308393     -88.7065586
9.026                0.905115327     -88.8711034
9.027                0.904921822     -89.0361716
9.028                0.904727877      -89.201765
9.029                 0.90453349     -89.3678854
9.03                 0.904338658     -89.5345347
9.031                0.904143381     -89.7017145
9.032                0.903947657     -89.8694267
9.033                0.903751484     -90.0376731
9.034                 0.90355486     -90.2064554
9.035                0.903357784     -90.3757755
9.036                0.903160255     -90.5456351
9.037                0.902962271     -90.7160361
9.038                 0.90276383     -90.8869802
9.039                0.902564931     -91.0584692
9.04                 0.902365572      -91.230505
9.041                0.902165753     -91.4030894
9.042                0.901965471     -91.5762241
9.043                0.901764725     -91.7499109
9.044                0.901563515     -91.9241517
9.045                0.901361837     -92.0989483
9.046                0.901159692     -92.2743025
9.047                0.900957079      -92.450216
9.048                0.900753994     -92.6266907
9.049                0.900550439     -92.8037284
9.05                 0.900346411     -92.9813309
9.051                0.900141908        -93.1595
9.052                0.899936932     -93.3382375
9.053                0.899731479     -93.5175453
9.054                0.899525549     -93.6974251
9.055                 0.89931914     -93.8778787
9.056                0.899112253      -94.058908
9.057                0.898904886     -94.2405147
9.058                0.898697038     -94.4227007
9.059                0.898488708     -94.6054678
9.06                 0.898279895     -94.7888178
9.061                0.898070599     -94.9727525
9.062                0.897860818     -95.1572736
9.063                0.897650553      -95.342383
9.064                0.897439801     -95.5280826
9.065                0.897228563      -95.714374
9.066                0.897016838     -95.9012591
9.067                0.896804625     -96.0887398
9.068                0.896591925     -96.2768177
9.069                0.896378735     -96.4654947
9.07                 0.896165056     -96.6547725
9.071                0.895950887     -96.8446531
9.072                0.895736229     -97.0351381
9.073                 0.89552108     -97.2262293
9.074                 0.89530544     -97.4179286
9.075                0.895089309     -97.6102376
9.076                0.894872687     -97.8031582
9.077                0.894655574     -97.9966922
9.078                0.894437969     -98.1908414
9.079                0.894219873     -98.3856074
9.08                 0.894001285     -98.5809921
9.081                0.893782206     -98.7769972
9.082                0.893562635     -98.9736245
9.083                0.893342573     -99.1708757
9.084                0.893122019     -99.3687526
9.085                0.892900975      -99.567257
9.086                 0.89267944     -99.7663905
9.087                0.892457414     -99.9661549
9.088                0.892234899     -100.166552
9.089                0.892011894     -100.367583
9.09                   0.8917884     -100.569251
9.091                0.891564417     -100.771556
9.092                0.891339947     -100.974501
9.093                0.891114989     -101.178087
9.094                0.890889544     -101.382316
9.095                0.890663614      -101.58719
9.096                0.890437199      -101.79271
9.097                  0.8902103     -101.998878
9.098                0.889982917     -102.205696
9.099                0.889755053     -102.413165
9.1                  0.889526707     -102.621287
9.101                0.889297882     -102.830064
9.102                0.889068578     -103.039497
9.103                0.888838796     -103.249588
9.104                0.888608538     -103.460338
9.105                0.888377806      -103.67175
9.106                  0.8881466     -103.883825
9.107                0.887914923     -104.096564
9.108                0.887682775     -104.309969
9.109                0.887450159     -104.524042
9.11                 0.887217076     -104.738784
9.111                0.886983529     -104.954197
9.112                0.886749518     -105.170282
9.113                0.886515046     -105.387042
9.114                0.886280115     -105.604476
9.115                0.886044728     -105.822588
9.116                0.885808885     -106.041378
9.117                 0.88557259     -106.260848
9.118                0.885335844        -106.481
9.119                0.885098651     -106.701835
9.12                 0.884861012     -106.923354
9.121                0.884622931      -107.14556
9.122                0.884384409     -107.368453
9.123                 0.88414545     -107.592035
9.124                0.883906057     -107.816307
9.125                0.883666231     -108.041271
9.126                0.883425977     -108.266928
9.127                0.883185297      -108.49328
9.128                0.882944194     -108.720327
9.129                0.882702672     -108.948072
9.13                 0.882460733     -109.176516
9.131                0.882218382      -109.40566
9.132                0.881975622     -109.635505
9.133                0.881732456     -109.866053
9.134                0.881488888     -110.097305
9.135                0.881244921     -110.329262
9.136                 0.88100056     -110.561925
9.137                0.880755809     -110.795297
9.138                 0.88051067     -111.029377
9.139                 0.88026515     -111.264168
9.14                 0.880019251      -111.49967
9.141                0.879772978     -111.735885
9.142                0.879526335     -111.972814
9.143                0.879279328     -112.210458
9.144                0.879031959     -112.448817
9.145                0.878784235     -112.687894
9.146                 0.87853616      -112.92769
9.147                0.878287739     -113.168205
9.148                0.878038976      -113.40944
9.149                0.877789877     -113.651397
9.15                 0.877540447     -113.894076
9.151                0.877290691     -114.137479
9.152                0.877040615     -114.381606
9.153                0.876790224     -114.626459
9.154                0.876539524     -114.872039
9.155                 0.87628852     -115.118346
9.156                0.876037218     -115.365381
9.157                0.875785624     -115.613145
9.158                0.875533745     -115.861639
9.159                0.875281585     -116.110864
9.16                 0.875029152     -116.360821
9.161                0.874776452      -116.61151
9.162                 0.87452349     -116.862932
9.163                0.874270275     -117.115089
9.164                0.874016811      -117.36798
9.165                0.873763107     -117.621606
9.166                0.873509169     -117.875968
9.167                0.873255003     -118.131067
9.168                0.873000618     -118.386904
9.169                0.872746019     -118.643478
9.17                 0.872491216     -118.900791
9.171                0.872236214     -119.158842
9.172                0.871981022     -119.417633
9.173                0.871725647     -119.677165
9.174                0.871470097     -119.937436
9.175                0.871214379     -120.198449
9.176                0.870958503     -120.460203
9.177                0.870702475     -120.722698
9.178                0.870446305     -120.985936
9.179                    0.87019     -121.249916
9.18                  0.86993357     -121.514638
9.181                0.869677021     -121.780103
9.182                0.869420364     -122.046312
9.183                0.869163608     -122.313264
9.184                 0.86890676     -122.580959
9.185                 0.86864983     -122.849398
9.186                0.868392828      -123.11858
9.187                0.868135762     -123.388506
9.188                0.867878642     -123.659177
9.189                0.867621477      -123.93059
9.19                 0.867364278     -124.202748
9.191                0.867107054     -124.475649
9.192                0.866849814     -124.749295
9.193                0.866592569     -125.023683
9.194                0.866335329     -125.298815
9.195                0.866078104      -125.57469
9.196                0.865820905     -125.851308
9.197                0.865563742     -126.128668
9.198                0.865306625     -126.406771
9.199                0.865049565     -126.685616
9.2                  0.864792574     -126.965203
9.201                0.864535662      -127.24553
9.202                0.864278839     -127.526599
9.203                0.864022119     -127.808407
9.204                 0.86376551     -128.090956
9.205                0.863509026     -128.374243
9.206                0.863252677     -128.658269
9.207                0.862996476     -128.943033
9.208                0.862740433     -129.228534
9.209                0.862484562     -129.514772
9.21                 0.862228873     -129.801745
9.211                0.861973379     -130.089454
9.212                0.861718093     -130.377896
9.213                0.861463026     -130.667072
9.214                0.861208191      -130.95698
9.215                  0.8609536     -131.247619
9.216                0.860699267     -131.538988
9.217                0.860445204     -131.831087
9.218                0.860191424     -132.123914
9.219                0.859937939     -132.417467
9.22                 0.859684764     -132.711747
9.221                0.859431911     -133.006751
9.222                0.859179393     -133.302479
9.223                0.858927225     -133.598928
9.224                0.858675419     -133.896099
9.225                0.858423989     -134.193988
9.226                0.858172949     -134.492595
9.227                0.857922313     -134.791919
9.228                0.857672095     -135.091957
9.229                0.857422308     -135.392709
9.23                 0.857172967     -135.694172
9.231                0.856924087     -135.996344
9.232                0.856675681     -136.299225
9.233                0.856427764     -136.602813
9.234                 0.85618035     -136.907105
9.235                0.855933455       -137.2121
9.236                0.855687092     -137.517795
9.237                0.855441277     -137.824189
9.238                0.855196024     -138.131281
9.239                0.854951348     -138.439067
9.24                 0.854707266     -138.747545
9.241                 0.85446379     -139.056714
9.242                0.854220938     -139.366572
9.243                0.853978724     -139.677115
9.244                0.853737163     -139.988343
9.245                0.853496271     -140.300252
9.246                0.853256064     -140.612839
9.247                0.853016556     -140.926104
9.248                0.852777765     -141.240042
9.249                0.852539705     -141.554652
9.25                 0.852302392     -141.869932
9.251                0.852065842     -142.185877
9.252                0.851830071     -142.502486
9.253                0.851595096     -142.819756
9.254                0.851360931     -143.137684
9.255                0.851127594     -143.456268
9.256                0.850895099     -143.775504
9.257                0.850663465     -144.095389
9.258                0.850432706     -144.415921
9.259                0.850202839     -144.737096
9.26                 0.849973881     -145.058912
9.261                0.849745848     -145.381364
9.262                0.849518755     -145.704451
9.263                0.849292621     -146.028169
9.264                0.849067461     -146.352514
9.265                0.848843291     -146.677484
9.266                0.848620129     -147.003074
9.267                 0.84839799     -147.329282
9.268                0.848176892     -147.656104
9.269                0.847956851     -147.983536
9.27                 0.847737884     -148.311575
9.271                0.847520007     -148.640217
9.272                0.847303237     -148.969459
9.273                0.847087592     -149.299296
9.274                0.846873086     -149.629726
9.275                0.846659738     -149.960744
9.276                0.846447563     -150.292347
9.277                0.846236579      -150.62453
9.278                0.846026803      -150.95729
9.279                 0.84581825     -151.290623
9.28                 0.845610938     -151.624524
9.281                0.845404883      -151.95899
9.282                0.845200102     -152.294017
9.283                0.844996612       -152.6296
9.284                0.844794429     -152.965735
9.285                0.844593569     -153.302419
9.286                 0.84439405     -153.639646
9.287                0.844195888     -153.977412
9.288                0.843999099     -154.315714
9.289                  0.8438037     -154.654547
9.29                 0.843609706     -154.993906
9.291                0.843417136     -155.333788
9.292                0.843226004     -155.674187
9.293                0.843036327     -156.015099
9.294                0.842848122      -156.35652
9.295                0.842661404     -156.698445
9.296                 0.84247619      -157.04087
9.297                0.842292495      -157.38379
9.298                0.842110336     -157.727201
9.299                0.841929728     -158.071098
9.3                  0.841750688     -158.415476
9.301                 0.84157323     -158.760332
9.302                0.841397372      -159.10566
9.303                0.841223127     -159.451456
9.304                0.841050513     -159.797715
9.305                0.840879544     -160.144433
9.306                0.840710235     -160.491605
9.307                0.840542602     -160.839228
9.308                0.840376661     -161.187296
9.309                0.840212425     -161.535805
9.31                 0.840049911      -161.88475
9.311                0.839889132     -162.234129
9.312                0.839730104     -162.583936
9.313                0.839572842     -162.934167
9.314                 0.83941736     -163.284818
9.315                0.839263672     -163.635887
9.316                0.839111793     -163.987368
9.317                0.838961738     -164.339258
9.318                 0.83881352     -164.691554
9.319                0.838667153     -165.044253
9.32                 0.838522652     -165.397352
9.321                0.838380031     -165.750849
9.322                0.838239304      -166.10474
9.323                0.838100484     -166.459025
9.324                0.837963585     -166.813701
9.325                0.837828622     -167.168768
9.326                0.837695608     -167.524225
9.327                0.837564557     -167.880073
9.328                0.837435482     -168.236311
9.329                0.837308399     -168.592943
9.33                 0.837183322     -168.949971
9.331                0.837060265     -169.307399
9.332                0.836939243     -169.665232
9.333                0.836820272     -170.023478
9.334                0.836703368     -170.382144
9.335                0.836588549     -170.741243
9.336                0.836475832     -171.100787
9.337                0.836365238     -171.460795
9.338                0.836256789     -171.821288
9.339                0.836150509      -172.18229
9.34                 0.836046426     -172.543835
9.341                0.835944574      -172.90596
9.342                0.835844992     -173.268716
9.343                0.835747727      -173.63216
9.344                 0.83565284     -173.996369
9.345                0.835560407     -174.361437
9.346                0.835470527     -174.727481
9.347                0.835383334     -175.094657
9.348                0.835299011     -175.463161
9.349                0.835217815     -175.833256
9.35                 0.835140117     -176.205293
9.351                0.835066472     -176.579754
9.352                 0.83499774     -176.957316
9.353                0.834935303     -177.338961
9.354                0.834881495     -177.726161
9.355                0.834840508     -178.121237
9.356                0.834820439      -178.52805
9.357                0.834838542     -178.953541
9.358                0.834936836     -179.411515
9.359                 0.83523988     -179.933807
9.36                 0.836256909      179.387113
9.361                0.841970178      178.149993
9.362                0.936085112     -179.875081
9.363                0.842043202      -178.98307
9.364                0.836434034      179.850914
9.365                0.835217819      179.187735
9.366                0.834739587      178.670955
9.367                0.834487312      178.215244
9.368                0.834328342      177.790641
9.369                0.834215809         177.384
9.37                 0.834129666      176.988658
9.371                 0.83406014      176.600888
9.372                0.834001991      176.218442
9.373                0.833952198      175.839886
9.374                0.833908914      175.464264
9.375                0.833870956      175.090915
9.376                0.833837537      174.719366
9.377                0.833808117      174.349273
9.378                0.833782313       173.98038
9.379                0.833759848      173.612492
9.38                 0.833740518      173.245459
9.381                0.833724167      172.879163
9.382                0.833710678      172.513512
9.383                0.833699959      172.148432
9.384                0.833691936      171.783866
9.385                0.833686551      171.419764
9.386                0.833683757       171.05609
9.387                0.833683516      170.692811
9.388                0.833685795      170.329903
9.389                0.833690566      169.967346
9.39                 0.833697808      169.605121
9.391                0.833707499      169.243218
9.392                0.833719624      168.881623
9.393                0.833734165      168.520331
9.394                0.833751111      168.159332
9.395                0.833770448      167.798624
9.396                0.833792165      167.438203
