! TOUCHSTONE file generated by CST DESIGN STUDIO
! Date and time: Tue Feb  4 14:27:42 2025
! Project name: C:\Work\MatlabApps\UnitCellOptimizationMatlab\CST\unitcell.cst
! Tree item: Tasks\Sweep1\SPara1\S-Parameters
! Header version: 2024
! Port assignment regex: !\s*Touchstone port\s*([0-9]+)\s*=\s*(CST MWS port|CST DES external port|CST DES block port)\s*(.+)\s* \(\"(.*)\"\)(\s*mode\s*([0-9]+))?.*
! Touchstone port assignment:
! Touchstone port 1 = CST DES external port 1 ("")
# GHz S MA R 50
9                    0.897275475     -91.9463676
9.001                0.897059373     -92.1199151
9.002                0.896842893     -92.2940194
9.003                0.896626033     -92.4686823
9.004                0.896408795     -92.6439057
9.005                0.896191176     -92.8196915
9.006                0.895973178     -92.9960417
9.007                  0.8957548     -93.1729579
9.008                0.895536042     -93.3504422
9.009                0.895316903     -93.5284964
9.01                 0.895097384     -93.7071223
9.011                0.894877485     -93.8863219
9.012                0.894657204     -94.0660971
9.013                0.894436544     -94.2464496
9.014                0.894215502     -94.4273814
9.015                 0.89399408     -94.6088944
9.016                0.893772278     -94.7909905
9.017                0.893550096     -94.9736714
9.018                0.893327533     -95.1569392
9.019                0.893104591     -95.3407956
9.02                 0.892881268     -95.5252427
9.021                0.892657567     -95.7102821
9.022                0.892433486     -95.8959159
9.023                0.892209026     -96.0821458
9.024                0.891984188     -96.2689739
9.025                0.891758973     -96.4564018
9.026                0.891533379     -96.6444316
9.027                0.891307409     -96.8330651
9.028                0.891081062     -97.0223041
9.029                 0.89085434     -97.2121505
9.03                 0.890627242     -97.4026063
9.031                 0.89039977     -97.5936732
9.032                0.890171924     -97.7853531
9.033                0.889943706     -97.9776479
9.034                0.889715115     -98.1705594
9.035                0.889486152     -98.3640896
9.036                0.889256819     -98.5582402
9.037                0.889027117     -98.7530131
9.038                0.888797046     -98.9484101
9.039                0.888566608     -99.1444332
9.04                 0.888335804      -99.341084
9.041                0.888104634     -99.5383646
9.042                  0.8878731     -99.7362767
9.043                0.887641204     -99.9348221
9.044                0.887408946     -100.134003
9.045                0.887176328      -100.33382
9.046                0.886943351     -100.534277
9.047                0.886710018     -100.735374
9.048                0.886476328     -100.937113
9.049                0.886242284     -101.139497
9.05                 0.886007888     -101.342527
9.051                0.885773141     -101.546205
9.052                0.885538044     -101.750532
9.053                0.885302601     -101.955511
9.054                0.885066812     -102.161143
9.055                0.884830679     -102.367429
9.056                0.884594205     -102.574373
9.057                0.884357391     -102.781975
9.058                0.884120239     -102.990238
9.059                0.883882752     -103.199162
9.06                 0.883644932      -103.40875
9.061                0.883406782     -103.619004
9.062                0.883168302     -103.829925
9.063                0.882929497     -104.041515
9.064                0.882690367     -104.253776
9.065                0.882450917     -104.466708
9.066                0.882211148     -104.680315
9.067                0.881971064     -104.894598
9.068                0.881730666     -105.109558
9.069                0.881489957     -105.325197
9.07                 0.881248942     -105.541517
9.071                0.881007621      -105.75852
9.072                   0.880766     -105.976206
9.073                 0.88052408     -106.194578
9.074                0.880281864     -106.413638
9.075                0.880039357     -106.633386
9.076                 0.87979656     -106.853825
9.077                0.879553479     -107.074956
9.078                0.879310115      -107.29678
9.079                0.879066473       -107.5193
9.08                 0.878822556     -107.742517
9.081                0.878578368     -107.966432
9.082                0.878333913     -108.191047
9.083                0.878089194     -108.416364
9.084                0.877844216     -108.642383
9.085                0.877598982     -108.869107
9.086                0.877353496     -109.096537
9.087                0.877107763     -109.324674
9.088                0.876861787      -109.55352
9.089                0.876615572     -109.783076
9.09                 0.876369122     -110.013344
9.091                0.876122443     -110.244325
9.092                0.875875538     -110.476021
9.093                0.875628413     -110.708432
9.094                0.875381071     -110.941561
9.095                0.875133519     -111.175409
9.096                 0.87488576     -111.409976
9.097                  0.8746378     -111.645265
9.098                0.874389644     -111.881276
9.099                0.874141297     -112.118011
9.1                  0.873892764     -112.355472
9.101                0.873644051     -112.593658
9.102                0.873395163     -112.832573
9.103                0.873146105     -113.072216
9.104                0.872896884     -113.312589
9.105                0.872647505     -113.553694
9.106                0.872397974     -113.795531
9.107                0.872148297     -114.038101
9.108                 0.87189848     -114.281406
9.109                0.871648528     -114.525447
9.11                 0.871398449     -114.770225
9.111                0.871148248     -115.015741
9.112                0.870897932     -115.261995
9.113                0.870647507      -115.50899
9.114                 0.87039698     -115.756725
9.115                0.870146358     -116.005203
9.116                0.869895647     -116.254423
9.117                0.869644855     -116.504387
9.118                0.869393988     -116.755096
9.119                0.869143053      -117.00655
9.12                 0.868892057     -117.258751
9.121                0.868641009     -117.511699
9.122                0.868389915     -117.765395
9.123                0.868138783     -118.019841
9.124                 0.86788762     -118.275035
9.125                0.867636434      -118.53098
9.126                0.867385233     -118.787676
9.127                0.867134024     -119.045124
9.128                0.866882817     -119.303325
9.129                0.866631618     -119.562278
9.13                 0.866380437     -119.821985
9.131                0.866129281     -120.082446
9.132                0.865878159     -120.343662
9.133                 0.86562708     -120.605633
9.134                0.865376051      -120.86836
9.135                0.865125083     -121.131843
9.136                0.864874183     -121.396083
9.137                0.864623361      -121.66108
9.138                0.864372626     -121.926834
9.139                0.864121986     -122.193345
9.14                 0.863871452     -122.460615
9.141                0.863621033     -122.728643
9.142                0.863370737      -122.99743
9.143                0.863120575     -123.266975
9.144                0.862870557      -123.53728
9.145                0.862620692     -123.808343
9.146                 0.86237099     -124.080165
9.147                0.862121462     -124.352747
9.148                0.861872116     -124.626088
9.149                0.861622965     -124.900188
9.15                 0.861374017     -125.175048
9.151                0.861125284     -125.450666
9.152                0.860876776     -125.727044
9.153                0.860628503      -126.00418
9.154                0.860380477     -126.282076
9.155                0.860132708     -126.560729
9.156                0.859885208     -126.840141
9.157                0.859637987     -127.120311
9.158                0.859391057     -127.401239
9.159                0.859144429     -127.682924
9.16                 0.858898114     -127.965366
9.161                0.858652124     -128.248564
9.162                 0.85840647     -128.532518
9.163                0.858161165     -128.817228
9.164                0.857916219     -129.102692
9.165                0.857671646     -129.388911
9.166                0.857427457     -129.675883
9.167                0.857183664     -129.963608
9.168                0.856940279     -130.252086
9.169                0.856697315     -130.541314
9.17                 0.856454784     -130.831294
9.171                0.856212699     -131.122023
9.172                0.855971072       -131.4135
9.173                0.855729916     -131.705726
9.174                0.855489244     -131.998698
9.175                0.855249068     -132.292417
9.176                0.855009403     -132.586879
9.177                 0.85477026     -132.882086
9.178                0.854531653     -133.178035
9.179                0.854293595     -133.474725
9.18                   0.8540561     -133.772155
9.181                0.853819181     -134.070324
9.182                0.853582852      -134.36923
9.183                0.853347126     -134.668872
9.184                0.853112018     -134.969248
9.185                 0.85287754     -135.270357
9.186                0.852643706     -135.572197
9.187                0.852410532     -135.874767
9.188                 0.85217803     -136.178065
9.189                0.851946214     -136.482089
9.19                   0.8517151     -136.786838
9.191                0.851484702      -137.09231
9.192                0.851255033     -137.398503
9.193                0.851026108     -137.705415
9.194                0.850797941     -138.013044
9.195                0.850570548     -138.321387
9.196                0.850343942     -138.630444
9.197                0.850118139     -138.940212
9.198                0.849893154     -139.250689
9.199                   0.849669     -139.561872
9.2                  0.849445693     -139.873759
9.201                0.849223249     -140.186348
9.202                0.849001681     -140.499637
9.203                0.848781005     -140.813623
9.204                0.848561236     -141.128304
9.205                 0.84834239     -141.443677
9.206                0.848124481     -141.759739
9.207                0.847907525     -142.076488
9.208                0.847691536     -142.393922
9.209                0.847476532     -142.712037
9.21                 0.847262526      -143.03083
9.211                0.847049534       -143.3503
9.212                0.846837572     -143.670442
9.213                0.846626655     -143.991254
9.214                0.846416799     -144.312733
9.215                0.846208019     -144.634876
9.216                0.846000331     -144.957679
9.217                0.845793751      -145.28114
9.218                0.845588293     -145.605256
9.219                0.845383975     -145.930022
9.22                 0.845180811     -146.255435
9.221                0.844978817     -146.581493
9.222                0.844778009     -146.908192
9.223                0.844578402     -147.235527
9.224                0.844380013     -147.563496
9.225                0.844182857     -147.892096
9.226                0.843986949     -148.221321
9.227                0.843792306     -148.551169
9.228                0.843598943     -148.881635
9.229                0.843406876     -149.212717
9.23                  0.84321612     -149.544409
9.231                0.843026692     -149.876708
9.232                0.842838606      -150.20961
9.233                0.842651879      -150.54311
9.234                0.842466526     -150.877206
9.235                0.842282563     -151.211892
9.236                0.842100005     -151.547163
9.237                0.841918868     -151.883017
9.238                0.841739168     -152.219448
9.239                0.841560919     -152.556453
9.24                 0.841384138     -152.894026
9.241                0.841208839     -153.232162
9.242                0.841035038     -153.570859
9.243                0.840862751      -153.91011
9.244                0.840691992     -154.249911
9.245                0.840522777     -154.590257
9.246                0.840355121     -154.931144
9.247                0.840189039     -155.272567
9.248                0.840024546      -155.61452
9.249                0.839861656     -155.956999
9.25                 0.839700386     -156.299999
9.251                0.839540749     -156.643515
9.252                 0.83938276      -156.98754
9.253                0.839226434     -157.332072
9.254                0.839071785     -157.677103
9.255                0.838918828     -158.022629
9.256                0.838767577     -158.368644
9.257                0.838618047     -158.715144
9.258                0.838470252     -159.062122
9.259                0.838324205     -159.409573
9.26                 0.838179921     -159.757492
9.261                0.838037413     -160.105872
9.262                0.837896696     -160.454709
9.263                0.837757782     -160.803996
9.264                0.837620686     -161.153728
9.265                0.837485421       -161.5039
9.266                   0.837352     -161.854504
9.267                0.837220436     -162.205535
9.268                0.837090742     -162.556988
9.269                0.836962932     -162.908857
9.27                 0.836837017     -163.261134
9.271                0.836713011     -163.613815
9.272                0.836590925     -163.966893
9.273                0.836470773     -164.320362
9.274                0.836352567     -164.674216
9.275                0.836236317     -165.028448
9.276                0.836122037     -165.383052
9.277                0.836009738     -165.738022
9.278                0.835899432     -166.093351
9.279                 0.83579113     -166.449034
9.28                 0.835684842     -166.805063
9.281                0.835580581     -167.161432
9.282                0.835478357     -167.518135
9.283                 0.83537818     -167.875164
9.284                0.835280062     -168.232514
9.285                0.835184012     -168.590178
9.286                0.835090041     -168.948148
9.287                0.834998159     -169.306419
9.288                0.834908375     -169.664983
9.289                  0.8348207     -170.023833
9.29                 0.834735141     -170.382964
9.291                 0.83465171     -170.742367
9.292                0.834570414     -171.102037
9.293                0.834491262     -171.461966
9.294                0.834414263     -171.822146
9.295                0.834339426     -172.182572
9.296                0.834266758     -172.543236
9.297                0.834196268     -172.904131
9.298                0.834127963     -173.265251
9.299                0.834061851     -173.626587
9.3                  0.833997939     -173.988132
9.301                0.833936235     -174.349881
9.302                0.833876744     -174.711825
9.303                0.833819474     -175.073957
9.304                0.833764431      -175.43627
9.305                0.833711622     -175.798757
9.306                0.833661052     -176.161411
9.307                0.833612727     -176.524223
9.308                0.833566653     -176.887188
9.309                0.833522834     -177.250297
9.31                 0.833481277     -177.613543
9.311                0.833441985      -177.97692
9.312                0.833404964     -178.340418
9.313                0.833370217     -178.704032
9.314                0.833337749     -179.067754
9.315                0.833307564     -179.431576
9.316                0.833279665     -179.795491
9.317                0.833254055      179.840509
9.318                0.833230739      179.476431
9.319                0.833209717      179.112282
9.32                 0.833190994       178.74807
9.321                0.833174572      178.383803
9.322                0.833160452      178.019487
9.323                0.833148637      177.655131
9.324                0.833139128      177.290742
9.325                0.833131927      176.926327
9.326                0.833127035      176.561894
9.327                0.833124452       176.19745
9.328                 0.83312418      175.833003
9.329                0.833126219       175.46856
9.33                 0.833130568      175.104129
9.331                0.833137228      174.739718
9.332                0.833146199      174.375333
9.333                0.833157479      174.010983
9.334                0.833171069      173.646674
9.335                0.833186966      173.282415
9.336                 0.83320517      172.918212
9.337                0.833225679      172.554074
9.338                0.833248491      172.190007
9.339                0.833273604       171.82602
9.34                 0.833301015      171.462118
9.341                0.833330723      171.098311
9.342                0.833362724      170.734605
9.343                0.833397015      170.371008
9.344                0.833433593      170.007527
9.345                0.833472454       169.64417
9.346                0.833513595      169.280943
9.347                0.833557011      168.917854
9.348                0.833602699      168.554911
9.349                0.833650652      168.192121
9.35                 0.833700868      167.829491
9.351                0.833753341      167.467028
9.352                0.833808065       167.10474
9.353                0.833865036      166.742633
9.354                0.833924246      166.380715
9.355                0.833985692      166.018994
9.356                0.834049366      165.657476
9.357                0.834115262      165.296168
9.358                0.834183373      164.935077
9.359                0.834253693      164.574211
9.36                 0.834326214      164.213577
9.361                 0.83440093      163.853181
9.362                0.834477833      163.493031
9.363                0.834556915      163.133133
9.364                0.834638167      162.773495
9.365                0.834721584      162.414123
9.366                0.834807154      162.055024
9.367                0.834894871      161.696205
9.368                0.834984726      161.337672
9.369                0.835076709      160.979434
9.37                 0.835170812      160.621495
9.371                0.835267024      160.263863
9.372                0.835365338      159.906545
9.373                0.835465742      159.549547
9.374                0.835568227      159.192875
9.375                0.835672783      158.836537
9.376                  0.8357794      158.480539
9.377                0.835888066      158.124886
9.378                0.835998773      157.769586
9.379                0.836111508      157.414645
9.38                  0.83622626      157.060069
9.381                 0.83634302      156.705865
9.382                0.836461774      156.352038
9.383                0.836582513      155.998595
9.384                0.836705224      155.645543
9.385                0.836829894      155.292886
9.386                0.836956514      154.940632
9.387                 0.83708507      154.588785
9.388                0.837215549      154.237353
9.389                0.837347941      153.886341
9.39                 0.837482231      153.535755
9.391                0.837618408      153.185601
9.392                0.837756459      152.835885
9.393                 0.83789637      152.486611
9.394                0.838038129      152.137787
9.395                0.838181722      151.789417
9.396                0.838327136      151.441507
