! TOUCHSTONE file generated by CST DESIGN STUDIO
! Date and time: Tue Feb  4 17:08:04 2025
! Project name: C:\Work\MatlabApps\UnitCellOptimizationMatlab\CST\unitcell.cst
! Tree item: Tasks\Sweep1\SPara1\S-Parameters
! Header version: 2024
! Port assignment regex: !\s*Touchstone port\s*([0-9]+)\s*=\s*(CST MWS port|CST DES external port|CST DES block port)\s*(.+)\s* \(\"(.*)\"\)(\s*mode\s*([0-9]+))?.*
! Touchstone port assignment:
! Touchstone port 1 = CST DES external port 1 ("")
# GHz S MA R 50
9                    0.965958133     -72.5021437
9.001                0.965875138     -72.6109767
9.002                0.965791887     -72.7200796
9.003                0.965708381     -72.8294533
9.004                0.965624618     -72.9390985
9.005                0.965540599     -73.0490161
9.006                0.965456321     -73.1592069
9.007                0.965371786     -73.2696718
9.008                0.965286991     -73.3804117
9.009                0.965201937     -73.4914274
9.01                 0.965116623     -73.6027197
9.011                0.965031048     -73.7142895
9.012                0.964945211     -73.8261377
9.013                0.964859111     -73.9382651
9.014                0.964772749     -74.0506725
9.015                0.964686123     -74.1633609
9.016                0.964599233     -74.2763311
9.017                0.964512078      -74.389584
9.018                0.964424657     -74.5031205
9.019                 0.96433697     -74.6169414
9.02                 0.964249017     -74.7310475
9.021                0.964160795     -74.8454399
9.022                0.964072306     -74.9601193
9.023                0.963983548     -75.0750866
9.024                 0.96389452     -75.1903428
9.025                0.963805222     -75.3058887
9.026                0.963715653     -75.4217252
9.027                0.963625813     -75.5378531
9.028                0.963535701     -75.6542735
9.029                0.963445316     -75.7709872
9.03                 0.963354658      -75.887995
9.031                0.963263726      -76.005298
9.032                 0.96317252     -76.1228969
9.033                0.963081038     -76.2407927
9.034                 0.96298928     -76.3589863
9.035                0.962897246     -76.4774787
9.036                0.962804935     -76.5962707
9.037                0.962712346     -76.7153632
9.038                0.962619479     -76.8347571
9.039                0.962526333     -76.9544535
9.04                 0.962432907     -77.0744531
9.041                0.962339202      -77.194757
9.042                0.962245215      -77.315366
9.043                0.962150947      -77.436281
9.044                0.962056398     -77.5575031
9.045                0.961961565     -77.6790332
9.046                 0.96186645      -77.800872
9.047                0.961771051     -77.9230207
9.048                0.961675368     -78.0454802
9.049                0.961579399     -78.1682513
9.05                 0.961483145     -78.2913351
9.051                0.961386606     -78.4147324
9.052                0.961289779     -78.5384442
9.053                0.961192666     -78.6624715
9.054                0.961095264     -78.7868153
9.055                0.960997574     -78.9114764
9.056                0.960899596     -79.0364558
9.057                0.960801328     -79.1617545
9.058                 0.96070277     -79.2873735
9.059                0.960603921     -79.4133137
9.06                 0.960504782      -79.539576
9.061                 0.96040535     -79.6661615
9.062                0.960305627     -79.7930711
9.063                0.960205611     -79.9203057
9.064                0.960105302     -80.0478664
9.065                0.960004699     -80.1757541
9.066                0.959903802     -80.3039698
9.067                 0.95980261     -80.4325145
9.068                0.959701122     -80.5613891
9.069                0.959599339     -80.6905946
9.07                  0.95949726      -80.820132
9.071                0.959394884     -80.9500024
9.072                0.959292211     -81.0802066
9.073                 0.95918924     -81.2107457
9.074                0.959085971     -81.3416206
9.075                0.958982404     -81.4728324
9.076                0.958878537     -81.6043821
9.077                 0.95877437     -81.7362706
9.078                0.958669904     -81.8684989
9.079                0.958565137      -82.001068
9.08                 0.958460069      -82.133979
9.081                  0.9583547     -82.2672329
9.082                0.958249029     -82.4008305
9.083                0.958143056     -82.5347731
9.084                 0.95803678     -82.6690615
9.085                0.957930201     -82.8036967
9.086                0.957823319     -82.9386798
9.087                0.957716133     -83.0740118
9.088                0.957608643     -83.2096937
9.089                0.957500848     -83.3457265
9.09                 0.957392748     -83.4821113
9.091                0.957284343      -83.618849
9.092                0.957175632     -83.7559407
9.093                0.957066615     -83.8933873
9.094                0.956957292       -84.03119
9.095                0.956847662     -84.1693497
9.096                0.956737725     -84.3078675
9.097                 0.95662748     -84.4467444
9.098                0.956516928     -84.5859814
9.099                0.956406068     -84.7255795
9.1                  0.956294899     -84.8655398
9.101                0.956183422     -85.0058634
9.102                0.956071636     -85.1465511
9.103                0.955959541     -85.2876042
9.104                0.955847136     -85.4290235
9.105                0.955734422     -85.5708102
9.106                0.955621398     -85.7129653
9.107                0.955508064     -85.8554898
9.108                0.955394419     -85.9983848
9.109                0.955280464     -86.1416513
9.11                 0.955166198     -86.2852903
9.111                0.955051621     -86.4293029
9.112                0.954936732     -86.5736902
9.113                0.954821533     -86.7184531
9.114                0.954706022     -86.8635928
9.115                0.954590199     -87.0091102
9.116                0.954474064     -87.1550064
9.117                0.954357618     -87.3012825
9.118                0.954240859     -87.4479396
9.119                0.954123788     -87.5949786
9.12                 0.954006405     -87.7424006
9.121                0.953888709     -87.8902066
9.122                0.953770701     -88.0383978
9.123                 0.95365238     -88.1869752
9.124                0.953533747     -88.3359398
9.125                0.953414801     -88.4852926
9.126                0.953295542     -88.6350348
9.127                 0.95317597     -88.7851673
9.128                0.953056086     -88.9356913
9.129                0.952935889     -89.0866078
9.13                 0.952815379     -89.2379179
9.131                0.952694557     -89.3896225
9.132                0.952573422     -89.5417228
9.133                0.952451974     -89.6942198
9.134                0.952330214     -89.8471145
9.135                0.952208142     -90.0004081
9.136                0.952085757     -90.1541016
9.137                0.951963059      -90.308196
9.138                 0.95184005     -90.4626924
9.139                0.951716729     -90.6175919
9.14                 0.951593095     -90.7728954
9.141                 0.95146915     -90.9286041
9.142                0.951344894      -91.084719
9.143                0.951220326     -91.2412412
9.144                0.951095447     -91.3981717
9.145                0.950970258     -91.5555116
9.146                0.950844757     -91.7132619
9.147                0.950718946     -91.8714237
9.148                0.950592826     -92.0299981
9.149                0.950466395      -92.188986
9.15                 0.950339654     -92.3483886
9.151                0.950212605     -92.5082068
9.152                0.950085247     -92.6684419
9.153                 0.94995758     -92.8290947
9.154                0.949829604     -92.9901663
9.155                0.949701322     -93.1516578
9.156                0.949572731     -93.3135703
9.157                0.949443834     -93.4759048
9.158                 0.94931463     -93.6386623
9.159                 0.94918512     -93.8018438
9.16                 0.949055305     -93.9654505
9.161                0.948925185     -94.1294833
9.162                0.948794759     -94.2939434
9.163                 0.94866403     -94.4588316
9.164                0.948532997     -94.6241492
9.165                0.948401662      -94.789897
9.166                0.948270024     -94.9560762
9.167                0.948138084     -95.1226878
9.168                0.948005843     -95.2897328
9.169                0.947873301     -95.4572122
9.17                  0.94774046      -95.625127
9.171                0.947607319     -95.7934784
9.172                0.947473881     -95.9622673
9.173                0.947340144     -96.1314947
9.174                 0.94720611     -96.3011617
9.175                 0.94707178     -96.4712692
9.176                0.946937155     -96.6418184
9.177                0.946802235     -96.8128101
9.178                0.946667021     -96.9842455
9.179                0.946531514     -97.1561255
9.18                 0.946395716     -97.3284511
9.181                0.946259626     -97.5012233
9.182                0.946123246     -97.6744432
9.183                0.945986576     -97.8481117
9.184                0.945849618     -98.0222298
9.185                0.945712373     -98.1967986
9.186                0.945574841      -98.371819
9.187                0.945437025     -98.5472919
9.188                0.945298923     -98.7232185
9.189                0.945160539     -98.8995996
9.19                 0.945021873     -99.0764362
9.191                0.944882926     -99.2537293
9.192                0.944743699       -99.43148
9.193                0.944604193      -99.609689
9.194                 0.94446441     -99.7883575
9.195                0.944324351     -99.9674864
9.196                0.944184017     -100.147077
9.197                0.944043409     -100.327129
9.198                0.943902529     -100.507645
9.199                0.943761378     -100.688625
9.2                  0.943619958     -100.870069
9.201                0.943478269     -101.051981
9.202                0.943336314     -101.234358
9.203                0.943194093     -101.417204
9.204                0.943051608     -101.600519
9.205                0.942908861     -101.784304
9.206                0.942765853     -101.968559
9.207                0.942622586     -102.153285
9.208                0.942479061     -102.338484
9.209                 0.94233528     -102.524157
9.21                 0.942191244     -102.710304
9.211                0.942046956     -102.896926
9.212                0.941902417     -103.084024
9.213                0.941757628     -103.271599
9.214                0.941612592     -103.459651
9.215                0.941467309     -103.648183
9.216                0.941321783     -103.837193
9.217                0.941176015     -104.026685
9.218                0.941030006     -104.216657
9.219                 0.94088376     -104.407111
9.22                 0.940737276     -104.598049
9.221                0.940590559      -104.78947
9.222                0.940443608     -104.981376
9.223                0.940296428     -105.173767
9.224                0.940149019     -105.366644
9.225                0.940001384     -105.560008
9.226                0.939853525      -105.75386
9.227                0.939705443     -105.948201
9.228                0.939557143     -106.143031
9.229                0.939408624     -106.338351
9.23                 0.939259891     -106.534162
9.231                0.939110944     -106.730465
9.232                0.938961787      -106.92726
9.233                0.938812422     -107.124548
9.234                 0.93866285      -107.32233
9.235                0.938513076     -107.520607
9.236                  0.9383631      -107.71938
9.237                0.938212926     -107.918648
9.238                0.938062556     -108.118413
9.239                0.937911993     -108.318676
9.24                 0.937761239     -108.519437
9.241                0.937610297     -108.720697
9.242                 0.93745917     -108.922456
9.243                 0.93730786     -109.124716
9.244                 0.93715637     -109.327477
9.245                0.937004703     -109.530739
9.246                0.936852862     -109.734503
9.247                0.936700849      -109.93877
9.248                0.936548668     -110.143541
9.249                0.936396321     -110.348815
9.25                 0.936243812     -110.554594
9.251                0.936091143     -110.760879
9.252                0.935938317     -110.967669
9.253                0.935785338     -111.174966
9.254                0.935632209      -111.38277
9.255                0.935478933     -111.591081
9.256                0.935325512       -111.7999
9.257                0.935171951     -112.009228
9.258                0.935018252     -112.219065
9.259                0.934864419     -112.429411
9.26                 0.934710456     -112.640268
9.261                0.934556364     -112.851635
9.262                 0.93440215     -113.063513
9.263                0.934247814     -113.275903
9.264                0.934093362     -113.488805
9.265                0.933938796      -113.70222
9.266                 0.93378412     -113.916147
9.267                0.933629338     -114.130587
9.268                0.933474454     -114.345541
9.269                0.933319471      -114.56101
9.27                 0.933164393     -114.776992
9.271                0.933009223      -114.99349
9.272                0.932853967     -115.210503
9.273                0.932698626     -115.428031
9.274                0.932543206     -115.646075
9.275                0.932387711     -115.864635
9.276                0.932232144     -116.083712
9.277                0.932076509     -116.303306
9.278                 0.93192081     -116.523416
9.279                0.931765053     -116.744044
9.28                 0.931609239      -116.96519
9.281                0.931453375     -117.186853
9.282                0.931297464     -117.409035
9.283                0.931141511     -117.631734
9.284                0.930985519     -117.854952
9.285                0.930829494     -118.078689
9.286                0.930673439     -118.302944
9.287                0.930517359     -118.527719
9.288                0.930361259     -118.753012
9.289                0.930205143     -118.978825
9.29                 0.930049015     -119.205156
9.291                0.929892881     -119.432008
9.292                0.929736745     -119.659378
9.293                0.929580611     -119.887268
9.294                0.929424485     -120.115678
9.295                0.929268371     -120.344607
9.296                0.929112274     -120.574056
9.297                0.928956198     -120.804024
9.298                 0.92880015     -121.034512
9.299                0.928644133     -121.265519
9.3                  0.928488153     -121.497046
9.301                0.928332215     -121.729092
9.302                0.928176323     -121.961658
9.303                0.928020484     -122.194742
9.304                0.927864702     -122.428346
9.305                0.927708982     -122.662468
9.306                0.927553329     -122.897109
9.307                 0.92739775     -123.132269
9.308                0.927242248     -123.367947
9.309                 0.92708683     -123.604143
9.31                 0.926931501     -123.840857
9.311                0.926776267     -124.078089
9.312                0.926621132     -124.315838
9.313                0.926466103     -124.554104
9.314                0.926311185     -124.792887
9.315                0.926156383     -125.032186
9.316                0.926001703     -125.272001
9.317                0.925847151     -125.512332
9.318                0.925692733     -125.753179
9.319                0.925538455      -125.99454
9.32                 0.925384321     -126.236416
9.321                0.925230339     -126.478806
9.322                0.925076513     -126.721709
9.323                 0.92492285     -126.965126
9.324                0.924769356     -127.209055
9.325                0.924616037     -127.453496
9.326                0.924462899     -127.698449
9.327                0.924309947     -127.943912
9.328                0.924157189     -128.189886
9.329                0.924004629      -128.43637
9.33                 0.923852275     -128.683363
9.331                0.923700132     -128.930864
9.332                0.923548207     -129.178873
9.333                0.923396506      -129.42739
9.334                0.923245036     -129.676412
9.335                0.923093802      -129.92594
9.336                0.922942811     -130.175973
9.337                 0.92279207      -130.42651
9.338                0.922641585     -130.677551
9.339                0.922491362     -130.929094
9.34                 0.922341408     -131.181138
9.341                 0.92219173     -131.433683
9.342                0.922042334     -131.686728
9.343                0.921893226     -131.940272
9.344                0.921744414     -132.194314
9.345                0.921595905     -132.448852
9.346                0.921447703     -132.703887
9.347                0.921299818     -132.959417
9.348                0.921152255      -133.21544
9.349                 0.92100502     -133.471957
9.35                 0.920858122     -133.728965
9.351                0.920711567     -133.986464
9.352                0.920565361     -134.244453
9.353                0.920419512      -134.50293
9.354                0.920274026     -134.761894
9.355                0.920128911     -135.021344
9.356                0.919984173     -135.281279
9.357                0.919839819     -135.541698
9.358                0.919695857     -135.802599
9.359                0.919552294     -136.063981
9.36                 0.919409136     -136.325842
9.361                0.919266391     -136.588182
9.362                0.919124066     -136.850998
9.363                0.918982168      -137.11429
9.364                0.918840704     -137.378056
9.365                0.918699681     -137.642295
9.366                0.918559107     -137.907005
9.367                0.918418989     -138.172185
9.368                0.918279333     -138.437832
9.369                0.918140148     -138.703947
9.37                 0.918001441     -138.970526
9.371                0.917863218     -139.237568
9.372                0.917725487     -139.505073
9.373                0.917588256     -139.773037
9.374                0.917451531      -140.04146
9.375                0.917315321     -140.310339
9.376                0.917179632     -140.579674
9.377                0.917044472     -140.849461
9.378                0.916909848       -141.1197
9.379                0.916775768     -141.390389
9.38                 0.916642238     -141.661525
9.381                0.916509267     -141.933108
9.382                0.916376862     -142.205134
9.383                 0.91624503     -142.477603
9.384                0.916113778     -142.750511
9.385                0.915983115     -143.023858
9.386                0.915853046     -143.297641
9.387                0.915723581     -143.571858
9.388                0.915594726     -143.846507
9.389                0.915466489     -144.121587
9.39                 0.915338877     -144.397094
9.391                0.915211897     -144.673027
9.392                0.915085558     -144.949384
9.393                0.914959866     -145.226162
9.394                0.914834829     -145.503359
9.395                0.914710454     -145.780974
9.396                0.914586749     -146.059003
