! TOUCHSTONE file generated by CST DESIGN STUDIO
! Date and time: Tue Feb  4 17:08:12 2025
! Project name: C:\Work\MatlabApps\UnitCellOptimizationMatlab\CST\unitcell.cst
! Tree item: Tasks\Sweep1\SPara1\S-Parameters
! Header version: 2024
! Port assignment regex: !\s*Touchstone port\s*([0-9]+)\s*=\s*(CST MWS port|CST DES external port|CST DES block port)\s*(.+)\s* \(\"(.*)\"\)(\s*mode\s*([0-9]+))?.*
! Touchstone port assignment:
! Touchstone port 1 = CST DES external port 1 ("")
# GHz S MA R 50
9                     0.96807031     -63.3175507
9.001                0.968000967     -63.4058468
9.002                0.967931412       -63.49435
9.003                0.967861643      -63.583061
9.004                0.967791661     -63.6719804
9.005                0.967721463     -63.7611089
9.006                0.967651051     -63.8504472
9.007                0.967580422     -63.9399958
9.008                0.967509577     -64.0297554
9.009                0.967438514     -64.1197268
9.01                 0.967367234     -64.2099105
9.011                0.967295735     -64.3003073
9.012                0.967224016     -64.3909178
9.013                0.967152077     -64.4817427
9.014                0.967079918     -64.5727826
9.015                0.967007538     -64.6640382
9.016                0.966934935     -64.7555103
9.017                0.966862109     -64.8471994
9.018                0.966789061     -64.9391063
9.019                0.966715788     -65.0312317
9.02                  0.96664229     -65.1235762
9.021                0.966568567     -65.2161405
9.022                0.966494617     -65.3089254
9.023                0.966420441     -65.4019315
9.024                0.966346038     -65.4951595
9.025                0.966271406     -65.5886101
9.026                0.966196545      -65.682284
9.027                0.966121454     -65.7761819
9.028                0.966046134     -65.8703046
9.029                0.965970582     -65.9646527
9.03                 0.965894798     -66.0592269
9.031                0.965818783     -66.1540279
9.032                0.965742534     -66.2490566
9.033                0.965666051     -66.3443135
9.034                0.965589334     -66.4397994
9.035                0.965512382      -66.535515
9.036                0.965435194     -66.6314611
9.037                0.965357769     -66.7276383
9.038                0.965280107     -66.8240474
9.039                0.965202207     -66.9206892
9.04                 0.965124069     -67.0175643
9.041                0.965045691     -67.1146736
9.042                0.964967073     -67.2120176
9.043                0.964888214     -67.3095973
9.044                0.964809114     -67.4074133
9.045                0.964729771     -67.5054663
9.046                0.964650186     -67.6037571
9.047                0.964570357     -67.7022865
9.048                0.964490283     -67.8010552
9.049                0.964409965      -67.900064
9.05                 0.964329401     -67.9993136
9.051                0.964248591     -68.0988048
9.052                0.964167533     -68.1985383
9.053                0.964086228      -68.298515
9.054                0.964004674     -68.3987355
9.055                0.963922871     -68.4992007
9.056                0.963840817     -68.5999112
9.057                0.963758514      -68.700868
9.058                0.963675958     -68.8020717
9.059                0.963593151     -68.9035232
9.06                 0.963510091     -69.0052232
9.061                0.963426777     -69.1071725
9.062                0.963343209     -69.2093719
9.063                0.963259386     -69.3118222
9.064                0.963175308     -69.4145241
9.065                0.963090973     -69.5174785
9.066                0.963006381     -69.6206862
9.067                0.962921531     -69.7241479
9.068                0.962836423     -69.8278645
9.069                0.962751055     -69.9318368
9.07                 0.962665428     -70.0360655
9.071                 0.96257954     -70.1405515
9.072                 0.96249339     -70.2452955
9.073                0.962406979     -70.3502985
9.074                0.962320305     -70.4555612
9.075                0.962233367     -70.5610844
9.076                0.962146165     -70.6668689
9.077                0.962058698     -70.7729156
9.078                0.961970966     -70.8792253
9.079                0.961882967     -70.9857988
9.08                 0.961794701      -71.092637
9.081                0.961706168     -71.1997406
9.082                0.961617366     -71.3071106
9.083                0.961528295     -71.4147477
9.084                0.961438954     -71.5226528
9.085                0.961349343     -71.6308268
9.086                 0.96125946     -71.7392704
9.087                0.961169306     -71.8479846
9.088                0.961078879     -71.9569701
9.089                0.960988178     -72.0662278
9.09                 0.960897204     -72.1757586
9.091                0.960805954     -72.2855634
9.092                0.960714429     -72.3956429
9.093                0.960622629     -72.5059981
9.094                0.960530551     -72.6166298
9.095                0.960438196     -72.7275389
9.096                0.960345562     -72.8387263
9.097                 0.96025265     -72.9501928
9.098                0.960159458     -73.0619393
9.099                0.960065985     -73.1739666
9.1                  0.959972232     -73.2862757
9.101                0.959878197     -73.3988674
9.102                 0.95978388     -73.5117427
9.103                 0.95968928     -73.6249023
9.104                0.959594396     -73.7383473
9.105                0.959499227     -73.8520784
9.106                0.959403774     -73.9660966
9.107                0.959308035     -74.0804027
9.108                0.959212009     -74.1949978
9.109                0.959115696     -74.3098825
9.11                 0.959019096      -74.425058
9.111                0.958922207      -74.540525
9.112                0.958825029     -74.6562845
9.113                0.958727561     -74.7723374
9.114                0.958629803     -74.8886846
9.115                0.958531754      -75.005327
9.116                0.958433413     -75.1222656
9.117                0.958334779     -75.2395012
9.118                0.958235853     -75.3570348
9.119                0.958136633     -75.4748672
9.12                 0.958037118     -75.5929995
9.121                0.957937309     -75.7114326
9.122                0.957837204     -75.8301673
9.123                0.957736803     -75.9492047
9.124                0.957636105     -76.0685456
9.125                0.957535109      -76.188191
9.126                0.957433815     -76.3081418
9.127                0.957332223      -76.428399
9.128                0.957230331     -76.5489635
9.129                0.957128139     -76.6698363
9.13                 0.957025647     -76.7910183
9.131                0.956922853     -76.9125105
9.132                0.956819757     -77.0343138
9.133                0.956716359     -77.1564292
9.134                0.956612658     -77.2788576
9.135                0.956508653        -77.4016
9.136                0.956404344     -77.5246574
9.137                 0.95629973     -77.6480307
9.138                0.956194811     -77.7717209
9.139                0.956089586      -77.895729
9.14                 0.955984054     -78.0200559
9.141                0.955878215     -78.1447027
9.142                0.955772068     -78.2696702
9.143                0.955665613     -78.3949595
9.144                0.955558849     -78.5205715
9.145                0.955451776     -78.6465073
9.146                0.955344393     -78.7727677
9.147                0.955236699     -78.8993539
9.148                0.955128695     -79.0262668
9.149                0.955020378     -79.1535074
9.15                  0.95491175     -79.2810767
9.151                0.954802809     -79.4089756
9.152                0.954693555     -79.5372052
9.153                0.954583987     -79.6657665
9.154                0.954474105     -79.7946604
9.155                0.954363909     -79.9238881
9.156                0.954253397     -80.0534504
9.157                0.954142569     -80.1833484
9.158                0.954031426     -80.3135831
9.159                0.953919966     -80.4441556
9.16                 0.953808188     -80.5750667
9.161                0.953696094     -80.7063177
9.162                0.953583681     -80.8379094
9.163                0.953470949     -80.9698428
9.164                0.953357899     -81.1021191
9.165                0.953244529     -81.2347392
9.166                 0.95313084     -81.3677042
9.167                 0.95301683      -81.501015
9.168                  0.9529025     -81.6346728
9.169                0.952787849     -81.7686785
9.17                 0.952672876     -81.9030332
9.171                0.952557581     -82.0377379
9.172                0.952441964     -82.1727937
9.173                0.952326024     -82.3082015
9.174                0.952209762     -82.4439624
9.175                0.952093176     -82.5800776
9.176                0.951976266     -82.7165479
9.177                0.951859032     -82.8533745
9.178                0.951741474     -82.9905584
9.179                 0.95162359     -83.1281007
9.18                 0.951505382     -83.2660023
9.181                0.951386848     -83.4042644
9.182                0.951267989      -83.542888
9.183                0.951148804     -83.6818742
9.184                0.951029292      -83.821224
9.185                0.950909453     -83.9609384
9.186                0.950789288     -84.1010186
9.187                0.950668796     -84.2414656
9.188                0.950547976     -84.3822804
9.189                0.950426828     -84.5234641
9.19                 0.950305353     -84.6650178
9.191                0.950183549     -84.8069426
9.192                0.950061417     -84.9492395
9.193                0.949938957     -85.0919095
9.194                0.949816168     -85.2349538
9.195                 0.94969305     -85.3783734
9.196                0.949569603     -85.5221694
9.197                0.949445826     -85.6663429
9.198                0.949321721     -85.8108949
9.199                0.949197285     -85.9558266
9.2                   0.94907252     -86.1011389
9.201                0.948947426     -86.2468329
9.202                0.948822001     -86.3929099
9.203                0.948696247     -86.5393707
9.204                0.948570162     -86.6862166
9.205                0.948443747     -86.8334485
9.206                0.948317002     -86.9810676
9.207                0.948189927     -87.1290749
9.208                0.948062521     -87.2774716
9.209                0.947934786     -87.4262587
9.21                  0.94780672     -87.5754373
9.211                0.947678323     -87.7250084
9.212                0.947549597     -87.8749733
9.213                 0.94742054     -88.0253329
9.214                0.947291153     -88.1760883
9.215                0.947161436     -88.3272407
9.216                0.947031389     -88.4787911
9.217                0.946901012     -88.6307406
9.218                0.946770305     -88.7830903
9.219                0.946639268     -88.9358413
9.22                 0.946507902     -89.0889946
9.221                0.946376206     -89.2425514
9.222                0.946244181     -89.3965128
9.223                0.946111827     -89.5508798
9.224                0.945979144     -89.7056536
9.225                0.945846132     -89.8608352
9.226                0.945712792     -90.0164257
9.227                0.945579123     -90.1724262
9.228                0.945445127     -90.3288378
9.229                0.945310803     -90.4856616
9.23                 0.945176151     -90.6428987
9.231                0.945041172     -90.8005501
9.232                0.944905867      -90.958617
9.233                0.944770235     -91.1171005
9.234                0.944634277     -91.2760016
9.235                0.944497993     -91.4353214
9.236                0.944361384      -91.595061
9.237                0.944224451     -91.7552216
9.238                0.944087192     -91.9158041
9.239                 0.94394961     -92.0768097
9.24                 0.943811704     -92.2382394
9.241                0.943673475     -92.4000944
9.242                0.943534923     -92.5623758
9.243                 0.94339605     -92.7250845
9.244                0.943256855     -92.8882218
9.245                0.943117339     -93.0517886
9.246                0.942977503     -93.2157861
9.247                0.942837347     -93.3802153
9.248                0.942696871     -93.5450773
9.249                0.942556078     -93.7103733
9.25                 0.942414967     -93.8761042
9.251                0.942273538     -94.0422711
9.252                0.942131793     -94.2088752
9.253                0.941989733     -94.3759175
9.254                0.941847357      -94.543399
9.255                0.941704668     -94.7113208
9.256                0.941561665     -94.8796841
9.257                0.941418349     -95.0484898
9.258                0.941274722     -95.2177391
9.259                0.941130784     -95.3874329
9.26                 0.940986536     -95.5575724
9.261                0.940841979     -95.7281586
9.262                0.940697114     -95.8991925
9.263                0.940551942     -96.0706753
9.264                0.940406464     -96.2426079
9.265                0.940260681     -96.4149915
9.266                0.940114593      -96.587827
9.267                0.939968203     -96.7611156
9.268                 0.93982151     -96.9348581
9.269                0.939674517     -97.1090558
9.27                 0.939527223     -97.2837096
9.271                0.939379632     -97.4588206
9.272                0.939231743     -97.6343898
9.273                0.939083557     -97.8104181
9.274                0.938935077     -97.9869068
9.275                0.938786303     -98.1638567
9.276                0.938637237     -98.3412688
9.277                0.938487879     -98.5191443
9.278                0.938338232     -98.6974841
9.279                0.938188296     -98.8762893
9.28                 0.938038074     -99.0555607
9.281                0.937887566     -99.2352995
9.282                0.937736774     -99.4155067
9.283                0.937585699     -99.5961831
9.284                0.937434343     -99.7773299
9.285                0.937282707      -99.958948
9.286                0.937130794     -100.141038
9.287                0.936978604     -100.323602
9.288                0.936826139      -100.50664
9.289                0.936673402     -100.690153
9.29                 0.936520393     -100.874142
9.291                0.936367114     -101.058609
9.292                0.936213567     -101.243553
9.293                0.936059754     -101.428977
9.294                0.935905677      -101.61488
9.295                0.935751338     -101.801265
9.296                0.935596737     -101.988131
9.297                0.935441878      -102.17548
9.298                0.935286763     -102.363313
9.299                0.935131392     -102.551631
9.3                  0.934975769     -102.740434
9.301                0.934819895     -102.929724
9.302                0.934663772     -103.119501
9.303                0.934507403     -103.309766
9.304                0.934350789     -103.500521
9.305                0.934193933     -103.691765
9.306                0.934036838     -103.883501
9.307                0.933879504     -104.075728
9.308                0.933721935     -104.268448
9.309                0.933564133     -104.461662
9.31                   0.9334061      -104.65537
9.311                0.933247838     -104.849574
9.312                 0.93308935     -105.044273
9.313                0.932930639     -105.239469
9.314                0.932771707     -105.435164
9.315                0.932612556     -105.631357
9.316                 0.93245319     -105.828049
9.317                 0.93229361     -106.025241
9.318                0.932133819     -106.222935
9.319                 0.93197382      -106.42113
9.32                 0.931813616     -106.619828
9.321                0.931653209     -106.819029
9.322                0.931492602     -107.018735
9.323                0.931331799     -107.218945
9.324                0.931170801     -107.419662
9.325                0.931009612     -107.620884
9.326                0.930848235     -107.822614
9.327                0.930686673     -108.024851
9.328                0.930524929     -108.227598
9.329                0.930363005     -108.430853
9.33                 0.930200905     -108.634619
9.331                0.930038633     -108.838895
9.332                 0.92987619     -109.043682
9.333                0.929713582     -109.248982
9.334                 0.92955081     -109.454795
9.335                0.929387878      -109.66112
9.336                0.929224789      -109.86796
9.337                0.929061547     -110.075315
9.338                0.928898156     -110.283185
9.339                0.928734618      -110.49157
9.34                 0.928570938     -110.700473
9.341                0.928407118     -110.909892
9.342                0.928243162     -111.119829
9.343                0.928079075     -111.330285
9.344                0.927914859     -111.541259
9.345                0.927750519     -111.752752
9.346                0.927586058     -111.964766
9.347                 0.92742148       -112.1773
9.348                0.927256789     -112.390355
9.349                0.927091989     -112.603931
9.35                 0.926927083      -112.81803
9.351                0.926762076     -113.032651
9.352                0.926596972     -113.247795
9.353                0.926431775     -113.463462
9.354                0.926266488     -113.679653
9.355                0.926101117     -113.896368
9.356                0.925935664     -114.113609
9.357                0.925770136     -114.331374
9.358                0.925604535     -114.549664
9.359                0.925438866     -114.768481
9.36                 0.925273134     -114.987824
9.361                0.925107343     -115.207693
9.362                0.924941497      -115.42809
9.363                0.924775601     -115.649013
9.364                 0.92460966     -115.870465
9.365                0.924443678     -116.092444
9.366                 0.92427766     -116.314951
9.367                 0.92411161     -116.537987
9.368                0.923945533     -116.761551
9.369                0.923779434     -116.985645
9.37                 0.923613319     -117.210268
9.371                0.923447191      -117.43542
9.372                0.923281055     -117.661101
9.373                0.923114917     -117.887313
9.374                0.922948782     -118.114054
9.375                0.922782655     -118.341326
9.376                 0.92261654     -118.569128
9.377                0.922450443      -118.79746
9.378                 0.92228437     -119.026323
9.379                0.922118325     -119.255716
9.38                 0.921952313      -119.48564
9.381                0.921786341     -119.716094
9.382                0.921620413     -119.947079
9.383                0.921454534     -120.178595
9.384                0.921288711     -120.410642
9.385                0.921122949      -120.64322
9.386                0.920957254     -120.876328
9.387                 0.92079163     -121.109967
9.388                0.920626084     -121.344137
9.389                0.920460621     -121.578837
9.39                 0.920295247     -121.814067
9.391                0.920129968     -122.049828
9.392                 0.91996479     -122.286119
9.393                0.919799719      -122.52294
9.394                0.919634759     -122.760291
9.395                0.919469919     -122.998172
9.396                0.919305202     -123.236582
