! TOUCHSTONE file generated by CST DESIGN STUDIO
! Date and time: Tue Feb  4 17:08:22 2025
! Project name: C:\Work\MatlabApps\UnitCellOptimizationMatlab\CST\unitcell.cst
! Tree item: Tasks\Sweep1\SPara1\S-Parameters
! Header version: 2024
! Port assignment regex: !\s*Touchstone port\s*([0-9]+)\s*=\s*(CST MWS port|CST DES external port|CST DES block port)\s*(.+)\s* \(\"(.*)\"\)(\s*mode\s*([0-9]+))?.*
! Touchstone port assignment:
! Touchstone port 1 = CST DES external port 1 ("")
# GHz S MA R 50
9                    0.971267483     -50.9701945
9.001                0.971217811     -51.0353656
9.002                0.971167991     -51.1006739
9.003                 0.97111802     -51.1661198
9.004                  0.9710679     -51.2317038
9.005                0.971017628     -51.2974261
9.006                0.970967206     -51.3632874
9.007                0.970916631     -51.4292879
9.008                0.970865905     -51.4954281
9.009                0.970815026     -51.5617085
9.01                 0.970763993     -51.6281295
9.011                0.970712807     -51.6946914
9.012                0.970661467     -51.7613948
9.013                0.970609971       -51.82824
9.014                0.970558321     -51.8952276
9.015                0.970506515     -51.9623578
9.016                0.970454552     -52.0296312
9.017                0.970402433     -52.0970483
9.018                0.970350156     -52.1646094
9.019                0.970297721     -52.2323149
9.02                 0.970245128     -52.3001654
9.021                0.970192376     -52.3681613
9.022                0.970139465      -52.436303
9.023                0.970086394     -52.5045909
9.024                0.970033162     -52.5730256
9.025                0.969979769     -52.6416075
9.026                0.969926215      -52.710337
9.027                0.969872498     -52.7792145
9.028                0.969818619     -52.8482406
9.029                0.969764577     -52.9174157
9.03                 0.969710371     -52.9867403
9.031                0.969656001     -53.0562147
9.032                0.969601466     -53.1258396
9.033                0.969546765     -53.1956153
9.034                0.969491899     -53.2655423
9.035                0.969436866      -53.335621
9.036                0.969381666      -53.405852
9.037                0.969326299     -53.4762358
9.038                0.969270764     -53.5467727
9.039                 0.96921506     -53.6174633
9.04                 0.969159187      -53.688308
9.041                0.969103143     -53.7593074
9.042                 0.96904693     -53.8304618
9.043                0.968990546     -53.9017719
9.044                 0.96893399      -53.973238
9.045                0.968877262     -54.0448606
9.046                0.968820362     -54.1166403
9.047                0.968763288     -54.1885776
9.048                0.968706041     -54.2606728
9.049                0.968648619     -54.3329265
9.05                 0.968591023     -54.4053393
9.051                 0.96853325     -54.4779115
9.052                0.968475302     -54.5506438
9.053                0.968417178     -54.6235365
9.054                0.968358876     -54.6965903
9.055                0.968300396     -54.7698055
9.056                0.968241737     -54.8431828
9.057                  0.9681829     -54.9167225
9.058                0.968123883     -54.9904253
9.059                0.968064686     -55.0642916
9.06                 0.968005308     -55.1383219
9.061                0.967945749     -55.2125169
9.062                0.967886008     -55.2868768
9.063                0.967826084     -55.3614024
9.064                0.967765977     -55.4360941
9.065                0.967705687     -55.5109524
9.066                0.967645212     -55.5859779
9.067                0.967584551      -55.661171
9.068                0.967523706     -55.7365324
9.069                0.967462674     -55.8120625
9.07                 0.967401455     -55.8877618
9.071                0.967340049      -55.963631
9.072                0.967278455     -56.0396705
9.073                0.967216672     -56.1158808
9.074                0.967154699     -56.1922626
9.075                0.967092537     -56.2688163
9.076                0.967030184     -56.3455425
9.077                 0.96696764     -56.4224418
9.078                0.966904905     -56.4995146
9.079                0.966841976     -56.5767616
9.08                 0.966778855     -56.6541832
9.081                 0.96671554     -56.7317801
9.082                0.966652031     -56.8095528
9.083                0.966588327     -56.8875018
9.084                0.966524427     -56.9656277
9.085                 0.96646033     -57.0439311
9.086                0.966396037     -57.1224125
9.087                0.966331547     -57.2010725
9.088                0.966266858     -57.2799117
9.089                 0.96620197     -57.3589306
9.09                 0.966136883     -57.4381297
9.091                0.966071596     -57.5175098
9.092                0.966006108     -57.5970713
9.093                0.965940418     -57.6768148
9.094                0.965874526     -57.7567409
9.095                0.965808432     -57.8368502
9.096                0.965742134     -57.9171433
9.097                0.965675632     -57.9976207
9.098                0.965608925      -58.078283
9.099                0.965542013     -58.1591309
9.1                  0.965474895     -58.2401648
9.101                0.965407569     -58.3213855
9.102                0.965340037     -58.4027935
9.103                0.965272296     -58.4843894
9.104                0.965204347     -58.5661738
9.105                0.965136188     -58.6481473
9.106                0.965067819     -58.7303105
9.107                0.964999239      -58.812664
9.108                0.964930448     -58.8952084
9.109                0.964861444     -58.9779444
9.11                 0.964792228     -59.0608725
9.111                0.964722798     -59.1439933
9.112                0.964653153     -59.2273076
9.113                0.964583294     -59.3108158
9.114                0.964513219     -59.3945187
9.115                0.964442928     -59.4784168
9.116                 0.96437242     -59.5625107
9.117                0.964301694     -59.6468012
9.118                0.964230749     -59.7312888
9.119                0.964159586     -59.8159741
9.12                 0.964088202     -59.9008579
9.121                0.964016598     -59.9859406
9.122                0.963944773     -60.0712231
9.123                0.963872726     -60.1567058
9.124                0.963800456     -60.2423895
9.125                0.963727963     -60.3282749
9.126                0.963655246     -60.4143624
9.127                0.963582304     -60.5006529
9.128                0.963509136     -60.5871469
9.129                0.963435743     -60.6738451
9.13                 0.963362122     -60.7607482
9.131                0.963288273     -60.8478568
9.132                0.963214197     -60.9351716
9.133                0.963139891     -61.0226933
9.134                0.963065355     -61.1104225
9.135                0.962990589     -61.1983598
9.136                0.962915591     -61.2865061
9.137                0.962840361     -61.3748618
9.138                0.962764899     -61.4634278
9.139                0.962689203     -61.5522047
9.14                 0.962613273     -61.6411931
9.141                0.962537108     -61.7303938
9.142                0.962460707     -61.8198075
9.143                 0.96238407     -61.9094347
9.144                0.962307195     -61.9992763
9.145                0.962230083      -62.089333
9.146                0.962152732     -62.1796053
9.147                0.962075141      -62.270094
9.148                0.961997311     -62.3607998
9.149                0.961919239     -62.4517235
9.15                 0.961840926     -62.5428657
9.151                0.961762371      -62.634227
9.152                0.961683572     -62.7258084
9.153                0.961604529     -62.8176103
9.154                0.961525242     -62.9096337
9.155                 0.96144571     -63.0018791
9.156                0.961365931     -63.0943473
9.157                0.961285905      -63.187039
9.158                0.961205632      -63.279955
9.159                 0.96112511      -63.373096
9.16                 0.961044339     -63.4664627
9.161                0.960963318     -63.5600558
9.162                0.960882046      -63.653876
9.163                0.960800523     -63.7479242
9.164                0.960718747     -63.8422011
9.165                0.960636719     -63.9367073
9.166                0.960554437     -64.0314437
9.167                  0.9604719     -64.1264109
9.168                0.960389108     -64.2216098
9.169                0.960306059     -64.3170411
9.17                 0.960222754     -64.4127056
9.171                0.960139192     -64.5086039
9.172                 0.96005537     -64.6047369
9.173                 0.95997129     -64.7011053
9.174                 0.95988695       -64.79771
9.175                0.959802349     -64.8945515
9.176                0.959717486     -64.9916309
9.177                0.959632361     -65.0889487
9.178                0.959546973     -65.1865058
9.179                0.959461322     -65.2843029
9.18                 0.959375405      -65.382341
9.181                0.959289223     -65.4806206
9.182                0.959202775     -65.5791426
9.183                0.959116061     -65.6779079
9.184                0.959029078     -65.7769171
9.185                0.958941827     -65.8761712
9.186                0.958854306     -65.9756708
9.187                0.958766515     -66.0754168
9.188                0.958678454       -66.17541
9.189                0.958590121     -66.2756511
9.19                 0.958501515     -66.3761411
9.191                0.958412636     -66.4768807
9.192                0.958323483     -66.5778707
9.193                0.958234056      -66.679112
9.194                0.958144352     -66.7806053
9.195                0.958054373     -66.8823515
9.196                0.957964116     -66.9843514
9.197                0.957873581     -67.0866058
9.198                0.957782768     -67.1891156
9.199                0.957691675     -67.2918816
9.2                  0.957600301     -67.3949046
9.201                0.957508647     -67.4981855
9.202                 0.95741671     -67.6017251
9.203                0.957324491     -67.7055242
9.204                0.957231989     -67.8095837
9.205                0.957139202     -67.9139045
9.206                 0.95704613     -68.0184873
9.207                0.956952772     -68.1233331
9.208                0.956859128     -68.2284427
9.209                0.956765196      -68.333817
9.21                 0.956670976     -68.4394567
9.211                0.956576468     -68.5453629
9.212                0.956481669     -68.6515363
9.213                 0.95638658     -68.7579779
9.214                0.956291199     -68.8646884
9.215                0.956195527     -68.9716688
9.216                0.956099561       -69.07892
9.217                0.956003302     -69.1864428
9.218                0.955906748     -69.2942381
9.219                0.955809899     -69.4023068
9.22                 0.955712754     -69.5106499
9.221                0.955615313     -69.6192681
9.222                0.955517573     -69.7281623
9.223                0.955419535     -69.8373336
9.224                0.955321199     -69.9467827
9.225                0.955222562     -70.0565107
9.226                0.955123624     -70.1665183
9.227                0.955024385     -70.2768065
9.228                0.954924844     -70.3873762
9.229                   0.954825     -70.4982283
9.23                 0.954724852     -70.6093638
9.231                0.954624399     -70.7207836
9.232                0.954523641     -70.8324885
9.233                0.954422577     -70.9444795
9.234                0.954321206     -71.0567576
9.235                0.954219528     -71.1693236
9.236                0.954117541     -71.2821785
9.237                0.954015245     -71.3953233
9.238                0.953912639     -71.5087589
9.239                0.953809723     -71.6224861
9.24                 0.953706495     -71.7365061
9.241                0.953602954     -71.8508196
9.242                0.953499101     -71.9654277
9.243                0.953394935     -72.0803314
9.244                0.953290453     -72.1955315
9.245                0.953185657      -72.311029
9.246                0.953080545     -72.4268249
9.247                0.952975116     -72.5429202
9.248                 0.95286937     -72.6593158
9.249                0.952763305     -72.7760127
9.25                 0.952656922     -72.8930119
9.251                0.952550219     -73.0103143
9.252                0.952443196     -73.1279209
9.253                0.952335852     -73.2458327
9.254                0.952228186     -73.3640507
9.255                0.952120198     -73.4825759
9.256                0.952011886     -73.6014092
9.257                0.951903251     -73.7205517
9.258                0.951794291     -73.8400044
9.259                0.951685005     -73.9597681
9.26                 0.951575394     -74.0798441
9.261                0.951465456     -74.2002331
9.262                 0.95135519     -74.3209363
9.263                0.951244597     -74.4419547
9.264                0.951133674     -74.5632893
9.265                0.951022422      -74.684941
9.266                 0.95091084     -74.8069109
9.267                0.950798927     -74.9292001
9.268                0.950686683     -75.0518095
9.269                0.950574106     -75.1747401
9.27                 0.950461197     -75.2979931
9.271                0.950347954     -75.4215693
9.272                0.950234377       -75.54547
9.273                0.950120465      -75.669696
9.274                0.950006217     -75.7942484
9.275                0.949891634     -75.9191283
9.276                0.949776713     -76.0443367
9.277                0.949661456     -76.1698746
9.278                 0.94954586     -76.2957432
9.279                0.949429926     -76.4219434
9.28                 0.949313652     -76.5484763
9.281                0.949197039      -76.675343
9.282                0.949080085     -76.8025445
9.283                 0.94896279     -76.9300819
9.284                0.948845153     -77.0579562
9.285                0.948727174     -77.1861685
9.286                0.948608852     -77.3147199
9.287                0.948490187     -77.4436115
9.288                0.948371178     -77.5728442
9.289                0.948251824     -77.7024193
9.29                 0.948132125     -77.8323377
9.291                 0.94801208     -77.9626006
9.292                0.947891689     -78.0932091
9.293                0.947770952     -78.2241641
9.294                0.947649867     -78.3554669
9.295                0.947528434     -78.4871185
9.296                0.947406653       -78.61912
9.297                0.947284523     -78.7514724
9.298                0.947162043      -78.884177
9.299                0.947039214     -79.0172347
9.3                  0.946916034     -79.1506468
9.301                0.946792504     -79.2844142
9.302                0.946668622     -79.4185381
9.303                0.946544389     -79.5530197
9.304                0.946419803     -79.6878599
9.305                0.946294864       -79.82306
9.306                0.946169572     -79.9586211
9.307                0.946043927     -80.0945442
9.308                0.945917928     -80.2308305
9.309                0.945791574     -80.3674812
9.31                 0.945664865     -80.5044972
9.311                0.945537802     -80.6418799
9.312                0.945410382     -80.7796302
9.313                0.945282607     -80.9177493
9.314                0.945154475     -81.0562384
9.315                0.945025986     -81.1950986
9.316                 0.94489714     -81.3343311
9.317                0.944767937     -81.4739369
9.318                0.944638376     -81.6139172
9.319                0.944508457     -81.7542731
9.32                  0.94437818     -81.8950059
9.321                0.944247544     -82.0361166
9.322                0.944116549     -82.1776064
9.323                0.943985194     -82.3194764
9.324                 0.94385348     -82.4617279
9.325                0.943721406     -82.6043618
9.326                0.943588972     -82.7473795
9.327                0.943456178     -82.8907821
9.328                0.943323023     -83.0345706
9.329                0.943189508     -83.1787464
9.33                 0.943055632     -83.3233105
9.331                0.942921394     -83.4682641
9.332                0.942786795     -83.6136084
9.333                0.942651835     -83.7593446
9.334                0.942516513     -83.9054737
9.335                 0.94238083      -84.051997
9.336                0.942244784     -84.1989157
9.337                0.942108377      -84.346231
9.338                0.941971607     -84.4939439
9.339                0.941834475     -84.6420557
9.34                 0.941696982     -84.7905676
9.341                0.941559125     -84.9394807
9.342                0.941420907     -85.0887962
9.343                0.941282326     -85.2385153
9.344                0.941143383     -85.3886392
9.345                0.941004077     -85.5391691
9.346                0.940864409     -85.6901061
9.347                0.940724379     -85.8414515
9.348                0.940583986     -85.9932064
9.349                0.940443232      -86.145372
9.35                 0.940302115     -86.2979495
9.351                0.940160636     -86.4509401
9.352                0.940018795      -86.604345
9.353                0.939876592     -86.7581653
9.354                0.939734028     -86.9124024
9.355                0.939591103     -87.0670573
9.356                0.939447816     -87.2221312
9.357                0.939304167     -87.3776254
9.358                0.939160158      -87.533541
9.359                0.939015789     -87.6898793
9.36                 0.938871059     -87.8466414
9.361                0.938725969     -88.0038286
9.362                0.938580518      -88.161442
9.363                0.938434709     -88.3194828
9.364                 0.93828854     -88.4779523
9.365                0.938142012     -88.6368515
9.366                0.937995126     -88.7961818
9.367                0.937847882     -88.9559444
9.368                 0.93770028     -89.1161403
9.369                 0.93755232     -89.2767709
9.37                 0.937404004     -89.4378373
9.371                0.937255331     -89.5993407
9.372                0.937106303     -89.7612824
9.373                0.936956919     -89.9236634
9.374                 0.93680718     -90.0864851
9.375                0.936657086     -90.2497486
9.376                0.936506639     -90.4134551
9.377                0.936355839     -90.5776058
9.378                0.936204686      -90.742202
9.379                0.936053182     -90.9072447
9.38                 0.935901326     -91.0727353
9.381                0.935749119     -91.2386748
9.382                0.935596562     -91.4050646
9.383                0.935443657     -91.5719057
9.384                0.935290403     -91.7391994
9.385                0.935136801     -91.9069469
9.386                0.934982852     -92.0751494
9.387                0.934828558      -92.243808
9.388                0.934673918      -92.412924
9.389                0.934518934     -92.5824985
9.39                 0.934363607     -92.7525327
9.391                0.934207937     -92.9230278
9.392                0.934051926     -93.0939851
9.393                0.933895574     -93.2654056
9.394                0.933738882     -93.4372905
9.395                0.933581852     -93.6096411
9.396                0.933424485     -93.7824585
