! TOUCHSTONE file generated by CST DESIGN STUDIO
! Date and time: Tue Feb  4 17:08:15 2025
! Project name: C:\Work\MatlabApps\UnitCellOptimizationMatlab\CST\unitcell.cst
! Tree item: Tasks\Sweep1\SPara1\S-Parameters
! Header version: 2024
! Port assignment regex: !\s*Touchstone port\s*([0-9]+)\s*=\s*(CST MWS port|CST DES external port|CST DES block port)\s*(.+)\s* \(\"(.*)\"\)(\s*mode\s*([0-9]+))?.*
! Touchstone port assignment:
! Touchstone port 1 = CST DES external port 1 ("")
# GHz S MA R 50
9                    0.968840618     -60.2101555
9.001                0.968776109     -60.2921159
9.002                0.968711403     -60.3742642
9.003                  0.9686465     -60.4566009
9.004                  0.9685814     -60.5391267
9.005                0.968516101     -60.6218421
9.006                0.968450603     -60.7047477
9.007                0.968384906     -60.7878441
9.008                0.968319009     -60.8711319
9.009                 0.96825291     -60.9546117
9.01                  0.96818661     -61.0382841
9.011                0.968120108     -61.1221497
9.012                0.968053403     -61.2062091
9.013                0.967986495      -61.290463
9.014                0.967919383     -61.3749119
9.015                0.967852066     -61.4595564
9.016                0.967784543     -61.5443971
9.017                0.967716814     -61.6294348
9.018                0.967648879     -61.7146699
9.019                0.967580736     -61.8001031
9.02                 0.967512385     -61.8857351
9.021                0.967443826     -61.9715664
9.022                0.967375057     -62.0575977
9.023                0.967306078     -62.1438296
9.024                0.967236889     -62.2302627
9.025                0.967167488     -62.3168977
9.026                0.967097875     -62.4037352
9.027                0.967028049     -62.4907758
9.028                 0.96695801     -62.5780203
9.029                0.966887757     -62.6654691
9.03                 0.966817289      -62.753123
9.031                0.966746606     -62.8409826
9.032                0.966675707     -62.9290486
9.033                0.966604591     -63.0173216
9.034                0.966533257     -63.1058023
9.035                0.966461706     -63.1944913
9.036                0.966389936     -63.2833892
9.037                0.966317946     -63.3724968
9.038                0.966245736     -63.4618147
9.039                0.966173305     -63.5513435
9.04                 0.966100653     -63.6410839
9.041                0.966027778     -63.7310367
9.042                0.965954681     -63.8212024
9.043                 0.96588136     -63.9115817
9.044                0.965807815     -64.0021753
9.045                0.965734045      -64.092984
9.046                0.965660049     -64.1840082
9.047                0.965585827     -64.2752489
9.048                0.965511378     -64.3667065
9.049                0.965436701     -64.4583819
9.05                 0.965361795     -64.5502757
9.051                0.965286661     -64.6423885
9.052                0.965211296     -64.7347212
9.053                0.965135701     -64.8272743
9.054                0.965059875     -64.9200487
9.055                0.964983817     -65.0130448
9.056                0.964907526     -65.1062636
9.057                0.964831002     -65.1997057
9.058                0.964754243     -65.2933717
9.059                 0.96467725     -65.3872625
9.06                 0.964600022     -65.4813787
9.061                0.964522557     -65.5757209
9.062                0.964444855     -65.6702901
9.063                0.964366916     -65.7650868
9.064                0.964288738     -65.8601117
9.065                0.964210322     -65.9553657
9.066                0.964131665     -66.0508494
9.067                0.964052768     -66.1465636
9.068                 0.96397363      -66.242509
9.069                 0.96389425     -66.3386863
9.07                 0.963814628     -66.4350962
9.071                0.963734762     -66.5317395
9.072                0.963654652      -66.628617
9.073                0.963574297     -66.7257293
9.074                0.963493697     -66.8230773
9.075                 0.96341285     -66.9206616
9.076                0.963331757     -67.0184831
9.077                0.963250416     -67.1165424
9.078                0.963168826     -67.2148403
9.079                0.963086987     -67.3133777
9.08                 0.963004899     -67.4121551
9.081                 0.96292256     -67.5111735
9.082                 0.96283997     -67.6104335
9.083                0.962757128      -67.709936
9.084                0.962674033     -67.8096816
9.085                0.962590684     -67.9096713
9.086                0.962507082     -68.0099057
9.087                0.962423224     -68.1103856
9.088                0.962339111     -68.2111118
9.089                0.962254742      -68.312085
9.09                 0.962170115     -68.4133062
9.091                0.962085231      -68.514776
9.092                0.962000088     -68.6164952
9.093                0.961914686     -68.7184647
9.094                0.961829024     -68.8206852
9.095                0.961743101     -68.9231575
9.096                0.961656916     -69.0258824
9.097                 0.96157047     -69.1288608
9.098                0.961483761     -69.2320934
9.099                0.961396788      -69.335581
9.1                   0.96130955     -69.4393244
9.101                0.961222048     -69.5433245
9.102                 0.96113428     -69.6475821
9.103                0.961046245     -69.7520979
9.104                0.960957943     -69.8568728
9.105                0.960869373     -69.9619076
9.106                0.960780535     -70.0672032
9.107                0.960691427     -70.1727603
9.108                0.960602048     -70.2785799
9.109                0.960512399     -70.3846626
9.11                 0.960422479     -70.4910094
9.111                0.960332286     -70.5976211
9.112                0.960241819     -70.7044986
9.113                 0.96015108     -70.8116426
9.114                0.960060065      -70.919054
9.115                0.959968776     -71.0267337
9.116                 0.95987721     -71.1346825
9.117                0.959785368     -71.2429012
9.118                0.959693249     -71.3513908
9.119                0.959600851      -71.460152
9.12                 0.959508174     -71.5691857
9.121                0.959415219     -71.6784929
9.122                0.959321982     -71.7880743
9.123                0.959228465     -71.8979308
9.124                0.959134666     -72.0080633
9.125                0.959040585     -72.1184726
9.126                0.958946221     -72.2291597
9.127                0.958851573     -72.3401254
9.128                 0.95875664     -72.4513705
9.129                0.958661423     -72.5628961
9.13                 0.958565919     -72.6747028
9.131                0.958470129     -72.7867917
9.132                0.958374051     -72.8991637
9.133                0.958277686     -73.0118195
9.134                0.958181031     -73.1247601
9.135                0.958084088     -73.2379865
9.136                0.957986854     -73.3514994
9.137                0.957889329     -73.4652999
9.138                0.957791513     -73.5793887
9.139                0.957693405     -73.6937669
9.14                 0.957595003     -73.8084352
9.141                0.957496309     -73.9233947
9.142                 0.95739732     -74.0386463
9.143                0.957298036     -74.1541908
9.144                0.957198456     -74.2700291
9.145                0.957098581     -74.3861623
9.146                0.956998408     -74.5025912
9.147                0.956897938     -74.6193167
9.148                0.956797169     -74.7363398
9.149                0.956696101     -74.8536614
9.15                 0.956594734     -74.9712825
9.151                0.956493067     -75.0892039
9.152                0.956391098     -75.2074266
9.153                0.956288828     -75.3259515
9.154                0.956186256     -75.4447797
9.155                0.956083381      -75.563912
9.156                0.955980202     -75.6833493
9.157                 0.95587672     -75.8030927
9.158                0.955772932     -75.9231431
9.159                0.955668839     -76.0435014
9.16                 0.955564439     -76.1641687
9.161                0.955459733     -76.2851457
9.162                 0.95535472     -76.4064336
9.163                0.955249399     -76.5280333
9.164                0.955143769     -76.6499457
9.165                 0.95503783     -76.7721719
9.166                0.954931581     -76.8947127
9.167                0.954825021     -77.0175692
9.168                0.954718151     -77.1407423
9.169                0.954610969      -77.264233
9.17                 0.954503474     -77.3880424
9.171                0.954395667     -77.5121713
9.172                0.954287547     -77.6366207
9.173                0.954179112     -77.7613917
9.174                0.954070363     -77.8864853
9.175                0.953961299     -78.0119024
9.176                0.953851919      -78.137644
9.177                0.953742223     -78.2637112
9.178                 0.95363221     -78.3901048
9.179                0.953521879      -78.516826
9.18                 0.953411231     -78.6438757
9.181                0.953300264     -78.7712549
9.182                0.953188978     -78.8989647
9.183                0.953077372      -79.027006
9.184                0.952965447     -79.1553799
9.185                0.952853201     -79.2840873
9.186                0.952740633     -79.4131293
9.187                0.952627745      -79.542507
9.188                0.952514534     -79.6722212
9.189                   0.952401     -79.8022731
9.19                 0.952287143     -79.9326637
9.191                0.952172963      -80.063394
9.192                0.952058458      -80.194465
9.193                0.951943629     -80.3258778
9.194                0.951828475     -80.4576333
9.195                0.951712996     -80.5897327
9.196                 0.95159719     -80.7221769
9.197                0.951481058      -80.854967
9.198                0.951364599     -80.9881041
9.199                0.951247813     -81.1215892
9.2                    0.9511307     -81.2554232
9.201                0.951013258     -81.3896074
9.202                0.950895488     -81.5241426
9.203                0.950777389     -81.6590301
9.204                 0.95065896     -81.7942707
9.205                0.950540202     -81.9298657
9.206                0.950421114     -82.0658159
9.207                0.950301695     -82.2021226
9.208                0.950181946     -82.3387866
9.209                0.950061865     -82.4758092
9.21                 0.949941453     -82.6131914
9.211                0.949820709     -82.7509342
9.212                0.949699633     -82.8890387
9.213                0.949578224     -83.0275059
9.214                0.949456483      -83.166337
9.215                0.949334408      -83.305533
9.216                   0.949212      -83.445095
9.217                0.949089259      -83.585024
9.218                0.948966183     -83.7253211
9.219                0.948842774     -83.8659875
9.22                  0.94871903     -84.0070241
9.221                0.948594951     -84.1484321
9.222                0.948470537     -84.2902125
9.223                0.948345788     -84.4323664
9.224                0.948220704      -84.574895
9.225                0.948095284     -84.7177992
9.226                0.947969529     -84.8610802
9.227                0.947843437     -85.0047391
9.228                 0.94771701     -85.1487769
9.229                0.947590246     -85.2931948
9.23                 0.947463146     -85.4379938
9.231                0.947335709      -85.583175
9.232                0.947207936     -85.7287395
9.233                0.947079826     -85.8746885
9.234                0.946951379      -86.021023
9.235                0.946822595      -86.167744
9.236                0.946693474     -86.3148528
9.237                0.946564016     -86.4623504
9.238                0.946434221     -86.6102379
9.239                0.946304089     -86.7585164
9.24                  0.94617362      -86.907187
9.241                0.946042813     -87.0562508
9.242                 0.94591167     -87.2057089
9.243                0.945780189     -87.3555624
9.244                0.945648371     -87.5058125
9.245                0.945516216     -87.6564601
9.246                0.945383724     -87.8075065
9.247                0.945250895     -87.9589528
9.248                0.945117729     -88.1107999
9.249                0.944984227     -88.2630492
9.25                 0.944850388     -88.4157016
9.251                0.944716212     -88.5687582
9.252                  0.9445817     -88.7222202
9.253                0.944446852     -88.8760887
9.254                0.944311668     -89.0303648
9.255                0.944176148     -89.1850496
9.256                0.944040293     -89.3401442
9.257                0.943904102     -89.4956498
9.258                0.943767577     -89.6515673
9.259                0.943630716      -89.807898
9.26                 0.943493521      -89.964643
9.261                0.943355992     -90.1218033
9.262                0.943218128     -90.2793801
9.263                0.943079931     -90.4373745
9.264                0.942941401     -90.5957876
9.265                0.942802538     -90.7546204
9.266                0.942663342     -90.9138742
9.267                0.942523815       -91.07355
9.268                0.942383956     -91.2336489
9.269                0.942243765     -91.3941721
9.27                 0.942103244     -91.5551206
9.271                0.941962392     -91.7164956
9.272                0.941821211     -91.8782981
9.273                  0.9416797     -92.0405293
9.274                0.941537861     -92.2031902
9.275                0.941395693     -92.3662821
9.276                0.941253198     -92.5298059
9.277                0.941110376     -92.6937627
9.278                0.940967227     -92.8581538
9.279                0.940823753     -93.0229801
9.28                 0.940679953     -93.1882429
9.281                 0.94053583     -93.3539431
9.282                0.940391382     -93.5200819
9.283                0.940246612     -93.6866603
9.284                0.940101519     -93.8536795
9.285                0.939956105     -94.0211406
9.286                 0.93981037     -94.1890447
9.287                0.939664316     -94.3573927
9.288                0.939517942      -94.526186
9.289                0.939371251     -94.6954254
9.29                 0.939224242     -94.8651121
9.291                0.939076916     -95.0352473
9.292                0.938929276     -95.2058319
9.293                0.938781321      -95.376867
9.294                0.938633052     -95.5483538
9.295                0.938484471     -95.7202933
9.296                0.938335579     -95.8926866
9.297                0.938186376     -96.0655347
9.298                0.938036864     -96.2388387
9.299                0.937887044     -96.4125997
9.3                  0.937736916     -96.5868188
9.301                0.937586483      -96.761497
9.302                0.937435745     -96.9366353
9.303                0.937284704     -97.1122349
9.304                 0.93713336     -97.2882967
9.305                0.936981716     -97.4648219
9.306                0.936829771     -97.6418115
9.307                0.936677529     -97.8192665
9.308                0.936524989     -97.9971879
9.309                0.936372154     -98.1755769
9.31                 0.936219025     -98.3544344
9.311                0.936065602     -98.5337615
9.312                0.935911889     -98.7135592
9.313                0.935757886     -98.8938285
9.314                0.935603594     -99.0745704
9.315                0.935449016      -99.255786
9.316                0.935294152     -99.4374763
9.317                0.935139005     -99.6196423
9.318                0.934983576     -99.8022849
9.319                0.934827867     -99.9854053
9.32                 0.934671879     -100.169004
9.321                0.934515614     -100.353083
9.322                0.934359075     -100.537642
9.323                0.934202262     -100.722684
9.324                0.934045178     -100.908207
9.325                0.933887824     -101.094215
9.326                0.933730203     -101.280706
9.327                0.933572316     -101.467684
9.328                0.933414166     -101.655148
9.329                0.933255753     -101.843099
9.33                 0.933097081     -102.031539
9.331                0.932938151     -102.220468
9.332                0.932778966     -102.409888
9.333                0.932619527     -102.599799
9.334                0.932459838     -102.790202
9.335                0.932299899     -102.981098
9.336                0.932139713     -103.172488
9.337                0.931979283     -103.364372
9.338                 0.93181861     -103.556753
9.339                0.931657698     -103.749631
9.34                 0.931496548     -103.943006
9.341                0.931335163     -104.136879
9.342                0.931173546     -104.331252
9.343                0.931011698     -104.526125
9.344                0.930849623       -104.7215
9.345                0.930687323     -104.917376
9.346                  0.9305248     -105.113755
9.347                0.930362058     -105.310638
9.348                0.930199098     -105.508025
9.349                0.930035924     -105.705918
9.35                 0.929872539     -105.904316
9.351                0.929708944     -106.103222
9.352                0.929545144     -106.302636
9.353                 0.92938114     -106.502558
9.354                0.929216936     -106.702989
9.355                0.929052535     -106.903931
9.356                 0.92888794     -107.105384
9.357                0.928723153     -107.307348
9.358                0.928558179     -107.509825
9.359                0.928393019     -107.712815
9.36                 0.928227677     -107.916319
9.361                0.928062157     -108.120337
9.362                0.927896461     -108.324871
9.363                0.927730593     -108.529922
9.364                0.927564556     -108.735489
9.365                0.927398354     -108.941573
9.366                0.927231989     -109.148176
9.367                0.927065466     -109.355298
9.368                0.926898788     -109.562939
9.369                0.926731958       -109.7711
9.37                  0.92656498     -109.979783
9.371                0.926397858     -110.188986
9.372                0.926230594     -110.398712
9.373                0.926063194     -110.608961
9.374                0.925895661     -110.819733
9.375                0.925727998     -111.031029
9.376                0.925560209     -111.242849
9.377                0.925392299     -111.455195
9.378                 0.92522427     -111.668066
9.379                0.925056128     -111.881464
9.38                 0.924887876     -112.095388
9.381                0.924719518     -112.309839
9.382                0.924551059     -112.524818
9.383                0.924382502     -112.740326
9.384                0.924213851     -112.956362
9.385                0.924045112     -113.172928
9.386                0.923876287     -113.390023
9.387                0.923707382     -113.607648
9.388                0.923538401     -113.825804
9.389                0.923369349     -114.044491
9.39                 0.923200229      -114.26371
9.391                0.923031046      -114.48346
9.392                0.922861806     -114.703743
9.393                0.922692511     -114.924558
9.394                0.922523168     -115.145906
9.395                0.922353781     -115.367787
9.396                0.922184355     -115.590203
