! TOUCHSTONE file generated by CST DESIGN STUDIO
! Date and time: Tue Feb  4 12:24:02 2025
! Project name: C:\Work\MatlabApps\UnitCellOptimizationMatlab\CST\unitcell.cst
! Tree item: Tasks\Sweep1\SPara1\S-Parameters
! Header version: 2024
! Port assignment regex: !\s*Touchstone port\s*([0-9]+)\s*=\s*(CST MWS port|CST DES external port|CST DES block port)\s*(.+)\s* \(\"(.*)\"\)(\s*mode\s*([0-9]+))?.*
! Touchstone port assignment:
! Touchstone port 1 = CST DES external port 1 ("")
# GHz S MA R 50
9                    0.989562526     -76.4986026
9.001                0.989537597     -76.6129288
9.002                0.989512593     -76.7275317
9.003                0.989487515      -76.842412
9.004                0.989462361     -76.9575706
9.005                0.989437132     -77.0730082
9.006                0.989411828     -77.1887258
9.007                0.989386449     -77.3047241
9.008                0.989360993     -77.4210038
9.009                0.989335462     -77.5375659
9.01                 0.989309855     -77.6544111
9.011                0.989284172     -77.7715403
9.012                0.989258413     -77.8889542
9.013                0.989232577     -78.0066537
9.014                0.989206665     -78.1246396
9.015                0.989180675     -78.2429128
9.016                0.989154609      -78.361474
9.017                0.989128466     -78.4803241
9.018                0.989102246     -78.5994639
9.019                0.989075949     -78.7188943
9.02                 0.989049574      -78.838616
9.021                0.989023121       -78.95863
9.022                 0.98899659      -79.078937
9.023                0.988969982     -79.1995378
9.024                0.988943296     -79.3204334
9.025                0.988916531     -79.4416246
9.026                0.988889688     -79.5631121
9.027                0.988862766     -79.6848969
9.028                0.988835766     -79.8069798
9.029                0.988808687     -79.9293616
9.03                  0.98878153     -80.0520432
9.031                0.988754293     -80.1750254
9.032                0.988726977     -80.2983091
9.033                0.988699581     -80.4218951
9.034                0.988672107     -80.5457844
9.035                0.988644552     -80.6699776
9.036                0.988616918     -80.7944758
9.037                0.988589204     -80.9192797
9.038                 0.98856141     -81.0443903
9.039                0.988533536     -81.1698083
9.04                 0.988505582     -81.2955347
9.041                0.988477547     -81.4215703
9.042                0.988449432     -81.5479159
9.043                0.988421236     -81.6745725
9.044                 0.98839296     -81.8015409
9.045                0.988364602      -81.928822
9.046                0.988336164     -82.0564166
9.047                0.988307645     -82.1843257
9.048                0.988279044     -82.3125501
9.049                0.988250362     -82.4410906
9.05                 0.988221599     -82.5699481
9.051                0.988192754     -82.6991236
9.052                0.988163828     -82.8286179
9.053                0.988134819     -82.9584319
9.054                0.988105729     -83.0885665
9.055                0.988076557     -83.2190225
9.056                0.988047303     -83.3498008
9.057                0.988017967     -83.4809023
9.058                0.987988548      -83.612328
9.059                0.987959047     -83.7440786
9.06                 0.987929464     -83.8761551
9.061                0.987899798     -84.0085584
9.062                0.987870049     -84.1412893
9.063                0.987840218     -84.2743488
9.064                0.987810303     -84.4077377
9.065                0.987780306      -84.541457
9.066                0.987750226     -84.6755075
9.067                0.987720063     -84.8098901
9.068                0.987689816     -84.9446058
9.069                0.987659487     -85.0796553
9.07                 0.987629074     -85.2150397
9.071                0.987598577     -85.3507598
9.072                0.987567998     -85.4868165
9.073                0.987537334     -85.6232107
9.074                0.987506587     -85.7599434
9.075                0.987475757     -85.8970153
9.076                0.987444842     -86.0344275
9.077                0.987413844     -86.1721808
9.078                0.987382762     -86.3102762
9.079                0.987351596     -86.4487145
9.08                 0.987320346     -86.5874966
9.081                0.987289012     -86.7266235
9.082                0.987257594      -86.866096
9.083                0.987226092     -87.0059151
9.084                0.987194505     -87.1460817
9.085                0.987162835     -87.2865967
9.086                 0.98713108     -87.4274609
9.087                0.987099241     -87.5686754
9.088                0.987067318      -87.710241
9.089                 0.98703531     -87.8521586
9.09                 0.987003218     -87.9944291
9.091                0.986971041     -88.1370535
9.092                 0.98693878     -88.2800326
9.093                0.986906435     -88.4233674
9.094                0.986874005     -88.5670588
9.095                0.986841491     -88.7111076
9.096                0.986808892     -88.8555149
9.097                0.986776209     -89.0002815
9.098                0.986743441     -89.1454083
9.099                0.986710589     -89.2908963
9.1                  0.986677652     -89.4367464
9.101                0.986644631     -89.5829594
9.102                0.986611525     -89.7295363
9.103                0.986578335      -89.876478
9.104                 0.98654506     -90.0237854
9.105                0.986511701     -90.1714594
9.106                0.986478257     -90.3195009
9.107                0.986444729      -90.467911
9.108                0.986411117     -90.6166903
9.109                 0.98637742       -90.76584
9.11                 0.986343639     -90.9153608
9.111                0.986309774     -91.0652537
9.112                0.986275824     -91.2155197
9.113                 0.98624179     -91.3661595
9.114                0.986207673     -91.5171742
9.115                0.986173471     -91.6685647
9.116                0.986139185     -91.8203317
9.117                0.986104815     -91.9724764
9.118                0.986070361     -92.1249995
9.119                0.986035823     -92.2779019
9.12                 0.986001201     -92.4311847
9.121                0.985966496     -92.5848486
9.122                0.985931707     -92.7388946
9.123                0.985896835     -92.8933237
9.124                0.985861879     -93.0481366
9.125                 0.98582684     -93.2033343
9.126                0.985791718     -93.3589177
9.127                0.985756512     -93.5148877
9.128                0.985721224     -93.6712452
9.129                0.985685852     -93.8279912
9.13                 0.985650398     -93.9851264
9.131                0.985614861     -94.1426518
9.132                0.985579241     -94.3005683
9.133                0.985543539     -94.4588768
9.134                0.985507755     -94.6175781
9.135                0.985471888     -94.7766732
9.136                0.985435939      -94.936163
9.137                0.985399909     -95.0960483
9.138                0.985363797       -95.25633
9.139                0.985327603     -95.4170091
9.14                 0.985291327     -95.5780863
9.141                0.985254971     -95.7395626
9.142                0.985218533     -95.9014389
9.143                0.985182014      -96.063716
9.144                0.985145415     -96.2263948
9.145                0.985108735     -96.3894761
9.146                0.985071975      -96.552961
9.147                0.985035134     -96.7168501
9.148                0.984998214     -96.8811444
9.149                0.984961214     -97.0458448
9.15                 0.984924134     -97.2109521
9.151                0.984886975     -97.3764672
9.152                0.984849737     -97.5423909
9.153                 0.98481242     -97.7087242
9.154                0.984775024     -97.8754677
9.155                 0.98473755     -98.0426225
9.156                0.984699998     -98.2101893
9.157                0.984662368     -98.3781689
9.158                 0.98462466     -98.5465624
9.159                0.984586875     -98.7153703
9.16                 0.984549012     -98.8845937
9.161                0.984511073     -99.0542334
9.162                0.984473057     -99.2242901
9.163                0.984434965     -99.3947647
9.164                0.984396797     -99.5656581
9.165                0.984358554      -99.736971
9.166                0.984320235     -99.9087042
9.167                0.984281841     -100.080859
9.168                0.984243372     -100.253435
9.169                0.984204828     -100.426434
9.17                 0.984166211     -100.599857
9.171                 0.98412752     -100.773704
9.172                0.984088756     -100.947977
9.173                0.984049918     -101.122675
9.174                0.984011008     -101.297801
9.175                0.983972025     -101.473354
9.176                0.983932971     -101.649335
9.177                0.983893845     -101.825745
9.178                0.983854647     -102.002585
9.179                0.983815379     -102.179856
9.18                 0.983776041     -102.357559
9.181                0.983736632     -102.535693
9.182                0.983697154     -102.714261
9.183                0.983657607     -102.893262
9.184                0.983617991     -103.072698
9.185                0.983578307     -103.252569
9.186                0.983538555     -103.432876
9.187                0.983498736     -103.613619
9.188                0.983458849       -103.7948
9.189                0.983418896     -103.976419
9.19                 0.983378877     -104.158477
9.191                0.983338793     -104.340975
9.192                0.983298644     -104.523913
9.193                 0.98325843     -104.707291
9.194                0.983218152     -104.891112
9.195                 0.98317781     -105.075374
9.196                0.983137406      -105.26008
9.197                0.983096939      -105.44523
9.198                 0.98305641     -105.630824
9.199                0.983015819     -105.816863
9.2                  0.982975168     -106.003347
9.201                0.982934457     -106.190279
9.202                0.982893686     -106.377657
9.203                0.982852855     -106.565483
9.204                0.982811967     -106.753757
9.205                 0.98277102      -106.94248
9.206                0.982730016     -107.131653
9.207                0.982688955     -107.321275
9.208                0.982647838     -107.511349
9.209                0.982606665     -107.701874
9.21                 0.982565438     -107.892851
9.211                0.982524157     -108.084281
9.212                0.982482822     -108.276164
9.213                0.982441434       -108.4685
9.214                0.982399993     -108.661291
9.215                0.982358502     -108.854537
9.216                0.982316959     -109.048238
9.217                0.982275366     -109.242396
9.218                0.982233724     -109.437009
9.219                0.982192033      -109.63208
9.22                 0.982150294     -109.827609
9.221                0.982108508     -110.023595
9.222                0.982066675      -110.22004
9.223                0.982024797     -110.416944
9.224                0.981982873     -110.614308
9.225                0.981940905     -110.812132
9.226                0.981898894     -111.010416
9.227                 0.98185684     -111.209162
9.228                0.981814745     -111.408369
9.229                0.981772608     -111.608038
9.23                 0.981730431     -111.808169
9.231                0.981688215     -112.008763
9.232                 0.98164596      -112.20982
9.233                0.981603667     -112.411341
9.234                0.981561338     -112.613326
9.235                0.981518972     -112.815775
9.236                0.981476572     -113.018689
9.237                0.981434137     -113.222068
9.238                0.981391669     -113.425913
9.239                0.981349168     -113.630223
9.24                 0.981306636        -113.835
9.241                0.981264074     -114.040244
9.242                0.981221482     -114.245954
9.243                0.981178861     -114.452131
9.244                0.981136212     -114.658776
9.245                0.981093537     -114.865889
9.246                0.981050836      -115.07347
9.247                 0.98100811     -115.281519
9.248                0.980965361     -115.490037
9.249                0.980922588     -115.699024
9.25                 0.980879794     -115.908479
9.251                0.980836979     -116.118404
9.252                0.980794145     -116.328799
9.253                0.980751292     -116.539663
9.254                0.980708421     -116.750998
9.255                0.980665534     -116.962802
9.256                0.980622631     -117.175077
9.257                0.980579714     -117.387822
9.258                0.980536784     -117.601037
9.259                0.980493842     -117.814724
9.26                 0.980450889     -118.028881
9.261                0.980407926     -118.243509
9.262                0.980364954     -118.458608
9.263                0.980321975     -118.674178
9.264                0.980278989      -118.89022
9.265                0.980235999     -119.106732
9.266                0.980193004     -119.323716
9.267                0.980150006     -119.541171
9.268                0.980107007     -119.759098
9.269                0.980064007     -119.977496
9.27                 0.980021008     -120.196365
9.271                0.979978012     -120.415706
9.272                0.979935018     -120.635517
9.273                0.979892029       -120.8558
9.274                0.979849046     -121.076554
9.275                0.979806071     -121.297779
9.276                0.979763103     -121.519476
9.277                0.979720146     -121.741643
9.278                0.979677199      -121.96428
9.279                0.979634265     -122.187389
9.28                 0.979591344     -122.410967
9.281                0.979548439     -122.635016
9.282                 0.97950555     -122.859536
9.283                0.979462679     -123.084525
9.284                0.979419826     -123.309983
9.285                0.979376995     -123.535912
9.286                0.979334185     -123.762309
9.287                0.979291399     -123.989176
9.288                0.979248637     -124.216511
9.289                0.979205902     -124.444314
9.29                 0.979163194     -124.672586
9.291                0.979120515     -124.901326
9.292                0.979077867     -125.130532
9.293                 0.97903525     -125.360207
9.294                0.978992668     -125.590347
9.295                 0.97895012     -125.820954
9.296                0.978907608     -126.052028
9.297                0.978865135     -126.283566
9.298                0.978822701      -126.51557
9.299                0.978780308     -126.748038
9.3                  0.978737957     -126.980971
9.301                0.978695651     -127.214367
9.302                 0.97865339     -127.448227
9.303                0.978611176     -127.682549
9.304                0.978569011     -127.917333
9.305                0.978526897     -128.152579
9.306                0.978484834     -128.388286
9.307                0.978442825     -128.624453
9.308                0.978400871      -128.86108
9.309                0.978358974     -129.098166
9.31                 0.978317135     -129.335711
9.311                0.978275356     -129.573714
9.312                0.978233639     -129.812174
9.313                0.978191986      -130.05109
9.314                0.978150397     -130.290463
9.315                0.978108875      -130.53029
9.316                0.978067421     -130.770572
9.317                0.978026037     -131.011307
9.318                0.977984726     -131.252495
9.319                0.977943487     -131.494135
9.32                 0.977902324     -131.736226
9.321                0.977861237     -131.978767
9.322                0.977820229     -132.221758
9.323                0.977779302     -132.465197
9.324                0.977738457     -132.709084
9.325                0.977697695     -132.953417
9.326                0.977657019     -133.198197
9.327                0.977616431     -133.443421
9.328                0.977575931     -133.689089
9.329                0.977535523     -133.935199
9.33                 0.977495207     -134.181752
9.331                0.977454986     -134.428745
9.332                0.977414861     -134.676178
9.333                0.977374834      -134.92405
9.334                0.977334907     -135.172359
9.335                0.977295082     -135.421104
9.336                0.977255361     -135.670285
9.337                0.977215745       -135.9199
9.338                0.977176236     -136.169947
9.339                0.977136837     -136.420426
9.34                 0.977097548     -136.671336
9.341                0.977058372     -136.922675
9.342                0.977019311     -137.174442
9.343                0.976980366     -137.426636
9.344                 0.97694154     -137.679255
9.345                0.976902834     -137.932298
9.346                0.976864251     -138.185764
9.347                0.976825791     -138.439651
9.348                0.976787457     -138.693958
9.349                0.976749251     -138.948684
9.35                 0.976711175     -139.203826
9.351                0.976673231     -139.459385
9.352                 0.97663542     -139.715357
9.353                0.976597745     -139.971742
9.354                0.976560207     -140.228539
9.355                0.976522808     -140.485745
9.356                 0.97648555     -140.743359
9.357                0.976448436     -141.001379
9.358                0.976411467     -141.259805
9.359                0.976374644     -141.518634
9.36                 0.976337971     -141.777864
9.361                0.976301448     -142.037495
9.362                0.976265079     -142.297523
9.363                0.976228863     -142.557948
9.364                0.976192805     -142.818768
9.365                0.976156905     -143.079982
9.366                0.976121166     -143.341586
9.367                0.976085589      -143.60358
9.368                0.976050176     -143.865962
9.369                 0.97601493      -144.12873
9.37                 0.975979852     -144.391881
9.371                0.975944944     -144.655415
9.372                0.975910208     -144.919329
9.373                0.975875646     -145.183622
9.374                0.975841261      -145.44829
9.375                0.975807053     -145.713333
9.376                0.975773025     -145.978749
9.377                0.975739179     -146.244535
9.378                0.975705516      -146.51069
9.379                 0.97567204      -146.77721
9.38                  0.97563875     -147.044095
9.381                0.975605651     -147.311343
9.382                0.975572742      -147.57895
9.383                0.975540027     -147.846915
9.384                0.975507508     -148.115236
9.385                0.975475185     -148.383911
9.386                0.975443061     -148.652937
9.387                0.975411139     -148.922312
9.388                0.975379419     -149.192034
9.389                0.975347904     -149.462101
9.39                 0.975316595      -149.73251
9.391                0.975285495      -150.00326
9.392                0.975254606     -150.274347
9.393                0.975223928     -150.545769
9.394                0.975193465     -150.817525
9.395                0.975163218     -151.089611
9.396                0.975133188     -151.362025
