! TOUCHSTONE file generated by CST DESIGN STUDIO
! Date and time: Tue Feb  4 12:23:59 2025
! Project name: C:\Work\MatlabApps\UnitCellOptimizationMatlab\CST\unitcell.cst
! Tree item: Tasks\Sweep1\SPara1\S-Parameters
! Header version: 2024
! Port assignment regex: !\s*Touchstone port\s*([0-9]+)\s*=\s*(CST MWS port|CST DES external port|CST DES block port)\s*(.+)\s* \(\"(.*)\"\)(\s*mode\s*([0-9]+))?.*
! Touchstone port assignment:
! Touchstone port 1 = CST DES external port 1 ("")
# GHz S MA R 50
9                    0.989247258     -78.0498881
9.001                0.989221012     -78.1678258
9.002                0.989194688     -78.2860504
9.003                0.989168285     -78.4045626
9.004                0.989141804     -78.5233634
9.005                0.989115243     -78.6424534
9.006                0.989088604     -78.7618336
9.007                0.989061885     -78.8815048
9.008                0.989035087     -79.0014679
9.009                 0.98900821     -79.1217235
9.01                 0.988981253     -79.2422727
9.011                0.988954215     -79.3631161
9.012                0.988927098     -79.4842547
9.013                0.988899901     -79.6056893
9.014                0.988872624     -79.7274208
9.015                0.988845266     -79.8494499
9.016                0.988817828     -79.9717775
9.017                0.988790308     -80.0944045
9.018                0.988762708     -80.2173317
9.019                0.988735027       -80.34056
9.02                 0.988707265     -80.4640902
9.021                0.988679422     -80.5879231
9.022                0.988651497     -80.7120597
9.023                 0.98862349     -80.8365007
9.024                0.988595402     -80.9612471
9.025                0.988567232     -81.0862996
9.026                 0.98853898     -81.2116592
9.027                0.988510645     -81.3373267
9.028                0.988482229      -81.463303
9.029                 0.98845373     -81.5895889
9.03                 0.988425149     -81.7161852
9.031                0.988396485      -81.843093
9.032                0.988367738      -81.970313
9.033                0.988338908      -82.097846
9.034                0.988309996      -82.225693
9.035                   0.988281     -82.3538549
9.036                0.988251921     -82.4823325
9.037                0.988222758     -82.6111266
9.038                0.988193512     -82.7402383
9.039                0.988164183     -82.8696682
9.04                 0.988134769     -82.9994174
9.041                0.988105272     -83.1294866
9.042                0.988075691     -83.2598768
9.043                0.988046025     -83.3905889
9.044                0.988016276     -83.5216237
9.045                0.987986442     -83.6529822
9.046                0.987956524     -83.7846651
9.047                0.987926521     -83.9166734
9.048                0.987896434      -84.049008
9.049                0.987866262     -84.1816698
9.05                 0.987836005     -84.3146596
9.051                0.987805663     -84.4479783
9.052                0.987775237     -84.5816269
9.053                0.987744725     -84.7156062
9.054                0.987714128     -84.8499172
9.055                0.987683446     -84.9845606
9.056                0.987652678     -85.1195374
9.057                0.987621825     -85.2548486
9.058                0.987590886     -85.3904949
9.059                0.987559862     -85.5264774
9.06                 0.987528752     -85.6627968
9.061                0.987497557     -85.7994541
9.062                0.987466275     -85.9364502
9.063                0.987434908     -86.0737861
9.064                0.987403455     -86.2114625
9.065                0.987371915     -86.3494804
9.066                 0.98734029     -86.4878407
9.067                0.987308578     -86.6265443
9.068                 0.98727678     -86.7655921
9.069                0.987244896      -86.904985
9.07                 0.987212926     -87.0447239
9.071                0.987180869     -87.1848097
9.072                0.987148725     -87.3252434
9.073                0.987116495     -87.4660258
9.074                0.987084179     -87.6071579
9.075                0.987051776     -87.7486405
9.076                0.987019287     -87.8904745
9.077                 0.98698671     -88.0326609
9.078                0.986954047     -88.1752006
9.079                0.986921298     -88.3180945
9.08                 0.986888461     -88.4613434
9.081                0.986855538     -88.6049484
9.082                0.986822528     -88.7489102
9.083                0.986789431     -88.8932299
9.084                0.986756248     -89.0379083
9.085                0.986722977     -89.1829464
9.086                 0.98668962      -89.328345
9.087                0.986656176      -89.474105
9.088                0.986622645     -89.6202274
9.089                0.986589027     -89.7667132
9.09                 0.986555322      -89.913563
9.091                0.986521531      -90.060778
9.092                0.986487652      -90.208359
9.093                0.986453687      -90.356307
9.094                0.986419635     -90.5046227
9.095                0.986385496     -90.6533072
9.096                 0.98635127     -90.8023614
9.097                0.986316958     -90.9517861
9.098                0.986282559     -91.1015822
9.099                0.986248073     -91.2517508
9.1                    0.9862135     -91.4022926
9.101                0.986178841     -91.5532086
9.102                0.986144096     -91.7044997
9.103                0.986109263     -91.8561668
9.104                0.986074345     -92.0082108
9.105                 0.98603934     -92.1606327
9.106                0.986004248     -92.3134332
9.107                 0.98596907     -92.4666134
9.108                0.985933807     -92.6201741
9.109                0.985898456     -92.7741162
9.11                  0.98586302     -92.9284406
9.111                0.985827498     -93.0831483
9.112                 0.98579189     -93.2382401
9.113                0.985756196     -93.3937169
9.114                0.985720417     -93.5495797
9.115                0.985684551     -93.7058292
9.116                0.985648601     -93.8624665
9.117                0.985612564     -94.0194924
9.118                0.985576443     -94.1769078
9.119                0.985540236     -94.3347136
9.12                 0.985503944     -94.4929106
9.121                0.985467568     -94.6514999
9.122                0.985431106     -94.8104822
9.123                 0.98539456     -94.9698584
9.124                0.985357929     -95.1296295
9.125                0.985321214     -95.2897963
9.126                0.985284414     -95.4503596
9.127                0.985247531     -95.6113205
9.128                0.985210563     -95.7726797
9.129                0.985173512     -95.9344381
9.13                 0.985136377     -96.0965967
9.131                0.985099159     -96.2591562
9.132                0.985061857     -96.4221176
9.133                0.985024473     -96.5854816
9.134                0.984987005     -96.7492493
9.135                0.984949455     -96.9134214
9.136                0.984911822     -97.0779988
9.137                0.984874107     -97.2429824
9.138                 0.98483631      -97.408373
9.139                0.984798431     -97.5741714
9.14                  0.98476047     -97.7403787
9.141                0.984722428     -97.9069955
9.142                0.984684304     -98.0740227
9.143                  0.9846461     -98.2414612
9.144                0.984607815     -98.4093118
9.145                 0.98456945     -98.5775754
9.146                0.984531004     -98.7462528
9.147                0.984492479     -98.9153448
9.148                0.984453874     -99.0848522
9.149                0.984415189      -99.254776
9.15                 0.984376425     -99.4251169
9.151                0.984337583     -99.5958757
9.152                0.984298662     -99.7670533
9.153                0.984259663     -99.9386504
9.154                0.984220585     -100.110668
9.155                0.984181431     -100.283107
9.156                0.984142199     -100.455967
9.157                0.984102889     -100.629251
9.158                0.984063504     -100.802958
9.159                0.984024042     -100.977089
9.16                 0.983984504     -101.151646
9.161                 0.98394489     -101.326629
9.162                0.983905202     -101.502038
9.163                0.983865438     -101.677875
9.164                  0.9838256      -101.85414
9.165                0.983785688     -102.030835
9.166                0.983745702     -102.207959
9.167                0.983705643     -102.385514
9.168                 0.98366551       -102.5635
9.169                0.983625306     -102.741918
9.17                 0.983585029     -102.920769
9.171                 0.98354468     -103.100054
9.172                 0.98350426     -103.279773
9.173                 0.98346377     -103.459928
9.174                0.983423209     -103.640518
9.175                0.983382578     -103.821544
9.176                0.983341877     -104.003008
9.177                0.983301108      -104.18491
9.178                 0.98326027      -104.36725
9.179                0.983219364      -104.55003
9.18                 0.983178391      -104.73325
9.181                 0.98313735     -104.916911
9.182                0.983096243     -105.101013
9.183                 0.98305507     -105.285558
9.184                0.983013832     -105.470545
9.185                0.982972528     -105.655976
9.186                 0.98293116     -105.841851
9.187                0.982889728     -106.028171
9.188                0.982848233     -106.214936
9.189                0.982806675     -106.402148
9.19                 0.982765055     -106.589806
9.191                0.982723374     -106.777911
9.192                0.982681631     -106.966465
9.193                0.982639828     -107.155468
9.194                0.982597965     -107.344919
9.195                0.982556043     -107.534821
9.196                0.982514062     -107.725173
9.197                0.982472024     -107.915976
9.198                0.982429928     -108.107231
9.199                0.982387776     -108.298938
9.2                  0.982345567     -108.491098
9.201                0.982303304     -108.683711
9.202                0.982260985     -108.876778
9.203                0.982218613       -109.0703
9.204                0.982176187     -109.264277
9.205                0.982133709     -109.458709
9.206                 0.98209118     -109.653598
9.207                0.982048599     -109.848943
9.208                0.982005967     -110.044745
9.209                0.981963286     -110.241005
9.21                 0.981920557     -110.437723
9.211                0.981877779       -110.6349
9.212                0.981834953     -110.832536
9.213                0.981792082     -111.030632
9.214                0.981749164     -111.229187
9.215                0.981706202     -111.428203
9.216                0.981663195      -111.62768
9.217                0.981620145     -111.827619
9.218                0.981577052     -112.028019
9.219                0.981533918     -112.228882
9.22                 0.981490743     -112.430207
9.221                0.981447528     -112.631995
9.222                0.981404274     -112.834247
9.223                0.981360982     -113.036962
9.224                0.981317653     -113.240142
9.225                0.981274287     -113.443786
9.226                0.981230885     -113.647896
9.227                0.981187449      -113.85247
9.228                 0.98114398      -114.05751
9.229                0.981100477     -114.263016
9.23                 0.981056943     -114.468988
9.231                0.981013378     -114.675427
9.232                0.980969783     -114.882332
9.233                 0.98092616     -115.089705
9.234                0.980882508     -115.297545
9.235                 0.98083883     -115.505853
9.236                0.980795126     -115.714628
9.237                0.980751397     -115.923872
9.238                0.980707644     -116.133584
9.239                0.980663868     -116.343764
9.24                 0.980620071     -116.554413
9.241                0.980576253     -116.765532
9.242                0.980532416     -116.977119
9.243                 0.98048856     -117.189175
9.244                0.980444686     -117.401701
9.245                0.980400797     -117.614697
9.246                0.980356892     -117.828162
9.247                0.980312973     -118.042097
9.248                0.980269042     -118.256503
9.249                0.980225098     -118.471378
9.25                 0.980181144     -118.686723
9.251                0.980137181     -118.902538
9.252                0.980093209     -119.118824
9.253                0.980049231      -119.33558
9.254                0.980005246     -119.552806
9.255                0.979961257     -119.770503
9.256                0.979917265      -119.98867
9.257                 0.97987327     -120.207307
9.258                0.979829275     -120.426414
9.259                 0.97978528     -120.645992
9.26                 0.979741286      -120.86604
9.261                0.979697296     -121.086558
9.262                0.979653309     -121.307547
9.263                0.979609329     -121.529005
9.264                0.979565354     -121.750933
9.265                0.979521388     -121.973331
9.266                0.979477432     -122.196198
9.267                0.979433486     -122.419535
9.268                0.979389553     -122.643341
9.269                0.979345633     -122.867617
9.27                 0.979301727     -123.092361
9.271                0.979257838     -123.317574
9.272                0.979213967     -123.543255
9.273                0.979170115     -123.769405
9.274                0.979126283     -123.996023
9.275                0.979082473     -124.223108
9.276                0.979038687     -124.450661
9.277                0.978994925     -124.678681
9.278                 0.97895119     -124.907168
9.279                0.978907482     -125.136121
9.28                 0.978863804      -125.36554
9.281                0.978820156     -125.595425
9.282                 0.97877654     -125.825776
9.283                0.978732959     -126.056592
9.284                0.978689412     -126.287872
9.285                0.978645902     -126.519616
9.286                 0.97860243     -126.751824
9.287                0.978558998     -126.984495
9.288                0.978515608     -127.217629
9.289                0.978472261     -127.451225
9.29                 0.978428958     -127.685283
9.291                0.978385701     -127.919802
9.292                0.978342492     -128.154782
9.293                0.978299332     -128.390221
9.294                0.978256223      -128.62612
9.295                0.978213167     -128.862479
9.296                0.978170165     -129.099295
9.297                0.978127219     -129.336569
9.298                 0.97808433       -129.5743
9.299                0.978041501     -129.812487
9.3                  0.977998732      -130.05113
9.301                0.977956026     -130.290227
9.302                0.977913384     -130.529779
9.303                0.977870808     -130.769784
9.304                  0.9778283     -131.010242
9.305                0.977785861     -131.251152
9.306                0.977743493     -131.492513
9.307                0.977701198     -131.734324
9.308                0.977658977     -131.976584
9.309                0.977616833     -132.219293
9.31                 0.977574767     -132.462449
9.311                 0.97753278     -132.706052
9.312                0.977490875     -132.950101
9.313                0.977449054     -133.194595
9.314                0.977407318     -133.439533
9.315                0.977365668     -133.684914
9.316                0.977324108     -133.930736
9.317                0.977282638        -134.177
9.318                 0.97724126     -134.423703
9.319                0.977199976     -134.670846
9.32                 0.977158789     -134.918426
9.321                  0.9771177     -135.166442
9.322                 0.97707671     -135.414895
9.323                0.977035822     -135.663781
9.324                0.976995037     -135.913101
9.325                0.976954357     -136.162853
9.326                0.976913785     -136.413036
9.327                0.976873322     -136.663649
9.328                0.976832969      -136.91469
9.329                 0.97679273     -137.166158
9.33                 0.976752605     -137.418052
9.331                0.976712597      -137.67037
9.332                0.976672707     -137.923112
9.333                0.976632938     -138.176276
9.334                0.976593291      -138.42986
9.335                0.976553768     -138.683863
9.336                0.976514372     -138.938285
9.337                0.976475103     -139.193122
9.338                0.976435965     -139.448375
9.339                0.976396958     -139.704041
9.34                 0.976358086     -139.960119
9.341                0.976319349     -140.216607
9.342                 0.97628075     -140.473504
9.343                0.976242291     -140.730809
9.344                0.976203973     -140.988519
9.345                0.976165799     -141.246634
9.346                0.976127771     -141.505151
9.347                 0.97608989     -141.764069
9.348                0.976052159     -142.023386
9.349                0.976014579     -142.283102
9.35                 0.975977153     -142.543212
9.351                0.975939882     -142.803718
9.352                0.975902768     -143.064615
9.353                0.975865814     -143.325903
9.354                0.975829021     -143.587581
9.355                0.975792391     -143.849645
9.356                0.975755926     -144.112094
9.357                0.975719629     -144.374927
9.358                0.975683501     -144.638142
9.359                0.975647544     -144.901736
9.36                  0.97561176     -145.165708
9.361                0.975576151     -145.430056
9.362                 0.97554072     -145.694777
9.363                0.975505467     -145.959871
9.364                0.975470395     -146.225334
9.365                0.975435507     -146.491165
9.366                0.975400803     -146.757362
9.367                0.975366286     -147.023923
9.368                0.975331958     -147.290845
9.369                 0.97529782     -147.558127
9.37                 0.975263876     -147.825766
9.371                0.975230126     -148.093761
9.372                0.975196573     -148.362109
9.373                0.975163218     -148.630808
9.374                0.975130064     -148.899855
9.375                0.975097112     -149.169249
9.376                0.975064365     -149.438987
9.377                0.975031824     -149.709067
9.378                0.974999491     -149.979487
9.379                0.974967368     -150.250244
9.38                 0.974935458     -150.521337
9.381                0.974903761     -150.792762
9.382                 0.97487228     -151.064517
9.383                0.974841017       -151.3366
9.384                0.974809974     -151.609008
9.385                0.974779152      -151.88174
9.386                0.974748553     -152.154792
9.387                 0.97471818     -152.428162
9.388                0.974688034     -152.701848
9.389                0.974658117     -152.975847
9.39                 0.974628431     -153.250156
9.391                0.974598977     -153.524774
9.392                0.974569758     -153.799697
9.393                0.974540775     -154.074922
9.394                0.974512031     -154.350448
9.395                0.974483526     -154.626272
9.396                0.974455263      -154.90239
