! TOUCHSTONE file generated by CST DESIGN STUDIO
! Date and time: Tue Feb  4 17:35:20 2025
! Project name: C:\Work\MatlabApps\UnitCellOptimizationMatlab\CST\unitcell.cst
! Tree item: Tasks\Sweep1\SPara1\S-Parameters
! Header version: 2024
! Port assignment regex: !\s*Touchstone port\s*([0-9]+)\s*=\s*(CST MWS port|CST DES external port|CST DES block port)\s*(.+)\s* \(\"(.*)\"\)(\s*mode\s*([0-9]+))?.*
! Touchstone port assignment:
! Touchstone port 1 = CST DES external port 1 ("")
# GHz S MA R 50
9                    0.970539397     -38.2140144
9.001                0.970500592     -38.2561224
9.002                0.970461662      -38.298305
9.003                0.970422604     -38.3405623
9.004                0.970383419     -38.3828944
9.005                0.970344107     -38.4253017
9.006                0.970304666     -38.4677844
9.007                0.970265097     -38.5103425
9.008                  0.9702254     -38.5529764
9.009                0.970185572     -38.5956862
9.01                 0.970145615     -38.6384721
9.011                0.970105528     -38.6813344
9.012                 0.97006531     -38.7242732
9.013                0.970024961     -38.7672888
9.014                 0.96998448     -38.8103814
9.015                0.969943867     -38.8535511
9.016                0.969903122     -38.8967983
9.017                0.969862244      -38.940123
9.018                0.969821233     -38.9835255
9.019                0.969780088     -39.0270061
9.02                 0.969738808     -39.0705648
9.021                0.969697394     -39.1142021
9.022                0.969655845     -39.1579179
9.023                 0.96961416     -39.2017127
9.024                0.969572339     -39.2455865
9.025                0.969530382     -39.2895397
9.026                0.969488288     -39.3335724
9.027                0.969446056     -39.3776848
9.028                0.969403686     -39.4218772
9.029                0.969361178     -39.4661497
9.03                 0.969318531     -39.5105027
9.031                0.969275745     -39.5549363
9.032                0.969232819     -39.5994507
9.033                0.969189752     -39.6440462
9.034                0.969146545      -39.688723
9.035                0.969103197     -39.7334812
9.036                0.969059706     -39.7783213
9.037                0.969016074     -39.8232432
9.038                0.968972299     -39.8682474
9.039                0.968928381      -39.913334
9.04                 0.968884319     -39.9585032
9.041                0.968840113     -40.0037553
9.042                0.968795762     -40.0490905
9.043                0.968751267     -40.0945091
9.044                0.968706625     -40.1400112
9.045                0.968661838     -40.1855971
9.046                0.968616903      -40.231267
9.047                0.968571822     -40.2770212
9.048                0.968526593     -40.3228598
9.049                0.968481216     -40.3687833
9.05                  0.96843569     -40.4147916
9.051                0.968390015     -40.4608852
9.052                 0.96834419     -40.5070642
9.053                0.968298215     -40.5533289
9.054                0.968252089     -40.5996795
9.055                0.968205812     -40.6461163
9.056                0.968159384     -40.6926395
9.057                0.968112803     -40.7392493
9.058                0.968066069      -40.785946
9.059                0.968019182     -40.8327299
9.06                 0.967972141     -40.8796011
9.061                0.967924945     -40.9265599
9.062                0.967877595     -40.9736066
9.063                0.967830089     -41.0207414
9.064                0.967782427     -41.0679645
9.065                0.967734608     -41.1152763
9.066                0.967686633     -41.1626769
9.067                0.967638499     -41.2101667
9.068                0.967590208     -41.2577457
9.069                0.967541757     -41.3054144
9.07                 0.967493148      -41.353173
9.071                0.967444378     -41.4010217
9.072                0.967395448     -41.4489608
9.073                0.967346358     -41.4969904
9.074                0.967297105      -41.545111
9.075                0.967247691     -41.5933227
9.076                0.967198114     -41.6416259
9.077                0.967148373     -41.6900206
9.078                0.967098469     -41.7385074
9.079                  0.9670484     -41.7870862
9.08                 0.966998167     -41.8357576
9.081                0.966947767     -41.8845216
9.082                0.966897202     -41.9333787
9.083                 0.96684647     -41.9823289
9.084                0.966795571     -42.0313727
9.085                0.966744504     -42.0805102
9.086                0.966693268     -42.1297418
9.087                0.966641864     -42.1790677
9.088                0.966590289     -42.2284882
9.089                0.966538545     -42.2780035
9.09                 0.966486629     -42.3276139
9.091                0.966434542     -42.3773198
9.092                0.966382284     -42.4271213
9.093                0.966329852     -42.4770187
9.094                0.966277247     -42.5270124
9.095                0.966224468     -42.5771026
9.096                0.966171515     -42.6272895
9.097                0.966118387     -42.6775735
9.098                0.966065083     -42.7279548
9.099                0.966011602     -42.7784337
9.1                  0.965957945     -42.8290106
9.101                 0.96590411     -42.8796856
9.102                0.965850097     -42.9304591
9.103                0.965795904     -42.9813313
9.104                0.965741533     -43.0323025
9.105                0.965686981     -43.0833731
9.106                0.965632248     -43.1345433
9.107                0.965577334     -43.1858133
9.108                0.965522238     -43.2371836
9.109                 0.96546696     -43.2886543
9.11                 0.965411498     -43.3402258
9.111                0.965355851     -43.3918984
9.112                0.965300021     -43.4436723
9.113                0.965244004     -43.4955479
9.114                0.965187802     -43.5475254
9.115                0.965131413     -43.5996052
9.116                0.965074837     -43.6517875
9.117                0.965018073     -43.7040726
9.118                 0.96496112     -43.7564609
9.119                0.964903978     -43.8089527
9.12                 0.964846646     -43.8615482
9.121                0.964789123     -43.9142477
9.122                0.964731409     -43.9670516
9.123                0.964673503     -44.0199602
9.124                0.964615404     -44.0729737
9.125                0.964557111     -44.1260925
9.126                0.964498625     -44.1793169
9.127                0.964439943     -44.2326472
9.128                0.964381066     -44.2860838
9.129                0.964321993     -44.3396268
9.13                 0.964262723     -44.3932767
9.131                0.964203255     -44.4470337
9.132                0.964143589     -44.5008983
9.133                0.964083724     -44.5548706
9.134                0.964023659      -44.608951
9.135                0.963963393     -44.6631398
9.136                0.963902926     -44.7174374
9.137                0.963842257      -44.771844
9.138                0.963781386     -44.8263601
9.139                0.963720311     -44.8809858
9.14                 0.963659032     -44.9357216
9.141                0.963597548     -44.9905678
9.142                0.963535858     -45.0455247
9.143                0.963473962     -45.1005926
9.144                0.963411859     -45.1557719
9.145                0.963349548     -45.2110628
9.146                0.963287029     -45.2664658
9.147                  0.9632243     -45.3219812
9.148                0.963161361     -45.3776092
9.149                0.963098211     -45.4333503
9.15                 0.963034849     -45.4892047
9.151                0.962971275     -45.5451728
9.152                0.962907487      -45.601255
9.153                0.962843486     -45.6574516
9.154                 0.96277927     -45.7137629
9.155                0.962714838     -45.7701893
9.156                 0.96265019     -45.8267311
9.157                0.962585325     -45.8833887
9.158                0.962520242     -45.9401624
9.159                 0.96245494     -45.9970526
9.16                 0.962389419     -46.0540596
9.161                0.962323677     -46.1111837
9.162                0.962257715     -46.1684254
9.163                 0.96219153      -46.225785
9.164                0.962125123     -46.2832628
9.165                0.962058492     -46.3408592
9.166                0.961991637     -46.3985745
9.167                0.961924557     -46.4564092
9.168                 0.96185725     -46.5143635
9.169                0.961789717     -46.5724378
9.17                 0.961721956     -46.6306326
9.171                0.961653967     -46.6889481
9.172                0.961585748     -46.7473847
9.173                  0.9615173     -46.8059429
9.174                 0.96144862     -46.8646229
9.175                0.961379708     -46.9234251
9.176                0.961310564       -46.98235
9.177                0.961241186     -47.0413978
9.178                0.961171573      -47.100569
9.179                0.961101726      -47.159864
9.18                 0.961031642      -47.219283
9.181                0.960961321     -47.2788265
9.182                0.960890763     -47.3384949
9.183                0.960819965     -47.3982886
9.184                0.960748928     -47.4582079
9.185                0.960677651     -47.5182532
9.186                0.960606132      -47.578425
9.187                0.960534371     -47.6387235
9.188                0.960462366     -47.6991492
9.189                0.960390118     -47.7597025
9.19                 0.960317624     -47.8203838
9.191                0.960244885     -47.8811934
9.192                0.960171899     -47.9421318
9.193                0.960098665     -48.0031993
9.194                0.960025182     -48.0643964
9.195                 0.95995145     -48.1257235
9.196                0.959877468     -48.1871809
9.197                0.959803234      -48.248769
9.198                0.959728748     -48.3104883
9.199                0.959654009     -48.3723392
9.2                  0.959579015      -48.434322
9.201                0.959503766     -48.4964373
9.202                0.959428262     -48.5586853
9.203                  0.9593525     -48.6210665
9.204                 0.95927648     -48.6835813
9.205                0.959200201     -48.7462302
9.206                0.959123663     -48.8090135
9.207                0.959046863     -48.8719317
9.208                0.958969802     -48.9349852
9.209                0.958892478     -48.9981744
9.21                 0.958814891     -49.0614997
9.211                0.958737038     -49.1249615
9.212                 0.95865892     -49.1885603
9.213                0.958580535     -49.2522966
9.214                0.958501882     -49.3161707
9.215                0.958422961      -49.380183
9.216                 0.95834377     -49.4443341
9.217                0.958264308     -49.5086242
9.218                0.958184575      -49.573054
9.219                0.958104569     -49.6376237
9.22                 0.958024289     -49.7023339
9.221                0.957943735      -49.767185
9.222                0.957862904     -49.8321774
9.223                0.957781797     -49.8973116
9.224                0.957700412      -49.962588
9.225                0.957618748     -50.0280071
9.226                0.957536805     -50.0935693
9.227                 0.95745458      -50.159275
9.228                0.957372073     -50.2251248
9.229                0.957289284     -50.2911191
9.23                  0.95720621     -50.3572582
9.231                0.957122851     -50.4235428
9.232                0.957039206     -50.4899732
9.233                0.956955273     -50.5565499
9.234                0.956871052     -50.6232734
9.235                0.956786542     -50.6901441
9.236                0.956701741     -50.7571625
9.237                0.956616649     -50.8243291
9.238                0.956531264     -50.8916444
9.239                0.956445585     -50.9591087
9.24                 0.956359611     -51.0267226
9.241                0.956273342     -51.0944866
9.242                0.956186775     -51.1624011
9.243                 0.95609991     -51.2304667
9.244                0.956012746     -51.2986837
9.245                0.955925281     -51.3670527
9.246                0.955837515     -51.4355742
9.247                0.955749446     -51.5042487
9.248                0.955661073     -51.5730765
9.249                0.955572395     -51.6420583
9.25                 0.955483411     -51.7111946
9.251                 0.95539412     -51.7804857
9.252                 0.95530452     -51.8499323
9.253                0.955214611     -51.9195347
9.254                0.955124392     -51.9892936
9.255                 0.95503386     -52.0592094
9.256                0.954943015     -52.1292826
9.257                0.954851856     -52.1995137
9.258                0.954760382     -52.2699033
9.259                0.954668591     -52.3404518
9.26                 0.954576482     -52.4111597
9.261                0.954484055     -52.4820276
9.262                0.954391307      -52.553056
9.263                0.954298238     -52.6242454
9.264                0.954204847     -52.6955962
9.265                0.954111131     -52.7671091
9.266                0.954017091     -52.8387846
9.267                0.953922724     -52.9106232
9.268                 0.95382803     -52.9826253
9.269                0.953733008     -53.0547916
9.27                 0.953637656     -53.1271226
9.271                0.953541972     -53.1996187
9.272                0.953445956     -53.2722806
9.273                0.953349607     -53.3451088
9.274                0.953252922     -53.4181038
9.275                0.953155902     -53.4912662
9.276                0.953058544     -53.5645964
9.277                0.952960848     -53.6380951
9.278                0.952862812     -53.7117628
9.279                0.952764434        -53.7856
9.28                 0.952665714     -53.8596073
9.281                0.952566651     -53.9337853
9.282                0.952467242     -54.0081344
9.283                0.952367487     -54.0826554
9.284                0.952267385     -54.1573486
9.285                0.952166933     -54.2322148
9.286                0.952066131     -54.3072543
9.287                0.951964978     -54.3824679
9.288                0.951863472     -54.4578561
9.289                0.951761612     -54.5334195
9.29                 0.951659396     -54.6091586
9.291                0.951556824     -54.6850739
9.292                0.951453893     -54.7611662
9.293                0.951350603     -54.8374359
9.294                0.951246952     -54.9138837
9.295                0.951142938     -54.9905101
9.296                0.951038561     -55.0673157
9.297                 0.95093382     -55.1443012
9.298                0.950828712      -55.221467
9.299                0.950723236     -55.2988138
9.3                  0.950617391     -55.3763422
9.301                0.950511176     -55.4540528
9.302                0.950404589     -55.5319462
9.303                0.950297629     -55.6100229
9.304                0.950190294     -55.6882837
9.305                0.950082583      -55.766729
9.306                0.949974495     -55.8453596
9.307                0.949866028      -55.924176
9.308                0.949757181     -56.0031788
9.309                0.949647952     -56.0823687
9.31                  0.94953834     -56.1617463
9.311                0.949428344     -56.2413121
9.312                0.949317962     -56.3210669
9.313                0.949207192     -56.4010112
9.314                0.949096033     -56.4811457
9.315                0.948984485      -56.561471
9.316                0.948872544     -56.6419877
9.317                 0.94876021     -56.7226965
9.318                0.948647482      -56.803598
9.319                0.948534358     -56.8846929
9.32                 0.948420836     -56.9659818
9.321                0.948306914     -57.0474653
9.322                0.948192593     -57.1291441
9.323                0.948077869     -57.2110188
9.324                0.947962742     -57.2930902
9.325                0.947847209     -57.3753588
9.326                 0.94773127     -57.4578253
9.327                0.947614923     -57.5404903
9.328                0.947498167     -57.6233546
9.329                0.947380999     -57.7064188
9.33                 0.947263419     -57.7896836
9.331                0.947145424     -57.8731496
9.332                0.947027014     -57.9568175
9.333                0.946908186      -58.040688
9.334                 0.94678894     -58.1247618
9.335                0.946669274     -58.2090395
9.336                0.946549185     -58.2935219
9.337                0.946428673     -58.3782096
9.338                0.946307736     -58.4631033
9.339                0.946186372     -58.5482036
9.34                 0.946064581     -58.6335114
9.341                0.945942359     -58.7190273
9.342                0.945819706     -58.8047519
9.343                 0.94569662     -58.8906861
9.344                  0.9455731     -58.9768304
9.345                0.945449144     -59.0631857
9.346                0.945324749     -59.1497526
9.347                0.945199916     -59.2365318
9.348                0.945074641      -59.323524
9.349                0.944948924       -59.41073
9.35                 0.944822763     -59.4981505
9.351                0.944696155     -59.5857862
9.352                0.944569101     -59.6736379
9.353                0.944441597     -59.7617062
9.354                0.944313642     -59.8499919
9.355                0.944185235     -59.9384957
9.356                0.944056374     -60.0272184
9.357                0.943927057     -60.1161608
9.358                0.943797283     -60.2053235
9.359                0.943667049     -60.2947072
9.36                 0.943536355     -60.3843129
9.361                0.943405198     -60.4741411
9.362                0.943273578     -60.5641927
9.363                0.943141491     -60.6544685
9.364                0.943008937     -60.7449691
9.365                0.942875913     -60.8356953
9.366                0.942742419      -60.926648
9.367                0.942608452     -61.0178278
9.368                0.942474011     -61.1092356
9.369                0.942339093     -61.2008721
9.37                 0.942203698     -61.2927381
9.371                0.942067823     -61.3848344
9.372                0.941931467     -61.4771617
9.373                0.941794628     -61.5697209
9.374                0.941657304     -61.6625128
9.375                0.941519494     -61.7555381
9.376                0.941381196     -61.8487976
9.377                0.941242407     -61.9422922
9.378                0.941103127     -62.0360226
9.379                0.940963353     -62.1299896
9.38                 0.940823084     -62.2241941
9.381                0.940682317     -62.3186368
9.382                0.940541052     -62.4133186
9.383                0.940399286     -62.5082403
9.384                0.940257018     -62.6034027
9.385                0.940114245     -62.6988066
9.386                0.939970967     -62.7944529
9.387                 0.93982718     -62.8903424
9.388                0.939682884     -62.9864759
9.389                0.939538076     -63.0828543
9.39                 0.939392755     -63.1794783
9.391                0.939246919     -63.2763489
9.392                0.939100566     -63.3734669
9.393                0.938953695     -63.4708331
9.394                0.938806302     -63.5684483
9.395                0.938658388     -63.6663135
9.396                0.938509948     -63.7644295
