! TOUCHSTONE file generated by CST DESIGN STUDIO
! Date and time: Tue Feb  4 17:35:01 2025
! Project name: C:\Work\MatlabApps\UnitCellOptimizationMatlab\CST\unitcell.cst
! Tree item: Tasks\Sweep1\SPara1\S-Parameters
! Header version: 2024
! Port assignment regex: !\s*Touchstone port\s*([0-9]+)\s*=\s*(CST MWS port|CST DES external port|CST DES block port)\s*(.+)\s* \(\"(.*)\"\)(\s*mode\s*([0-9]+))?.*
! Touchstone port assignment:
! Touchstone port 1 = CST DES external port 1 ("")
# GHz S MA R 50
9                    0.779538098     -120.613163
9.001                0.778832619     -120.896935
9.002                0.778126726     -121.181586
9.003                0.777420445     -121.467117
9.004                0.776713805     -121.753529
9.005                0.776006835     -122.040824
9.006                0.775299564     -122.329002
9.007                0.774592021     -122.618065
9.008                0.773884236     -122.908013
9.009                0.773176239     -123.198848
9.01                 0.772468061     -123.490569
9.011                0.771759731     -123.783178
9.012                0.771051281     -124.076677
9.013                0.770342743     -124.371064
9.014                0.769634148     -124.666342
9.015                0.768925528     -124.962511
9.016                0.768216916     -125.259571
9.017                0.767508343     -125.557524
9.018                0.766799844     -125.856369
9.019                0.766091451     -126.156107
9.02                 0.765383198     -126.456739
9.021                 0.76467512     -126.758264
9.022                0.763967249     -127.060685
9.023                0.763259622        -127.364
9.024                0.762552273      -127.66821
9.025                0.761845237     -127.973315
9.026                0.761138551     -128.279315
9.027                0.760432249     -128.586212
9.028                0.759726368     -128.894003
9.029                0.759020945     -129.202691
9.03                 0.758316016     -129.512274
9.031                 0.75761162     -129.822753
9.032                0.756907792     -130.134127
9.033                0.756204572     -130.446396
9.034                0.755501996     -130.759561
9.035                0.754800105      -131.07362
9.036                0.754098936     -131.388574
9.037                0.753398528     -131.704422
9.038                0.752698921     -132.021163
9.039                0.752000154     -132.338798
9.04                 0.751302268     -132.657325
9.041                0.750605302     -132.976744
9.042                0.749909297     -133.297054
9.043                0.749214293     -133.618255
9.044                0.748520333     -133.940346
9.045                0.747827456     -134.263325
9.046                0.747135705     -134.587192
9.047                0.746445122     -134.911946
9.048                0.745755748     -135.237586
9.049                0.745067627     -135.564111
9.05                   0.7443808      -135.89152
9.051                0.743695311      -136.21981
9.052                0.743011202     -136.548982
9.053                0.742328518     -136.879033
9.054                0.741647301     -137.209963
9.055                0.740967596     -137.541769
9.056                0.740289447      -137.87445
9.057                0.739612898     -138.208005
9.058                0.738937993     -138.542431
9.059                0.738264778     -138.877727
9.06                 0.737593297     -139.213891
9.061                0.736923595     -139.550922
9.062                0.736255719     -139.888816
9.063                0.735589713     -140.227572
9.064                0.734925623     -140.567188
9.065                0.734263495     -140.907662
9.066                0.733603375     -141.248991
9.067                 0.73294531     -141.591172
9.068                0.732289346     -141.934204
9.069                0.731635529     -142.278084
9.07                 0.730983906     -142.622809
9.071                0.730334525     -142.968377
9.072                0.729687432     -143.314784
9.073                0.729042674     -143.662028
9.074                0.728400298     -144.010106
9.075                0.727760353     -144.359014
9.076                0.727122885     -144.708751
9.077                0.726487942     -145.059312
9.078                0.725855572     -145.410694
9.079                0.725225823     -145.762894
9.08                 0.724598742     -146.115909
9.081                0.723974378     -146.469734
9.082                0.723352777     -146.824367
9.083                0.722733989     -147.179803
9.084                0.722118062     -147.536039
9.085                0.721505043     -147.893071
9.086                0.720894981     -148.250895
9.087                0.720287924     -148.609507
9.088                 0.71968392     -148.968903
9.089                0.719083017     -149.329078
9.09                 0.718485264     -149.690029
9.091                0.717890709      -150.05175
9.092                0.717299399     -150.414238
9.093                0.716711383     -150.777487
9.094                0.716126709     -151.141494
9.095                0.715545425     -151.506253
9.096                0.714967579      -151.87176
9.097                0.714393219     -152.238009
9.098                0.713822393     -152.604995
9.099                0.713255148     -152.972714
9.1                  0.712691531     -153.341161
9.101                0.712131592     -153.710329
9.102                0.711575376     -154.080214
9.103                0.711022931      -154.45081
9.104                0.710474305     -154.822111
9.105                0.709929543     -155.194112
9.106                0.709388694     -155.566808
9.107                0.708851803     -155.940191
9.108                0.708318918     -156.314257
9.109                0.707790083     -156.688999
9.11                 0.707265347     -157.064411
9.111                0.706744753     -157.440487
9.112                0.706228348     -157.817221
9.113                0.705716178     -158.194606
9.114                0.705208287     -158.572636
9.115                0.704704721     -158.951304
9.116                0.704205523     -159.330603
9.117                0.703710739     -159.710528
9.118                0.703220413      -160.09107
9.119                0.702734587     -160.472223
9.12                 0.702253307     -160.853981
9.121                0.701776614     -161.236335
9.122                0.701304552     -161.619279
9.123                0.700837164     -162.002806
9.124                0.700374491     -162.386907
9.125                0.699916575     -162.771577
9.126                0.699463458     -163.156806
9.127                 0.69901518     -163.542588
9.128                0.698571783     -163.928915
9.129                0.698133306     -164.315778
9.13                 0.697699791     -164.703171
9.131                0.697271275     -165.091085
9.132                0.696847798     -165.479513
9.133                0.696429398     -165.868445
9.134                0.696016114     -166.257874
9.135                0.695607984     -166.647792
9.136                0.695205044      -167.03819
9.137                0.694807331      -167.42906
9.138                0.694414881     -167.820393
9.139                0.694027731      -168.21218
9.14                 0.693645915     -168.604414
9.141                0.693269468     -168.997086
9.142                0.692898425     -169.390185
9.143                0.692532818     -169.783705
9.144                0.692172681     -170.177635
9.145                0.691818047     -170.571967
9.146                0.691468946     -170.966691
9.147                0.691125412     -171.361799
9.148                0.690787475     -171.757282
9.149                0.690455164     -172.153129
9.15                  0.69012851     -172.549332
9.151                0.689807541     -172.945882
9.152                0.689492286     -173.342768
9.153                0.689182773     -173.739981
9.154                0.688879028     -174.137512
9.155                0.688581079     -174.535352
9.156                0.688288951     -174.933489
9.157                 0.68800267     -175.331915
9.158                 0.68772226     -175.730621
9.159                0.687447744     -176.129595
9.16                 0.687179147     -176.528828
9.161                 0.68691649     -176.928311
9.162                0.686659796     -177.328032
9.163                0.686409086     -177.727983
9.164                 0.68616438     -178.128153
9.165                0.685925698     -178.528532
9.166                0.685693058      -178.92911
9.167                0.685466481     -179.329876
9.168                0.685245982     -179.730821
9.169                0.685031579      179.868066
9.17                 0.684823288      179.466795
9.171                0.684621125      179.065377
9.172                0.684425105      178.663821
9.173                 0.68423524      178.262139
9.174                0.684051545      177.860341
9.175                0.683874032      177.458436
9.176                0.683702713      177.056436
9.177                0.683537598      176.654351
9.178                0.683378699      176.252191
9.179                0.683226023      175.849967
9.18                 0.683079581       175.44769
9.181                0.682939381       175.04537
9.182                0.682805428      174.643018
9.183                 0.68267773      174.240643
9.184                0.682556292      173.838257
9.185                 0.68244112      173.435871
9.186                0.682332217      173.033494
9.187                0.682229587      172.631138
9.188                0.682133232      172.228813
9.189                0.682043154      171.826529
9.19                 0.681959354      171.424298
9.191                0.681881832      171.022129
9.192                0.681810589      170.620034
9.193                0.681745622      170.218022
9.194                0.681686929      169.816104
9.195                0.681634509      169.414292
9.196                0.681588356      169.012594
9.197                0.681548467      168.611023
9.198                0.681514838      168.209588
9.199                0.681487461      167.808299
9.2                   0.68146633      167.407168
9.201                0.681451439      167.006204
9.202                0.681442778      166.605419
9.203                 0.68144034      166.204821
9.204                0.681444114      165.804422
9.205                 0.68145409      165.404232
9.206                0.681470257      165.004261
9.207                0.681492604       164.60452
9.208                0.681521117      164.205017
9.209                0.681555785      163.805765
9.21                 0.681596591      163.406772
9.211                0.681643523       163.00805
9.212                0.681696564      162.609607
9.213                0.681755699      162.211453
9.214                0.681820911        161.8136
9.215                0.681892182      161.416056
9.216                0.681969494      161.018831
9.217                0.682052829      160.621936
9.218                0.682142166      160.225379
9.219                0.682237487      159.829171
9.22                 0.682338769      159.433322
9.221                0.682445992       159.03784
9.222                0.682559134      158.642735
9.223                0.682678171      158.248016
9.224                0.682803081      157.853694
9.225                0.682933839      157.459777
9.226                0.683070421      157.066275
9.227                0.683212802      156.673196
9.228                0.683360955       156.28055
9.229                0.683514856      155.888346
9.23                 0.683674476      155.496593
9.231                0.683839788      155.105299
9.232                0.684010764      154.714474
9.233                0.684187375      154.324126
9.234                0.684369593      153.934265
9.235                0.684557387      153.544897
9.236                0.684750727      153.156033
9.237                0.684949583      152.767681
9.238                0.685153923      152.379848
9.239                0.685363715      151.992544
9.24                 0.685578928      151.605776
9.241                0.685799528      151.219552
9.242                0.686025483      150.833881
9.243                0.686256758      150.448771
9.244                0.686493319      150.064229
9.245                0.686735133      149.680263
9.246                0.686982163      149.296881
9.247                0.687234375      148.914091
9.248                0.687491732        148.5319
9.249                0.687754199      148.150315
9.25                 0.688021739      147.769344
9.251                0.688294314      147.388995
9.252                0.688571888      147.009273
9.253                0.688854423      146.630188
9.254                 0.68914188      146.251744
9.255                0.689434221       145.87395
9.256                0.689731408      145.496813
9.257                0.690033401      145.120338
9.258                0.690340161      144.744533
9.259                0.690651648      144.369403
9.26                 0.690967822      143.994957
9.261                0.691288644      143.621199
9.262                0.691614071      143.248137
9.263                0.691944064      142.875776
9.264                0.692278582      142.504122
9.265                0.692617583      142.133182
9.266                0.692961026      141.762961
9.267                0.693308868      141.393466
9.268                0.693661069      141.024701
9.269                0.694017585      140.656673
9.27                 0.694378375      140.289387
9.271                0.694743396      139.922848
9.272                0.695112605      139.557062
9.273                0.695485959      139.192034
9.274                0.695863416      138.827769
9.275                0.696244932      138.464273
9.276                0.696630463      138.101549
9.277                0.697019967      137.739604
9.278                  0.6974134      137.378442
9.279                0.697810718      137.018066
9.28                 0.698211877      136.658483
9.281                0.698616835      136.299697
9.282                0.699025545      135.941712
9.283                0.699437966      135.584532
9.284                0.699854052      135.228161
9.285                 0.70027376      134.872604
9.286                0.700697045      134.517865
9.287                0.701123863      134.163947
9.288                0.701554171      133.810855
9.289                0.701987923      133.458592
9.29                 0.702425076      133.107162
9.291                0.702865585      132.756568
9.292                0.703309407      132.406815
9.293                0.703756496      132.057905
9.294                0.704206809      131.709841
9.295                0.704660301      131.362628
9.296                0.705116929      131.016268
9.297                0.705576648      130.670764
9.298                0.706039414      130.326119
9.299                0.706505184      129.982336
9.3                  0.706973913      129.639418
9.301                0.707445557      129.297367
9.302                0.707920074      128.956187
9.303                0.708397418       128.61588
9.304                0.708877547      128.276447
9.305                0.709360417      127.937893
9.306                0.709845985      127.600218
9.307                0.710334207      127.263426
9.308                0.710825041      126.927518
9.309                0.711318442      126.592496
9.31                 0.711814369      126.258363
9.311                0.712312779       125.92512
9.312                0.712813629       125.59277
9.313                0.713316876      125.261313
9.314                0.713822479      124.930752
9.315                0.714330394      124.601088
9.316                0.714840581      124.272323
9.317                0.715352998      123.944458
9.318                0.715867602      123.617495
9.319                0.716384352      123.291435
9.32                 0.716903207      122.966279
9.321                0.717424126      122.642029
9.322                0.717947068      122.318685
9.323                0.718471993      121.996249
9.324                0.718998859      121.674721
9.325                0.719527627      121.354103
9.326                0.720058256      121.034395
9.327                0.720590707      120.715598
9.328                 0.72112494      120.397713
9.329                0.721660916       120.08074
9.33                 0.722198595       119.76468
9.331                0.722737938      119.449534
9.332                0.723278907      119.135302
9.333                0.723821464      118.821985
9.334                0.724365569      118.509582
9.335                0.724911185      118.198094
9.336                0.725458274      117.887521
9.337                0.726006799      117.577864
9.338                0.726556723      117.269122
9.339                0.727108007      116.961296
9.34                 0.727660617      116.654386
9.341                0.728214514      116.348391
9.342                0.728769663      116.043311
9.343                0.729326028      115.739147
9.344                0.729883574      115.435897
9.345                0.730442264      115.133562
9.346                0.731002063      114.832142
9.347                0.731562937      114.531636
9.348                0.732124851      114.232043
9.349                0.732687771      113.933363
9.35                 0.733251662      113.635596
9.351                0.733816491      113.338741
9.352                0.734382224      113.042797
9.353                0.734948828      112.747764
9.354                0.735516271      112.453641
9.355                0.736084518      112.160427
9.356                0.736653538      111.868122
9.357                0.737223299      111.576724
9.358                0.737793769      111.286233
9.359                0.738364916      110.996648
9.36                 0.738936709      110.707968
9.361                0.739509118      110.420192
9.362                0.740082111      110.133318
9.363                0.740655658      109.847347
9.364                0.741229729      109.562275
9.365                0.741804293      109.278103
9.366                0.742379323       108.99483
9.367                0.742954788      108.712453
9.368                0.743530659      108.430973
9.369                0.744106908      108.150386
9.37                 0.744683506      107.870693
9.371                0.745260425      107.591891
9.372                0.745837638       107.31398
9.373                0.746415117      107.036958
9.374                0.746992834      106.760823
9.375                0.747570764      106.485574
9.376                0.748148878       106.21121
9.377                0.748727151      105.937728
9.378                0.749305557      105.665127
9.379                 0.74988407      105.393407
9.38                 0.750462664      105.122564
9.381                0.751041315      104.852597
9.382                0.751619997      104.583505
9.383                0.752198685      104.315286
9.384                0.752777356      104.047938
9.385                0.753355985       103.78146
9.386                0.753934549      103.515849
9.387                0.754513023      103.251103
9.388                0.755091386      102.987222
9.389                0.755669613      102.724203
9.39                 0.756247682      102.462043
9.391                0.756825571      102.200742
9.392                0.757403258      101.940298
9.393                 0.75798072      101.680707
9.394                0.758557937      101.421969
9.395                0.759134887      101.164081
9.396                0.759711548      100.907042
