! TOUCHSTONE file generated by CST DESIGN STUDIO
! Date and time: Tue Feb  4 17:35:13 2025
! Project name: C:\Work\MatlabApps\UnitCellOptimizationMatlab\CST\unitcell.cst
! Tree item: Tasks\Sweep1\SPara1\S-Parameters
! Header version: 2024
! Port assignment regex: !\s*Touchstone port\s*([0-9]+)\s*=\s*(CST MWS port|CST DES external port|CST DES block port)\s*(.+)\s* \(\"(.*)\"\)(\s*mode\s*([0-9]+))?.*
! Touchstone port assignment:
! Touchstone port 1 = CST DES external port 1 ("")
# GHz S MA R 50
9                    0.939268469     -54.6700721
9.001                0.939134335     -54.7436467
9.002                0.938999729     -54.8173941
9.003                0.938864649     -54.8913149
9.004                0.938729095     -54.9654096
9.005                0.938593063     -55.0396789
9.006                0.938456552     -55.1141233
9.007                0.938319561     -55.1887434
9.008                0.938182087     -55.2635399
9.009                0.938044129     -55.3385131
9.01                 0.937905684     -55.4136639
9.011                0.937766752     -55.4889927
9.012                0.937627329     -55.5645002
9.013                0.937487415     -55.6401869
9.014                0.937347007     -55.7160535
9.015                0.937206104     -55.7921005
9.016                0.937064703     -55.8683285
9.017                0.936922803     -55.9447382
9.018                0.936780401     -56.0213302
9.019                0.936637497      -56.098105
9.02                 0.936494087     -56.1750633
9.021                0.936350171     -56.2522057
9.022                0.936205745     -56.3295329
9.023                0.936060809     -56.4070453
9.024                 0.93591536     -56.4847438
9.025                0.935769397     -56.5626288
9.026                0.935622916      -56.640701
9.027                0.935475918     -56.7189611
9.028                0.935328398     -56.7974096
9.029                0.935180356     -56.8760472
9.03                  0.93503179     -56.9548746
9.031                0.934882697     -57.0338924
9.032                0.934733075     -57.1131012
9.033                0.934582923     -57.1925016
9.034                0.934432239     -57.2720944
9.035                 0.93428102     -57.3518802
9.036                0.934129264     -57.4318595
9.037                 0.93397697     -57.5120332
9.038                0.933824135     -57.5924018
9.039                0.933670758     -57.6729659
9.04                 0.933516836     -57.7537264
9.041                0.933362367     -57.8346837
9.042                0.933207349     -57.9158387
9.043                 0.93305178     -57.9971919
9.044                0.932895659     -58.0787441
9.045                0.932738982     -58.1604958
9.046                0.932581748     -58.2424479
9.047                0.932423955     -58.3246009
9.048                  0.9322656     -58.4069556
9.049                0.932106682     -58.4895126
9.05                 0.931947199     -58.5722727
9.051                0.931787147     -58.6552365
9.052                0.931626526     -58.7384048
9.053                0.931465333     -58.8217781
9.054                0.931303565     -58.9053573
9.055                0.931141221      -58.989143
9.056                0.930978299     -59.0731359
9.057                0.930814796     -59.1573368
9.058                 0.93065071     -59.2417463
9.059                0.930486039     -59.3263653
9.06                 0.930320781     -59.4111942
9.061                0.930154933     -59.4962341
9.062                0.929988494     -59.5814854
9.063                0.929821461      -59.666949
9.064                0.929653832     -59.7526256
9.065                0.929485605     -59.8385159
9.066                0.929316777     -59.9246207
9.067                0.929147346     -60.0109406
9.068                 0.92897731     -60.0974765
9.069                0.928806667     -60.1842291
9.07                 0.928635415     -60.2711991
9.071                 0.92846355     -60.3583873
9.072                0.928291072     -60.4457944
9.073                0.928117977     -60.5334212
9.074                0.927944263     -60.6212685
9.075                0.927769929     -60.7093369
9.076                0.927594971     -60.7976274
9.077                0.927419388     -60.8861405
9.078                0.927243176     -60.9748772
9.079                0.927066335     -61.0638382
9.08                 0.926888861     -61.1530242
9.081                0.926710752     -61.2424361
9.082                0.926532005     -61.3320746
9.083                0.926352619     -61.4219405
9.084                0.926172591     -61.5120346
9.085                0.925991919     -61.6023577
9.086                  0.9258106     -61.6929106
9.087                0.925628632     -61.7836941
9.088                0.925446013      -61.874709
9.089                0.925262739     -61.9659561
9.09                 0.925078809     -62.0574361
9.091                0.924894221     -62.1491501
9.092                0.924708971     -62.2410986
9.093                0.924523058     -62.3332826
9.094                0.924336479     -62.4257028
9.095                0.924149231     -62.5183602
9.096                0.923961313     -62.6112555
9.097                0.923772721     -62.7043895
9.098                0.923583454     -62.7977631
9.099                0.923393508     -62.8913772
9.1                  0.923202882     -62.9852325
9.101                0.923011572       -63.07933
9.102                0.922819577     -63.1736704
9.103                0.922626894     -63.2682546
9.104                 0.92243352     -63.3630835
9.105                0.922239453     -63.4581579
9.106                 0.92204469     -63.5534786
9.107                0.921849229     -63.6490467
9.108                0.921653068     -63.7448628
9.109                0.921456203      -63.840928
9.11                 0.921258632      -63.937243
9.111                0.921060353     -64.0338087
9.112                0.920861364     -64.1306261
9.113                0.920661661      -64.227696
9.114                0.920461242     -64.3250193
9.115                0.920260104     -64.4225969
9.116                0.920058246     -64.5204296
9.117                0.919855664     -64.6185184
9.118                0.919652355     -64.7168643
9.119                0.919448318      -64.815468
9.12                  0.91924355     -64.9143305
9.121                0.919038047     -65.0134527
9.122                0.918831808     -65.1128356
9.123                 0.91862483       -65.21248
9.124                0.918417109     -65.3123869
9.125                0.918208645     -65.4125571
9.126                0.917999433     -65.5129918
9.127                0.917789471     -65.6136916
9.128                0.917578757     -65.7146577
9.129                0.917367289      -65.815891
9.13                 0.917155062     -65.9173923
9.131                0.916942075     -66.0191627
9.132                0.916728326      -66.121203
9.133                 0.91651381     -66.2235143
9.134                0.916298527     -66.3260976
9.135                0.916082472     -66.4289537
9.136                0.915865644     -66.5320836
9.137                0.915648039     -66.6354883
9.138                0.915429656     -66.7391689
9.139                0.915210491     -66.8431262
9.14                 0.914990541     -66.9473613
9.141                0.914769804     -67.0518751
9.142                0.914548278     -67.1566686
9.143                0.914325959     -67.2617428
9.144                0.914102845     -67.3670988
9.145                0.913878932     -67.4727374
9.146                 0.91365422     -67.5786598
9.147                0.913428703      -67.684867
9.148                0.913202381     -67.7913599
9.149                 0.91297525     -67.8981395
9.15                 0.912747307     -68.0052069
9.151                 0.91251855     -68.1125631
9.152                0.912288976     -68.2202092
9.153                0.912058582     -68.3281462
9.154                0.911827365      -68.436375
9.155                0.911595323     -68.5448968
9.156                0.911362453     -68.6537126
9.157                0.911128752     -68.7628234
9.158                0.910894218     -68.8722303
9.159                0.910658847     -68.9819343
9.16                 0.910422637     -69.0919366
9.161                0.910185585     -69.2022381
9.162                0.909947688     -69.3128399
9.163                0.909708944     -69.4237432
9.164                 0.90946935     -69.5349489
9.165                0.909228902     -69.6464582
9.166                0.908987599     -69.7582722
9.167                0.908745437     -69.8703919
9.168                0.908502414     -69.9828184
9.169                0.908258527     -70.0955528
9.17                 0.908013772     -70.2085963
9.171                0.907768148     -70.3219498
9.172                0.907521652     -70.4356147
9.173                 0.90727428     -70.5495918
9.174                 0.90702603     -70.6638825
9.175                0.906776899     -70.7784877
9.176                0.906526884     -70.8934086
9.177                0.906275983     -71.0086463
9.178                0.906024192     -71.1242021
9.179                0.905771509     -71.2400769
9.18                 0.905517932      -71.356272
9.181                0.905263456     -71.4727884
9.182                0.905008081     -71.5896274
9.183                0.904751801     -71.7067901
9.184                0.904494616     -71.8242777
9.185                0.904236522     -71.9420912
9.186                0.903977516      -72.060232
9.187                0.903717596     -72.1787011
9.188                0.903456759     -72.2974997
9.189                0.903195001      -72.416629
9.19                 0.902932321     -72.5360902
9.191                0.902668715     -72.6558845
9.192                 0.90240418      -72.776013
9.193                0.902138715      -72.896477
9.194                0.901872315     -73.0172776
9.195                0.901604979     -73.1384162
9.196                0.901336703     -73.2598937
9.197                0.901067485     -73.3817116
9.198                0.900797322      -73.503871
9.199                0.900526211      -73.626373
9.2                  0.900254149     -73.7492191
9.201                0.899981134     -73.8724103
9.202                0.899707163     -73.9959479
9.203                0.899432233     -74.1198331
9.204                0.899156342     -74.2440672
9.205                0.898879486     -74.3686515
9.206                0.898601663     -74.4935872
9.207                 0.89832287     -74.6188754
9.208                0.898043105     -74.7445176
9.209                0.897762365      -74.870515
9.21                 0.897480646     -74.9968687
9.211                0.897197947     -75.1235802
9.212                0.896914265     -75.2506507
9.213                0.896629597     -75.3780814
9.214                 0.89634394     -75.5058736
9.215                0.896057291     -75.6340287
9.216                0.895769649     -75.7625479
9.217                0.895481009     -75.8914326
9.218                0.895191371     -76.0206839
9.219                 0.89490073     -76.1503033
9.22                 0.894609085     -76.2802921
9.221                0.894316432     -76.4106515
9.222                0.894022769     -76.5413828
9.223                0.893728094     -76.6724875
9.224                0.893432404     -76.8039668
9.225                0.893135696     -76.9358221
9.226                0.892837967     -77.0680546
9.227                0.892539216     -77.2006658
9.228                0.892239439      -77.333657
9.229                0.891938635     -77.4670295
9.23                   0.8916368     -77.6007847
9.231                0.891333931      -77.734924
9.232                0.891030028     -77.8694486
9.233                0.890725086       -78.00436
9.234                0.890419104     -78.1396596
9.235                0.890112078     -78.2753487
9.236                0.889804007     -78.4114287
9.237                0.889494889     -78.5479009
9.238                0.889184719     -78.6847669
9.239                0.888873497     -78.8220279
9.24                  0.88856122     -78.9596853
9.241                0.888247886     -79.0977406
9.242                0.887933491     -79.2361952
9.243                0.887618034     -79.3750505
9.244                0.887301513     -79.5143078
9.245                0.886983925     -79.6539686
9.246                0.886665267     -79.7940344
9.247                0.886345538     -79.9345065
9.248                0.886024735     -80.0753864
9.249                0.885702856     -80.2166755
9.25                 0.885379899     -80.3583752
9.251                0.885055861      -80.500487
9.252                 0.88473074     -80.6430124
9.253                0.884404535     -80.7859528
9.254                0.884077243     -80.9293096
9.255                0.883748862     -81.0730843
9.256                0.883419389     -81.2172784
9.257                0.883088823     -81.3618933
9.258                0.882757162     -81.5069305
9.259                0.882424403     -81.6523914
9.26                 0.882090545     -81.7982777
9.261                0.881755585     -81.9445906
9.262                0.881419523     -82.0913318
9.263                0.881082354     -82.2385027
9.264                0.880744079     -82.3861049
9.265                0.880404694     -82.5341397
9.266                0.880064199     -82.6826087
9.267                 0.87972259     -82.8315135
9.268                0.879379867     -82.9808554
9.269                0.879036028     -83.1306362
9.27                  0.87869107     -83.2808571
9.271                0.878344992     -83.4315199
9.272                0.877997793     -83.5826259
9.273                0.877649471     -83.7341768
9.274                0.877300023      -83.886174
9.275                0.876949449     -84.0386192
9.276                0.876597747     -84.1915138
9.277                0.876244916     -84.3448593
9.278                0.875890953     -84.4986574
9.279                0.875535858     -84.6529096
9.28                 0.875179628     -84.8076174
9.281                0.874822263     -84.9627824
9.282                0.874463762     -85.1184062
9.283                0.874104122     -85.2744903
9.284                0.873743343     -85.4310363
9.285                0.873381423     -85.5880457
9.286                0.873018361     -85.7455201
9.287                0.872654156     -85.9034612
9.288                0.872288806     -86.0618705
9.289                0.871922312     -86.2207495
9.29                  0.87155467     -86.3800999
9.291                0.871185882     -86.5399233
9.292                0.870815945     -86.7002212
9.293                0.870444858     -86.8609953
9.294                0.870072621     -87.0222471
9.295                0.869699233     -87.1839783
9.296                0.869324694     -87.3461904
9.297                0.868949001     -87.5088851
9.298                0.868572155      -87.672064
9.299                0.868194155     -87.8357287
9.3                     0.867815     -87.9998808
9.301                0.867434689     -88.1645219
9.302                0.867053223     -88.3296537
9.303                  0.8666706     -88.4952777
9.304                0.866286821     -88.6613957
9.305                0.865901884     -88.8280092
9.306                 0.86551579     -88.9951199
9.307                0.865128538     -89.1627294
9.308                0.864740129     -89.3308394
9.309                 0.86435056     -89.4994515
9.31                 0.863959834     -89.6685673
9.311                0.863567949     -89.8381884
9.312                0.863174906     -90.0083166
9.313                0.862780705     -90.1789535
9.314                0.862385345     -90.3501007
9.315                0.861988827     -90.5217599
9.316                0.861591152     -90.6939328
9.317                0.861192318     -90.8666209
9.318                0.860792328      -91.039826
9.319                0.860391181     -91.2135497
9.32                 0.859988877     -91.3877937
9.321                0.859585418     -91.5625597
9.322                0.859180804     -91.7378492
9.323                0.858775035     -91.9136641
9.324                0.858368112     -92.0900059
9.325                0.857960036     -92.2668763
9.326                0.857550808      -92.444277
9.327                0.857140429     -92.6222096
9.328                0.856728899     -92.8006759
9.329                 0.85631622     -92.9796776
9.33                 0.855902394     -93.1592162
9.331                 0.85548742     -93.3392934
9.332                0.855071301     -93.5199111
9.333                0.854654038     -93.7010707
9.334                0.854235632      -93.882774
9.335                0.853816085     -94.0650227
9.336                0.853395399     -94.2478185
9.337                0.852973574      -94.431163
9.338                0.852550613      -94.615058
9.339                0.852126518      -94.799505
9.34                  0.85170129     -94.9845058
9.341                0.851274932     -95.1700621
9.342                0.850847446     -95.3561755
9.343                0.850418833     -95.5428477
9.344                0.849989096     -95.7300805
9.345                0.849558238     -95.9178754
9.346                 0.84912626     -96.1062341
9.347                0.848693165     -96.2951585
9.348                0.848258957       -96.48465
9.349                0.847823637     -96.6747104
9.35                 0.847387208     -96.8653414
9.351                0.846949673     -97.0565446
9.352                0.846511035     -97.2483218
9.353                0.846071297     -97.4406745
9.354                0.845630463     -97.6336045
9.355                0.845188535     -97.8271135
9.356                0.844745516      -98.021203
9.357                0.844301412     -98.2158748
9.358                0.843856223     -98.4111305
9.359                0.843409956     -98.6069718
9.36                 0.842962612     -98.8034004
9.361                0.842514197     -99.0004178
9.362                0.842064713     -99.1980258
9.363                0.841614165     -99.3962261
9.364                0.841162558     -99.5950202
9.365                0.840709894     -99.7944098
9.366                 0.84025618     -99.9943965
9.367                0.839801418     -100.194982
9.368                0.839345615     -100.396168
9.369                0.838888774     -100.597956
9.37                   0.8384309     -100.800348
9.371                0.837971998     -101.003345
9.372                0.837512074     -101.206949
9.373                0.837051131     -101.411162
9.374                0.836589177     -101.615984
9.375                0.836126215     -101.821419
9.376                0.835662252     -102.027467
9.377                0.835197293      -102.23413
9.378                0.834731344     -102.441409
9.379                0.834264411     -102.649307
9.38                 0.833796499     -102.857825
9.381                0.833327615     -103.066964
9.382                0.832857765     -103.276726
9.383                0.832386955     -103.487112
9.384                0.831915193     -103.698124
9.385                0.831442483     -103.909764
9.386                0.830968834     -104.122034
9.387                0.830494253     -104.334934
9.388                0.830018745     -104.548466
9.389                0.829542318     -104.762632
9.39                  0.82906498     -104.977433
9.391                0.828586738     -105.192871
9.392                0.828107599     -105.408948
9.393                0.827627572     -105.625664
9.394                0.827146663     -105.843022
9.395                0.826664882     -106.061023
9.396                0.826182235     -106.279668
