! TOUCHSTONE file generated by CST DESIGN STUDIO
! Date and time: Tue Feb  4 18:04:07 2025
! Project name: C:\Work\MatlabApps\UnitCellOptimizationMatlab\CST\unitcell.cst
! Tree item: Tasks\Sweep1\SPara1\S-Parameters
! Header version: 2024
! Port assignment regex: !\s*Touchstone port\s*([0-9]+)\s*=\s*(CST MWS port|CST DES external port|CST DES block port)\s*(.+)\s* \(\"(.*)\"\)(\s*mode\s*([0-9]+))?.*
! Touchstone port assignment:
! Touchstone port 1 = CST DES external port 1 ("")
# GHz S MA R 50
9                    0.964317257     -48.1253048
9.001                0.964246334     -48.1853411
9.002                0.964175233     -48.2454998
9.003                0.964103956     -48.3057812
9.004                  0.9640325     -48.3661859
9.005                0.963960867      -48.426714
9.006                0.963889054     -48.4873662
9.007                0.963817062     -48.5481426
9.008                0.963744889     -48.6090438
9.009                0.963672536     -48.6700701
9.01                 0.963600001     -48.7312218
9.011                0.963527284     -48.7924995
9.012                0.963454384     -48.8539035
9.013                0.963381301     -48.9154341
9.014                0.963308034     -48.9770919
9.015                0.963234583     -49.0388772
9.016                0.963160946     -49.1007903
9.017                0.963087123     -49.1628317
9.018                0.963013114     -49.2250019
9.019                0.962938917     -49.2873011
9.02                 0.962864533     -49.3497299
9.021                 0.96278996     -49.4122886
9.022                0.962715198     -49.4749776
9.023                0.962640246     -49.5377974
9.024                0.962565104     -49.6007483
9.025                 0.96248977     -49.6638308
9.026                0.962414245     -49.7270454
9.027                0.962338527     -49.7903923
9.028                0.962262616      -49.853872
9.029                0.962186511     -49.9174851
9.03                 0.962110212     -49.9812317
9.031                0.962033717     -50.0451125
9.032                0.961957027     -50.1091278
9.033                 0.96188014     -50.1732781
9.034                0.961803056     -50.2375638
9.035                0.961725774     -50.3019852
9.036                0.961648293      -50.366543
9.037                0.961570612     -50.4312374
9.038                0.961492732     -50.4960689
9.039                0.961414651     -50.5610379
9.04                 0.961336368      -50.626145
9.041                0.961257883     -50.6913905
9.042                0.961179196     -50.7567748
9.043                0.961100304     -50.8222985
9.044                0.961021208      -50.887962
9.045                0.960941907     -50.9537656
9.046                0.960862401     -51.0197099
9.047                0.960782687     -51.0857953
9.048                0.960702767     -51.1520223
9.049                0.960622638     -51.2183913
9.05                   0.9605423     -51.2849027
9.051                0.960461753     -51.3515571
9.052                0.960380996     -51.4183548
9.053                0.960300028     -51.4852964
9.054                0.960218847     -51.5523823
9.055                0.960137455      -51.619613
9.056                0.960055849     -51.6869888
9.057                0.959974028     -51.7545104
9.058                0.959891993     -51.8221782
9.059                0.959809743     -51.8899926
9.06                 0.959727276      -51.957954
9.061                0.959644591     -52.0260631
9.062                0.959561689     -52.0943202
9.063                0.959478568     -52.1627259
9.064                0.959395228     -52.2312806
9.065                0.959311667     -52.2999847
9.066                0.959227885     -52.3688388
9.067                0.959143881     -52.4378434
9.068                0.959059655      -52.506999
9.069                0.958975204     -52.5763059
9.07                  0.95889053     -52.6457648
9.071                 0.95880563     -52.7153761
9.072                0.958720505     -52.7851403
9.073                0.958635152     -52.8550579
9.074                0.958549572     -52.9251294
9.075                0.958463764     -52.9953553
9.076                0.958377726     -53.0657361
9.077                0.958291458     -53.1362723
9.078                 0.95820496     -53.2069644
9.079                0.958118229     -53.2778129
9.08                 0.958031266     -53.3488183
9.081                 0.95794407     -53.4199811
9.082                0.957856639     -53.4913019
9.083                0.957768973     -53.5627811
9.084                0.957681071     -53.6344193
9.085                0.957592932      -53.706217
9.086                0.957504556     -53.7781747
9.087                0.957415941     -53.8502929
9.088                0.957327086     -53.9225721
9.089                0.957237991     -53.9950129
9.09                 0.957148655     -54.0676158
9.091                0.957059077     -54.1403813
9.092                0.956969256       -54.21331
9.093                0.956879191     -54.2864024
9.094                0.956788882      -54.359659
9.095                0.956698326     -54.4330804
9.096                0.956607525      -54.506667
9.097                0.956516475     -54.5804195
9.098                0.956425178     -54.6543384
9.099                0.956333631     -54.7284242
9.1                  0.956241835     -54.8026775
9.101                0.956149787     -54.8770988
9.102                0.956057487     -54.9516887
9.103                0.955964934     -55.0264477
9.104                0.955872128     -55.1013764
9.105                0.955779067     -55.1764753
9.106                 0.95568575      -55.251745
9.107                0.955592177     -55.3271861
9.108                0.955498346     -55.4027991
9.109                0.955404257     -55.4785846
9.11                 0.955309908     -55.5545431
9.111                0.955215299     -55.6306752
9.112                0.955120429     -55.7069816
9.113                0.955025296     -55.7834627
9.114                0.954929901     -55.8601191
9.115                0.954834241     -55.9369515
9.116                0.954738316     -56.0139604
9.117                0.954642125     -56.0911463
9.118                0.954545667     -56.1685099
9.119                0.954448941     -56.2460518
9.12                 0.954351946     -56.3237725
9.121                0.954254681     -56.4016727
9.122                0.954157145     -56.4797528
9.123                0.954059338     -56.5580136
9.124                0.953961257     -56.6364556
9.125                0.953862902     -56.7150794
9.126                0.953764273     -56.7938857
9.127                0.953665367     -56.8728749
9.128                0.953566185     -56.9520478
9.129                0.953466725     -57.0314049
9.13                 0.953366986     -57.1109469
9.131                0.953266966     -57.1906743
9.132                0.953166666     -57.2705878
9.133                0.953066084      -57.350688
9.134                0.952965219     -57.4309755
9.135                 0.95286407      -57.511451
9.136                0.952762636      -57.592115
9.137                0.952660916     -57.6729682
9.138                0.952558909     -57.7540112
9.139                0.952456614     -57.8352446
9.14                 0.952354029     -57.9166691
9.141                0.952251154     -57.9982854
9.142                0.952147988      -58.080094
9.143                 0.95204453     -58.1620956
9.144                0.951940778     -58.2442908
9.145                0.951836732     -58.3266803
9.146                 0.95173239     -58.4092647
9.147                0.951627751     -58.4920448
9.148                0.951522815      -58.575021
9.149                0.951417581     -58.6581942
9.15                 0.951312046     -58.7415649
9.151                0.951206211     -58.8251337
9.152                0.951100073     -58.9089015
9.153                0.950993633     -58.9928688
9.154                0.950886888     -59.0770363
9.155                0.950779838     -59.1614047
9.156                0.950672482     -59.2459746
9.157                0.950564819     -59.3307467
9.158                0.950456847     -59.4157217
9.159                0.950348565     -59.5009003
9.16                 0.950239973     -59.5862831
9.161                0.950131068     -59.6718709
9.162                0.950021851     -59.7576643
9.163                 0.94991232     -59.8436641
9.164                0.949802474     -59.9298708
9.165                0.949692311     -60.0162852
9.166                0.949581831     -60.1029081
9.167                0.949471032       -60.18974
9.168                0.949359913     -60.2767817
9.169                0.949248474      -60.364034
9.17                 0.949136713     -60.4514974
9.171                0.949024628     -60.5391728
9.172                 0.94891222     -60.6270608
9.173                0.948799485     -60.7151622
9.174                0.948686425     -60.8034776
9.175                0.948573036     -60.8920079
9.176                0.948459319     -60.9807536
9.177                0.948345272     -61.0697156
9.178                0.948230893     -61.1588946
9.179                0.948116183     -61.2482912
9.18                 0.948001138     -61.3379063
9.181                0.947885759     -61.4277406
9.182                0.947770044     -61.5177947
9.183                0.947653992     -61.6080695
9.184                0.947537602     -61.6985657
9.185                0.947420872     -61.7892841
9.186                0.947303802     -61.8802253
9.187                 0.94718639     -61.9713902
9.188                0.947068635     -62.0627795
9.189                0.946950535     -62.1543939
9.19                 0.946832091     -62.2462343
9.191                  0.9467133     -62.3383013
9.192                0.946594161     -62.4305958
9.193                0.946474673     -62.5231185
9.194                0.946354834     -62.6158702
9.195                0.946234645     -62.7088517
9.196                0.946114103     -62.8020637
9.197                0.945993207      -62.895507
9.198                0.945871955     -62.9891824
9.199                0.945750348     -63.0830908
9.2                  0.945628383     -63.1772328
9.201                 0.94550606     -63.2716092
9.202                0.945383376      -63.366221
9.203                0.945260331     -63.4610688
9.204                0.945136924     -63.5561534
9.205                0.945013153     -63.6514758
9.206                0.944889018     -63.7470366
9.207                0.944764516     -63.8428366
9.208                0.944639647     -63.9388768
9.209                0.944514409     -64.0351579
9.21                 0.944388801     -64.1316807
9.211                0.944262823      -64.228446
9.212                0.944136471     -64.3254547
9.213                0.944009747     -64.4227077
9.214                0.943882647     -64.5202056
9.215                0.943755171     -64.6179494
9.216                0.943627318     -64.7159399
9.217                0.943499086     -64.8141779
9.218                0.943370475     -64.9126642
9.219                0.943241482     -65.0113998
9.22                 0.943112106     -65.1103855
9.221                0.942982347      -65.209622
9.222                0.942852203     -65.3091103
9.223                0.942721673     -65.4088513
9.224                0.942590755     -65.5088457
9.225                0.942459449     -65.6090944
9.226                0.942327752     -65.7095984
9.227                0.942195664     -65.8103584
9.228                0.942063183     -65.9113754
9.229                0.941930308     -66.0126502
9.23                 0.941797039     -66.1141836
9.231                0.941663372     -66.2159767
9.232                0.941529308     -66.3180302
9.233                0.941394845      -66.420345
9.234                0.941259981     -66.5229221
9.235                0.941124716     -66.6257623
9.236                0.940989048     -66.7288665
9.237                0.940852975     -66.8322357
9.238                0.940716497     -66.9358706
9.239                0.940579612     -67.0397723
9.24                 0.940442319     -67.1439416
9.241                0.940304617     -67.2483795
9.242                0.940166504     -67.3530868
9.243                0.940027979     -67.4580645
9.244                 0.93988904     -67.5633135
9.245                0.939749687     -67.6688347
9.246                0.939609918      -67.774629
9.247                0.939469732     -67.8806974
9.248                0.939329128     -67.9870409
9.249                0.939188103     -68.0936602
9.25                 0.939046657     -68.2005565
9.251                0.938904789     -68.3077306
9.252                0.938762498     -68.4151834
9.253                0.938619781      -68.522916
9.254                0.938476637     -68.6309292
9.255                0.938333067     -68.7392241
9.256                0.938189067     -68.8478015
9.257                0.938044637     -68.9566625
9.258                0.937899775      -69.065808
9.259                0.937754481     -69.1752389
9.26                 0.937608752     -69.2849564
9.261                0.937462588     -69.3949612
9.262                0.937315987     -69.5052544
9.263                0.937168948     -69.6158371
9.264                 0.93702147       -69.72671
9.265                0.936873551     -69.8378744
9.266                 0.93672519     -69.9493311
9.267                0.936576386     -70.0610811
9.268                0.936427137     -70.1731254
9.269                0.936277443     -70.2854651
9.27                 0.936127301     -70.3981011
9.271                0.935976711     -70.5110344
9.272                0.935825671     -70.6242661
9.273                 0.93567418     -70.7377972
9.274                0.935522237     -70.8516286
9.275                 0.93536984     -70.9657615
9.276                0.935216988     -71.0801968
9.277                 0.93506368     -71.1949355
9.278                0.934909914     -71.3099787
9.279                 0.93475569     -71.4253274
9.28                 0.934601005     -71.5409826
9.281                 0.93444586     -71.6569454
9.282                0.934290252     -71.7732169
9.283                0.934134179      -71.889798
9.284                0.933977642     -72.0066899
9.285                0.933820638     -72.1238935
9.286                0.933663167       -72.24141
9.287                0.933505227     -72.3592403
9.288                0.933346816     -72.4773856
9.289                0.933187934     -72.5958469
9.29                 0.933028579     -72.7146253
9.291                0.932868751     -72.8337218
9.292                0.932708447     -72.9531376
9.293                0.932547666     -73.0728736
9.294                0.932386408     -73.1929311
9.295                0.932224671      -73.313311
9.296                0.932062454     -73.4340145
9.297                0.931899755     -73.5550426
9.298                0.931736574     -73.6763965
9.299                0.931572909     -73.7980772
9.3                  0.931408759     -73.9200859
9.301                0.931244122     -74.0424236
9.302                0.931078998     -74.1650915
9.303                0.930913385     -74.2880906
9.304                0.930747283     -74.4114221
9.305                0.930580689     -74.5350871
9.306                0.930413603     -74.6590868
9.307                0.930246023     -74.7834221
9.308                0.930077949     -74.9080944
9.309                0.929909379     -75.0331046
9.31                 0.929740312     -75.1584539
9.311                0.929570747     -75.2841435
9.312                0.929400682     -75.4101745
9.313                0.929230117     -75.5365481
9.314                 0.92905905     -75.6632654
9.315                 0.92888748     -75.7903274
9.316                0.928715407     -75.9177355
9.317                0.928542829     -76.0454908
9.318                0.928369744     -76.1735943
9.319                0.928196152     -76.3020473
9.32                 0.928022052     -76.4308509
9.321                0.927847442     -76.5600063
9.322                0.927672322     -76.6895147
9.323                 0.92749669     -76.8193773
9.324                0.927320545     -76.9495952
9.325                0.927143886     -77.0801695
9.326                0.926966713     -77.2111016
9.327                0.926789024     -77.3423925
9.328                0.926610818     -77.4740434
9.329                0.926432093     -77.6060557
9.33                  0.92625285     -77.7384303
9.331                0.926073087     -77.8711686
9.332                0.925892803     -78.0042718
9.333                0.925711996      -78.137741
9.334                0.925530667     -78.2715775
9.335                0.925348814     -78.4057824
9.336                0.925166435      -78.540357
9.337                0.924983531     -78.6753025
9.338                  0.9248001     -78.8106201
9.339                0.924616141     -78.9463111
9.34                 0.924431653     -79.0823766
9.341                0.924246636     -79.2188179
9.342                0.924061088     -79.3556363
9.343                0.923875009     -79.4928328
9.344                0.923688397     -79.6304089
9.345                0.923501252     -79.7683657
9.346                0.923313573     -79.9067045
9.347                0.923125359     -80.0454265
9.348                 0.92293661     -80.1845329
9.349                0.922747324     -80.3240251
9.35                   0.9225575     -80.4639042
9.351                0.922367138     -80.6041715
9.352                0.922176238     -80.7448283
9.353                0.921984797     -80.8858759
9.354                0.921792816     -81.0273155
9.355                0.921600294     -81.1691483
9.356                 0.92140723     -81.3113756
9.357                0.921213623     -81.4539988
9.358                0.921019473     -81.5970191
9.359                0.920824779     -81.7404377
9.36                 0.920629541     -81.8842559
9.361                0.920433756     -82.0284751
9.362                0.920237426     -82.1730964
9.363                 0.92004055     -82.3181213
9.364                0.919843126     -82.4635509
9.365                0.919645154     -82.6093866
9.366                0.919446634     -82.7556296
9.367                0.919247565     -82.9022814
9.368                0.919047947      -83.049343
9.369                0.918847779     -83.1968159
9.37                  0.91864706     -83.3447014
9.371                 0.91844579     -83.4930007
9.372                 0.91824397     -83.6417152
9.373                0.918041597     -83.7908461
9.374                0.917838672     -83.9403948
9.375                0.917635194     -84.0903627
9.376                0.917431163     -84.2407509
9.377                0.917226579     -84.3915609
9.378                0.917021441     -84.5427939
9.379                0.916815749     -84.6944512
9.38                 0.916609503     -84.8465343
9.381                0.916402702     -84.9990444
9.382                0.916195346     -85.1519828
9.383                0.915987436     -85.3053508
9.384                0.915778969     -85.4591499
9.385                0.915569948     -85.6133813
9.386                 0.91536037     -85.7680464
9.387                0.915150237     -85.9231464
9.388                0.914939548     -86.0786828
9.389                0.914728302     -86.2346568
9.39                 0.914516501     -86.3910698
9.391                0.914304143     -86.5479232
9.392                0.914091229     -86.7052183
9.393                0.913877759     -86.8629564
9.394                0.913663733     -87.0211389
9.395                0.913449151     -87.1797671
9.396                0.913234012     -87.3388423
