! TOUCHSTONE file generated by CST DESIGN STUDIO
! Date and time: Tue Feb  4 18:04:08 2025
! Project name: C:\Work\MatlabApps\UnitCellOptimizationMatlab\CST\unitcell.cst
! Tree item: Tasks\Sweep1\SPara1\S-Parameters
! Header version: 2024
! Port assignment regex: !\s*Touchstone port\s*([0-9]+)\s*=\s*(CST MWS port|CST DES external port|CST DES block port)\s*(.+)\s* \(\"(.*)\"\)(\s*mode\s*([0-9]+))?.*
! Touchstone port assignment:
! Touchstone port 1 = CST DES external port 1 ("")
# GHz S MA R 50
9                    0.966958949     -44.5329823
9.001                0.966899242     -44.5870702
9.002                0.966839391      -44.641263
9.003                0.966779396      -44.695561
9.004                0.966719257     -44.7499646
9.005                0.966658973     -44.8044741
9.006                0.966598544     -44.8590899
9.007                0.966537969     -44.9138122
9.008                0.966477247     -44.9686413
9.009                0.966416379     -45.0235777
9.01                 0.966355363     -45.0786216
9.011                  0.9662942     -45.1337734
9.012                0.966232888     -45.1890333
9.013                0.966171426     -45.2444018
9.014                0.966109816     -45.2998791
9.015                0.966048055     -45.3554656
9.016                0.965986143     -45.4111617
9.017                 0.96592408     -45.4669676
9.018                0.965861866     -45.5228837
9.019                0.965799499     -45.5789103
9.02                 0.965736979     -45.6350478
9.021                0.965674306     -45.6912966
9.022                0.965611479     -45.7476569
9.023                0.965548497     -45.8041291
9.024                 0.96548536     -45.8607136
9.025                0.965422068     -45.9174107
9.026                0.965358619     -45.9742207
9.027                0.965295013      -46.031144
9.028                 0.96523125     -46.0881809
9.029                0.965167329     -46.1453319
9.03                 0.965103249     -46.2025972
9.031                0.965039011     -46.2599772
9.032                0.964974612     -46.3174723
9.033                0.964910053     -46.3750828
9.034                0.964845333      -46.432809
9.035                0.964780452     -46.4906514
9.036                0.964715409     -46.5486103
9.037                0.964650203      -46.606686
9.038                0.964584833      -46.664879
9.039                  0.9645193     -46.7231895
9.04                 0.964453602      -46.781618
9.041                0.964387739     -46.8401647
9.042                0.964321711     -46.8988302
9.043                0.964255516     -46.9576147
9.044                0.964189154     -47.0165187
9.045                0.964122624     -47.0755424
9.046                0.964055926     -47.1346863
9.047                 0.96398906     -47.1939507
9.048                0.963922024     -47.2533361
9.049                0.963854818     -47.3128427
9.05                 0.963787441      -47.372471
9.051                0.963719893     -47.4322214
9.052                0.963652173     -47.4920942
9.053                 0.96358428     -47.5520898
9.054                0.963516214     -47.6122086
9.055                0.963447975      -47.672451
9.056                 0.96337956     -47.7328173
9.057                0.963310971     -47.7933081
9.058                0.963242205     -47.8539235
9.059                0.963173263     -47.9146642
9.06                 0.963104144     -47.9755303
9.061                0.963034848     -48.0365224
9.062                0.962965372     -48.0976408
9.063                0.962895718     -48.1588859
9.064                0.962825883     -48.2202582
9.065                0.962755869      -48.281758
9.066                0.962685673     -48.3433856
9.067                0.962615295     -48.4051416
9.068                0.962544734     -48.4670264
9.069                0.962473991     -48.5290402
9.07                 0.962403064     -48.5911837
9.071                0.962331952      -48.653457
9.072                0.962260654     -48.7158607
9.073                0.962189171     -48.7783952
9.074                0.962117501     -48.8410609
9.075                0.962045644     -48.9038581
9.076                0.961973599     -48.9667874
9.077                0.961901365     -49.0298491
9.078                0.961828942     -49.0930436
9.079                0.961756328     -49.1563715
9.08                 0.961683524      -49.219833
9.081                0.961610528     -49.2834286
9.082                 0.96153734     -49.3471588
9.083                0.961463958     -49.4110239
9.084                0.961390383     -49.4750245
9.085                0.961316614     -49.5391608
9.086                0.961242649     -49.6034335
9.087                0.961168488     -49.6678428
9.088                0.961094131     -49.7323892
9.089                0.961019576     -49.7970732
9.09                 0.960944823     -49.8618952
9.091                0.960869871     -49.9268556
9.092                 0.96079472      -49.991955
9.093                0.960719368     -50.0571936
9.094                0.960643815      -50.122572
9.095                 0.96056806     -50.1880907
9.096                0.960492103     -50.2537499
9.097                0.960415942     -50.3195503
9.098                0.960339576     -50.3854923
9.099                0.960263006     -50.4515763
9.1                  0.960186231     -50.5178027
9.101                0.960109248     -50.5841721
9.102                0.960032059     -50.6506848
9.103                0.959954661     -50.7173414
9.104                0.959877055     -50.7841423
9.105                0.959799239      -50.851088
9.106                0.959721213     -50.9181789
9.107                0.959642975     -50.9854154
9.108                0.959564526     -51.0527982
9.109                0.959485863     -51.1203276
9.11                 0.959406988     -51.1880041
9.111                0.959327897     -51.2558281
9.112                0.959248592     -51.3238002
9.113                0.959169071     -51.3919209
9.114                0.959089333     -51.4601905
9.115                0.959009377     -51.5286097
9.116                0.958929203     -51.5971788
9.117                0.958848809     -51.6658983
9.118                0.958768196     -51.7347688
9.119                0.958687362     -51.8037908
9.12                 0.958606305     -51.8729646
9.121                0.958525027     -51.9422909
9.122                0.958443525       -52.01177
9.123                0.958361799     -52.0814026
9.124                0.958279847      -52.151189
9.125                 0.95819767     -52.2211298
9.126                0.958115266     -52.2912255
9.127                0.958032635     -52.3614766
9.128                0.957949775     -52.4318836
9.129                0.957866686      -52.502447
9.13                 0.957783366     -52.5731673
9.131                0.957699816      -52.644045
9.132                0.957616033     -52.7150807
9.133                0.957532018     -52.7862748
9.134                0.957447769     -52.8576278
9.135                0.957363286     -52.9291404
9.136                0.957278567     -53.0008129
9.137                0.957193612     -53.0726459
9.138                 0.95710842       -53.14464
9.139                 0.95702299     -53.2167956
9.14                 0.956937321     -53.2891133
9.141                0.956851412     -53.3615937
9.142                0.956765262     -53.4342372
9.143                0.956678871     -53.5070443
9.144                0.956592237     -53.5800157
9.145                0.956505359     -53.6531519
9.146                0.956418238     -53.7264533
9.147                0.956330871     -53.7999206
9.148                0.956243258     -53.8735542
9.149                0.956155398     -53.9473548
9.15                  0.95606729     -54.0213228
9.151                0.955978932     -54.0954588
9.152                0.955890325     -54.1697634
9.153                0.955801468     -54.2442372
9.154                0.955712358     -54.3188806
9.155                0.955622996     -54.3936942
9.156                 0.95553338     -54.4686787
9.157                 0.95544351     -54.5438344
9.158                0.955353384     -54.6191621
9.159                0.955263001     -54.6946623
9.16                 0.955172362     -54.7703356
9.161                0.955081464     -54.8461824
9.162                0.954990306     -54.9222035
9.163                0.954898888     -54.9983993
9.164                0.954807209     -55.0747705
9.165                0.954715268     -55.1513175
9.166                0.954623064     -55.2280411
9.167                0.954530595     -55.3049418
9.168                0.954437861     -55.3820201
9.169                0.954344862     -55.4592767
9.17                 0.954251595     -55.5367121
9.171                0.954158059      -55.614327
9.172                0.954064255     -55.6921219
9.173                0.953970181     -55.7700974
9.174                0.953875836     -55.8482542
9.175                0.953781218     -55.9265928
9.176                0.953686327     -56.0051138
9.177                0.953591163     -56.0838178
9.178                0.953495723     -56.1627055
9.179                0.953400007     -56.2417775
9.18                 0.953304014     -56.3210342
9.181                0.953207742     -56.4004765
9.182                0.953111192     -56.4801049
9.183                0.953014361       -56.55992
9.184                0.952917249     -56.6399224
9.185                0.952819855     -56.7201127
9.186                0.952722177     -56.8004917
9.187                0.952624215     -56.8810598
9.188                0.952525968     -56.9618178
9.189                0.952427434     -57.0427663
9.19                 0.952328612     -57.1239058
9.191                0.952229502     -57.2052371
9.192                0.952130103     -57.2867608
9.193                0.952030413     -57.3684776
9.194                0.951930431      -57.450388
9.195                0.951830156     -57.5324927
9.196                0.951729587     -57.6147923
9.197                0.951628723     -57.6972876
9.198                0.951527564     -57.7799792
9.199                0.951426107     -57.8628677
9.2                  0.951324352     -57.9459538
9.201                0.951222298     -58.0292382
9.202                0.951119943     -58.1127214
9.203                0.951017288     -58.1964043
9.204                0.950914329     -58.2802874
9.205                0.950811067     -58.3643714
9.206                  0.9507075      -58.448657
9.207                0.950603627     -58.5331449
9.208                0.950499448     -58.6178357
9.209                 0.95039496     -58.7027302
9.21                 0.950290163      -58.787829
9.211                0.950185056     -58.8731328
9.212                0.950079638     -58.9586423
9.213                0.949973907     -59.0443582
9.214                0.949867862     -59.1302812
9.215                0.949761502     -59.2164119
9.216                0.949654827     -59.3027511
9.217                0.949547835     -59.3892996
9.218                0.949440524     -59.4760578
9.219                0.949332894     -59.5630267
9.22                 0.949224944     -59.6502069
9.221                0.949116672     -59.7375991
9.222                0.949008078     -59.8252041
9.223                0.948899159     -59.9130224
9.224                0.948789915      -60.001055
9.225                0.948680346     -60.0893025
9.226                0.948570449     -60.1777655
9.227                0.948460223     -60.2664449
9.228                0.948349667     -60.3553414
9.229                0.948238781     -60.4444558
9.23                 0.948127563     -60.5337886
9.231                0.948016011     -60.6233408
9.232                0.947904126      -60.713113
9.233                0.947791904     -60.8031059
9.234                0.947679346     -60.8933204
9.235                 0.94756645     -60.9837572
9.236                0.947453215      -61.074417
9.237                0.947339639     -61.1653006
9.238                0.947225722     -61.2564087
9.239                0.947111462     -61.3477422
9.24                 0.946996859     -61.4393017
9.241                 0.94688191     -61.5310881
9.242                0.946766615      -61.623102
9.243                0.946650972     -61.7153444
9.244                0.946534981     -61.8078159
9.245                 0.94641864     -61.9005173
9.246                0.946301947     -61.9934495
9.247                0.946184902     -62.0866132
9.248                0.946067504     -62.1800091
9.249                0.945949751     -62.2736382
9.25                 0.945831642     -62.3675011
9.251                0.945713175     -62.4615986
9.252                 0.94559435     -62.5559317
9.253                0.945475166      -62.650501
9.254                 0.94535562     -62.7453074
9.255                0.945235712     -62.8403517
9.256                0.945115441     -62.9356347
9.257                0.944994805     -63.0311571
9.258                0.944873803     -63.1269199
9.259                0.944752434     -63.2229239
9.26                 0.944630696     -63.3191698
9.261                0.944508589     -63.4156585
9.262                0.944386111     -63.5123908
9.263                0.944263261     -63.6093676
9.264                0.944140037     -63.7065896
9.265                0.944016439     -63.8040578
9.266                0.943892465      -63.901773
9.267                0.943768113     -63.9997359
9.268                0.943643383     -64.0979475
9.269                0.943518273     -64.1964086
9.27                 0.943392783       -64.29512
9.271                 0.94326691     -64.3940827
9.272                0.943140653     -64.4932974
9.273                0.943014012     -64.5927651
9.274                0.942886984     -64.6924865
9.275                0.942759569     -64.7924627
9.276                0.942631766     -64.8926943
9.277                0.942503572     -64.9931824
9.278                0.942374987     -65.0939277
9.279                 0.94224601     -65.1949312
9.28                 0.942116639     -65.2961938
9.281                0.941986873     -65.3977163
9.282                 0.94185671     -65.4994996
9.283                 0.94172615     -65.6015447
9.284                0.941595191     -65.7038523
9.285                0.941463832     -65.8064235
9.286                0.941332071     -65.9092591
9.287                0.941199907       -66.01236
9.288                0.941067339     -66.1157271
9.289                0.940934366     -66.2193614
9.29                 0.940800986     -66.3232637
9.291                0.940667198      -66.427435
9.292                0.940533001     -66.5318762
9.293                0.940398393     -66.6365883
9.294                0.940263373      -66.741572
9.295                0.940127939     -66.8468285
9.296                0.939992092     -66.9523586
9.297                0.939855828     -67.0581632
9.298                0.939719148     -67.1642433
9.299                0.939582048     -67.2705999
9.3                   0.93944453     -67.3772338
9.301                 0.93930659     -67.4841461
9.302                0.939168227     -67.5913377
9.303                0.939029441     -67.6988095
9.304                 0.93889023     -67.8065625
9.305                0.938750593     -67.9145977
9.306                0.938610528      -68.022916
9.307                0.938470034     -68.1315185
9.308                 0.93832911      -68.240406
9.309                0.938187755     -68.3495796
9.31                 0.938045966     -68.4590402
9.311                0.937903744     -68.5687888
9.312                0.937761086     -68.6788265
9.313                0.937617991     -68.7891541
9.314                0.937474458     -68.8997727
9.315                0.937330486     -69.0106834
9.316                0.937186073      -69.121887
9.317                0.937041218     -69.2333846
9.318                 0.93689592     -69.3451772
9.319                0.936750178     -69.4572658
9.32                 0.936603989     -69.5696515
9.321                0.936457353     -69.6823352
9.322                0.936310269     -69.7953179
9.323                0.936162735     -69.9086007
9.324                 0.93601475     -70.0221847
9.325                0.935866312     -70.1360707
9.326                0.935717421       -70.25026
9.327                0.935568074     -70.3647535
9.328                0.935418272     -70.4795522
9.329                0.935268012     -70.5946572
9.33                 0.935117293     -70.7100695
9.331                0.934966114     -70.8257903
9.332                0.934814473     -70.9418205
9.333                 0.93466237     -71.0581612
9.334                0.934509803     -71.1748135
9.335                 0.93435677     -71.2917784
9.336                0.934203271      -71.409057
9.337                0.934049304     -71.5266503
9.338                0.933894868     -71.6445595
9.339                0.933739962     -71.7627856
9.34                 0.933584584     -71.8813297
9.341                0.933428733      -72.000193
9.342                0.933272408     -72.1193763
9.343                0.933115607      -72.238881
9.344                 0.93295833      -72.358708
9.345                0.932800575     -72.4788584
9.346                 0.93264234     -72.5993334
9.347                0.932483626     -72.7201341
9.348                0.932324429     -72.8412615
9.349                 0.93216475     -72.9627168
9.35                 0.932004586     -73.0845011
9.351                0.931843938     -73.2066155
9.352                0.931682802     -73.3290612
9.353                0.931521179     -73.4518392
9.354                0.931359066     -73.5749507
9.355                0.931196464     -73.6983968
9.356                 0.93103337     -73.8221787
9.357                0.930869783     -73.9462975
9.358                0.930705702     -74.0707543
9.359                0.930541127     -74.1955502
9.36                 0.930376055     -74.3206865
9.361                0.930210485     -74.4461643
9.362                0.930044417     -74.5719847
9.363                 0.92987785     -74.6981489
9.364                0.929710781     -74.8246581
9.365                 0.92954321     -74.9515134
9.366                0.929375136     -75.0787159
9.367                0.929206557     -75.2062669
9.368                0.929037473     -75.3341676
9.369                0.928867883      -75.462419
9.37                 0.928697784     -75.5910225
9.371                0.928527176     -75.7199791
9.372                0.928356059     -75.8492901
9.373                 0.92818443     -75.9789566
9.374                0.928012289     -76.1089799
9.375                0.927839634     -76.2393611
9.376                0.927666465     -76.3701015
9.377                0.927492781     -76.5012023
9.378                 0.92731858     -76.6326646
9.379                0.927143861     -76.7644896
9.38                 0.926968623     -76.8966787
9.381                0.926792866     -77.0292329
9.382                0.926616588     -77.1621536
9.383                0.926439788     -77.2954419
9.384                0.926262465     -77.4290991
9.385                0.926084618     -77.5631263
9.386                0.925906246     -77.6975249
9.387                0.925727349     -77.8322961
9.388                0.925547925     -77.9674411
9.389                0.925367972     -78.1029611
9.39                 0.925187491     -78.2388575
9.391                0.925006481     -78.3751313
9.392                0.924824939      -78.511784
9.393                0.924642866     -78.6488167
9.394                0.924460261     -78.7862307
9.395                0.924277122     -78.9240272
9.396                0.924093448     -79.0622076
