! TOUCHSTONE file generated by CST DESIGN STUDIO
! Date and time: Tue Feb  4 18:03:53 2025
! Project name: C:\Work\MatlabApps\UnitCellOptimizationMatlab\CST\unitcell.cst
! Tree item: Tasks\Sweep1\SPara1\S-Parameters
! Header version: 2024
! Port assignment regex: !\s*Touchstone port\s*([0-9]+)\s*=\s*(CST MWS port|CST DES external port|CST DES block port)\s*(.+)\s* \(\"(.*)\"\)(\s*mode\s*([0-9]+))?.*
! Touchstone port assignment:
! Touchstone port 1 = CST DES external port 1 ("")
# GHz S MA R 50
9                     0.93711719     -85.0283336
9.001                0.936918394     -85.1756687
9.002                0.936719004     -85.3234076
9.003                0.936519018     -85.4715517
9.004                0.936318437     -85.6201021
9.005                 0.93611726     -85.7690602
9.006                0.935915486     -85.9184272
9.007                0.935713114     -86.0682044
9.008                0.935510144     -86.2183929
9.009                0.935306576      -86.368994
9.01                 0.935102408      -86.520009
9.011                0.934897641     -86.6714391
9.012                0.934692273     -86.8232856
9.013                0.934486304     -86.9755498
9.014                0.934279735     -87.1282329
9.015                0.934072563     -87.2813361
9.016                 0.93386479     -87.4348607
9.017                0.933656414     -87.5888081
9.018                0.933447435     -87.7431793
9.019                0.933237853     -87.8979758
9.02                 0.933027667     -88.0531988
9.021                0.932816878     -88.2088495
9.022                0.932605484     -88.3649292
9.023                0.932393486     -88.5214392
9.024                0.932180883     -88.6783808
9.025                0.931967675     -88.8357551
9.026                0.931753862     -88.9935636
9.027                0.931539443     -89.1518075
9.028                0.931324419      -89.310488
9.029                 0.93110879     -89.4696064
9.03                 0.930892554      -89.629164
9.031                0.930675713     -89.7891621
9.032                0.930458266      -89.949602
9.033                0.930240213     -90.1104848
9.034                0.930021554      -90.271812
9.035                0.929802289     -90.4335848
9.036                0.929582418     -90.5958044
9.037                0.929361942     -90.7584722
9.038                0.929140859     -90.9215895
9.039                0.928919172     -91.0851574
9.04                 0.928696878     -91.2491773
9.041                 0.92847398     -91.4136505
9.042                0.928250476     -91.5785783
9.043                0.928026368     -91.7439619
9.044                0.927801655     -91.9098026
9.045                0.927576338     -92.0761017
9.046                0.927350417     -92.2428605
9.047                0.927123893     -92.4100803
9.048                0.926896766     -92.5777623
9.049                0.926669036     -92.7459078
9.05                 0.926440703     -92.9145181
9.051                 0.92621177     -93.0835946
9.052                0.925982234     -93.2531384
9.053                0.925752099     -93.4231508
9.054                0.925521363     -93.5936332
9.055                0.925290028     -93.7645868
9.056                0.925058094     -93.9360128
9.057                0.924825563     -94.1079126
9.058                0.924592434     -94.2802875
9.059                0.924358708     -94.4531387
9.06                 0.924124387     -94.6264674
9.061                0.923889471      -94.800275
9.062                0.923653961     -94.9745627
9.063                0.923417858     -95.1493318
9.064                0.923181162     -95.3245836
9.065                0.922943876     -95.5003193
9.066                   0.922706     -95.6765402
9.067                0.922467535     -95.8532476
9.068                0.922228481     -96.0304427
9.069                0.921988842     -96.2081267
9.07                 0.921748616      -96.386301
9.071                0.921507807     -96.5649668
9.072                0.921266414     -96.7441254
9.073                 0.92102444      -96.923778
9.074                0.920781885     -97.1039258
9.075                0.920538752     -97.2845701
9.076                0.920295041     -97.4657122
9.077                0.920050754     -97.6473533
9.078                0.919805892     -97.8294946
9.079                0.919560458     -98.0121374
9.08                 0.919314453     -98.1952829
9.081                0.919067878     -98.3789323
9.082                0.918820735     -98.5630869
9.083                0.918573027     -98.7477479
9.084                0.918324754     -98.9329165
9.085                0.918075918     -99.1185939
9.086                0.917826523     -99.3047814
9.087                0.917576568     -99.4914802
9.088                0.917326058     -99.6786914
9.089                0.917074993     -99.8664164
9.09                 0.916823375     -100.054656
9.091                0.916571208     -100.243412
9.092                0.916318492     -100.432685
9.093                0.916065231     -100.622477
9.094                0.915811426     -100.812788
9.095                0.915557081      -101.00362
9.096                0.915302197     -101.194975
9.097                0.915046777     -101.386852
9.098                0.914790823     -101.579254
9.099                0.914534338     -101.772181
9.1                  0.914277325     -101.965635
9.101                0.914019787     -102.159616
9.102                0.913761725     -102.354127
9.103                0.913503144     -102.549168
9.104                0.913244045      -102.74474
9.105                0.912984432     -102.940844
9.106                0.912724307     -103.137482
9.107                0.912463675     -103.334655
9.108                0.912202537     -103.532363
9.109                0.911940897     -103.730608
9.11                 0.911678758     -103.929392
9.111                0.911416124     -104.128714
9.112                0.911152998     -104.328576
9.113                0.910889382      -104.52898
9.114                0.910625282     -104.729926
9.115                  0.9103607     -104.931415
9.116                0.910095639     -105.133448
9.117                0.909830104     -105.336028
9.118                0.909564098     -105.539153
9.119                0.909297625     -105.742827
9.12                 0.909030689     -105.947048
9.121                0.908763293      -106.15182
9.122                0.908495443     -106.357142
9.123                0.908227141     -106.563016
9.124                0.907958391     -106.769442
9.125                0.907689199     -106.976422
9.126                0.907419568     -107.183957
9.127                0.907149503     -107.392047
9.128                0.906879007     -107.600694
9.129                0.906608086     -107.809899
9.13                 0.906336744     -108.019662
9.131                0.906064985     -108.229984
9.132                0.905792815     -108.440867
9.133                0.905520237     -108.652311
9.134                0.905247258     -108.864317
9.135                 0.90497388     -109.076886
9.136                0.904700111     -109.290019
9.137                0.904425954     -109.503717
9.138                0.904151414     -109.717981
9.139                0.903876498     -109.932812
9.14                 0.903601209     -110.148209
9.141                0.903325554     -110.364175
9.142                0.903049538     -110.580711
9.143                0.902773166     -110.797816
9.144                0.902496443     -111.015491
9.145                0.902219376     -111.233739
9.146                0.901941971     -111.452558
9.147                0.901664232     -111.671951
9.148                0.901386166     -111.891917
9.149                0.901107779     -112.112458
9.15                 0.900829076     -112.333574
9.151                0.900550064     -112.555267
9.152                 0.90027075     -112.777535
9.153                0.899991138     -113.000382
9.154                0.899711236     -113.223806
9.155                 0.89943105     -113.447809
9.156                0.899150586     -113.672392
9.157                0.898869851     -113.897554
9.158                0.898588852     -114.123298
9.159                0.898307595     -114.349622
9.16                 0.898026088     -114.576529
9.161                0.897744336     -114.804017
9.162                0.897462348     -115.032089
9.163                 0.89718013     -115.260745
9.164                0.896897688     -115.489984
9.165                0.896615032     -115.719808
9.166                0.896332167     -115.950217
9.167                0.896049101     -116.181212
9.168                0.895765842     -116.412793
9.169                0.895482398     -116.644961
9.17                 0.895198775     -116.877715
9.171                0.894914981     -117.111057
9.172                0.894631025     -117.344987
9.173                0.894346915     -117.579504
9.174                0.894062657     -117.814611
9.175                0.893778261     -118.050306
9.176                0.893493735     -118.286591
9.177                0.893209086     -118.523465
9.178                0.892924323     -118.760929
9.179                0.892639455     -118.998984
9.18                 0.892354489     -119.237628
9.181                0.892069436     -119.476864
9.182                0.891784302      -119.71669
9.183                0.891499097     -119.957108
9.184                 0.89121383     -120.198116
9.185                 0.89092851     -120.439717
9.186                0.890643146     -120.681909
9.187                0.890357746     -120.924692
9.188                 0.89007232     -121.168068
9.189                0.889786878     -121.412035
9.19                 0.889501428     -121.656595
9.191                0.889215981     -121.901747
9.192                0.888930545      -122.14749
9.193                 0.88864513     -122.393826
9.194                0.888359746     -122.640754
9.195                0.888074402     -122.888274
9.196                 0.88778911     -123.136386
9.197                0.887503878      -123.38509
9.198                0.887218716     -123.634386
9.199                0.886933635     -123.884273
9.2                  0.886648645     -124.134752
9.201                0.886363756     -124.385823
9.202                0.886078978     -124.637484
9.203                0.885794323     -124.889737
9.204                  0.8855098      -125.14258
9.205                0.885225421     -125.396014
9.206                0.884941195     -125.650037
9.207                0.884657134     -125.904651
9.208                0.884373249     -126.159854
9.209                 0.88408955     -126.415647
9.21                 0.883806048     -126.672028
9.211                0.883522756     -126.928997
9.212                0.883239683     -127.186555
9.213                0.882956842     -127.444699
9.214                0.882674243     -127.703431
9.215                0.882391898     -127.962749
9.216                0.882109818     -128.222653
9.217                0.881828016     -128.483143
9.218                0.881546502     -128.744217
9.219                 0.88126529     -129.005875
9.22                 0.880984389     -129.268117
9.221                0.880703813     -129.530941
9.222                0.880423573     -129.794348
9.223                0.880143681     -130.058336
9.224                 0.87986415     -130.322904
9.225                0.879584992     -130.588053
9.226                0.879306218      -130.85378
9.227                0.879027842     -131.120085
9.228                0.878749876     -131.386968
9.229                0.878472331     -131.654427
9.23                 0.878195222     -131.922462
9.231                 0.87791856     -132.191071
9.232                0.877642359     -132.460253
9.233                 0.87736663     -132.730009
9.234                0.877091387     -133.000335
9.235                0.876816642     -133.271232
9.236                 0.87654241     -133.542698
9.237                0.876268702     -133.814732
9.238                0.875995531     -134.087334
9.239                0.875722912     -134.360501
9.24                 0.875450856     -134.634232
9.241                0.875179378     -134.908527
9.242                0.874908491     -135.183384
9.243                0.874638208     -135.458801
9.244                0.874368542     -135.734778
9.245                0.874099508     -136.011312
9.246                0.873831118     -136.288404
9.247                0.873563386      -136.56605
9.248                0.873296326      -136.84425
9.249                0.873029952     -137.123002
9.25                 0.872764277     -137.402304
9.251                0.872499315     -137.682155
9.252                 0.87223508     -137.962554
9.253                0.871971586     -138.243498
9.254                0.871708847     -138.524987
9.255                0.871446877     -138.807017
9.256                0.871185689     -139.089589
9.257                0.870925298     -139.372699
9.258                0.870665719     -139.656346
9.259                0.870406964     -139.940528
9.26                 0.870149049     -140.225244
9.261                0.869891987      -140.51049
9.262                0.869635792     -140.796267
9.263                 0.86938048      -141.08257
9.264                0.869126064     -141.369399
9.265                0.868872559     -141.656752
9.266                0.868619978     -141.944626
9.267                0.868368337     -142.233019
9.268                 0.86811765     -142.521929
9.269                 0.86786793     -142.811354
9.27                 0.867619193     -143.101292
9.271                0.867371453      -143.39174
9.272                0.867124725     -143.682696
9.273                0.866879022     -143.974158
9.274                 0.86663436     -144.266123
9.275                0.866390753      -144.55859
9.276                0.866148215     -144.851555
9.277                 0.86590676     -145.145016
9.278                0.865666405     -145.438971
9.279                0.865427162     -145.733417
9.28                 0.865189046     -146.028352
9.281                0.864952073     -146.323773
9.282                0.864716255     -146.619677
9.283                0.864481609     -146.916061
9.284                0.864248148     -147.212924
9.285                0.864015887     -147.510262
9.286                0.863784841     -147.808073
9.287                0.863555023     -148.106353
9.288                0.863326448       -148.4051
9.289                0.863099132     -148.704311
9.29                 0.862873087     -149.003983
9.291                0.862648329     -149.304113
9.292                0.862424871     -149.604698
9.293                0.862202729     -149.905735
9.294                0.861981916     -150.207222
9.295                0.861762447     -150.509154
9.296                0.861544335     -150.811529
9.297                0.861327596     -151.114344
9.298                0.861112243     -151.417595
9.299                0.860898291      -151.72128
9.3                  0.860685753     -152.025395
9.301                0.860474644     -152.329936
9.302                0.860264977     -152.634901
9.303                0.860056767     -152.940285
9.304                0.859850027     -153.246087
9.305                0.859644771     -153.552301
9.306                0.859441013     -153.858926
9.307                0.859238767     -154.165956
9.308                0.859038046      -154.47339
9.309                0.858838865     -154.781222
9.31                 0.858641236      -155.08945
9.311                0.858445172      -155.39807
9.312                0.858250689     -155.707078
9.313                0.858057797     -156.016471
9.314                0.857866512     -156.326245
9.315                0.857676846     -156.636396
9.316                0.857488813      -156.94692
9.317                0.857302424     -157.257813
9.318                0.857117694     -157.569073
9.319                0.856934635     -157.880693
9.32                  0.85675326     -158.192672
9.321                0.856573581     -158.505005
9.322                0.856395612     -158.817688
9.323                0.856219364     -159.130716
9.324                 0.85604485     -159.444086
9.325                0.855872082     -159.757795
9.326                0.855701073     -160.071836
9.327                0.855531834     -160.386208
9.328                0.855364378     -160.700905
9.329                0.855198717     -161.015923
9.33                 0.855034861     -161.331258
9.331                0.854872824     -161.646906
9.332                0.854712616     -161.962862
9.333                0.854554249     -162.279122
9.334                0.854397734     -162.595683
9.335                0.854243083     -162.912539
9.336                0.854090306     -163.229686
9.337                0.853939414     -163.547119
9.338                0.853790419     -163.864835
9.339                 0.85364333     -164.182829
9.34                 0.853498159     -164.501096
9.341                0.853354916     -164.819632
9.342                0.853213611     -165.138432
9.343                0.853074254     -165.457492
9.344                0.852936855     -165.776807
9.345                0.852801425     -166.096373
9.346                0.852667973     -166.416184
9.347                0.852536508     -166.736237
9.348                 0.85240704     -167.056526
9.349                0.852279578     -167.377047
9.35                 0.852154132     -167.697795
9.351                 0.85203071     -168.018766
9.352                0.851909321     -168.339954
9.353                0.851789974     -168.661355
9.354                0.851672678     -168.982964
9.355                 0.85155744     -169.304776
9.356                0.851444269     -169.626787
9.357                0.851333173     -169.948991
9.358                 0.85122416     -170.271383
9.359                0.851117238      -170.59396
9.36                 0.851012413     -170.916715
9.361                0.850909694     -171.239643
9.362                0.850809088     -171.562741
9.363                0.850710601     -171.886002
9.364                0.850614241     -172.209423
9.365                0.850520014     -172.532997
9.366                0.850427927      -172.85672
9.367                0.850337986     -173.180587
9.368                0.850250197     -173.504593
9.369                0.850164566     -173.828732
9.37                 0.850081099        -174.153
9.371                0.849999801     -174.477392
9.372                0.849920679     -174.801902
9.373                0.849843737     -175.126525
9.374                 0.84976898     -175.451257
9.375                0.849696413     -175.776091
9.376                 0.84962604     -176.101024
9.377                0.849557867     -176.426049
9.378                0.849491898     -176.751162
9.379                0.849428136     -177.076357
9.38                 0.849366586      -177.40163
9.381                0.849307251     -177.726974
9.382                0.849250135     -178.052386
9.383                0.849195241     -178.377859
9.384                0.849142572     -178.703388
9.385                0.849092132     -179.028969
9.386                0.849043923     -179.354596
9.387                0.848997947     -179.680263
9.388                0.848954207      179.994034
9.389                0.848912705        179.6683
9.39                 0.848873443      179.342542
9.391                0.848836423      179.016764
9.392                0.848801647      178.690971
9.393                0.848769115      178.365169
9.394                0.848738829      178.039363
9.395                 0.84871079      177.713558
9.396                0.848684999      177.387759
