! TOUCHSTONE file generated by CST DESIGN STUDIO
! Date and time: Tue Feb  4 18:03:58 2025
! Project name: C:\Work\MatlabApps\UnitCellOptimizationMatlab\CST\unitcell.cst
! Tree item: Tasks\Sweep1\SPara1\S-Parameters
! Header version: 2024
! Port assignment regex: !\s*Touchstone port\s*([0-9]+)\s*=\s*(CST MWS port|CST DES external port|CST DES block port)\s*(.+)\s* \(\"(.*)\"\)(\s*mode\s*([0-9]+))?.*
! Touchstone port assignment:
! Touchstone port 1 = CST DES external port 1 ("")
# GHz S MA R 50
9                    0.948083192     -69.7394496
9.001                0.947942812     -69.8461362
9.002                0.947801962     -69.9530936
9.003                0.947660641     -70.0603228
9.004                0.947518847     -70.1678245
9.005                0.947376581     -70.2755998
9.006                0.947233839     -70.3836494
9.007                0.947090621     -70.4919744
9.008                0.946946927     -70.6005755
9.009                0.946802753     -70.7094538
9.01                   0.9466581     -70.8186101
9.011                0.946512965     -70.9280453
9.012                0.946367348     -71.0377604
9.013                0.946221247     -71.1477563
9.014                0.946074661     -71.2580339
9.015                0.945927589      -71.368594
9.016                 0.94578003     -71.4794378
9.017                0.945631981      -71.590566
9.018                0.945483442     -71.7019796
9.019                0.945334412     -71.8136796
9.02                  0.94518489     -71.9256668
9.021                0.945034873     -72.0379423
9.022                0.944884361      -72.150507
9.023                0.944733353     -72.2633618
9.024                0.944581847     -72.3765077
9.025                0.944429842     -72.4899456
9.026                0.944277337     -72.6036765
9.027                 0.94412433     -72.7177014
9.028                 0.94397082     -72.8320212
9.029                0.943816807     -72.9466368
9.03                 0.943662288     -73.0615493
9.031                0.943507263     -73.1767597
9.032                 0.94335173     -73.2922688
9.033                0.943195687     -73.4080777
9.034                0.943039135     -73.5241874
9.035                0.942882071     -73.6405988
9.036                0.942724494     -73.7573129
9.037                0.942566404     -73.8743308
9.038                0.942407798     -73.9916534
9.039                0.942248675     -74.1092816
9.04                 0.942089035     -74.2272166
9.041                0.941928877     -74.3454593
9.042                0.941768198     -74.4640107
9.043                0.941606997     -74.5828719
9.044                0.941445275     -74.7020438
9.045                0.941283028     -74.8215274
9.046                0.941120256     -74.9413238
9.047                0.940956959     -75.0614339
9.048                0.940793134     -75.1818589
9.049                 0.94062878     -75.3025997
9.05                 0.940463897     -75.4236574
9.051                0.940298483     -75.5450329
9.052                0.940132537     -75.6667274
9.053                0.939966057     -75.7887419
9.054                0.939799043     -75.9110773
9.055                0.939631494     -76.0337348
9.056                0.939463407     -76.1567154
9.057                0.939294783     -76.2800202
9.058                 0.93912562     -76.4036501
9.059                0.938955917     -76.5276063
9.06                 0.938785672     -76.6518897
9.061                0.938614885     -76.7765016
9.062                0.938443554     -76.9014429
9.063                0.938271679     -77.0267146
9.064                0.938099257      -77.152318
9.065                0.937926289      -77.278254
9.066                0.937752773     -77.4045236
9.067                0.937578708     -77.5311281
9.068                0.937404092     -77.6580685
9.069                0.937228925     -77.7853458
9.07                 0.937053206     -77.9129611
9.071                0.936876933     -78.0409156
9.072                0.936700106     -78.1692102
9.073                0.936522724     -78.2978462
9.074                0.936344784     -78.4268246
9.075                0.936166288     -78.5561466
9.076                0.935987232     -78.6858131
9.077                0.935807617     -78.8158253
9.078                0.935627441     -78.9461844
9.079                0.935446704     -79.0768914
9.08                 0.935265404     -79.2079475
9.081                 0.93508354     -79.3393538
9.082                0.934901112     -79.4711113
9.083                0.934718118     -79.6032212
9.084                0.934534557     -79.7356847
9.085                0.934350429     -79.8685028
9.086                0.934165733     -80.0016768
9.087                0.933980467     -80.1352076
9.088                0.933794631     -80.2690965
9.089                0.933608224     -80.4033446
9.09                 0.933421245     -80.5379531
9.091                0.933233692      -80.672923
9.092                0.933045566     -80.8082556
9.093                0.932856866     -80.9439519
9.094                0.932667589     -81.0800131
9.095                0.932477737     -81.2164404
9.096                0.932287307      -81.353235
9.097                0.932096299     -81.4903979
9.098                0.931904712     -81.6279304
9.099                0.931712545     -81.7658336
9.1                  0.931519799     -81.9041087
9.101                0.931326471     -82.0427568
9.102                0.931132561     -82.1817792
9.103                0.930938068     -82.3211769
9.104                0.930742992     -82.4609512
9.105                0.930547332     -82.6011033
9.106                0.930351087     -82.7416342
9.107                0.930154257     -82.8825453
9.108                 0.92995684     -83.0238376
9.109                0.929758837     -83.1655124
9.11                 0.929560246     -83.3075709
9.111                0.929361067     -83.4500142
9.112                0.929161299     -83.5928436
9.113                0.928960943     -83.7360602
9.114                0.928759996     -83.8796652
9.115                0.928558459     -84.0236599
9.116                 0.92835633     -84.1680454
9.117                0.928153611     -84.3128229
9.118                0.927950299     -84.4579937
9.119                0.927746395      -84.603559
9.12                 0.927541897     -84.7495199
9.121                0.927336807     -84.8958776
9.122                0.927131122     -85.0426335
9.123                0.926924843     -85.1897886
9.124                 0.92671797     -85.3373443
9.125                0.926510501     -85.4853017
9.126                0.926302437      -85.633662
9.127                0.926093777     -85.7824265
9.128                 0.92588452     -85.9315964
9.129                0.925674668      -86.081173
9.13                 0.925464218     -86.2311574
9.131                0.925253172     -86.3815508
9.132                0.925041528     -86.5323546
9.133                0.924829287     -86.6835699
9.134                0.924616448      -86.835198
9.135                0.924403011     -86.9872401
9.136                0.924188976     -87.1396975
9.137                0.923974343     -87.2925713
9.138                0.923759111     -87.4458629
9.139                0.923543281     -87.5995734
9.14                 0.923326853     -87.7537041
9.141                0.923109826     -87.9082563
9.142                  0.9228922     -88.0632311
9.143                0.922673976     -88.2186299
9.144                0.922455154     -88.3744539
9.145                0.922235733     -88.5307043
9.146                0.922015713     -88.6873824
9.147                0.921795096     -88.8444894
9.148                 0.92157388     -89.0020265
9.149                0.921352066     -89.1599951
9.15                 0.921129654     -89.3183964
9.151                0.920906644     -89.4772316
9.152                0.920683038      -89.636502
9.153                0.920458834     -89.7962088
9.154                0.920234033     -89.9563534
9.155                0.920008635     -90.1169368
9.156                0.919782642     -90.2779605
9.157                0.919556052     -90.4394256
9.158                0.919328867     -90.6013335
9.159                0.919101087     -90.7636853
9.16                 0.918872713     -90.9264824
9.161                0.918643744     -91.0897259
9.162                0.918414182     -91.2534172
9.163                0.918184027     -91.4175575
9.164                 0.91795328     -91.5821481
9.165                0.917721941     -91.7471902
9.166                0.917490011     -91.9126851
9.167                 0.91725749      -92.078634
9.168                 0.91702438     -92.2450382
9.169                 0.91679068      -92.411899
9.17                 0.916556393     -92.5792175
9.171                0.916321518     -92.7469952
9.172                0.916086056     -92.9152332
9.173                0.915850009     -93.0839327
9.174                0.915613378     -93.2530951
9.175                0.915376162     -93.4227216
9.176                0.915138364     -93.5928134
9.177                0.914899984     -93.7633719
9.178                0.914661024     -93.9343982
9.179                0.914421483     -94.1058936
9.18                 0.914181365     -94.2778594
9.181                0.913940669     -94.4502968
9.182                0.913699398      -94.623207
9.183                0.913457551     -94.7965914
9.184                0.913215131     -94.9704511
9.185                0.912972139     -95.1447874
9.186                0.912728576     -95.3196015
9.187                0.912484444     -95.4948948
9.188                0.912239745     -95.6706684
9.189                0.911994478     -95.8469235
9.19                 0.911748647     -96.0236615
9.191                0.911502253     -96.2008835
9.192                0.911255297     -96.3785907
9.193                0.911007782     -96.5567845
9.194                0.910759708      -96.735466
9.195                0.910511078     -96.9146365
9.196                0.910261893     -97.0942972
9.197                0.910012155     -97.2744493
9.198                0.909761867     -97.4550941
9.199                 0.90951103     -97.6362327
9.2                  0.909259645     -97.8178664
9.201                0.909007716     -97.9999963
9.202                0.908755244     -98.1826238
9.203                0.908502232       -98.36575
9.204                0.908248681     -98.5493761
9.205                0.907994594     -98.7335033
9.206                0.907739972     -98.9181328
9.207                 0.90748482     -99.1032658
9.208                0.907229138     -99.2889035
9.209                0.906972929     -99.4750471
9.21                 0.906716195     -99.6616978
9.211                 0.90645894     -99.8488568
9.212                0.906201166     -100.036525
9.213                0.905942875     -100.224704
9.214                0.905684071     -100.413395
9.215                0.905424755     -100.602599
9.216                0.905164931     -100.792316
9.217                0.904904601     -100.982549
9.218                0.904643769     -101.173299
9.219                0.904382437     -101.364566
9.22                 0.904120609     -101.556352
9.221                0.903858287     -101.748657
9.222                0.903595475     -101.941484
9.223                0.903332176     -102.134833
9.224                0.903068393     -102.328704
9.225                0.902804129     -102.523101
9.226                0.902539388     -102.718022
9.227                0.902274173     -102.913471
9.228                0.902008487     -103.109447
9.229                0.901742335     -103.305951
9.23                  0.90147572     -103.502986
9.231                0.901208646     -103.700552
9.232                0.900941115     -103.898649
9.233                0.900673133      -104.09728
9.234                0.900404702     -104.296445
9.235                0.900135827     -104.496145
9.236                0.899866512     -104.696381
9.237                0.899596761     -104.897155
9.238                0.899326578     -105.098467
9.239                0.899055967     -105.300318
9.24                 0.898784932      -105.50271
9.241                0.898513478     -105.705643
9.242                0.898241608     -105.909119
9.243                0.897969329     -106.113138
9.244                0.897696643     -106.317701
9.245                0.897423556      -106.52281
9.246                0.897150072     -106.728466
9.247                0.896876196     -106.934668
9.248                0.896601932     -107.141419
9.249                0.896327286      -107.34872
9.25                 0.896052263      -107.55657
9.251                0.895776866     -107.764972
9.252                0.895501103     -107.973926
9.253                0.895224977     -108.183433
9.254                0.894948494     -108.393493
9.255                0.894671658     -108.604109
9.256                0.894394477      -108.81528
9.257                0.894116954     -109.027008
9.258                0.893839095     -109.239293
9.259                0.893560906     -109.452137
9.26                 0.893282393      -109.66554
9.261                0.893003561     -109.879502
9.262                0.892724417     -110.094026
9.263                0.892444965     -110.309111
9.264                0.892165212     -110.524759
9.265                0.891885163      -110.74097
9.266                0.891604826     -110.957745
9.267                0.891324206     -111.175085
9.268                0.891043309      -111.39299
9.269                0.890762142     -111.611462
9.27                  0.89048071       -111.8305
9.271                0.890199022     -112.050107
9.272                0.889917082     -112.270282
9.273                0.889634898     -112.491026
9.274                0.889352477      -112.71234
9.275                0.889069825     -112.934224
9.276                0.888786949      -113.15668
9.277                0.888503856     -113.379707
9.278                0.888220553     -113.603307
9.279                0.887937047     -113.827481
9.28                 0.887653346     -114.052228
9.281                0.887369456     -114.277549
9.282                0.887085386     -114.503445
9.283                0.886801141     -114.729916
9.284                0.886516731     -114.956964
9.285                0.886232162     -115.184588
9.286                0.885947443     -115.412789
9.287                 0.88566258     -115.641568
9.288                0.885377582     -115.870925
9.289                0.885092457      -116.10086
9.29                 0.884807213     -116.331374
9.291                0.884521857     -116.562468
9.292                0.884236399     -116.794141
9.293                0.883950846     -117.026395
9.294                0.883665206      -117.25923
9.295                0.883379489     -117.492645
9.296                0.883093702     -117.726642
9.297                0.882807854      -117.96122
9.298                0.882521954     -118.196381
9.299                0.882236011     -118.432124
9.3                  0.881950033      -118.66845
9.301                0.881664029     -118.905359
9.302                0.881378009      -119.14285
9.303                0.881091981     -119.380926
9.304                0.880805955     -119.619584
9.305                 0.88051994     -119.858827
9.306                0.880233945     -120.098654
9.307                0.879947979     -120.339065
9.308                0.879662053      -120.58006
9.309                0.879376175      -120.82164
9.31                 0.879090356     -121.063804
9.311                0.878804606     -121.306553
9.312                0.878518933     -121.549886
9.313                0.878233348     -121.793804
9.314                0.877947861     -122.038307
9.315                0.877662482     -122.283395
9.316                0.877377222     -122.529067
9.317                 0.87709209     -122.775324
9.318                0.876807097     -123.022166
9.319                0.876522253     -123.269592
9.32                 0.876237569     -123.517603
9.321                0.875953055     -123.766198
9.322                0.875668723     -124.015377
9.323                0.875384582      -124.26514
9.324                0.875100644     -124.515486
9.325                 0.87481692     -124.766417
9.326                 0.87453342      -125.01793
9.327                0.874250156     -125.270027
9.328                0.873967138     -125.522706
9.329                0.873684379     -125.775968
9.33                 0.873401889     -126.029812
9.331                0.873119679     -126.284237
9.332                0.872837762     -126.539244
9.333                0.872556149     -126.794832
9.334                 0.87227485        -127.051
9.335                0.871993879     -127.307748
9.336                0.871713247     -127.565076
9.337                0.871432965     -127.822983
9.338                0.871153046     -128.081468
9.339                0.870873502     -128.340531
9.34                 0.870594344     -128.600172
9.341                0.870315585     -128.860389
9.342                0.870037237     -129.121182
9.343                0.869759312     -129.382551
9.344                0.869481823     -129.644494
9.345                0.869204782     -129.907011
9.346                0.868928202     -130.170102
9.347                0.868652094     -130.433765
9.348                0.868376473     -130.697999
9.349                 0.86810135     -130.962805
9.35                 0.867826738      -131.22818
9.351                 0.86755265     -131.494124
9.352                0.867279099     -131.760637
9.353                0.867006098     -132.027716
9.354                0.866733659     -132.295362
9.355                0.866461797     -132.563573
9.356                0.866190524     -132.832349
9.357                0.865919853     -133.101687
9.358                0.865649798     -133.371587
9.359                0.865380372     -133.642048
9.36                 0.865111588     -133.913069
9.361                 0.86484346     -134.184649
9.362                0.864576001     -134.456785
9.363                0.864309224     -134.729478
9.364                0.864043144     -135.002726
9.365                0.863777774     -135.276527
9.366                0.863513127     -135.550881
9.367                0.863249218     -135.825785
9.368                 0.86298606     -136.101239
9.369                0.862723667      -136.37724
9.37                 0.862462052     -136.653788
9.371                0.862201231     -136.930882
9.372                0.861941216     -137.208518
9.373                0.861682022     -137.486697
9.374                0.861423662     -137.765416
9.375                0.861166152     -138.044674
9.376                0.860909504     -138.324469
9.377                0.860653733     -138.604799
9.378                0.860398854     -138.885663
9.379                 0.86014488     -139.167059
9.38                 0.859891826     -139.448985
9.381                0.859639706      -139.73144
9.382                0.859388534     -140.014421
9.383                0.859138324     -140.297927
9.384                0.858889092     -140.581955
9.385                 0.85864085     -140.866505
9.386                0.858393615     -141.151573
9.387                0.858147399     -141.437158
9.388                0.857902218     -141.723257
9.389                0.857658087     -142.009869
9.39                 0.857415018     -142.296992
9.391                0.857173027     -142.584623
9.392                0.856932129     -142.872761
9.393                0.856692338     -143.161402
9.394                0.856453668     -143.450546
9.395                0.856216134     -143.740188
9.396                 0.85597975     -144.030328
