! TOUCHSTONE file generated by CST DESIGN STUDIO
! Date and time: Tue Feb  4 14:17:22 2025
! Project name: C:\Work\MatlabApps\UnitCellOptimizationMatlab\CST\unitcell.cst
! Tree item: Tasks\Sweep1\SPara1\S-Parameters
! Header version: 2024
! Port assignment regex: !\s*Touchstone port\s*([0-9]+)\s*=\s*(CST MWS port|CST DES external port|CST DES block port)\s*(.+)\s* \(\"(.*)\"\)(\s*mode\s*([0-9]+))?.*
! Touchstone port assignment:
! Touchstone port 1 = CST DES external port 1 ("")
# GHz S MA R 50
9                    0.965925232     -94.7690322
9.001                0.965649674     -94.9458139
9.002                 0.96537334       -95.12305
9.003                0.965096231     -95.3007417
9.004                0.964818349     -95.4788901
9.005                0.964539696     -95.6574964
9.006                0.964260273     -95.8365615
9.007                0.963980083     -96.0160868
9.008                0.963699127     -96.1960732
9.009                0.963417408     -96.3765219
9.01                 0.963134928     -96.5574341
9.011                0.962851688     -96.7388107
9.012                0.962567692     -96.9206531
9.013                 0.96228294     -97.1029621
9.014                0.961997436     -97.2857391
9.015                0.961711182      -97.468985
9.016                0.961424179      -97.652701
9.017                0.961136432     -97.8368881
9.018                0.960847941     -98.0215476
9.019                 0.96055871     -98.2066803
9.02                 0.960268741     -98.3922876
9.021                0.959978036     -98.5783704
9.022                0.959686599     -98.7649298
9.023                0.959394432     -98.9519669
9.024                0.959101538     -99.1394828
9.025                 0.95880792     -99.3274785
9.026                0.958513581     -99.5159552
9.027                0.958218523     -99.7049139
9.028                 0.95792275     -99.8943557
9.029                0.957626265     -100.084282
9.03                  0.95732907     -100.274693
9.031                 0.95703117      -100.46559
9.032                0.956732566     -100.656975
9.033                0.956433264     -100.848848
9.034                0.956133265      -101.04121
9.035                0.955832574     -101.234063
9.036                0.955531193     -101.427407
9.037                0.955229127     -101.621244
9.038                0.954926379     -101.815574
9.039                0.954622953     -102.010399
9.04                 0.954318852     -102.205719
9.041                 0.95401408     -102.401536
9.042                0.953708642      -102.59785
9.043                 0.95340254     -102.794664
9.044                0.953095779     -102.991976
9.045                0.952788363     -103.189789
9.046                0.952480297     -103.388104
9.047                0.952171583     -103.586921
9.048                0.951862227     -103.786242
9.049                0.951552233     -103.986067
9.05                 0.951241605     -104.186397
9.051                0.950930348     -104.387234
9.052                0.950618466     -104.588578
9.053                0.950305964     -104.790431
9.054                0.949992846     -104.992793
9.055                0.949679117     -105.195664
9.056                0.949364782     -105.399047
9.057                0.949049846     -105.602942
9.058                0.948734313      -105.80735
9.059                0.948418189     -106.012271
9.06                 0.948101479     -106.217708
9.061                0.947784188      -106.42366
9.062                 0.94746632     -106.630128
9.063                0.947147882     -106.837113
9.064                0.946828879     -107.044617
9.065                0.946509316      -107.25264
9.066                0.946189199     -107.461183
9.067                0.945868533     -107.670246
9.068                0.945547323     -107.879831
9.069                0.945225577     -108.089939
9.07                 0.944903298      -108.30057
9.071                0.944580494     -108.511724
9.072                0.944257171     -108.723404
9.073                0.943933333     -108.935609
9.074                0.943608988     -109.148341
9.075                0.943284142       -109.3616
9.076                  0.9429588     -109.575386
9.077                 0.94263297     -109.789702
9.078                0.942306657     -110.004547
9.079                0.941979869     -110.219922
9.08                 0.941652611     -110.435828
9.081                0.941324891     -110.652266
9.082                0.940996714     -110.869236
9.083                0.940668089     -111.086739
9.084                0.940339021     -111.304776
9.085                0.940009518     -111.523347
9.086                0.939679588     -111.742453
9.087                0.939349236     -111.962095
9.088                 0.93901847     -112.182274
9.089                0.938687298     -112.402989
9.09                 0.938355727     -112.624242
9.091                0.938023765     -112.846033
9.092                0.937691418     -113.068363
9.093                0.937358696     -113.291232
9.094                0.937025604     -113.514641
9.095                0.936692152     -113.738591
9.096                0.936358347     -113.963082
9.097                0.936024197     -114.188115
9.098                 0.93568971     -114.413689
9.099                0.935354894     -114.639806
9.1                  0.935019758     -114.866467
9.101                 0.93468431     -115.093671
9.102                0.934348558     -115.321419
9.103                0.934012511     -115.549711
9.104                0.933676177     -115.778549
9.105                0.933339566     -116.007931
9.106                0.933002685      -116.23786
9.107                0.932665544     -116.468335
9.108                0.932328151     -116.699357
9.109                0.931990516     -116.930925
9.11                 0.931652647     -117.163041
9.111                0.931314554     -117.395704
9.112                0.930976247     -117.628916
9.113                0.930637733     -117.862676
9.114                0.930299024     -118.096984
9.115                0.929960129     -118.331841
9.116                0.929621056     -118.567248
9.117                0.929281816     -118.803203
9.118                0.928942419     -119.039709
9.119                0.928602874     -119.276764
9.12                 0.928263192     -119.514369
9.121                0.927923382     -119.752524
9.122                0.927583455      -119.99123
9.123                0.927243421     -120.230486
9.124                 0.92690329     -120.470293
9.125                0.926563072     -120.710651
9.126                0.926222779      -120.95156
9.127                0.925882421     -121.193019
9.128                0.925542008     -121.435029
9.129                0.925201551     -121.677591
9.13                 0.924861061     -121.920703
9.131                0.924520549     -122.164367
9.132                0.924180026     -122.408582
9.133                0.923839503     -122.653347
9.134                0.923498991     -122.898664
9.135                0.923158502     -123.144531
9.136                0.922818046      -123.39095
9.137                0.922477636     -123.637918
9.138                0.922137283     -123.885438
9.139                0.921796998     -124.133508
9.14                 0.921456794     -124.382128
9.141                0.921116681     -124.631298
9.142                0.920776672     -124.881018
9.143                0.920436779     -125.131287
9.144                0.920097014     -125.382106
9.145                0.919757389     -125.633474
9.146                0.919417915      -125.88539
9.147                0.919078607     -126.137855
9.148                0.918739474     -126.390868
9.149                0.918400532     -126.644429
9.15                  0.91806179     -126.898537
9.151                0.917723263     -127.153192
9.152                0.917384963     -127.408393
9.153                0.917046903     -127.664141
9.154                0.916709096     -127.920434
9.155                0.916371554     -128.177272
9.156                 0.91603429     -128.434655
9.157                0.915697318     -128.692581
9.158                 0.91536065     -128.951052
9.159                0.915024301     -129.210065
9.16                 0.914688282      -129.46962
9.161                0.914352609     -129.729716
9.162                0.914017293     -129.990354
9.163                0.913682349     -130.251532
9.164                0.913347789     -130.513249
9.165                0.913013629     -130.775506
9.166                0.912679881       -131.0383
9.167                0.912346559     -131.301631
9.168                0.912013677     -131.565499
9.169                 0.91168125     -131.829902
9.17                  0.91134929      -132.09484
9.171                0.911017812     -132.360312
9.172                0.910686831     -132.626317
9.173                 0.91035636     -132.892854
9.174                0.910026413     -133.159921
9.175                0.909697005     -133.427519
9.176                0.909368151     -133.695646
9.177                0.909039864       -133.9643
9.178                0.908712159     -134.233482
9.179                0.908385052     -134.503189
9.18                 0.908058555      -134.77342
9.181                0.907732684     -135.044176
9.182                0.907407454     -135.315453
9.183                0.907082879     -135.587251
9.184                0.906758975      -135.85957
9.185                0.906435755     -136.132407
9.186                0.906113236     -136.405761
9.187                0.905791431     -136.679631
9.188                0.905470356     -136.954015
9.189                0.905150026     -137.228913
9.19                 0.904830456     -137.504322
9.191                0.904511662     -137.780242
9.192                0.904193657     -138.056671
9.193                0.903876458     -138.333607
9.194                 0.90356008     -138.611049
9.195                0.903244537     -138.888995
9.196                0.902929846     -139.167444
9.197                0.902616022     -139.446394
9.198                 0.90230308     -139.725843
9.199                0.901991035      -140.00579
9.2                  0.901679903     -140.286234
9.201                0.901369699     -140.567171
9.202                0.901060439     -140.848601
9.203                0.900752139     -141.130522
9.204                0.900444813     -141.412932
9.205                0.900138478     -141.695829
9.206                0.899833148     -141.979212
9.207                0.899528841     -142.263077
9.208                 0.89922557     -142.547425
9.209                0.898923352     -142.832251
9.21                 0.898622203     -143.117555
9.211                0.898322137     -143.403334
9.212                0.898023171     -143.689587
9.213                0.897725321      -143.97631
9.214                0.897428601     -144.263503
9.215                0.897133029     -144.551163
9.216                0.896838618     -144.839287
9.217                0.896545385     -145.127875
9.218                0.896253346     -145.416922
9.219                0.895962517     -145.706427
9.22                 0.895672912     -145.996388
9.221                0.895384547     -146.286803
9.222                0.895097439     -146.577668
9.223                0.894811602     -146.868982
9.224                0.894527053     -147.160742
9.225                0.894243807     -147.452945
9.226                0.893961879      -147.74559
9.227                0.893681285     -148.038674
9.228                 0.89340204     -148.332193
9.229                0.893124161     -148.626146
9.23                 0.892847662      -148.92053
9.231                0.892572559     -149.215342
9.232                0.892298867      -149.51058
9.233                0.892026601     -149.806241
9.234                0.891755778     -150.102321
9.235                0.891486411     -150.398819
9.236                0.891218518     -150.695732
9.237                0.890952111     -150.993056
9.238                0.890687208     -151.290788
9.239                0.890423823     -151.588927
9.24                  0.89016197     -151.887469
9.241                0.889901666     -152.186411
9.242                0.889642924     -152.485749
9.243                 0.88938576     -152.785482
9.244                0.889130189     -153.085606
9.245                0.888876226     -153.386117
9.246                0.888623884     -153.687013
9.247                 0.88837318     -153.988291
9.248                0.888124127     -154.289948
9.249                0.887876739     -154.591979
9.25                 0.887631033     -154.894383
9.251                 0.88738702     -155.197155
9.252                0.887144717     -155.500293
9.253                0.886904138     -155.803793
9.254                0.886665295     -156.107652
9.255                0.886428204     -156.411866
9.256                0.886192878     -156.716432
9.257                0.885959332     -157.021347
9.258                0.885727579     -157.326607
9.259                0.885497632     -157.632208
9.26                 0.885269506     -157.938148
9.261                0.885043214     -158.244422
9.262                0.884818769     -158.551027
9.263                0.884596184      -158.85796
9.264                0.884375474     -159.165216
9.265                 0.88415665     -159.472793
9.266                0.883939726     -159.780686
9.267                0.883724715     -160.088892
9.268                0.883511629     -160.397406
9.269                0.883300482     -160.706226
9.27                 0.883091285     -161.015347
9.271                0.882884052     -161.324766
9.272                0.882678793     -161.634479
9.273                0.882475523     -161.944481
9.274                0.882274252      -162.25477
9.275                0.882074993     -162.565341
9.276                0.881877757      -162.87619
9.277                0.881682556     -163.187313
9.278                0.881489401     -163.498706
9.279                0.881298305     -163.810365
9.28                 0.881109277     -164.122287
9.281                 0.88092233     -164.434466
9.282                0.880737475       -164.7469
9.283                0.880554721     -165.059583
9.284                 0.88037408     -165.372513
9.285                0.880195563     -165.685684
9.286                0.880019179     -165.999092
9.287                0.879844939     -166.312734
9.288                0.879672853     -166.626604
9.289                0.879502932       -166.9407
9.29                 0.879335183     -167.255015
9.291                0.879169619     -167.569548
9.292                0.879006247     -167.884292
9.293                0.878845077     -168.199244
9.294                0.878686118     -168.514399
9.295                 0.87852938     -168.829753
9.296                 0.87837487     -169.145301
9.297                0.878222598      -169.46104
9.298                0.878072572     -169.776964
9.299                0.877924801      -170.09307
9.3                  0.877779292     -170.409353
9.301                0.877636053     -170.725808
9.302                0.877495092     -171.042431
9.303                0.877356417     -171.359218
9.304                0.877220036     -171.676163
9.305                0.877085954     -171.993263
9.306                 0.87695418     -172.310513
9.307                 0.87682472     -172.627908
9.308                0.876697581     -172.945444
9.309                0.876572769     -173.263116
9.31                  0.87645029      -173.58092
9.311                0.876330152      -173.89885
9.312                0.876212359     -174.216903
9.313                0.876096917     -174.535074
9.314                0.875983833     -174.853357
9.315                 0.87587311     -175.171749
9.316                0.875764755     -175.490245
9.317                0.875658773      -175.80884
9.318                0.875555167     -176.127529
9.319                0.875453943     -176.446308
9.32                 0.875355105     -176.765172
9.321                0.875258657     -177.084116
9.322                0.875164603     -177.403136
9.323                0.875072947     -177.722226
9.324                0.874983692     -178.041383
9.325                0.874896842     -178.360601
9.326                  0.8748124     -178.679875
9.327                0.874730369     -178.999201
9.328                0.874650751     -179.318575
9.329                 0.87457355      -179.63799
9.33                 0.874498767     -179.957443
9.331                0.874426404      179.723071
9.332                0.874356465      179.403557
9.333                0.874288949       179.08402
9.334                0.874223859      178.764465
9.335                0.874161196      178.444896
9.336                0.874100962      178.125319
9.337                0.874043156      177.805737
9.338                0.873987781      177.486156
9.339                0.873934835      177.166581
9.34                 0.873884321      176.847016
9.341                0.873836236      176.527466
9.342                0.873790583      176.207937
9.343                0.873747359      175.888432
9.344                0.873706565      175.568956
9.345                  0.8736682      175.249515
9.346                0.873632263      174.930113
9.347                0.873598752      174.610755
9.348                0.873567667      174.291446
9.349                0.873539006       173.97219
9.35                 0.873512766      173.652993
9.351                0.873488947      173.333858
9.352                0.873467546      173.014791
9.353                 0.87344856      172.695797
9.354                0.873431986       172.37688
9.355                0.873417823      172.058045
9.356                0.873406067      171.739297
9.357                0.873396715       171.42064
9.358                0.873389764      171.102079
9.359                0.873385209       170.78362
9.36                 0.873383047      170.465265
9.361                0.873383275      170.147022
9.362                0.873385888      169.828893
9.363                0.873390881      169.510884
9.364                 0.87339825      169.192999
9.365                 0.87340799      168.875243
9.366                0.873420096      168.557621
9.367                0.873434564      168.240137
9.368                0.873451387      167.922796
9.369                0.873470561      167.605602
9.37                 0.873492079      167.288561
9.371                0.873515935      166.971676
9.372                0.873542125      166.654952
9.373                 0.87357064      166.338395
9.374                0.873601475      166.022007
9.375                0.873634623      165.705794
9.376                0.873670078      165.389761
9.377                0.873707832      165.073911
9.378                0.873747878      164.758249
9.379                0.873790209      164.442781
9.38                 0.873834816      164.127509
9.381                0.873881694      163.812439
9.382                0.873930833      163.497575
9.383                0.873982226      163.182922
9.384                0.874035864      162.868483
9.385                0.874091739      162.554263
9.386                0.874149843      162.240267
9.387                0.874210166      161.926499
9.388                0.874272701      161.612962
9.389                0.874337437      161.299662
9.39                 0.874404366      160.986602
9.391                0.874473478      160.673787
9.392                0.874544764      160.361222
9.393                0.874618215      160.048909
9.394                0.874693819      159.736853
9.395                0.874771569       159.42506
9.396                0.874851452      159.113531
