! TOUCHSTONE file generated by CST DESIGN STUDIO
! Date and time: Tue Feb  4 14:17:39 2025
! Project name: C:\Work\MatlabApps\UnitCellOptimizationMatlab\CST\unitcell.cst
! Tree item: Tasks\Sweep1\SPara1\S-Parameters
! Header version: 2024
! Port assignment regex: !\s*Touchstone port\s*([0-9]+)\s*=\s*(CST MWS port|CST DES external port|CST DES block port)\s*(.+)\s* \(\"(.*)\"\)(\s*mode\s*([0-9]+))?.*
! Touchstone port assignment:
! Touchstone port 1 = CST DES external port 1 ("")
# GHz S MA R 50
9                    0.968652709     -57.0822376
9.001                0.968532364     -57.1594502
9.002                0.968411812     -57.2368272
9.003                0.968291052      -57.314369
9.004                0.968170087     -57.3920762
9.005                0.968048914     -57.4699495
9.006                0.967927536     -57.5479893
9.007                0.967805951     -57.6261963
9.008                0.967684161      -57.704571
9.009                0.967562165      -57.783114
9.01                 0.967439963     -57.8618259
9.011                0.967317557     -57.9407074
9.012                0.967194945     -58.0197589
9.013                0.967072129      -58.098981
9.014                0.966949108     -58.1783744
9.015                0.966825883     -58.2579397
9.016                0.966702454     -58.3376775
9.017                 0.96657882     -58.4175882
9.018                0.966454983     -58.4976727
9.019                0.966330942     -58.5779314
9.02                 0.966206698      -58.658365
9.021                0.966082251      -58.738974
9.022                0.965957601     -58.8197592
9.023                0.965832748     -58.9007211
9.024                0.965707692     -58.9818603
9.025                0.965582434     -59.0631774
9.026                0.965456973     -59.1446731
9.027                0.965331311      -59.226348
9.028                0.965205446     -59.3082028
9.029                 0.96507938      -59.390238
9.03                 0.964953113     -59.4724542
9.031                0.964826643     -59.5548523
9.032                0.964699973     -59.6374326
9.033                0.964573102      -59.720196
9.034                0.964446029      -59.803143
9.035                0.964318756     -59.8862743
9.036                0.964191283     -59.9695906
9.037                0.964063609     -60.0530924
9.038                0.963935735     -60.1367805
9.039                 0.96380766     -60.2206555
9.04                 0.963679386     -60.3047181
9.041                0.963550912     -60.3889689
9.042                0.963422239     -60.4734085
9.043                0.963293366     -60.5580377
9.044                0.963164293     -60.6428572
9.045                0.963035022     -60.7278675
9.046                0.962905551     -60.8130694
9.047                0.962775882     -60.8984636
9.048                0.962646014     -60.9840507
9.049                0.962515947     -61.0698314
9.05                 0.962385681     -61.1558064
9.051                0.962255218     -61.2419764
9.052                0.962124556      -61.328342
9.053                0.961993696     -61.4149041
9.054                0.961862638     -61.5016632
9.055                0.961731383       -61.58862
9.056                0.961599929     -61.6757754
9.057                0.961468278     -61.7631299
9.058                 0.96133643     -61.8506843
9.059                0.961204384     -61.9384392
9.06                 0.961072141     -62.0263955
9.061                0.960939701     -62.1145538
9.062                0.960807065     -62.2029149
9.063                0.960674231     -62.2914794
9.064                  0.9605412      -62.380248
9.065                0.960407973     -62.4692216
9.066                0.960274549     -62.5584009
9.067                0.960140929     -62.6477865
9.068                0.960007112     -62.7373792
9.069                0.959873099     -62.8271798
9.07                  0.95973889      -62.917189
9.071                0.959604485     -63.0074075
9.072                0.959469884      -63.097836
9.073                0.959335088     -63.1884754
9.074                0.959200095     -63.2793264
9.075                0.959064907     -63.3703898
9.076                0.958929523     -63.4616662
9.077                0.958793944     -63.5531565
9.078                0.958658169     -63.6448614
9.079                0.958522199     -63.7367817
9.08                 0.958386033     -63.8289182
9.081                0.958249673     -63.9212716
9.082                0.958113117     -64.0138427
9.083                0.957976367     -64.1066324
9.084                0.957839421     -64.1996413
9.085                0.957702281     -64.2928702
9.086                0.957564945       -64.38632
9.087                0.957427415     -64.4799914
9.088                0.957289691     -64.5738853
9.089                0.957151771     -64.6680024
9.09                 0.957013658     -64.7623436
9.091                0.956875349     -64.8569095
9.092                0.956736846     -64.9517011
9.093                0.956598149     -65.0467192
9.094                0.956459258     -65.1419645
9.095                0.956320172     -65.2374379
9.096                0.956180892     -65.3331402
9.097                0.956041418     -65.4290722
9.098                 0.95590175     -65.5252348
9.099                0.955761888     -65.6216287
9.1                  0.955621832     -65.7182548
9.101                0.955481582      -65.815114
9.102                0.955341138      -65.912207
9.103                  0.9552005     -66.0095348
9.104                0.955059668     -66.1070981
9.105                0.954918643     -66.2048978
9.106                0.954777424     -66.3029347
9.107                0.954636011     -66.4012098
9.108                0.954494404     -66.4997238
9.109                0.954352604     -66.5984776
9.11                  0.95421061     -66.6974721
9.111                0.954068423     -66.7967082
9.112                0.953926042     -66.8961867
9.113                0.953783468     -66.9959084
9.114                  0.9536407     -67.0958743
9.115                0.953497739     -67.1960853
9.116                0.953354584     -67.2965422
9.117                0.953211236     -67.3972459
9.118                0.953067694     -67.4981972
9.119                0.952923959     -67.5993972
9.12                 0.952780031     -67.7008466
9.121                 0.95263591     -67.8025464
9.122                0.952491595     -67.9044975
9.123                0.952347087     -68.0067008
9.124                0.952202386     -68.1091571
9.125                0.952057492     -68.2118674
9.126                0.951912404     -68.3148327
9.127                0.951767123     -68.4180537
9.128                 0.95162165     -68.5215316
9.129                0.951475983      -68.625267
9.13                 0.951330122     -68.7292611
9.131                0.951184069     -68.8335147
9.132                0.951037823     -68.9380288
9.133                0.950891383     -69.0428042
9.134                0.950744751      -69.147842
9.135                0.950597925     -69.2531431
9.136                0.950450906     -69.3587084
9.137                0.950303695     -69.4645388
9.138                 0.95015629     -69.5706354
9.139                0.950008692     -69.6769991
9.14                 0.949860902     -69.7836308
9.141                0.949712918     -69.8905315
9.142                0.949564741     -69.9977021
9.143                0.949416371     -70.1051438
9.144                0.949267809     -70.2128573
9.145                0.949119053     -70.3208437
9.146                0.948970105      -70.429104
9.147                0.948820963     -70.5376391
9.148                0.948671629     -70.6464501
9.149                0.948522102     -70.7555379
9.15                 0.948372382     -70.8649035
9.151                0.948222469      -70.974548
9.152                0.948072363     -71.0844722
9.153                0.947922064     -71.1946773
9.154                0.947771572     -71.3051642
9.155                0.947620888     -71.4159339
9.156                0.947470011     -71.5269875
9.157                0.947318941     -71.6383259
9.158                0.947167678     -71.7499503
9.159                0.947016223     -71.8618615
9.16                 0.946864574     -71.9740607
9.161                0.946712733     -72.0865488
9.162                  0.9465607      -72.199327
9.163                0.946408473     -72.3123962
9.164                0.946256054     -72.4257574
9.165                0.946103442     -72.5394118
9.166                0.945950638     -72.6533603
9.167                0.945797641     -72.7676041
9.168                0.945644452     -72.8821441
9.169                 0.94549107     -72.9969815
9.17                 0.945337495     -73.1121172
9.171                0.945183728     -73.2275524
9.172                0.945029769     -73.3432882
9.173                0.944875617     -73.4593255
9.174                0.944721273     -73.5756655
9.175                0.944566736     -73.6923092
9.176                0.944412007     -73.8092577
9.177                0.944257086     -73.9265122
9.178                0.944101973     -74.0440737
9.179                0.943946667     -74.1619432
9.18                 0.943791169      -74.280122
9.181                 0.94363548      -74.398611
9.182                0.943479598     -74.5174114
9.183                0.943323524     -74.6365243
9.184                0.943167259     -74.7559508
9.185                0.943010801      -74.875692
9.186                0.942854152      -74.995749
9.187                0.942697311      -75.116123
9.188                0.942540278      -75.236815
9.189                0.942383054     -75.3578262
9.19                 0.942225639     -75.4791578
9.191                0.942068032     -75.6008108
9.192                0.941910233     -75.7227863
9.193                0.941752244     -75.8450856
9.194                0.941594063     -75.9677098
9.195                0.941435691       -76.09066
9.196                0.941277128     -76.2139373
9.197                0.941118374     -76.3375429
9.198                 0.94095943     -76.4614781
9.199                0.940800295     -76.5857438
9.2                  0.940640969     -76.7103413
9.201                0.940481453     -76.8352718
9.202                0.940321747     -76.9605364
9.203                 0.94016185     -77.0861363
9.204                0.940001763     -77.2120726
9.205                0.939841486     -77.3383467
9.206                 0.93968102     -77.4649595
9.207                0.939520364     -77.5919123
9.208                0.939359518     -77.7192064
9.209                0.939198483     -77.8468428
9.21                 0.939037259     -77.9748229
9.211                0.938875846     -78.1031477
9.212                0.938714244     -78.2318185
9.213                0.938552453     -78.3608365
9.214                0.938390474     -78.4902029
9.215                0.938228306     -78.6199189
9.216                0.938065951     -78.7499857
9.217                0.937903407     -78.8804046
9.218                0.937740676     -79.0111767
9.219                0.937577757     -79.1423033
9.22                 0.937414651     -79.2737857
9.221                0.937251357     -79.4056249
9.222                0.937087877     -79.5378224
9.223                 0.93692421     -79.6703793
9.224                0.936760357     -79.8032968
9.225                0.936596318     -79.9365761
9.226                0.936432093     -80.0702187
9.227                0.936267682     -80.2042256
9.228                0.936103086     -80.3385981
9.229                0.935938304     -80.4733376
9.23                 0.935773338     -80.6084452
9.231                0.935608188     -80.7439222
9.232                0.935442853     -80.8797698
9.233                0.935277335     -81.0159894
9.234                0.935111632     -81.1525822
9.235                0.934945747     -81.2895495
9.236                0.934779679     -81.4268925
9.237                0.934613428     -81.5646126
9.238                0.934446995      -81.702711
9.239                 0.93428038     -81.8411889
9.24                 0.934113584     -81.9800477
9.241                0.933946606     -82.1192887
9.242                0.933779448     -82.2589132
9.243                 0.93361211     -82.3989224
9.244                0.933444592     -82.5393177
9.245                0.933276894     -82.6801003
9.246                0.933109017     -82.8212715
9.247                0.932940962     -82.9628328
9.248                0.932772728     -83.1047852
9.249                0.932604317     -83.2471303
9.25                 0.932435728     -83.3898692
9.251                0.932266963     -83.5330034
9.252                0.932098021      -83.676534
9.253                0.931928904     -83.8204625
9.254                0.931759612     -83.9647902
9.255                0.931590144     -84.1095183
9.256                0.931420503     -84.2546483
9.257                0.931250688     -84.4001814
9.258                  0.9310807     -84.5461189
9.259                0.930910539     -84.6924623
9.26                 0.930740207     -84.8392128
9.261                0.930569703     -84.9863719
9.262                0.930399029     -85.1339407
9.263                0.930228185     -85.2819207
9.264                0.930057171     -85.4303132
9.265                0.929885988     -85.5791196
9.266                0.929714638     -85.7283412
9.267                 0.92954312     -85.8779794
9.268                0.929371435     -86.0280355
9.269                0.929199584     -86.1785108
9.27                 0.929027568     -86.3294068
9.271                0.928855387     -86.4807248
9.272                0.928683043     -86.6324661
9.273                0.928510536     -86.7846321
9.274                0.928337866     -86.9372243
9.275                0.928165035     -87.0902438
9.276                0.927992043     -87.2436922
9.277                0.927818892     -87.3975708
9.278                0.927645582     -87.5518809
9.279                0.927472113     -87.7066239
9.28                 0.927298488     -87.8618012
9.281                0.927124706     -88.0174142
9.282                0.926950768     -88.1734643
9.283                0.926776677     -88.3299528
9.284                0.926602431     -88.4868811
9.285                0.926428034     -88.6442506
9.286                0.926253484     -88.8020627
9.287                0.926078784     -88.9603187
9.288                0.925903935     -89.1190201
9.289                0.925728937     -89.2781682
9.29                 0.925553792     -89.4377644
9.291                  0.9253785     -89.5978102
9.292                0.925203063     -89.7583068
9.293                0.925027482     -89.9192557
9.294                0.924851758     -90.0806582
9.295                0.924675892     -90.2425159
9.296                0.924499885     -90.4048299
9.297                0.924323739     -90.5676018
9.298                0.924147455      -90.730833
9.299                0.923971033     -90.8945248
9.3                  0.923794476     -91.0586786
9.301                0.923617784     -91.2232958
9.302                0.923440959     -91.3883778
9.303                0.923264003     -91.5539261
9.304                0.923086916     -91.7199419
9.305                0.922909699     -91.8864267
9.306                0.922732355      -92.053382
9.307                0.922554885      -92.220809
9.308                0.922377289     -92.3887091
9.309                 0.92219957     -92.5570839
9.31                  0.92202173     -92.7259346
9.311                0.921843768     -92.8952626
9.312                0.921665688     -93.0650694
9.313                0.921487491     -93.2353564
9.314                0.921309177     -93.4061249
9.315                 0.92113075     -93.5773763
9.316                 0.92095221      -93.749112
9.317                0.920773559     -93.9213335
9.318                0.920594799      -94.094042
9.319                0.920415932      -94.267239
9.32                 0.920236958     -94.4409259
9.321                0.920057881      -94.615104
9.322                0.919878702     -94.7897748
9.323                0.919699422     -94.9649396
9.324                0.919520043     -95.1405998
9.325                0.919340568     -95.3167568
9.326                0.919160998      -95.493412
9.327                0.918981336     -95.6705667
9.328                0.918801582     -95.8482223
9.329                0.918621739     -96.0263802
9.33                  0.91844181     -96.2050418
9.331                0.918261796     -96.3842084
9.332                0.918081699     -96.5638814
9.333                0.917901521     -96.7440621
9.334                0.917721265      -96.924752
9.335                0.917540932     -97.1059524
9.336                0.917360526     -97.2876646
9.337                0.917180047       -97.46989
9.338                0.916999499       -97.65263
9.339                0.916818883     -97.8358859
9.34                 0.916638202      -98.019659
9.341                0.916457458     -98.2039508
9.342                0.916276654     -98.3887624
9.343                0.916095792     -98.5740954
9.344                0.915914875     -98.7599509
9.345                0.915733905     -98.9463304
9.346                0.915552884     -99.1332351
9.347                0.915371815     -99.3206664
9.348                0.915190701     -99.5086256
9.349                0.915009544     -99.6971141
9.35                 0.914828347     -99.8861331
9.351                0.914647112     -100.075684
9.352                0.914465843     -100.265768
9.353                0.914284542     -100.456386
9.354                0.914103212      -100.64754
9.355                0.913921856     -100.839232
9.356                0.913740476     -101.031461
9.357                0.913559076      -101.22423
9.358                0.913377658      -101.41754
9.359                0.913196225     -101.611392
9.36                 0.913014781     -101.805787
9.361                0.912833329     -102.000727
9.362                0.912651871     -102.196213
9.363                 0.91247041     -102.392247
9.364                0.912288951     -102.588828
9.365                0.912107495     -102.785959
9.366                0.911926047     -102.983641
9.367                 0.91174461     -103.181875
9.368                0.911563186     -103.380663
9.369                 0.91138178     -103.580005
9.37                 0.911200394     -103.779902
9.371                0.911019033     -103.980357
9.372                0.910837699     -104.181369
9.373                0.910656396     -104.382941
9.374                0.910475128     -104.585073
9.375                0.910293898     -104.787767
9.376                 0.91011271     -104.991024
9.377                0.909931568     -105.194844
9.378                0.909750475      -105.39923
9.379                0.909569436     -105.604182
9.38                 0.909388453     -105.809701
9.381                0.909207531     -106.015788
9.382                0.909026674     -106.222445
9.383                0.908845886     -106.429673
9.384                 0.90866517     -106.637473
9.385                0.908484531     -106.845845
9.386                0.908303973     -107.054791
9.387                0.908123499     -107.264313
9.388                0.907943115      -107.47441
9.389                0.907762824     -107.685084
9.39                  0.90758263     -107.896336
9.391                0.907402539     -108.108168
9.392                0.907222553     -108.320579
9.393                0.907042678     -108.533572
9.394                0.906862918     -108.747147
9.395                0.906683278     -108.961305
9.396                0.906503761     -109.176047
