! TOUCHSTONE file generated by CST DESIGN STUDIO
! Date and time: Tue Feb  4 14:17:27 2025
! Project name: C:\Work\MatlabApps\UnitCellOptimizationMatlab\CST\unitcell.cst
! Tree item: Tasks\Sweep1\SPara1\S-Parameters
! Header version: 2024
! Port assignment regex: !\s*Touchstone port\s*([0-9]+)\s*=\s*(CST MWS port|CST DES external port|CST DES block port)\s*(.+)\s* \(\"(.*)\"\)(\s*mode\s*([0-9]+))?.*
! Touchstone port assignment:
! Touchstone port 1 = CST DES external port 1 ("")
# GHz S MA R 50
9                    0.965461992      -83.009093
9.001                0.965241729     -83.1516112
9.002                0.965020729     -83.2944854
9.003                0.964798994     -83.4377169
9.004                0.964576525     -83.5813066
9.005                0.964353321     -83.7252555
9.006                0.964129385     -83.8695648
9.007                0.963904716     -84.0142356
9.008                0.963679316     -84.1592688
9.009                0.963453186     -84.3046656
9.01                 0.963226326     -84.4504271
9.011                0.962998738     -84.5965543
9.012                0.962770423     -84.7430483
9.013                0.962541382     -84.8899102
9.014                0.962311615     -85.0371411
9.015                0.962081125     -85.1847421
9.016                0.961849911     -85.3327142
9.017                0.961617975     -85.4810586
9.018                0.961385319     -85.6297763
9.019                0.961151943     -85.7788685
9.02                 0.960917849     -85.9283363
9.021                0.960683037     -86.0781806
9.022                 0.96044751     -86.2284028
9.023                0.960211268     -86.3790037
9.024                0.959974313     -86.5299847
9.025                0.959736646     -86.6813467
9.026                0.959498268     -86.8330908
9.027                0.959259181     -86.9852183
9.028                0.959019386     -87.1377302
9.029                0.958778886     -87.2906275
9.03                  0.95853768     -87.4439115
9.031                0.958295771     -87.5975833
9.032                 0.95805316     -87.7516439
9.033                0.957809848     -87.9060945
9.034                0.957565838     -88.0609362
9.035                0.957321131     -88.2161701
9.036                0.957075729     -88.3717974
9.037                0.956829633     -88.5278191
9.038                0.956582845     -88.6842365
9.039                0.956335366     -88.8410507
9.04                 0.956087199     -88.9982627
9.041                0.955838345     -89.1558737
9.042                0.955588806     -89.3138848
9.043                0.955338585     -89.4722972
9.044                0.955087681     -89.6311121
9.045                0.954836099     -89.7903304
9.046                 0.95458384     -89.9499535
9.047                0.954330905     -90.1099824
9.048                0.954077296     -90.2704182
9.049                0.953823017     -90.4312622
9.05                 0.953568068     -90.5925154
9.051                0.953312452     -90.7541789
9.052                0.953056171      -90.916254
9.053                0.952799228     -91.0787418
9.054                0.952541624     -91.2416434
9.055                0.952283361       -91.40496
9.056                0.952024443     -91.5686927
9.057                0.951764871     -91.7328427
9.058                0.951504647      -91.897411
9.059                0.951243775     -92.0623989
9.06                 0.950982256     -92.2278076
9.061                0.950720093      -92.393638
9.062                0.950457288     -92.5598915
9.063                0.950193845     -92.7265691
9.064                0.949929765     -92.8936721
9.065                0.949665051     -93.0612014
9.066                0.949399706     -93.2291584
9.067                0.949133732     -93.3975442
9.068                0.948867133     -93.5663598
9.069                0.948599911     -93.7356065
9.07                 0.948332068     -93.9052854
9.071                0.948063608     -94.0753977
9.072                0.947794534     -94.2459444
9.073                0.947524848     -94.4169268
9.074                0.947254553      -94.588346
9.075                0.946983652     -94.7602032
9.076                0.946712149     -94.9324994
9.077                0.946440047     -95.1052359
9.078                0.946167348     -95.2784138
9.079                0.945894056     -95.4520343
9.08                 0.945620174     -95.6260984
9.081                0.945345705     -95.8006073
9.082                0.945070653     -95.9755623
9.083                 0.94479502     -96.1509643
9.084                0.944518811     -96.3268146
9.085                0.944242028     -96.5031143
9.086                0.943964676     -96.6798646
9.087                0.943686757     -96.8570665
9.088                0.943408275     -97.0347212
9.089                0.943129234     -97.2128299
9.09                 0.942849638     -97.3913937
9.091                 0.94256949     -97.5704137
9.092                0.942288793     -97.7498911
9.093                0.942007552     -97.9298269
9.094                0.941725771     -98.1102224
9.095                0.941443453     -98.2910786
9.096                0.941160602     -98.4723967
9.097                0.940877222     -98.6541777
9.098                0.940593318     -98.8364229
9.099                0.940308893     -99.0191332
9.1                  0.940023951       -99.20231
9.101                0.939738497     -99.3859542
9.102                0.939452535     -99.5700669
9.103                0.939166069     -99.7546493
9.104                0.938879103     -99.9397025
9.105                0.938591642     -100.125228
9.106                0.938303691     -100.311226
9.107                0.938015252     -100.497698
9.108                0.937726332     -100.684645
9.109                0.937436935     -100.872069
9.11                 0.937147065      -101.05997
9.111                0.936856727     -101.248349
9.112                0.936565926     -101.437208
9.113                0.936274666     -101.626548
9.114                0.935982952     -101.816369
9.115                 0.93569079     -102.006673
9.116                0.935398184     -102.197461
9.117                0.935105139     -102.388733
9.118                 0.93481166     -102.580492
9.119                0.934517752     -102.772738
9.12                 0.934223421     -102.965472
9.121                0.933928672     -103.158694
9.122                0.933633509     -103.352407
9.123                0.933337939     -103.546612
9.124                0.933041966     -103.741308
9.125                0.932745597     -103.936498
9.126                0.932448836     -104.132181
9.127                0.932151689     -104.328361
9.128                0.931854161     -104.525036
9.129                0.931556259     -104.722209
9.13                 0.931257989      -104.91988
9.131                0.930959355     -105.118051
9.132                0.930660363     -105.316722
9.133                0.930361021     -105.515894
9.134                0.930061333     -105.715568
9.135                0.929761305     -105.915746
9.136                0.929460944     -106.116428
9.137                0.929160256     -106.317615
9.138                0.928859247     -106.519308
9.139                0.928557924     -106.721509
9.14                 0.928256292     -106.924217
9.141                0.927954357     -107.127435
9.142                0.927652128     -107.331162
9.143                0.927349609       -107.5354
9.144                0.927046808      -107.74015
9.145                0.926743731     -107.945413
9.146                0.926440384     -108.151189
9.147                0.926136776      -108.35748
9.148                0.925832911     -108.564286
9.149                0.925528798     -108.771609
9.15                 0.925224443     -108.979448
9.151                0.924919854     -109.187806
9.152                0.924615037     -109.396682
9.153                0.924309999     -109.606079
9.154                0.924004748     -109.815995
9.155                0.923699291     -110.026433
9.156                0.923393635     -110.237393
9.157                0.923087787     -110.448877
9.158                0.922781756     -110.660884
9.159                0.922475549     -110.873415
9.16                 0.922169173     -111.086472
9.161                0.921862635     -111.300056
9.162                0.921555945     -111.514166
9.163                0.921249109     -111.728804
9.164                0.920942135      -111.94397
9.165                0.920635031     -112.159666
9.166                0.920327805     -112.375891
9.167                0.920020466     -112.592647
9.168                0.919713021     -112.809935
9.169                0.919405479     -113.027754
9.17                 0.919097848     -113.246106
9.171                0.918790136     -113.464992
9.172                0.918482351     -113.684412
9.173                0.918174503     -113.904366
9.174                0.917866599     -114.124856
9.175                0.917558648     -114.345881
9.176                0.917250659     -114.567444
9.177                0.916942641     -114.789543
9.178                0.916634602     -115.012181
9.179                0.916326551     -115.235356
9.18                 0.916018498     -115.459071
9.181                 0.91571045     -115.683325
9.182                0.915402418     -115.908119
9.183                0.915094411     -116.133454
9.184                0.914786437      -116.35933
9.185                0.914478506     -116.585748
9.186                0.914170627     -116.812707
9.187                 0.91386281     -117.040209
9.188                0.913555064     -117.268255
9.189                0.913247399     -117.496843
9.19                 0.912939824     -117.725976
9.191                0.912632349     -117.955653
9.192                0.912324983     -118.185874
9.193                0.912017738     -118.416641
9.194                0.911710621     -118.647953
9.195                0.911403645     -118.879811
9.196                0.911096817     -119.112215
9.197                 0.91079015     -119.345166
9.198                0.910483651     -119.578664
9.199                0.910177333     -119.812708
9.2                  0.909871205     -120.047301
9.201                0.909565278      -120.28244
9.202                0.909259561     -120.518128
9.203                0.908954066     -120.754364
9.204                0.908648803     -120.991148
9.205                0.908343783     -121.228481
9.206                0.908039016     -121.466363
9.207                0.907734513     -121.704793
9.208                0.907430285     -121.943773
9.209                0.907126343     -122.183301
9.21                 0.906822698     -122.423379
9.211                 0.90651936     -122.664007
9.212                0.906216341     -122.905184
9.213                0.905913652      -123.14691
9.214                0.905611304     -123.389186
9.215                0.905309309     -123.632011
9.216                0.905007677     -123.875386
9.217                 0.90470642     -124.119311
9.218                 0.90440555     -124.363785
9.219                0.904105078     -124.608808
9.22                 0.903805015     -124.854381
9.221                0.903505374     -125.100503
9.222                0.903206166     -125.347174
9.223                0.902907402     -125.594395
9.224                0.902609095     -125.842164
9.225                0.902311256     -126.090481
9.226                0.902013897     -126.339347
9.227                0.901717031     -126.588761
9.228                0.901420669     -126.838724
9.229                0.901124823     -127.089234
9.23                 0.900829505     -127.340291
9.231                0.900534728     -127.591895
9.232                0.900240504     -127.844046
9.233                0.899946846     -128.096744
9.234                0.899653765     -128.349987
9.235                0.899361273     -128.603776
9.236                0.899069385     -128.858111
9.237                0.898778111      -129.11299
9.238                0.898487464     -129.368413
9.239                0.898197458      -129.62438
9.24                 0.897908104      -129.88089
9.241                0.897619416     -130.137943
9.242                0.897331406     -130.395539
9.243                0.897044087     -130.653675
9.244                0.896757471     -130.912353
9.245                0.896471573     -131.171571
9.246                0.896186404     -131.431328
9.247                0.895901977     -131.691625
9.248                0.895618306     -131.952459
9.249                0.895335403     -132.213831
9.25                 0.895053282      -132.47574
9.251                0.894771956     -132.738185
9.252                0.894491438     -133.001165
9.253                0.894211741     -133.264679
9.254                0.893932878     -133.528726
9.255                0.893654862     -133.793306
9.256                0.893377708     -134.058418
9.257                0.893101428      -134.32406
9.258                0.892826035     -134.590232
9.259                0.892551543     -134.856932
9.26                 0.892277966      -135.12416
9.261                0.892005316     -135.391914
9.262                0.891733608     -135.660194
9.263                0.891462854     -135.928999
9.264                0.891193068     -136.198326
9.265                0.890924265     -136.468176
9.266                0.890656456     -136.738546
9.267                0.890389656     -137.009436
9.268                0.890123879     -137.280845
9.269                0.889859138      -137.55277
9.27                 0.889595446     -137.825211
9.271                0.889332818     -138.098167
9.272                0.889071267     -138.371636
9.273                0.888810806     -138.645616
9.274                 0.88855145     -138.920107
9.275                0.888293212     -139.195106
9.276                0.888036105     -139.470613
9.277                0.887780143     -139.746625
9.278                0.887525341     -140.023142
9.279                0.887271711     -140.300162
9.28                 0.887019268     -140.577682
9.281                0.886768024     -140.855702
9.282                0.886517995      -141.13422
9.283                0.886269193     -141.413234
9.284                0.886021632     -141.692742
9.285                0.885775326     -141.972742
9.286                0.885530288     -142.253234
9.287                0.885286533     -142.534215
9.288                0.885044073     -142.815682
9.289                0.884802923     -143.097636
9.29                 0.884563095     -143.380072
9.291                0.884324605      -143.66299
9.292                0.884087464     -143.946387
9.293                0.883851688     -144.230262
9.294                0.883617288     -144.514612
9.295                 0.88338428     -144.799436
9.296                0.883152676     -145.084731
9.297                0.882922489     -145.370495
9.298                0.882693734     -145.656726
9.299                0.882466423     -145.943423
9.3                   0.88224057     -146.230581
9.301                0.882016189       -146.5182
9.302                0.881793292     -146.806277
9.303                0.881571893      -147.09481
9.304                0.881352005     -147.383797
9.305                0.881133641     -147.673234
9.306                0.880916815      -147.96312
9.307                0.880701539     -148.253452
9.308                0.880487826     -148.544228
9.309                 0.88027569     -148.835446
9.31                 0.880065143     -149.127102
9.311                0.879856199     -149.419194
9.312                0.879648869      -149.71172
9.313                0.879443168     -150.004677
9.314                0.879239107     -150.298062
9.315                0.879036699     -150.591872
9.316                0.878835957     -150.886106
9.317                0.878636893      -151.18076
9.318                 0.87843952     -151.475831
9.319                 0.87824385     -151.771316
9.32                 0.878049896     -152.067214
9.321                0.877857669      -152.36352
9.322                0.877667183     -152.660232
9.323                0.877478448     -152.957347
9.324                0.877291477     -153.254862
9.325                0.877106281     -153.552775
9.326                0.876922874     -153.851081
9.327                0.876741266     -154.149778
9.328                0.876561469     -154.448863
9.329                0.876383495     -154.748333
9.33                 0.876207355     -155.048184
9.331                 0.87603306     -155.348414
9.332                0.875860623     -155.649019
9.333                0.875690053     -155.949995
9.334                0.875521363     -156.251341
9.335                0.875354562     -156.553052
9.336                0.875189663     -156.855125
9.337                0.875026676     -157.157557
9.338                0.874865611     -157.460344
9.339                 0.87470648     -157.763483
9.34                 0.874549292     -158.066971
9.341                0.874394058     -158.370803
9.342                0.874240788     -158.674977
9.343                0.874089492     -158.979489
9.344                0.873940181     -159.284335
9.345                0.873792864     -159.589513
9.346                0.873647551     -159.895017
9.347                0.873504252     -160.200845
9.348                0.873362976     -160.506993
9.349                0.873223732     -160.813457
9.35                  0.87308653     -161.120233
9.351                0.872951379     -161.427319
9.352                0.872818287     -161.734709
9.353                0.872687265       -162.0424
9.354                 0.87255832     -162.350389
9.355                0.872431461     -162.658671
9.356                0.872306696     -162.967243
9.357                0.872184034       -163.2761
9.358                0.872063484      -163.58524
9.359                0.871945052     -163.894657
9.36                 0.871828747     -164.204348
9.361                0.871714576     -164.514308
9.362                0.871602547     -164.824535
9.363                0.871492668     -165.135023
9.364                0.871384946     -165.445769
9.365                0.871279388     -165.756768
9.366                   0.871176     -166.068017
9.367                 0.87107479     -166.379511
9.368                0.870975764     -166.691247
9.369                0.870878929     -167.003219
9.37                 0.870784291     -167.315424
9.371                0.870691856     -167.627858
9.372                 0.87060163     -167.940516
9.373                0.870513619     -168.253393
9.374                0.870427829     -168.566487
9.375                0.870344264     -168.879792
9.376                0.870262931     -169.193304
9.377                0.870183835     -169.507019
9.378                 0.87010698     -169.820932
9.379                0.870032371     -170.135039
9.38                 0.869960013     -170.449336
9.381                 0.86988991     -170.763818
9.382                0.869822067      -171.07848
9.383                0.869756487     -171.393319
9.384                0.869693175     -171.708329
9.385                0.869632134     -172.023507
9.386                0.869573368     -172.338848
9.387                 0.86951688     -172.654346
9.388                0.869462673     -172.969999
9.389                0.869410751       -173.2858
9.39                 0.869361116     -173.601747
9.391                 0.86931377     -173.917833
9.392                0.869268716     -174.234055
9.393                0.869225957     -174.550407
9.394                0.869185495     -174.866886
9.395                 0.86914733     -175.183486
9.396                0.869111466     -175.500203
