! TOUCHSTONE file generated by CST DESIGN STUDIO
! Date and time: Tue Feb  4 14:17:35 2025
! Project name: C:\Work\MatlabApps\UnitCellOptimizationMatlab\CST\unitcell.cst
! Tree item: Tasks\Sweep1\SPara1\S-Parameters
! Header version: 2024
! Port assignment regex: !\s*Touchstone port\s*([0-9]+)\s*=\s*(CST MWS port|CST DES external port|CST DES block port)\s*(.+)\s* \(\"(.*)\"\)(\s*mode\s*([0-9]+))?.*
! Touchstone port assignment:
! Touchstone port 1 = CST DES external port 1 ("")
# GHz S MA R 50
9                    0.967270871     -63.8816465
9.001                0.967122584     -63.9737534
9.002                0.966973979     -64.0660687
9.003                0.966825055     -64.1585932
9.004                0.966675814     -64.2513276
9.005                0.966526255     -64.3442725
9.006                0.966376378     -64.4374288
9.007                0.966226183      -64.530797
9.008                0.966075671      -64.624378
9.009                0.965924841     -64.7181725
9.01                 0.965773694     -64.8121811
9.011                0.965622229     -64.9064047
9.012                0.965470448     -65.0008439
9.013                0.965318349     -65.0954996
9.014                0.965165934     -65.1903723
9.015                0.965013201      -65.285463
9.016                0.964860152     -65.3807722
9.017                0.964706786     -65.4763008
9.018                0.964553103     -65.5720496
9.019                0.964399105     -65.6680192
9.02                 0.964244789     -65.7642104
9.021                0.964090158      -65.860624
9.022                 0.96393521     -65.9572608
9.023                0.963779947     -66.0541215
9.024                0.963624367     -66.1512068
9.025                0.963468472     -66.2485176
9.026                0.963312261     -66.3460547
9.027                0.963155735     -66.4438187
9.028                0.962998893     -66.5418105
9.029                0.962841736     -66.6400309
9.03                 0.962684264     -66.7384806
9.031                0.962526477     -66.8371605
9.032                0.962368375     -66.9360712
9.033                0.962209958     -67.0352137
9.034                0.962051226     -67.1345888
9.035                0.961892181     -67.2341971
9.036                 0.96173282     -67.3340396
9.037                0.961573146      -67.434117
9.038                0.961413157     -67.5344301
9.039                0.961252855     -67.6349798
9.04                 0.961092238     -67.7357669
9.041                0.960931308     -67.8367922
9.042                0.960770065     -67.9380564
9.043                0.960608508     -68.0395605
9.044                0.960446638     -68.1413053
9.045                0.960284455     -68.2432915
9.046                0.960121959     -68.3455201
9.047                 0.95995915     -68.4479918
9.048                0.959796029     -68.5507075
9.049                0.959632595     -68.6536681
9.05                 0.959468849     -68.7568744
9.051                0.959304791     -68.8603272
9.052                0.959140421     -68.9640274
9.053                0.958975739     -69.0679759
9.054                0.958810746     -69.1721735
9.055                0.958645441      -69.276621
9.056                0.958479825     -69.3813194
9.057                0.958313898     -69.4862695
9.058                 0.95814766     -69.5914721
9.059                0.957981112     -69.6969282
9.06                 0.957814253     -69.8026386
9.061                0.957647083     -69.9086043
9.062                0.957479604      -70.014826
9.063                0.957311814     -70.1213047
9.064                0.957143715     -70.2280413
9.065                0.956975307     -70.3350366
9.066                0.956806589     -70.4422916
9.067                0.956637562     -70.5498072
9.068                0.956468226     -70.6575842
9.069                0.956298581     -70.7656236
9.07                 0.956128628     -70.8739263
9.071                0.955958366     -70.9824931
9.072                0.955787797     -71.0913251
9.073                 0.95561692     -71.2004231
9.074                0.955445735      -71.309788
9.075                0.955274243     -71.4194208
9.076                0.955102443     -71.5293224
9.077                0.954930337     -71.6394937
9.078                0.954757924     -71.7499357
9.079                0.954585205     -71.8606494
9.08                  0.95441218     -71.9716355
9.081                0.954238848     -72.0828952
9.082                0.954065211     -72.1944293
9.083                0.953891269     -72.3062388
9.084                0.953717022     -72.4183246
9.085                0.953542469     -72.5306878
9.086                0.953367612     -72.6433292
9.087                0.953192451     -72.7562498
9.088                0.953016986     -72.8694507
9.089                0.952841217     -72.9829327
9.09                 0.952665145     -73.0966968
9.091                0.952488769     -73.2107441
9.092                0.952312091     -73.3250755
9.093                 0.95213511      -73.439692
9.094                0.951957826     -73.5545945
9.095                0.951780241     -73.6697841
9.096                0.951602354     -73.7852618
9.097                0.951424166     -73.9010285
9.098                0.951245677     -74.0170853
9.099                0.951066887     -74.1334331
9.1                  0.950887796      -74.250073
9.101                0.950708406      -74.367006
9.102                0.950528716     -74.4842331
9.103                0.950348727     -74.6017552
9.104                0.950168438     -74.7195735
9.105                0.949987852      -74.837689
9.106                0.949806966     -74.9561026
9.107                0.949625783     -75.0748155
9.108                0.949444303     -75.1938285
9.109                0.949262525     -75.3131429
9.11                 0.949080451     -75.4327595
9.111                 0.94889808     -75.5526796
9.112                0.948715413      -75.672904
9.113                0.948532451     -75.7934339
9.114                0.948349193     -75.9142703
9.115                0.948165641     -76.0354142
9.116                0.947981795     -76.1568668
9.117                0.947797654      -76.278629
9.118                 0.94761322     -76.4007021
9.119                0.947428493     -76.5230869
9.12                 0.947243474     -76.6457846
9.121                0.947058162     -76.7687963
9.122                0.946872559      -76.892123
9.123                0.946686665     -77.0157659
9.124                 0.94650048      -77.139726
9.125                0.946314004     -77.2640043
9.126                0.946127239     -77.3886021
9.127                0.945940185     -77.5135203
9.128                0.945752841     -77.6387602
9.129                 0.94556521     -77.7643227
9.13                 0.945377291      -77.890209
9.131                0.945189084     -78.0164202
9.132                0.945000591     -78.1429575
9.133                0.944811812     -78.2698218
9.134                0.944622747     -78.3970144
9.135                0.944433398     -78.5245363
9.136                0.944243763     -78.6523888
9.137                0.944053845     -78.7805728
9.138                0.943863644     -78.9090896
9.139                0.943673159     -79.0379403
9.14                 0.943482393     -79.1671259
9.141                0.943291345     -79.2966477
9.142                0.943100016     -79.4265068
9.143                0.942908407     -79.5567044
9.144                0.942716519     -79.6872415
9.145                0.942524351     -79.8181193
9.146                0.942331905     -79.9493391
9.147                0.942139181     -80.0809018
9.148                 0.94194618     -80.2128088
9.149                0.941752903     -80.3450612
9.15                 0.941559351     -80.4776601
9.151                0.941365523     -80.6106067
9.152                0.941171421     -80.7439021
9.153                0.940977046     -80.8775477
9.154                0.940782398     -81.0115444
9.155                0.940587477     -81.1458936
9.156                0.940392286     -81.2805964
9.157                0.940196824     -81.4156539
9.158                0.940001092     -81.5510674
9.159                0.939805092     -81.6868381
9.16                 0.939608823     -81.8229672
9.161                0.939412287     -81.9594558
9.162                0.939215485     -82.0963052
9.163                0.939018416     -82.2335165
9.164                0.938821083      -82.371091
9.165                0.938623486     -82.5090299
9.166                0.938425626     -82.6473344
9.167                0.938227504     -82.7860057
9.168                 0.93802912      -82.925045
9.169                0.937830476     -83.0644536
9.17                 0.937631572     -83.2042327
9.171                 0.93743241     -83.3443834
9.172                 0.93723299     -83.4849071
9.173                0.937033314     -83.6258049
9.174                0.936833382     -83.7670781
9.175                0.936633195      -83.908728
9.176                0.936432755     -84.0507557
9.177                0.936232062     -84.1931625
9.178                0.936031117     -84.3359497
9.179                0.935829922     -84.4791184
9.18                 0.935628477       -84.62267
9.181                0.935426784     -84.7666057
9.182                0.935224843     -84.9109268
9.183                0.935022656     -85.0556344
9.184                0.934820224       -85.20073
9.185                0.934617548     -85.3462146
9.186                0.934414629     -85.4920897
9.187                0.934211468     -85.6383564
9.188                0.934008067      -85.785016
9.189                0.933804426     -85.9320698
9.19                 0.933600548      -86.079519
9.191                0.933396432      -86.227365
9.192                0.933192081      -86.375609
9.193                0.932987495     -86.5242523
9.194                0.932782677     -86.6732962
9.195                0.932577627     -86.8227419
9.196                0.932372346     -86.9725907
9.197                0.932166836      -87.122844
9.198                0.931961098     -87.2735029
9.199                0.931755134     -87.4245689
9.2                  0.931548945     -87.5760432
9.201                0.931342532      -87.727927
9.202                0.931135897     -87.8802217
9.203                0.930929042     -88.0329286
9.204                0.930721967     -88.1860489
9.205                0.930514674      -88.339584
9.206                0.930307165     -88.4935352
9.207                0.930099442     -88.6479038
9.208                0.929891505      -88.802691
9.209                0.929683356     -88.9578982
9.21                 0.929474998     -89.1135268
9.211                0.929266431     -89.2695779
9.212                0.929057657     -89.4260529
9.213                0.928848678     -89.5829531
9.214                0.928639495     -89.7402799
9.215                0.928430111     -89.8980345
9.216                0.928220527     -90.0562183
9.217                0.928010744     -90.2148325
9.218                0.927800765     -90.3738786
9.219                 0.92759059     -90.5333577
9.22                 0.927380223     -90.6932713
9.221                0.927169665     -90.8536206
9.222                0.926958917      -91.014407
9.223                0.926747982     -91.1756318
9.224                0.926536861     -91.3372963
9.225                0.926325556     -91.4994019
9.226                 0.92611407     -91.6619497
9.227                0.925902404     -91.8249413
9.228                 0.92569056     -91.9883779
9.229                0.925478541     -92.1522608
9.23                 0.925266348     -92.3165913
9.231                0.925053983     -92.4813709
9.232                0.924841449     -92.6466007
9.233                0.924628747     -92.8122821
9.234                 0.92441588     -92.9784166
9.235                 0.92420285     -93.1450053
9.236                0.923989659     -93.3120496
9.237                 0.92377631     -93.4795508
9.238                0.923562804     -93.6475103
9.239                0.923349144     -93.8159293
9.24                 0.923135332     -93.9848093
9.241                0.922921371     -94.1541515
9.242                0.922707262     -94.3239573
9.243                0.922493009     -94.4942279
9.244                0.922278614     -94.6649647
9.245                0.922064078     -94.8361691
9.246                0.921849406     -95.0078423
9.247                0.921634598     -95.1799856
9.248                0.921419658     -95.3526005
9.249                0.921204589     -95.5256881
9.25                 0.920989392     -95.6992499
9.251                0.920774071     -95.8732871
9.252                0.920558628     -96.0478011
9.253                0.920343066     -96.2227931
9.254                0.920127387     -96.3982645
9.255                0.919911595     -96.5742166
9.256                0.919695692     -96.7506507
9.257                0.919479681     -96.9275681
9.258                0.919263565     -97.1049702
9.259                0.919047346     -97.2828581
9.26                 0.918831028     -97.4612333
9.261                0.918614613      -97.640097
9.262                0.918398106     -97.8194505
9.263                0.918181507     -97.9992952
9.264                0.917964821     -98.1796322
9.265                0.917748051      -98.360463
9.266                  0.9175312     -98.5417887
9.267                0.917314271     -98.7236108
9.268                0.917097267     -98.9059304
9.269                0.916880191     -99.0887488
9.27                 0.916663047     -99.2720674
9.271                0.916445838     -99.4558874
9.272                0.916228567     -99.6402101
9.273                0.916011238     -99.8250367
9.274                0.915793854     -100.010368
9.275                0.915576419     -100.196207
9.276                0.915358935     -100.382553
9.277                0.915141407     -100.569408
9.278                0.914923838     -100.756773
9.279                0.914706232      -100.94465
9.28                 0.914488592     -101.133039
9.281                0.914270922     -101.321943
9.282                0.914053226     -101.511361
9.283                0.913835508     -101.701297
9.284                 0.91361777     -101.891749
9.285                0.913400018     -102.082721
9.286                0.913182254     -102.274213
9.287                0.912964484     -102.466226
9.288                 0.91274671     -102.658762
9.289                0.912528937     -102.851821
9.29                 0.912311169     -103.045405
9.291                0.912093409     -103.239516
9.292                0.911875663     -103.434153
9.293                0.911657934      -103.62932
9.294                0.911440226     -103.825016
9.295                0.911222544     -104.021242
9.296                0.911004892     -104.218001
9.297                0.910787274     -104.415293
9.298                0.910569694     -104.613119
9.299                0.910352158     -104.811481
9.3                  0.910134669      -105.01038
9.301                0.909917231     -105.209816
9.302                0.909699851     -105.409791
9.303                0.909482531     -105.610306
9.304                0.909265277     -105.811362
9.305                0.909048094      -106.01296
9.306                0.908830985     -106.215101
9.307                0.908613957     -106.417787
9.308                0.908397013     -106.621019
9.309                0.908180158     -106.824797
9.31                 0.907963398     -107.029122
9.311                0.907746737     -107.233997
9.312                0.907530181     -107.439421
9.313                0.907313734     -107.645396
9.314                0.907097402     -107.851922
9.315                0.906881189     -108.059002
9.316                  0.9066651     -108.266635
9.317                0.906449142     -108.474823
9.318                0.906233319     -108.683567
9.319                0.906017637     -108.892868
9.32                   0.9058021     -109.102727
9.321                0.905586715     -109.313144
9.322                0.905371486     -109.524121
9.323                 0.90515642     -109.735659
9.324                0.904941522     -109.947759
9.325                0.904726797     -110.160421
9.326                0.904512251     -110.373646
9.327                 0.90429789     -110.587436
9.328                 0.90408372     -110.801791
9.329                0.903869746     -111.016713
9.33                 0.903655974     -111.232201
9.331                 0.90344241     -111.448258
9.332                 0.90322906     -111.664883
9.333                 0.90301593     -111.882078
9.334                0.902803026     -112.099843
9.335                0.902590354     -112.318179
9.336                 0.90237792     -112.537088
9.337                0.902165731     -112.756569
9.338                0.901953792     -112.976624
9.339                0.901742111     -113.197254
9.34                 0.901530692     -113.418458
9.341                0.901319543     -113.640238
9.342                0.901108671     -113.862595
9.343                 0.90089808      -114.08553
9.344                0.900687779     -114.309042
9.345                0.900477774     -114.533133
9.346                0.900268071     -114.757803
9.347                0.900058676     -114.983054
9.348                0.899849598     -115.208885
9.349                0.899640842     -115.435297
9.35                 0.899432415     -115.662291
9.351                0.899224324     -115.889868
9.352                0.899016577     -116.118027
9.353                0.898809179     -116.346771
9.354                0.898602138     -116.576098
9.355                0.898395462      -116.80601
9.356                0.898189157     -117.036508
9.357                 0.89798323     -117.267591
9.358                0.897777689      -117.49926
9.359                0.897572541     -117.731516
9.36                 0.897367792      -117.96436
9.361                0.897163452      -118.19779
9.362                0.896959526     -118.431809
9.363                0.896756023     -118.666416
9.364                 0.89655295     -118.901612
9.365                0.896350314     -119.137396
9.366                0.896148123     -119.373771
9.367                0.895946385     -119.610735
9.368                0.895745108     -119.848289
9.369                0.895544298     -120.086433
9.37                 0.895343964     -120.325168
9.371                0.895144115     -120.564494
9.372                0.894944756     -120.804411
9.373                0.894745898     -121.044919
9.374                0.894547547     -121.286019
9.375                0.894349711      -121.52771
9.376                0.894152399     -121.769994
9.377                0.893955619     -122.012869
9.378                0.893759378     -122.256336
9.379                0.893563686     -122.500395
9.38                 0.893368549     -122.745046
9.381                0.893173978     -122.990289
9.382                0.892979979     -123.236125
9.383                0.892786561     -123.482553
9.384                0.892593733     -123.729573
9.385                0.892401503     -123.977185
9.386                 0.89220988      -124.22539
9.387                0.892018872     -124.474186
9.388                0.891828487     -124.723574
9.389                0.891638735     -124.973553
9.39                 0.891449623     -125.224125
9.391                0.891261161     -125.475287
9.392                0.891073357     -125.727041
9.393                0.890886221     -125.979386
9.394                 0.89069976     -126.232321
9.395                0.890513984     -126.485847
9.396                0.890328901     -126.739962
