! TOUCHSTONE file generated by CST DESIGN STUDIO
! Date and time: Tue Feb  4 14:17:32 2025
! Project name: C:\Work\MatlabApps\UnitCellOptimizationMatlab\CST\unitcell.cst
! Tree item: Tasks\Sweep1\SPara1\S-Parameters
! Header version: 2024
! Port assignment regex: !\s*Touchstone port\s*([0-9]+)\s*=\s*(CST MWS port|CST DES external port|CST DES block port)\s*(.+)\s* \(\"(.*)\"\)(\s*mode\s*([0-9]+))?.*
! Touchstone port assignment:
! Touchstone port 1 = CST DES external port 1 ("")
# GHz S MA R 50
9                    0.966206052     -71.2257235
9.001                0.966029199     -71.3359498
9.002                0.965851861     -71.4464368
9.003                0.965674037     -71.5571853
9.004                0.965495727     -71.6681962
9.005                0.965316933     -71.7794704
9.006                0.965137654     -71.8910087
9.007                0.964957892      -72.002812
9.008                0.964777645     -72.1148811
9.009                0.964596916     -72.2272171
9.01                 0.964415703     -72.3398206
9.011                0.964234008     -72.4526927
9.012                0.964051831     -72.5658342
9.013                0.963869173     -72.6792461
9.014                0.963686033     -72.7929291
9.015                0.963502413     -72.9068842
9.016                0.963318312     -73.0211124
9.017                0.963133732     -73.1356144
9.018                0.962948673     -73.2503913
9.019                0.962763135      -73.365444
9.02                 0.962577118     -73.4807732
9.021                0.962390624     -73.5963801
9.022                0.962203652     -73.7122654
9.023                0.962016203     -73.8284302
9.024                0.961828279     -73.9448753
9.025                0.961639878     -74.0616017
9.026                0.961451002     -74.1786103
9.027                0.961261651     -74.2959021
9.028                0.961071826     -74.4134779
9.029                0.960881528     -74.5313388
9.03                 0.960690756     -74.6494857
9.031                0.960499512     -74.7679195
9.032                0.960307796     -74.8866412
9.033                0.960115608     -75.0056517
9.034                0.959922949     -75.1249521
9.035                0.959729821     -75.2445432
9.036                0.959536222     -75.3644261
9.037                0.959342155     -75.4846017
9.038                0.959147619     -75.6050709
9.039                0.958952615     -75.7258348
9.04                 0.958757144     -75.8468944
9.041                0.958561206     -75.9682506
9.042                0.958364803     -76.0899044
9.043                0.958167934     -76.2118568
9.044                0.957970601     -76.3341088
9.045                0.957772804     -76.4566614
9.046                0.957574543     -76.5795155
9.047                 0.95737582     -76.7026723
9.048                0.957176635     -76.8261326
9.049                0.956976989     -76.9498976
9.05                 0.956776882     -77.0739682
9.051                0.956576316     -77.1983454
9.052                 0.95637529     -77.3230302
9.053                0.956173807     -77.4480238
9.054                0.955971865      -77.573327
9.055                0.955769467      -77.698941
9.056                0.955566613     -77.8248667
9.057                0.955363304     -77.9511052
9.058                 0.95515954     -78.0776575
9.059                0.954955323     -78.2045247
9.06                 0.954750652     -78.3317078
9.061                 0.95454553     -78.4592079
9.062                0.954339957      -78.587026
9.063                0.954133933     -78.7151631
9.064                0.953927459     -78.8436204
9.065                0.953720537     -78.9723988
9.066                0.953513167     -79.1014995
9.067                 0.95330535     -79.2309235
9.068                0.953097087     -79.3606718
9.069                0.952888378     -79.4907456
9.07                 0.952679226     -79.6211459
9.071                 0.95246963     -79.7518739
9.072                0.952259592     -79.8829305
9.073                0.952049112     -80.0143168
9.074                0.951838192      -80.146034
9.075                0.951626832     -80.2780832
9.076                0.951415033     -80.4104654
9.077                0.951202797     -80.5431817
9.078                0.950990124     -80.6762332
9.079                0.950777016     -80.8096211
9.08                 0.950563473     -80.9433464
9.081                0.950349497     -81.0774102
9.082                0.950135088     -81.2118137
9.083                0.949920247     -81.3465579
9.084                0.949704976     -81.4816441
9.085                0.949489276     -81.6170732
9.086                0.949273148     -81.7528465
9.087                0.949056593      -81.888965
9.088                0.948839611     -82.0254298
9.089                0.948622205     -82.1622422
9.09                 0.948404375     -82.2994032
9.091                0.948186123      -82.436914
9.092                0.947967449     -82.5747758
9.093                0.947748355     -82.7129895
9.094                0.947528842     -82.8515565
9.095                0.947308912     -82.9904778
9.096                0.947088565     -83.1297546
9.097                0.946867802     -83.2693881
9.098                0.946646626     -83.4093794
9.099                0.946425037     -83.5497296
9.1                  0.946203037       -83.69044
9.101                0.945980626     -83.8315116
9.102                0.945757807     -83.9729457
9.103                 0.94553458     -84.1147435
9.104                0.945310947      -84.256906
9.105                0.945086909     -84.3994345
9.106                0.944862468     -84.5423301
9.107                0.944637625     -84.6855941
9.108                0.944412382     -84.8292275
9.109                0.944186739     -84.9732316
9.11                 0.943960699     -85.1176076
9.111                0.943734263     -85.2623567
9.112                0.943507431       -85.40748
9.113                0.943280207     -85.5529788
9.114                0.943052591     -85.6988542
9.115                0.942824585     -85.8451074
9.116                 0.94259619     -85.9917397
9.117                0.942367409     -86.1387522
9.118                0.942138241     -86.2861461
9.119                 0.94190869     -86.4339227
9.12                 0.941678757     -86.5820831
9.121                0.941448444     -86.7306286
9.122                0.941217751     -86.8795604
9.123                0.940986681     -87.0288796
9.124                0.940755236     -87.1785876
9.125                0.940523417     -87.3286855
9.126                0.940291226     -87.4791745
9.127                0.940058665     -87.6300559
9.128                0.939825735     -87.7813309
9.129                0.939592438     -87.9330007
9.13                 0.939358777     -88.0850666
9.131                0.939124753     -88.2375297
9.132                0.938890367     -88.3903914
9.133                0.938655623     -88.5436528
9.134                0.938420521     -88.6973151
9.135                0.938185063     -88.8513797
9.136                0.937949252     -89.0058477
9.137                 0.93771309     -89.1607204
9.138                0.937476578      -89.315999
9.139                0.937239719     -89.4716848
9.14                 0.937002514      -89.627779
9.141                0.936764966     -89.7842829
9.142                0.936527076     -89.9411976
9.143                0.936288848     -90.0985245
9.144                0.936050282     -90.2562649
9.145                0.935811382     -90.4144198
9.146                0.935572149     -90.5729907
9.147                0.935332585     -90.7319787
9.148                0.935092693     -90.8913851
9.149                0.934852476     -91.0512112
9.15                 0.934611934     -91.2114582
9.151                0.934371071     -91.3721274
9.152                 0.93412989       -91.53322
9.153                0.933888391     -91.6947373
9.154                0.933646578     -91.8566805
9.155                0.933404453     -92.0190509
9.156                0.933162019     -92.1818498
9.157                0.932919278     -92.3450784
9.158                0.932676232      -92.508738
9.159                0.932432885     -92.6728299
9.16                 0.932189238     -92.8373552
9.161                0.931945294     -93.0023153
9.162                0.931701056     -93.1677115
9.163                0.931456526     -93.3335449
9.164                0.931211708     -93.4998169
9.165                0.930966603     -93.6665287
9.166                0.930721215     -93.8336816
9.167                0.930475546     -94.0012769
9.168                0.930229599     -94.1693157
9.169                0.929983377     -94.3377994
9.17                 0.929736882     -94.5067293
9.171                0.929490118     -94.6761065
9.172                0.929243088     -94.8459324
9.173                0.928995794     -95.0162082
9.174                0.928748239     -95.1869352
9.175                0.928500427     -95.3581146
9.176                 0.92825236     -95.5297477
9.177                0.928004041     -95.7018358
9.178                0.927755474     -95.8743801
9.179                0.927506662     -96.0473818
9.18                 0.927257607     -96.2208423
9.181                0.927008314     -96.3947628
9.182                0.926758785     -96.5691445
9.183                0.926509023     -96.7439887
9.184                0.926259033     -96.9192966
9.185                0.926008816     -97.0950695
9.186                0.925758377     -97.2713087
9.187                0.925507719     -97.4480154
9.188                0.925256845     -97.6251908
9.189                0.925005759     -97.8028361
9.19                 0.924754464     -97.9809527
9.191                0.924502965     -98.1595418
9.192                0.924251264     -98.3386045
9.193                0.923999364     -98.5181422
9.194                0.923747271     -98.6981561
9.195                0.923494987     -98.8786474
9.196                0.923242516     -99.0596173
9.197                0.922989863     -99.2410671
9.198                 0.92273703      -99.422998
9.199                0.922484021     -99.6054112
9.2                  0.922230841     -99.7883079
9.201                0.921977494     -99.9716894
9.202                0.921723983     -100.155557
9.203                0.921470312     -100.339912
9.204                0.921216486     -100.524755
9.205                0.920962508     -100.710087
9.206                0.920708383     -100.895911
9.207                0.920454115     -101.082226
9.208                0.920199707     -101.269035
9.209                0.919945165     -101.456338
9.21                 0.919690493     -101.644136
9.211                0.919435694     -101.832432
9.212                0.919180774     -102.021225
9.213                0.918925737     -102.210517
9.214                0.918670586      -102.40031
9.215                0.918415327     -102.590604
9.216                0.918159965     -102.781401
9.217                0.917904503     -102.972701
9.218                0.917648947     -103.164507
9.219                0.917393301     -103.356819
9.22                 0.917137569     -103.549637
9.221                0.916881757     -103.742965
9.222                 0.91662587     -103.936801
9.223                0.916369912     -104.131149
9.224                0.916113888     -104.326008
9.225                0.915857803      -104.52138
9.226                0.915601663     -104.717266
9.227                0.915345471     -104.913667
9.228                0.915089234     -105.110585
9.229                0.914832957     -105.308019
9.23                 0.914576643     -105.505972
9.231                  0.9143203     -105.704445
9.232                0.914063932     -105.903438
9.233                0.913807544     -106.102953
9.234                0.913551142      -106.30299
9.235                0.913294731     -106.503552
9.236                0.913038317     -106.704638
9.237                0.912781906      -106.90625
9.238                0.912525502     -107.108389
9.239                0.912269111     -107.311056
9.24                  0.91201274     -107.514251
9.241                0.911756393     -107.717977
9.242                0.911500077     -107.922234
9.243                0.911243797     -108.127023
9.244                 0.91098756     -108.332344
9.245                0.910731371       -108.5382
9.246                0.910475236     -108.744591
9.247                0.910219161     -108.951517
9.248                0.909963152     -109.158981
9.249                0.909707216     -109.366982
9.25                 0.909451358     -109.575522
9.251                0.909195586     -109.784601
9.252                0.908939904     -109.994222
9.253                0.908684319     -110.204383
9.254                0.908428839     -110.415088
9.255                0.908173468     -110.626335
9.256                0.907918215     -110.838127
9.257                0.907663084     -111.050464
9.258                0.907408084     -111.263347
9.259                 0.90715322     -111.476776
9.26                 0.906898499     -111.690753
9.261                0.906643928     -111.905279
9.262                0.906389514     -112.120354
9.263                0.906135263     -112.335979
9.264                0.905881183     -112.552155
9.265                0.905627281     -112.768883
9.266                0.905373563     -112.986163
9.267                0.905120036     -113.203996
9.268                0.904866708     -113.422384
9.269                0.904613587     -113.641326
9.27                 0.904360678     -113.860823
9.271                 0.90410799     -114.080877
9.272                0.903855529     -114.301488
9.273                0.903603304     -114.522656
9.274                0.903351321     -114.744382
9.275                0.903099589     -114.966668
9.276                0.902848114     -115.189513
9.277                0.902596905     -115.412918
9.278                0.902345968     -115.636884
9.279                0.902095312     -115.861411
9.28                 0.901844945     -116.086501
9.281                0.901594874     -116.312153
9.282                0.901345107     -116.538368
9.283                0.901095652     -116.765147
9.284                0.900846517      -116.99249
9.285                0.900597711     -117.220398
9.286                0.900349241     -117.448871
9.287                0.900101115      -117.67791
9.288                0.899853342     -117.907515
9.289                 0.89960593     -118.137687
9.29                 0.899358887     -118.368427
9.291                0.899112221     -118.599733
9.292                0.898865942     -118.831608
9.293                0.898620057     -119.064051
9.294                0.898374575     -119.297063
9.295                0.898129505     -119.530645
9.296                0.897884854     -119.764795
9.297                0.897640633     -119.999516
9.298                 0.89739685     -120.234806
9.299                0.897153512     -120.470667
9.3                   0.89691063     -120.707099
9.301                0.896668213     -120.944101
9.302                0.896426268     -121.181675
9.303                0.896184805      -121.41982
9.304                0.895943834     -121.658537
9.305                0.895703362     -121.897825
9.306                  0.8954634     -122.137686
9.307                0.895223957     -122.378118
9.308                0.894985041     -122.619123
9.309                0.894746663       -122.8607
9.31                 0.894508831     -123.102849
9.311                0.894271554     -123.345571
9.312                0.894034843     -123.588865
9.313                0.893798707     -123.832732
9.314                0.893563155     -124.077171
9.315                0.893328197     -124.322183
9.316                0.893093842     -124.567767
9.317                  0.8928601     -124.813924
9.318                0.892626981     -125.060652
9.319                0.892394495     -125.307953
9.32                 0.892162651     -125.555826
9.321                0.891931459     -125.804271
9.322                 0.89170093     -126.053288
9.323                0.891471072     -126.302876
9.324                0.891241897     -126.553035
9.325                0.891013413     -126.803766
9.326                0.890785632     -127.055067
9.327                0.890558563     -127.306938
9.328                0.890332216      -127.55938
9.329                0.890106601     -127.812392
9.33                  0.88988173     -128.065973
9.331                0.889657611     -128.320123
9.332                0.889434255     -128.574842
9.333                0.889211673     -128.830129
9.334                0.888989875     -129.085984
9.335                0.888768871     -129.342406
9.336                0.888548672     -129.599395
9.337                0.888329288      -129.85695
9.338                 0.88811073     -130.115071
9.339                0.887893008     -130.373756
9.34                 0.887676133     -130.633007
9.341                0.887460115     -130.892821
9.342                0.887244965     -131.153198
9.343                0.887030694     -131.414138
9.344                0.886817312     -131.675639
9.345                 0.88660483     -131.937701
9.346                0.886393258     -132.200324
9.347                0.886182608     -132.463506
9.348                 0.88597289     -132.727246
9.349                0.885764116     -132.991544
9.35                 0.885556294     -133.256399
9.351                0.885349438      -133.52181
9.352                0.885143557     -133.787776
9.353                0.884938663     -134.054295
9.354                0.884734765     -134.321368
9.355                0.884531876     -134.588993
9.356                0.884330006     -134.857168
9.357                0.884129166     -135.125893
9.358                0.883929367     -135.395167
9.359                0.883730619     -135.664989
9.36                 0.883532935     -135.935357
9.361                0.883336325      -136.20627
9.362                0.883140799     -136.477727
9.363                0.882946369     -136.749726
9.364                0.882753046     -137.022267
9.365                0.882560841     -137.295348
9.366                0.882369765     -137.568967
9.367                0.882179829     -137.843124
9.368                0.881991044     -138.117816
9.369                 0.88180342     -138.393043
9.37                  0.88161697     -138.668803
9.371                0.881431704     -138.945094
9.372                0.881247632     -139.221915
9.373                0.881064766     -139.499265
9.374                0.880883118      -139.77714
9.375                0.880702697     -140.055541
9.376                0.880523516     -140.334466
9.377                0.880345584     -140.613912
9.378                0.880168913     -140.893877
9.379                0.879993514     -141.174361
9.38                 0.879819397     -141.455362
9.381                0.879646574     -141.736877
9.382                0.879475056     -142.018904
9.383                0.879304853     -142.301442
9.384                0.879135976     -142.584489
9.385                0.878968436     -142.868043
9.386                0.878802244     -143.152102
9.387                0.878637411     -143.436663
9.388                0.878473947     -143.721725
9.389                0.878311863     -144.007286
9.39                 0.878151169     -144.293344
9.391                0.877991878     -144.579895
9.392                0.877833998     -144.866939
9.393                0.877677541     -145.154473
9.394                0.877522516     -145.442495
9.395                0.877368936     -145.731002
9.396                 0.87721681     -146.019992
