! TOUCHSTONE file generated by CST DESIGN STUDIO
! Date and time: Tue Feb  4 14:17:29 2025
! Project name: C:\Work\MatlabApps\UnitCellOptimizationMatlab\CST\unitcell.cst
! Tree item: Tasks\Sweep1\SPara1\S-Parameters
! Header version: 2024
! Port assignment regex: !\s*Touchstone port\s*([0-9]+)\s*=\s*(CST MWS port|CST DES external port|CST DES block port)\s*(.+)\s* \(\"(.*)\"\)(\s*mode\s*([0-9]+))?.*
! Touchstone port assignment:
! Touchstone port 1 = CST DES external port 1 ("")
# GHz S MA R 50
9                    0.965579301      -79.012197
9.001                0.965372327     -79.1426364
9.002                0.965164767     -79.2734039
9.003                 0.96495662     -79.4045008
9.004                0.964747885      -79.535928
9.005                0.964538562     -79.6676866
9.006                0.964328652     -79.7997775
9.007                0.964118154     -79.9322019
9.008                0.963907068     -80.0649607
9.009                0.963695395     -80.1980551
9.01                 0.963483134     -80.3314859
9.011                0.963270285     -80.4652544
9.012                0.963056849     -80.5993615
9.013                0.962842824     -80.7338083
9.014                0.962628213     -80.8685959
9.015                0.962413013     -81.0037253
9.016                0.962197226     -81.1391975
9.017                0.961980851     -81.2750137
9.018                 0.96176389     -81.4111748
9.019                0.961546341     -81.5476821
9.02                 0.961328205     -81.6845364
9.021                0.961109482      -81.821739
9.022                0.960890172     -81.9592908
9.023                0.960670276     -82.0971929
9.024                0.960449793     -82.2354465
9.025                0.960228724     -82.3740526
9.026                 0.96000707     -82.5130123
9.027                 0.95978483     -82.6523267
9.028                0.959562005     -82.7919969
9.029                0.959338594     -82.9320239
9.03                 0.959114599     -83.0724088
9.031                 0.95889002     -83.2131528
9.032                0.958664856     -83.3542569
9.033                0.958439109     -83.4957223
9.034                0.958212779       -83.63755
9.035                0.957985866     -83.7797412
9.036                0.957758371     -83.9222969
9.037                0.957530294     -84.0652182
9.038                0.957301635     -84.2085064
9.039                0.957072396     -84.3521624
9.04                 0.956842576     -84.4961873
9.041                0.956612176     -84.6405824
9.042                0.956381197     -84.7853488
9.043                0.956149639     -84.9304874
9.044                0.955917503     -85.0759996
9.045                0.955684789     -85.2218863
9.046                0.955451499     -85.3681487
9.047                0.955217632      -85.514788
9.048                 0.95498319     -85.6618053
9.049                0.954748173     -85.8092017
9.05                 0.954512582     -85.9569783
9.051                0.954276418     -86.1051362
9.052                0.954039682     -86.2536767
9.053                0.953802373     -86.4026009
9.054                0.953564494     -86.5519098
9.055                0.953326045     -86.7016046
9.056                0.953087027     -86.8516865
9.057                0.952847441     -87.0021567
9.058                0.952607287     -87.1530162
9.059                0.952366567     -87.3042662
9.06                 0.952125282     -87.4559079
9.061                0.951883433     -87.6079423
9.062                 0.95164102     -87.7603708
9.063                0.951398045     -87.9131944
9.064                0.951154509     -88.0664142
9.065                0.950910413     -88.2200315
9.066                0.950665758     -88.3740474
9.067                0.950420546      -88.528463
9.068                0.950174777     -88.6832795
9.069                0.949928453     -88.8384981
9.07                 0.949681574     -88.9941199
9.071                0.949434144     -89.1501462
9.072                0.949186162      -89.306578
9.073                0.948937629     -89.4634165
9.074                0.948688549     -89.6206629
9.075                0.948438921     -89.7783184
9.076                0.948188747     -89.9363841
9.077                0.947938029     -90.0948613
9.078                0.947686768      -90.253751
9.079                0.947434966     -90.4130544
9.08                 0.947182624     -90.5727728
9.081                0.946929744     -90.7329072
9.082                0.946676327      -90.893459
9.083                0.946422376     -91.0544292
9.084                0.946167891     -91.2158189
9.085                0.945912875     -91.3776295
9.086                 0.94565733     -91.5398621
9.087                0.945401256     -91.7025178
9.088                0.945144657     -91.8655978
9.089                0.944887533     -92.0291033
9.09                 0.944629887     -92.1930355
9.091                 0.94437172     -92.3573956
9.092                0.944113035     -92.5221847
9.093                0.943853834      -92.687404
9.094                0.943594118     -92.8530547
9.095                 0.94333389     -93.0191379
9.096                0.943073152     -93.1856549
9.097                0.942811905     -93.3526069
9.098                0.942550153     -93.5199949
9.099                0.942287897     -93.6878202
9.1                   0.94202514      -93.856084
9.101                0.941761883     -94.0247874
9.102                 0.94149813     -94.1939317
9.103                0.941233882     -94.3635179
9.104                0.940969143     -94.5335473
9.105                0.940703914      -94.704021
9.106                0.940438198     -94.8749402
9.107                0.940171997     -95.0463061
9.108                0.939905314     -95.2181199
9.109                0.939638152     -95.3903828
9.11                 0.939370513     -95.5630958
9.111                0.939102401     -95.7362602
9.112                0.938833817     -95.9098772
9.113                0.938564764     -96.0839478
9.114                0.938295246     -96.2584734
9.115                0.938025266      -96.433455
9.116                0.937754825     -96.6088938
9.117                0.937483927      -96.784791
9.118                0.937212576     -96.9611478
9.119                0.936940773     -97.1379652
9.12                 0.936668523     -97.3152445
9.121                0.936395828     -97.4929868
9.122                0.936122692     -97.6711933
9.123                0.935849117     -97.8498651
9.124                0.935575107     -98.0290034
9.125                0.935300666     -98.2086093
9.126                0.935025796      -98.388684
9.127                0.934750502     -98.5692286
9.128                0.934474786     -98.7502443
9.129                0.934198651     -98.9317322
9.13                 0.933922103     -99.1136934
9.131                0.933645144     -99.2961291
9.132                0.933367777     -99.4790404
9.133                0.933090007     -99.6624284
9.134                0.932811837     -99.8462943
9.135                0.932533272     -100.030639
9.136                0.932254314     -100.215464
9.137                0.931974968     -100.400771
9.138                0.931695238     -100.586559
9.139                0.931415127     -100.772831
9.14                 0.931134641     -100.959588
9.141                0.930853782      -101.14683
9.142                0.930572555     -101.334559
9.143                0.930290965     -101.522776
9.144                0.930009015     -101.711482
9.145                 0.92972671     -101.900678
9.146                0.929444054     -102.090365
9.147                0.929161052     -102.280545
9.148                0.928877708     -102.471218
9.149                0.928594026     -102.662385
9.15                 0.928310012     -102.854047
9.151                 0.92802567     -103.046206
9.152                0.927741004     -103.238863
9.153                 0.92745602     -103.432018
9.154                0.927170721     -103.625673
9.155                0.926885114     -103.819829
9.156                0.926599203     -104.014487
9.157                0.926312992     -104.209647
9.158                0.926026488     -104.405311
9.159                0.925739694      -104.60148
9.16                 0.925452617     -104.798155
9.161                0.925165261     -104.995337
9.162                0.924877632     -105.193027
9.163                0.924589735     -105.391226
9.164                0.924301575     -105.589935
9.165                0.924013158     -105.789154
9.166                 0.92372449     -105.988886
9.167                0.923435575      -106.18913
9.168                 0.92314642     -106.389888
9.169                0.922857031     -106.591161
9.17                 0.922567412      -106.79295
9.171                 0.92227757     -106.995256
9.172                0.921987511     -107.198079
9.173                 0.92169724     -107.401421
9.174                0.921406765     -107.605282
9.175                 0.92111609     -107.809664
9.176                0.920825222     -108.014567
9.177                0.920534166     -108.219993
9.178                0.920242931     -108.425942
9.179                0.919951521     -108.632415
9.18                 0.919659942     -108.839412
9.181                0.919368203     -109.046936
9.182                0.919076308     -109.254986
9.183                0.918784265     -109.463564
9.184                 0.91849208     -109.672671
9.185                 0.91819976     -109.882306
9.186                0.917907312     -110.092472
9.187                0.917614742     -110.303169
9.188                0.917322058     -110.514397
9.189                0.917029266     -110.726158
9.19                 0.916736373     -110.938452
9.191                0.916443388      -111.15128
9.192                0.916150315     -111.364644
9.193                0.915857164     -111.578543
9.194                0.915563941     -111.792978
9.195                0.915270654     -112.007951
9.196                 0.91497731     -112.223461
9.197                0.914683916      -112.43951
9.198                0.914390481     -112.656098
9.199                0.914097011     -112.873227
9.2                  0.913803515     -113.090896
9.201                    0.91351     -113.309107
9.202                0.913216474     -113.527859
9.203                0.912922946     -113.747155
9.204                0.912629422     -113.966994
9.205                0.912335911     -114.187376
9.206                0.912042422     -114.408304
9.207                0.911748962     -114.629777
9.208                 0.91145554     -114.851795
9.209                0.911162164      -115.07436
9.21                 0.910868842     -115.297472
9.211                0.910575583     -115.521132
9.212                0.910282395     -115.745339
9.213                0.909989287     -115.970096
9.214                0.909696268     -116.195401
9.215                0.909403347     -116.421256
9.216                0.909110531     -116.647661
9.217                0.908817831     -116.874617
9.218                0.908525255     -117.102124
9.219                0.908232811     -117.330183
9.22                  0.90794051     -117.558793
9.221                 0.90764836     -117.787956
9.222                0.907356371     -118.017672
9.223                0.907064551     -118.247941
9.224                0.906772911     -118.478763
9.225                0.906481459     -118.710139
9.226                0.906190205      -118.94207
9.227                0.905899159     -119.174555
9.228                 0.90560833     -119.407595
9.229                0.905317727      -119.64119
9.23                 0.905027362     -119.875341
9.231                0.904737243     -120.110047
9.232                0.904447381     -120.345309
9.233                0.904157785     -120.581128
9.234                0.903868465     -120.817503
9.235                0.903579432     -121.054434
9.236                0.903290696     -121.291922
9.237                0.903002267     -121.529967
9.238                0.902714155      -121.76857
9.239                 0.90242637     -122.007729
9.24                 0.902138924     -122.247446
9.241                0.901851826      -122.48772
9.242                0.901565087     -122.728551
9.243                0.901278718      -122.96994
9.244                0.900992729     -123.211887
9.245                0.900707131     -123.454391
9.246                0.900421935     -123.697452
9.247                0.900137153     -123.941071
9.248                0.899852793     -124.185247
9.249                0.899568869     -124.429981
9.25                  0.89928539     -124.675272
9.251                0.899002369      -124.92112
9.252                0.898719815     -125.167525
9.253                0.898437741     -125.414487
9.254                0.898156157     -125.662006
9.255                0.897875076     -125.910081
9.256                0.897594508     -126.158712
9.257                0.897314465     -126.407899
9.258                0.897034958     -126.657643
9.259                0.896755999     -126.907941
9.26                   0.8964776     -127.158795
9.261                0.896199772     -127.410204
9.262                0.895922527     -127.662167
9.263                0.895645878     -127.914684
9.264                0.895369835     -128.167755
9.265                 0.89509441      -128.42138
9.266                0.894819617     -128.675557
9.267                0.894545466     -128.930286
9.268                 0.89427197     -129.185568
9.269                 0.89399914     -129.441401
9.27                  0.89372699     -129.697785
9.271                0.893455531     -129.954719
9.272                0.893184775     -130.212203
9.273                0.892914735     -130.470235
9.274                0.892645423     -130.728817
9.275                0.892376852     -130.987946
9.276                0.892109034     -131.247622
9.277                0.891841981     -131.507845
9.278                0.891575706     -131.768614
9.279                0.891310222     -132.029927
9.28                 0.891045541     -132.291784
9.281                0.890781676     -132.554185
9.282                0.890518639     -132.817128
9.283                0.890256443     -133.080613
9.284                0.889995101     -133.344639
9.285                0.889734626     -133.609204
9.286                 0.88947503     -133.874308
9.287                0.889216327      -134.13995
9.288                0.888958529     -134.406129
9.289                0.888701649     -134.672844
9.29                   0.8884457     -134.940093
9.291                0.888190696     -135.207876
9.292                0.887936648     -135.476192
9.293                0.887683571      -135.74504
9.294                0.887431476     -136.014417
9.295                0.887180378     -136.284324
9.296                0.886930289     -136.554758
9.297                0.886681223     -136.825719
9.298                0.886433192     -137.097206
9.299                 0.88618621     -137.369216
9.3                  0.885940289     -137.641749
9.301                0.885695444     -137.914804
9.302                0.885451687     -138.188378
9.303                0.885209031     -138.462471
9.304                 0.88496749      -138.73708
9.305                0.884727076     -139.012206
9.306                0.884487804     -139.287845
9.307                0.884249686     -139.563997
9.308                0.884012735      -139.84066
9.309                0.883776965     -140.117832
9.31                  0.88354239     -140.395511
9.311                0.883309021     -140.673697
9.312                0.883076873     -140.952387
9.313                0.882845959     -141.231579
9.314                0.882616291     -141.511273
9.315                0.882387884     -141.791465
9.316                0.882160751     -142.072155
9.317                0.881934903     -142.353339
9.318                0.881710356     -142.635018
9.319                0.881487122     -142.917188
9.32                 0.881265214     -143.199847
9.321                0.881044645     -143.482994
9.322                0.880825429     -143.766627
9.323                0.880607578     -144.050743
9.324                0.880391106     -144.335341
9.325                0.880176025     -144.620419
9.326                 0.87996235     -144.905973
9.327                0.879750092     -145.192003
9.328                0.879539265     -145.478505
9.329                0.879329882     -145.765479
9.33                 0.879121955     -146.052921
9.331                0.878915498     -146.340829
9.332                0.878710523       -146.6292
9.333                0.878507044     -146.918034
9.334                0.878305073     -147.207326
9.335                0.878104622     -147.497075
9.336                0.877905705     -147.787279
9.337                0.877708334     -148.077934
9.338                0.877512522     -148.369038
9.339                0.877318281     -148.660589
9.34                 0.877125624     -148.952584
9.341                0.876934562     -149.245021
9.342                 0.87674511     -149.537896
9.343                0.876557278     -149.831208
9.344                 0.87637108     -150.124954
9.345                0.876186527      -150.41913
9.346                0.876003632     -150.713734
9.347                0.875822406     -151.008763
9.348                0.875642862     -151.304215
9.349                0.875465011     -151.600086
9.35                 0.875288866     -151.896374
9.351                0.875114439     -152.193076
9.352                 0.87494174     -152.490188
9.353                0.874770782     -152.787708
9.354                0.874601576     -153.085633
9.355                0.874434134      -153.38396
9.356                0.874268468     -153.682686
9.357                0.874104587     -153.981806
9.358                0.873942505      -154.28132
9.359                0.873782231     -154.581222
9.36                 0.873623777     -154.881511
9.361                0.873467155     -155.182182
9.362                0.873312374     -155.483233
9.363                0.873159445     -155.784661
9.364                 0.87300838     -156.086461
9.365                0.872859189      -156.38863
9.366                0.872711882     -156.691166
9.367                 0.87256647     -156.994065
9.368                0.872422962     -157.297323
9.369                 0.87228137     -157.600937
9.37                 0.872141703     -157.904904
9.371                0.872003971     -158.209219
9.372                0.871868184      -158.51388
9.373                0.871734351     -158.818882
9.374                0.871602483     -159.124222
9.375                0.871472588     -159.429897
9.376                0.871344676     -159.735903
9.377                0.871218757     -160.042236
9.378                0.871094839     -160.348892
9.379                0.870972931     -160.655868
9.38                 0.870853042      -160.96316
9.381                0.870735181     -161.270764
9.382                0.870619356     -161.578676
9.383                0.870505576     -161.886893
9.384                 0.87039385      -162.19541
9.385                0.870284184     -162.504223
9.386                0.870176588      -162.81333
9.387                0.870071069     -163.122725
9.388                0.869967635     -163.432404
9.389                0.869866294     -163.742365
9.39                 0.869767053     -164.052602
9.391                0.869669918     -164.363112
9.392                0.869574899      -164.67389
9.393                0.869482001     -164.984932
9.394                0.869391231     -165.296235
9.395                0.869302596     -165.607795
9.396                0.869216102     -165.919606
