! TOUCHSTONE file generated by CST DESIGN STUDIO
! Date and time: Tue Feb  4 17:05:14 2025
! Project name: C:\Work\MatlabApps\UnitCellOptimizationMatlab\CST\unitcell.cst
! Tree item: Tasks\Sweep1\SPara1\S-Parameters
! Header version: 2024
! Port assignment regex: !\s*Touchstone port\s*([0-9]+)\s*=\s*(CST MWS port|CST DES external port|CST DES block port)\s*(.+)\s* \(\"(.*)\"\)(\s*mode\s*([0-9]+))?.*
! Touchstone port assignment:
! Touchstone port 1 = CST DES external port 1 ("")
# GHz S MA R 50
9                    0.952294477     -78.5701127
9.001                0.952168009     -78.6981376
9.002                0.952041105     -78.8265023
9.003                0.951913763     -78.9552078
9.004                0.951785983     -79.0842551
9.005                0.951657762     -79.2136454
9.006                  0.9515291     -79.3433797
9.007                0.951399996      -79.473459
9.008                0.951270449     -79.6038845
9.009                0.951140458     -79.7346572
9.01                 0.951010022     -79.8657782
9.011                0.950879139     -79.9972486
9.012                0.950747809     -80.1290695
9.013                 0.95061603     -80.2612419
9.014                0.950483802     -80.3937669
9.015                0.950351123     -80.5266456
9.016                0.950217993     -80.6598791
9.017                0.950084411     -80.7934686
9.018                0.949950375      -80.927415
9.019                0.949815884     -81.0617195
9.02                 0.949680938     -81.1963832
9.021                0.949545536     -81.3314072
9.022                0.949409676     -81.4667926
9.023                0.949273357     -81.6025405
9.024                0.949136579      -81.738652
9.025                0.948999341     -81.8751282
9.026                0.948861642     -82.0119702
9.027                 0.94872348     -82.1491792
9.028                0.948584855     -82.2867563
9.029                0.948445767     -82.4247025
9.03                 0.948306213     -82.5630191
9.031                0.948166193      -82.701707
9.032                0.948025707     -82.8407675
9.033                0.947884753     -82.9802017
9.034                 0.94774333     -83.1200107
9.035                0.947601438     -83.2601956
9.036                0.947459076     -83.4007575
9.037                0.947316243     -83.5416977
9.038                0.947172938     -83.6830172
9.039                 0.94702916     -83.8247172
9.04                 0.946884908     -83.9667988
9.041                0.946740182     -84.1092631
9.042                0.946594982     -84.2521113
9.043                0.946449305     -84.3953446
9.044                0.946303151      -84.538964
9.045                 0.94615652     -84.6829708
9.046                0.946009411      -84.827366
9.047                0.945861823     -84.9721509
9.048                0.945713756     -85.1173266
9.049                0.945565208     -85.2628942
9.05                 0.945416179     -85.4088549
9.051                0.945266668     -85.5552098
9.052                0.945116675     -85.7019602
9.053                0.944966199     -85.8491071
9.054                0.944815239     -85.9966517
9.055                0.944663795     -86.1445952
9.056                0.944511866     -86.2929388
9.057                0.944359452     -86.4416836
9.058                0.944206551     -86.5908308
9.059                0.944053164     -86.7403816
9.06                  0.94389929      -86.890337
9.061                0.943744927     -87.0406984
9.062                0.943590077     -87.1914668
9.063                0.943434737     -87.3426434
9.064                0.943278909     -87.4942295
9.065                 0.94312259     -87.6462261
9.066                0.942965781     -87.7986345
9.067                0.942808482     -87.9514558
9.068                0.942650691     -88.1046913
9.069                0.942492409      -88.258342
9.07                 0.942333635     -88.4124091
9.071                0.942174368     -88.5668939
9.072                0.942014609     -88.7217976
9.073                0.941854357     -88.8771212
9.074                0.941693611      -89.032866
9.075                0.941532372     -89.1890332
9.076                0.941370639     -89.3456239
9.077                0.941208411     -89.5026393
9.078                0.941045689     -89.6600806
9.079                0.940882473     -89.8179491
9.08                 0.940718761     -89.9762458
9.081                0.940554554     -90.1349719
9.082                0.940389852     -90.2941287
9.083                0.940224655     -90.4537174
9.084                0.940058961      -90.613739
9.085                0.939892773     -90.7741948
9.086                0.939726088      -90.935086
9.087                0.939558907     -91.0964138
9.088                0.939391231     -91.2581793
9.089                0.939223058     -91.4203837
9.09                  0.93905439     -91.5830283
9.091                0.938885226     -91.7461141
9.092                0.938715566     -91.9096425
9.093                 0.93854541     -92.0736144
9.094                0.938374758     -92.2380313
9.095                0.938203611     -92.4028941
9.096                0.938031968     -92.5682042
9.097                 0.93785983     -92.7339626
9.098                0.937687197     -92.9001706
9.099                0.937514069     -93.0668294
9.1                  0.937340446       -93.23394
9.101                0.937166329     -93.4015038
9.102                0.936991718     -93.5695218
9.103                0.936816613     -93.7379953
9.104                0.936641014     -93.9069254
9.105                0.936464922     -94.0763134
9.106                0.936288338     -94.2461602
9.107                0.936111261     -94.4164673
9.108                0.935933693     -94.5872356
9.109                0.935755633     -94.7584664
9.11                 0.935577082     -94.9301609
9.111                0.935398042     -95.1023201
9.112                0.935218511     -95.2749454
9.113                0.935038491     -95.4480377
9.114                0.934857983     -95.6215984
9.115                0.934676987     -95.7956285
9.116                0.934495503     -95.9701292
9.117                0.934313534     -96.1451017
9.118                0.934131078     -96.3205471
9.119                0.933948138     -96.4964665
9.12                 0.933764713     -96.6728612
9.121                0.933580806     -96.8497322
9.122                0.933396415     -97.0270807
9.123                0.933211544     -97.2049078
9.124                0.933026192     -97.3832147
9.125                 0.93284036     -97.5620025
9.126                 0.93265405     -97.7412723
9.127                0.932467262     -97.9210253
9.128                0.932279998     -98.1012626
9.129                0.932092259     -98.2819853
9.13                 0.931904045     -98.4631946
9.131                0.931715359     -98.6448915
9.132                  0.9315262     -98.8270771
9.133                0.931336572     -99.0097527
9.134                0.931146474     -99.1929192
9.135                0.930955908     -99.3765778
9.136                0.930764876     -99.5607295
9.137                0.930573379     -99.7453756
9.138                0.930381418      -99.930517
9.139                0.930188995     -100.116155
9.14                 0.929996111      -100.30229
9.141                0.929802769     -100.488924
9.142                0.929608969     -100.676058
9.143                0.929414713     -100.863692
9.144                0.929220003     -101.051829
9.145                0.929024841     -101.240468
9.146                0.928829228     -101.429611
9.147                0.928633166     -101.619259
9.148                0.928436657     -101.809413
9.149                0.928239704     -102.000075
9.15                 0.928042307     -102.191244
9.151                0.927844469     -102.382922
9.152                0.927646192     -102.575111
9.153                0.927447479     -102.767811
9.154                 0.92724833     -102.961023
9.155                0.927048748     -103.154748
9.156                0.926848736     -103.348988
9.157                0.926648296     -103.543743
9.158                0.926447429     -103.739013
9.159                0.926246139     -103.934802
9.16                 0.926044428     -104.131108
9.161                0.925842298     -104.327933
9.162                0.925639752     -104.525279
9.163                0.925436791     -104.723145
9.164                 0.92523342     -104.921534
9.165                 0.92502964     -105.120446
9.166                0.924825454     -105.319881
9.167                0.924620865     -105.519841
9.168                0.924415875     -105.720327
9.169                0.924210488      -105.92134
9.17                 0.924004706      -106.12288
9.171                0.923798533     -106.324949
9.172                 0.92359197     -106.527547
9.173                0.923385022     -106.730676
9.174                0.923177692     -106.934335
9.175                0.922969981     -107.138526
9.176                0.922761894     -107.343251
9.177                0.922553435     -107.548509
9.178                0.922344605     -107.754301
9.179                0.922135409     -107.960629
9.18                  0.92192585     -108.167493
9.181                0.921715931     -108.374894
9.182                0.921505656     -108.582833
9.183                0.921295029     -108.791311
9.184                0.921084053     -109.000328
9.185                0.920872731     -109.209885
9.186                0.920661068     -109.419983
9.187                0.920449068     -109.630623
9.188                0.920236733     -109.841805
9.189                0.920024069      -110.05353
9.19                 0.919811078     -110.265799
9.191                0.919597766     -110.478613
9.192                0.919384136     -110.691972
9.193                0.919170192     -110.905877
9.194                0.918955939     -111.120329
9.195                 0.91874138     -111.335328
9.196                0.918526521     -111.550876
9.197                0.918311365     -111.766971
9.198                0.918095916     -111.983617
9.199                 0.91788018     -112.200812
9.2                  0.917664161     -112.418557
9.201                0.917447864     -112.636854
9.202                0.917231293     -112.855702
9.203                0.917014453     -113.075103
9.204                0.916797348     -113.295057
9.205                0.916579985     -113.515564
9.206                0.916362366     -113.736625
9.207                0.916144499      -113.95824
9.208                0.915926387      -114.18041
9.209                0.915708036     -114.403136
9.21                  0.91548945     -114.626418
9.211                0.915270636     -114.850256
9.212                0.915051599     -115.074651
9.213                0.914832343     -115.299603
9.214                0.914612874     -115.525113
9.215                0.914393199     -115.751182
9.216                0.914173321     -115.977808
9.217                0.913953248     -116.204994
9.218                0.913732984     -116.432739
9.219                0.913512536     -116.661043
9.22                 0.913291909     -116.889907
9.221                0.913071109     -117.119332
9.222                0.912850142     -117.349317
9.223                0.912629015     -117.579863
9.224                0.912407733      -117.81097
9.225                0.912186302     -118.042639
9.226                0.911964728     -118.274869
9.227                0.911743019     -118.507661
9.228                 0.91152118     -118.741015
9.229                0.911299217     -118.974931
9.23                 0.911077138     -119.209409
9.231                0.910854949      -119.44445
9.232                0.910632655     -119.680054
9.233                0.910410265      -119.91622
9.234                0.910187785     -120.152949
9.235                0.909965221     -120.390242
9.236                0.909742581     -120.628097
9.237                0.909519871     -120.866515
9.238                0.909297099     -121.105496
9.239                0.909074271     -121.345041
9.24                 0.908851395     -121.585148
9.241                0.908628478     -121.825818
9.242                0.908405528     -122.067052
9.243                 0.90818255     -122.308848
9.244                0.907959554     -122.551207
9.245                0.907736547     -122.794128
9.246                0.907513535     -123.037613
9.247                0.907290527     -123.281659
9.248                0.907067531     -123.526268
9.249                0.906844554     -123.771438
9.25                 0.906621603     -124.017171
9.251                0.906398688     -124.263465
9.252                0.906175815      -124.51032
9.253                0.905952994     -124.757736
9.254                0.905730231     -125.005713
9.255                0.905507535      -125.25425
9.256                0.905284915     -125.503347
9.257                0.905062378     -125.753004
9.258                0.904839933      -126.00322
9.259                0.904617588     -126.253995
9.26                 0.904395353     -126.505328
9.261                0.904173234     -126.757219
9.262                0.903951242     -127.009668
9.263                0.903729384     -127.262673
9.264                 0.90350767     -127.516235
9.265                0.903286107     -127.770353
9.266                0.903064706     -128.025025
9.267                0.902843474     -128.280253
9.268                0.902622422     -128.536034
9.269                0.902401557     -128.792369
9.27                  0.90218089     -129.049256
9.271                0.901960428     -129.306696
9.272                0.901740182     -129.564686
9.273                0.901520161     -129.823227
9.274                0.901300373     -130.082318
9.275                0.901080829     -130.341957
9.276                0.900861538     -130.602145
9.277                0.900642509     -130.862879
9.278                0.900423752      -131.12416
9.279                0.900205277     -131.385987
9.28                 0.899987093     -131.648358
9.281                0.899769209     -131.911272
9.282                0.899551637     -132.174729
9.283                0.899334385     -132.438727
9.284                0.899117463     -132.703266
9.285                0.898900882     -132.968344
9.286                0.898684651      -133.23396
9.287                0.898468781     -133.500114
9.288                0.898253281     -133.766803
9.289                0.898038162     -134.034027
9.29                 0.897823434     -134.301785
9.291                0.897609107     -134.570076
9.292                0.897395191     -134.838897
9.293                0.897181697     -135.108248
9.294                0.896968635     -135.378128
9.295                0.896756016     -135.648534
9.296                0.896543849     -135.919467
9.297                0.896332147     -136.190924
9.298                0.896120918     -136.462903
9.299                0.895910174     -136.735405
9.3                  0.895699925     -137.008426
9.301                0.895490182     -137.281965
9.302                0.895280956     -137.556022
9.303                0.895072258     -137.830593
9.304                0.894864097     -138.105679
9.305                0.894656486     -138.381276
9.306                0.894449434     -138.657384
9.307                0.894242954        -138.934
9.308                0.894037055     -139.211124
9.309                0.893831748     -139.488752
9.31                 0.893627046     -139.766884
9.311                0.893422958     -140.045518
9.312                0.893219496     -140.324651
9.313                 0.89301667     -140.604282
9.314                0.892814492     -140.884409
9.315                0.892612974      -141.16503
9.316                0.892412125     -141.446142
9.317                0.892211958     -141.727745
9.318                0.892012483     -142.009836
9.319                0.891813711     -142.292413
9.32                 0.891615655     -142.575473
9.321                0.891418324     -142.859015
9.322                0.891221731     -143.143037
9.323                0.891025887     -143.427536
9.324                0.890830802      -143.71251
9.325                0.890636489     -143.997957
9.326                0.890442958     -144.283874
9.327                 0.89025022      -144.57026
9.328                0.890058288     -144.857111
9.329                0.889867172     -145.144427
9.33                 0.889676884     -145.432203
9.331                0.889487435     -145.720438
9.332                0.889298836     -146.009129
9.333                0.889111099     -146.298274
9.334                0.888924234      -146.58787
9.335                0.888738254     -146.877914
9.336                 0.88855317     -147.168405
9.337                0.888368993     -147.459339
9.338                0.888185734     -147.750714
9.339                0.888003404     -148.042526
9.34                 0.887822015     -148.334775
9.341                0.887641579     -148.627455
9.342                0.887462105     -148.920566
9.343                0.887283606     -149.214103
9.344                0.887106093     -149.508065
9.345                0.886929577     -149.802448
9.346                 0.88675407     -150.097249
9.347                0.886579581     -150.392466
9.348                0.886406123     -150.688095
9.349                0.886233707     -150.984134
9.35                 0.886062343     -151.280579
9.351                0.885892043     -151.577428
9.352                0.885722818     -151.874677
9.353                0.885554679     -152.172323
9.354                0.885387637     -152.470363
9.355                0.885221702     -152.768794
9.356                0.885056886     -153.067613
9.357                0.884893199     -153.366816
9.358                0.884730652       -153.6664
9.359                0.884569257     -153.966362
9.36                 0.884409023     -154.266699
9.361                0.884249962     -154.567407
9.362                0.884092084     -154.868483
9.363                0.883935399     -155.169923
9.364                0.883779919     -155.471724
9.365                0.883625653     -155.773883
9.366                0.883472613     -156.076395
9.367                0.883320808     -156.379259
9.368                0.883170248     -156.682469
9.369                0.883020945     -156.986022
9.37                 0.882872909     -157.289915
9.371                0.882726148     -157.594144
9.372                0.882580675     -157.898706
9.373                0.882436497     -158.203596
9.374                0.882293627     -158.508812
9.375                0.882152072     -158.814348
9.376                0.882011844     -159.120202
9.377                0.881872951      -159.42637
9.378                0.881735405     -159.732848
9.379                0.881599213     -160.039632
9.38                 0.881464386     -160.346718
9.381                0.881330933     -160.654102
9.382                0.881198863      -160.96178
9.383                0.881068186     -161.269749
9.384                 0.88093891     -161.578005
9.385                0.880811046     -161.886542
9.386                0.880684602     -162.195358
9.387                0.880559586     -162.504449
9.388                0.880436008     -162.813809
9.389                0.880313877     -163.123436
9.39                   0.8801932     -163.433325
9.391                0.880073987     -163.743472
9.392                0.879956246     -164.053873
9.393                0.879839985     -164.364523
9.394                0.879725213     -164.675418
9.395                0.879611938     -164.986555
9.396                0.879500168     -165.297928
