! TOUCHSTONE file generated by CST DESIGN STUDIO
! Date and time: Tue Feb  4 17:05:34 2025
! Project name: C:\Work\MatlabApps\UnitCellOptimizationMatlab\CST\unitcell.cst
! Tree item: Tasks\Sweep1\SPara1\S-Parameters
! Header version: 2024
! Port assignment regex: !\s*Touchstone port\s*([0-9]+)\s*=\s*(CST MWS port|CST DES external port|CST DES block port)\s*(.+)\s* \(\"(.*)\"\)(\s*mode\s*([0-9]+))?.*
! Touchstone port assignment:
! Touchstone port 1 = CST DES external port 1 ("")
# GHz S MA R 50
9                    0.969555878     -47.8610894
9.001                0.969498093     -47.9212852
9.002                0.969440135     -47.9816032
9.003                0.969382003     -48.0420436
9.004                0.969323696      -48.102607
9.005                0.969265216     -48.1632936
9.006                 0.96920656     -48.2241039
9.007                0.969147729     -48.2850382
9.008                0.969088721     -48.3460968
9.009                0.969029537     -48.4072803
9.01                 0.968970176     -48.4685889
9.011                0.968910637     -48.5300231
9.012                 0.96885092     -48.5915832
9.013                0.968791024     -48.6532696
9.014                0.968730949     -48.7150827
9.015                0.968670694      -48.777023
9.016                0.968610259     -48.8390906
9.017                0.968549643     -48.9012862
9.018                0.968488845       -48.96361
9.019                0.968427866     -49.0260625
9.02                 0.968366703     -49.0886441
9.021                0.968305358     -49.1513551
9.022                0.968243829     -49.2141959
9.023                0.968182116      -49.277167
9.024                0.968120219     -49.3402688
9.025                0.968058136     -49.4035016
9.026                0.967995867     -49.4668659
9.027                0.967933412      -49.530362
9.028                0.967870769     -49.5939905
9.029                 0.96780794     -49.6577516
9.03                 0.967744922     -49.7216458
9.031                0.967681715     -49.7856735
9.032                0.967618319     -49.8498351
9.033                0.967554734     -49.9141311
9.034                0.967490958     -49.9785619
9.035                0.967426991     -50.0431278
9.036                0.967362832     -50.1078293
9.037                0.967298481     -50.1726668
9.038                0.967233938     -50.2376407
9.039                0.967169201     -50.3027515
9.04                  0.96710427     -50.3679996
9.041                0.967039145     -50.4333854
9.042                0.966973824     -50.4989094
9.043                0.966908308     -50.5645719
9.044                0.966842596     -50.6303735
9.045                0.966776687     -50.6963145
9.046                 0.96671058     -50.7623953
9.047                0.966644275     -50.8286165
9.048                0.966577771     -50.8949784
9.049                0.966511068     -50.9614816
9.05                 0.966444165     -51.0281263
9.051                0.966377061     -51.0949132
9.052                0.966309756     -51.1618426
9.053                0.966242249     -51.2289149
9.054                 0.96617454     -51.2961307
9.055                0.966106628     -51.3634903
9.056                0.966038511     -51.4309943
9.057                0.965970191      -51.498643
9.058                0.965901666      -51.566437
9.059                0.965832935     -51.6343767
9.06                 0.965763997     -51.7024625
9.061                0.965694853      -51.770695
9.062                0.965625501     -51.8390745
9.063                0.965555941     -51.9076015
9.064                0.965486172     -51.9762766
9.065                0.965416194     -52.0451001
9.066                0.965346005     -52.1140725
9.067                0.965275606     -52.1831944
9.068                0.965204995     -52.2524661
9.069                0.965134172     -52.3218883
9.07                 0.965063136     -52.3914612
9.071                0.964991886     -52.4611854
9.072                0.964920423     -52.5310615
9.073                0.964848744     -52.6010898
9.074                 0.96477685     -52.6712709
9.075                 0.96470474     -52.7416052
9.076                0.964632413     -52.8120932
9.077                0.964559869     -52.8827355
9.078                0.964487106     -52.9535324
9.079                0.964414124     -53.0244846
9.08                 0.964340923     -53.0955924
9.081                0.964267501     -53.1668565
9.082                0.964193859     -53.2382772
9.083                0.964119994     -53.3098551
9.084                0.964045908     -53.3815907
9.085                0.963971598     -53.4534845
9.086                0.963897064      -53.525537
9.087                0.963822306     -53.5977487
9.088                0.963747322     -53.6701201
9.089                0.963672113     -53.7426518
9.09                 0.963596677     -53.8153441
9.091                0.963521013     -53.8881978
9.092                0.963445122     -53.9612132
9.093                0.963369001     -54.0343908
9.094                0.963292651     -54.1077313
9.095                0.963216071     -54.1812351
9.096                0.963139259     -54.2549028
9.097                0.963062216     -54.3287349
9.098                0.962984941     -54.4027318
9.099                0.962907432     -54.4768942
9.1                  0.962829689     -54.5512226
9.101                0.962751711     -54.6257175
9.102                0.962673498     -54.7003794
9.103                0.962595049     -54.7752089
9.104                0.962516362     -54.8502065
9.105                0.962437438     -54.9253728
9.106                0.962358276     -55.0007083
9.107                0.962278874     -55.0762135
9.108                0.962199232     -55.1518891
9.109                0.962119349     -55.2277355
9.11                 0.962039225     -55.3037533
9.111                0.961958858      -55.379943
9.112                0.961878249     -55.4563053
9.113                0.961797395     -55.5328406
9.114                0.961716297     -55.6095496
9.115                0.961634953     -55.6864328
9.116                0.961553363     -55.7634907
9.117                0.961471526      -55.840724
9.118                0.961389441     -55.9181332
9.119                0.961307108     -55.9957188
9.12                 0.961224525     -56.0734815
9.121                0.961141692     -56.1514217
9.122                0.961058608     -56.2295402
9.123                0.960975272     -56.3078375
9.124                0.960891683     -56.3863141
9.125                0.960807841     -56.4649707
9.126                0.960723745     -56.5438077
9.127                0.960639394     -56.6228259
9.128                0.960554787     -56.7020258
9.129                0.960469923      -56.781408
9.13                 0.960384802     -56.8609731
9.131                0.960299422     -56.9407217
9.132                0.960213783     -57.0206544
9.133                0.960127884     -57.1007717
9.134                0.960041725     -57.1810744
9.135                0.959955303     -57.2615629
9.136                 0.95986862      -57.342238
9.137                0.959781672     -57.4231001
9.138                0.959694461       -57.50415
9.139                0.959606985     -57.5853883
9.14                 0.959519242     -57.6668155
9.141                0.959431233     -57.7484323
9.142                0.959342957     -57.8302393
9.143                0.959254412     -57.9122371
9.144                0.959165597     -57.9944264
9.145                0.959076513     -58.0768078
9.146                0.958987157     -58.1593819
9.147                 0.95889753     -58.2421493
9.148                 0.95880763     -58.3251108
9.149                0.958717456     -58.4082668
9.15                 0.958627007     -58.4916181
9.151                0.958536284     -58.5751653
9.152                0.958445284     -58.6589091
9.153                0.958354006       -58.74285
9.154                0.958262451     -58.8269888
9.155                0.958170617     -58.9113261
9.156                0.958078503     -58.9958626
9.157                0.957986108     -59.0805989
9.158                0.957893432     -59.1655356
9.159                0.957800474     -59.2506735
9.16                 0.957707231     -59.3360132
9.161                0.957613705     -59.4215553
9.162                0.957519893     -59.5073006
9.163                0.957425796     -59.5932497
9.164                0.957331411     -59.6794033
9.165                0.957236738      -59.765762
9.166                0.957141777     -59.8523266
9.167                0.957046525     -59.9390976
9.168                0.956950983     -60.0260759
9.169                 0.95685515     -60.1132621
9.17                 0.956759024     -60.2006568
9.171                0.956662604     -60.2882608
9.172                 0.95656589     -60.3760748
9.173                0.956468881     -60.4640995
9.174                0.956371576     -60.5523355
9.175                0.956273973     -60.6407835
9.176                0.956176072     -60.7294444
9.177                0.956077873     -60.8183187
9.178                0.955979373     -60.9074071
9.179                0.955880572     -60.9967105
9.18                  0.95578147     -61.0862295
9.181                0.955682064     -61.1759648
9.182                0.955582355     -61.2659172
9.183                0.955482341     -61.3560873
9.184                0.955382021     -61.4464759
9.185                0.955281395     -61.5370838
9.186                0.955180461     -61.6279116
9.187                0.955079218       -61.71896
9.188                0.954977666     -61.8102299
9.189                0.954875804      -61.901722
9.19                 0.954773629     -61.9934369
9.191                0.954671143     -62.0853756
9.192                0.954568343     -62.1775385
9.193                0.954465229     -62.2699267
9.194                0.954361799     -62.3625407
9.195                0.954258053     -62.4553814
9.196                0.954153989     -62.5484494
9.197                0.954049608     -62.6417457
9.198                0.953944907     -62.7352708
9.199                0.953839885     -62.8290257
9.2                  0.953734543      -62.923011
9.201                0.953628878     -63.0172275
9.202                 0.95352289      -63.111676
9.203                0.953416577     -63.2063573
9.204                 0.95330994     -63.3012722
9.205                0.953202976     -63.3964214
9.206                0.953095685     -63.4918058
9.207                0.952988065      -63.587426
9.208                0.952880117      -63.683283
9.209                0.952771838     -63.7793774
9.21                 0.952663228     -63.8757101
9.211                0.952554285      -63.972282
9.212                 0.95244501     -64.0690937
9.213                  0.9523354     -64.1661461
9.214                0.952225454       -64.26344
9.215                0.952115173     -64.3609762
9.216                0.952004554     -64.4587556
9.217                0.951893597     -64.5567788
9.218                  0.9517823     -64.6550469
9.219                0.951670663     -64.7535605
9.22                 0.951558685     -64.8523206
9.221                0.951446364     -64.9513278
9.222                  0.9513337     -65.0505831
9.223                0.951220691     -65.1500874
9.224                0.951107336     -65.2498413
9.225                0.950993636     -65.3498458
9.226                0.950879587     -65.4501018
9.227                 0.95076519       -65.55061
9.228                0.950650444     -65.6513713
9.229                0.950535347     -65.7523865
9.23                 0.950419898     -65.8536566
9.231                0.950304096     -65.9551823
9.232                0.950187941     -66.0569645
9.233                0.950071431     -66.1590042
9.234                0.949954565     -66.2613021
9.235                0.949837342     -66.3638591
9.236                0.949719761      -66.466676
9.237                0.949601822     -66.5697539
9.238                0.949483522     -66.6730935
9.239                0.949364861     -66.7766957
9.24                 0.949245839     -66.8805615
9.241                0.949126453     -66.9846916
9.242                0.949006703      -67.089087
9.243                0.948886588     -67.1937485
9.244                0.948766107     -67.2986772
9.245                0.948645258     -67.4038738
9.246                0.948524041     -67.5093393
9.247                0.948402455     -67.6150745
9.248                0.948280499     -67.7210804
9.249                0.948158171     -67.8273579
9.25                  0.94803547     -67.9339079
9.251                0.947912396     -68.0407314
9.252                0.947788948     -68.1478292
9.253                0.947665124     -68.2552022
9.254                0.947540923     -68.3628514
9.255                0.947416344     -68.4707778
9.256                0.947291387     -68.5789821
9.257                 0.94716605     -68.6874655
9.258                0.947040333     -68.7962288
9.259                0.946914233     -68.9052729
9.26                  0.94678775     -69.0145989
9.261                0.946660884     -69.1242076
9.262                0.946533633        -69.2341
9.263                0.946405995     -69.3442771
9.264                0.946277971     -69.4547398
9.265                0.946149558      -69.565489
9.266                0.946020757     -69.6765258
9.267                0.945891565     -69.7878511
9.268                0.945761982     -69.8994659
9.269                0.945632007     -70.0113711
9.27                 0.945501638     -70.1235677
9.271                0.945370875     -70.2360567
9.272                0.945239717     -70.3488391
9.273                0.945108163     -70.4619158
9.274                0.944976211     -70.5752879
9.275                0.944843861     -70.6889564
9.276                0.944711111     -70.8029221
9.277                0.944577961     -70.9171862
9.278                 0.94444441     -71.0317497
9.279                0.944310456     -71.1466134
9.28                 0.944176098     -71.2617785
9.281                0.944041336      -71.377246
9.282                0.943906169     -71.4930168
9.283                0.943770595      -71.609092
9.284                0.943634613     -71.7254726
9.285                0.943498223     -71.8421596
9.286                0.943361424      -71.959154
9.287                0.943224213     -72.0764569
9.288                0.943086592     -72.1940693
9.289                0.942948558     -72.3119923
9.29                  0.94281011     -72.4302268
9.291                0.942671248      -72.548774
9.292                 0.94253197     -72.6676348
9.293                0.942392276     -72.7868103
9.294                0.942252164     -72.9063015
9.295                0.942111634     -73.0261096
9.296                0.941970684     -73.1462356
9.297                0.941829314     -73.2666804
9.298                0.941687523     -73.3874453
9.299                 0.94154531     -73.5085312
9.3                  0.941402673     -73.6299392
9.301                0.941259612     -73.7516704
9.302                0.941116126     -73.8737259
9.303                0.940972214     -73.9961067
9.304                0.940827874      -74.118814
9.305                0.940683107     -74.2418487
9.306                0.940537911     -74.3652121
9.307                0.940392285     -74.4889052
9.308                0.940246228      -74.612929
9.309                 0.94009974     -74.7372847
9.31                 0.939952818     -74.8619734
9.311                0.939805464     -74.9869962
9.312                0.939657675     -75.1123541
9.313                0.939509451     -75.2380484
9.314                 0.93936079       -75.36408
9.315                0.939211693     -75.4904502
9.316                0.939062157       -75.61716
9.317                0.938912183     -75.7442106
9.318                0.938761769      -75.871603
9.319                0.938610914     -75.9993385
9.32                 0.938459618     -76.1274181
9.321                 0.93830788      -76.255843
9.322                0.938155699     -76.3846142
9.323                0.938003073     -76.5137331
9.324                0.937850003     -76.6432006
9.325                0.937696487     -76.7730179
9.326                0.937542525     -76.9031862
9.327                0.937388116     -77.0337067
9.328                0.937233259     -77.1645804
9.329                0.937077953     -77.2958086
9.33                 0.936922197     -77.4273923
9.331                0.936765991     -77.5593328
9.332                0.936609333     -77.6916313
9.333                0.936452224     -77.8242888
9.334                0.936294663     -77.9573066
9.335                0.936136647     -78.0906858
9.336                0.935978178     -78.2244276
9.337                0.935819254     -78.3585333
9.338                0.935659874     -78.4930038
9.339                0.935500038     -78.6278406
9.34                 0.935339745     -78.7630447
9.341                0.935178995     -78.8986173
9.342                0.935017786     -79.0345596
9.343                0.934856118     -79.1708729
9.344                 0.93469399     -79.3075582
9.345                0.934531402     -79.4446169
9.346                0.934368353     -79.5820501
9.347                0.934204843     -79.7198591
9.348                 0.93404087     -79.8580449
9.349                0.933876435     -79.9966089
9.35                 0.933711536     -80.1355523
9.351                0.933546173     -80.2748762
9.352                0.933380346      -80.414582
9.353                0.933214053     -80.5546707
9.354                0.933047295     -80.6951437
9.355                0.932880071     -80.8360022
9.356                 0.93271238     -80.9772473
9.357                0.932544222     -81.1188804
9.358                0.932375596     -81.2609026
9.359                0.932206502     -81.4033152
9.36                 0.932036939     -81.5461194
9.361                0.931866907     -81.6893165
9.362                0.931696405     -81.8329077
9.363                0.931525434     -81.9768943
9.364                0.931353992     -82.1212775
9.365                 0.93118208     -82.2660585
9.366                0.931009696     -82.4112387
9.367                 0.93083684     -82.5568192
9.368                0.930663513     -82.7028013
9.369                0.930489714     -82.8491863
9.37                 0.930315442     -82.9959754
9.371                0.930140697     -83.1431699
9.372                0.929965478     -83.2907711
9.373                0.929789787     -83.4387802
9.374                0.929613622     -83.5871985
9.375                0.929436982     -83.7360273
9.376                0.929259869     -83.8852678
9.377                0.929082281     -84.0349213
9.378                0.928904219     -84.1849891
9.379                0.928725681     -84.3354724
9.38                 0.928546669     -84.4863726
9.381                0.928367182     -84.6376909
9.382                 0.92818722     -84.7894286
9.383                0.928006782     -84.9415871
9.384                 0.92782587     -85.0941674
9.385                0.927644481     -85.2471711
9.386                0.927462618     -85.4005993
9.387                0.927280278     -85.5544533
9.388                0.927097464     -85.7087345
9.389                0.926914174     -85.8634441
9.39                 0.926730408     -86.0185834
9.391                0.926546167     -86.1741537
9.392                0.926361451     -86.3301564
9.393                 0.92617626     -86.4865926
9.394                0.925990593     -86.6434638
9.395                0.925804452     -86.8007712
9.396                0.925617836      -86.958516
