! TOUCHSTONE file generated by CST DESIGN STUDIO
! Date and time: Tue Feb  4 17:05:29 2025
! Project name: C:\Work\MatlabApps\UnitCellOptimizationMatlab\CST\unitcell.cst
! Tree item: Tasks\Sweep1\SPara1\S-Parameters
! Header version: 2024
! Port assignment regex: !\s*Touchstone port\s*([0-9]+)\s*=\s*(CST MWS port|CST DES external port|CST DES block port)\s*(.+)\s* \(\"(.*)\"\)(\s*mode\s*([0-9]+))?.*
! Touchstone port assignment:
! Touchstone port 1 = CST DES external port 1 ("")
# GHz S MA R 50
9                    0.965722692     -54.7983696
9.001                0.965649818     -54.8710628
9.002                0.965576709     -54.9439168
9.003                0.965503364      -55.016932
9.004                0.965429782      -55.090109
9.005                0.965355961     -55.1634483
9.006                0.965281902     -55.2369503
9.007                0.965207603     -55.3106157
9.008                0.965133064     -55.3844448
9.009                0.965058284     -55.4584383
9.01                 0.964983263     -55.5325966
9.011                0.964907999     -55.6069202
9.012                0.964832492     -55.6814097
9.013                0.964756741     -55.7560656
9.014                0.964680745     -55.8308885
9.015                0.964604504     -55.9058788
9.016                0.964528016      -55.981037
9.017                0.964451281     -56.0563638
9.018                0.964374299     -56.1318596
9.019                0.964297068      -56.207525
9.02                 0.964219587     -56.2833604
9.021                0.964141857     -56.3593666
9.022                0.964063875     -56.4355439
9.023                0.963985642      -56.511893
9.024                0.963907157     -56.5884143
9.025                0.963828418     -56.6651084
9.026                0.963749425     -56.7419759
9.027                0.963670177     -56.8190174
9.028                0.963590673     -56.8962333
9.029                0.963510913     -56.9736242
9.03                 0.963430896     -57.0511907
9.031                 0.96335062     -57.1289334
9.032                0.963270086     -57.2068527
9.033                0.963189292     -57.2849494
9.034                0.963108238     -57.3632238
9.035                0.963026922     -57.4416767
9.036                0.962945344     -57.5203085
9.037                0.962863503     -57.5991198
9.038                0.962781398     -57.6781112
9.039                0.962699029     -57.7572834
9.04                 0.962616394     -57.8366368
9.041                0.962533493      -57.916172
9.042                0.962450325     -57.9958896
9.043                0.962366889     -58.0757903
9.044                0.962283184     -58.1558745
9.045                 0.96219921     -58.2361429
9.046                0.962114965     -58.3165961
9.047                0.962030449     -58.3972346
9.048                0.961945661     -58.4780591
9.049                  0.9618606     -58.5590701
9.05                 0.961775265     -58.6402683
9.051                0.961689655     -58.7216542
9.052                 0.96160377     -58.8032285
9.053                0.961517608     -58.8849917
9.054                 0.96143117     -58.9669445
9.055                0.961344453     -59.0490875
9.056                0.961257457     -59.1314212
9.057                0.961170181     -59.2139464
9.058                0.961082624     -59.2966635
9.059                0.960994786     -59.3795733
9.06                 0.960906666     -59.4626763
9.061                0.960818262     -59.5459732
9.062                0.960729574     -59.6294647
9.063                0.960640601     -59.7131512
9.064                0.960551341     -59.7970335
9.065                0.960461795     -59.8811122
9.066                0.960371961     -59.9653879
9.067                0.960281839     -60.0498612
9.068                0.960191427     -60.1345329
9.069                0.960100725     -60.2194035
9.07                 0.960009731     -60.3044737
9.071                0.959918445     -60.3897441
9.072                0.959826866     -60.4752154
9.073                0.959734992     -60.5608883
9.074                0.959642824     -60.6467633
9.075                 0.95955036     -60.7328411
9.076                  0.9594576     -60.8191224
9.077                0.959364541     -60.9056079
9.078                0.959271184     -60.9922982
9.079                0.959177528      -61.079194
9.08                 0.959083571      -61.166296
9.081                0.958989312     -61.2536047
9.082                0.958894752     -61.3411209
9.083                0.958799888     -61.4288453
9.084                 0.95870472     -61.5167786
9.085                0.958609247     -61.6049214
9.086                0.958513468     -61.6932743
9.087                0.958417382     -61.7818382
9.088                0.958320989     -61.8706136
9.089                0.958224286     -61.9596013
9.09                 0.958127274     -62.0488019
9.091                0.958029951     -62.1382162
9.092                0.957932316     -62.2278448
9.093                0.957834369     -62.3176885
9.094                0.957736108     -62.4077479
9.095                0.957637533     -62.4980237
9.096                0.957538642     -62.5885167
9.097                0.957439435     -62.6792276
9.098                0.957339911      -62.770157
9.099                0.957240068     -62.8613057
9.1                  0.957139906     -62.9526745
9.101                0.957039424     -63.0442639
9.102                 0.95693862     -63.1360748
9.103                0.956837495     -63.2281079
9.104                0.956736046     -63.3203638
9.105                0.956634273     -63.4128434
9.106                0.956532175     -63.5055473
9.107                0.956429752     -63.5984763
9.108                0.956327001     -63.6916312
9.109                0.956223922     -63.7850126
9.11                 0.956120514     -63.8786213
9.111                0.956016776     -63.9724581
9.112                0.955912707     -64.0665237
9.113                0.955808307     -64.1608188
9.114                0.955703573     -64.2553442
9.115                0.955598505     -64.3501007
9.116                0.955493103      -64.445089
9.117                0.955387365     -64.5403099
9.118                 0.95528129     -64.6357641
9.119                0.955174877     -64.7314525
9.12                 0.955068125     -64.8273757
9.121                0.954961033     -64.9235345
9.122                  0.9548536     -65.0199298
9.123                0.954745826     -65.1165623
9.124                0.954637709     -65.2134327
9.125                0.954529248     -65.3105419
9.126                0.954420442     -65.4078906
9.127                 0.95431129     -65.5054797
9.128                0.954201791     -65.6033099
9.129                0.954091945      -65.701382
9.13                 0.953981749     -65.7996968
9.131                0.953871204     -65.8982551
9.132                0.953760308     -65.9970577
9.133                 0.95364906     -66.0961055
9.134                0.953537458     -66.1953991
9.135                0.953425504     -66.2949395
9.136                0.953313194     -66.3947274
9.137                0.953200528     -66.4947636
9.138                0.953087505     -66.5950491
9.139                0.952974124     -66.6955845
9.14                 0.952860384     -66.7963707
9.141                0.952746284     -66.8974086
9.142                0.952631823      -66.998699
9.143                   0.952517     -67.1002426
9.144                0.952401814     -67.2020404
9.145                0.952286264     -67.3040931
9.146                0.952170348     -67.4064017
9.147                0.952054066     -67.5089669
9.148                0.951937418     -67.6117896
9.149                0.951820401     -67.7148707
9.15                 0.951703014     -67.8182109
9.151                0.951585258     -67.9218112
9.152                 0.95146713     -68.0256725
9.153                 0.95134863     -68.1297954
9.154                0.951229757     -68.2341811
9.155                0.951110509     -68.3388302
9.156                0.950990886     -68.4437436
9.157                0.950870886     -68.5489224
9.158                0.950750509     -68.6543672
9.159                0.950629753      -68.760079
9.16                 0.950508618     -68.8660587
9.161                0.950387103     -68.9723071
9.162                0.950265206     -69.0788252
9.163                0.950142926     -69.1856137
9.164                0.950020263     -69.2926737
9.165                0.949897215      -69.400006
9.166                0.949773781     -69.5076115
9.167                0.949649961     -69.6154911
9.168                0.949525753     -69.7236458
9.169                0.949401156     -69.8320763
9.17                  0.94927617     -69.9407837
9.171                0.949150793     -70.0497687
9.172                0.949025024     -70.1590325
9.173                0.948898862     -70.2685758
9.174                0.948772306     -70.3783995
9.175                0.948645356     -70.4885047
9.176                0.948518009     -70.5988923
9.177                0.948390266      -70.709563
9.178                0.948262125      -70.820518
9.179                0.948133585     -70.9317581
9.18                 0.948004645     -71.0432843
9.181                0.947875304     -71.1550975
9.182                0.947745561     -71.2671986
9.183                0.947615415     -71.3795886
9.184                0.947484865     -71.4922685
9.185                 0.94735391     -71.6052392
9.186                 0.94722255     -71.7185016
9.187                0.947090782     -71.8320567
9.188                0.946958606     -71.9459056
9.189                0.946826021      -72.060049
9.19                 0.946693026     -72.1744881
9.191                0.946559621     -72.2892237
9.192                0.946425803     -72.4042569
9.193                0.946291572     -72.5195886
9.194                0.946156928     -72.6352198
9.195                0.946021868     -72.7511514
9.196                0.945886392     -72.8673846
9.197                  0.9457505     -72.9839202
9.198                 0.94561419     -73.1007592
9.199                0.945477461     -73.2179027
9.2                  0.945340312     -73.3353516
9.201                0.945202742      -73.453107
9.202                 0.94506475     -73.5711698
9.203                0.944926336      -73.689541
9.204                0.944787498     -73.8082217
9.205                0.944648235     -73.9272128
9.206                0.944508547     -74.0465154
9.207                0.944368432     -74.1661305
9.208                0.944227889     -74.2860591
9.209                0.944086919     -74.4063022
9.21                 0.943945518     -74.5268609
9.211                0.943803688     -74.6477362
9.212                0.943661426     -74.7689291
9.213                0.943518732     -74.8904406
9.214                0.943375605     -75.0122718
9.215                0.943232044     -75.1344238
9.216                0.943088048     -75.2568975
9.217                0.942943616      -75.379694
9.218                0.942798747     -75.5028144
9.219                0.942653441     -75.6262597
9.22                 0.942507696      -75.750031
9.221                0.942361511     -75.8741292
9.222                0.942214887     -75.9985556
9.223                0.942067821     -76.1233111
9.224                0.941920313     -76.2483968
9.225                0.941772362     -76.3738138
9.226                0.941623967     -76.4995632
9.227                0.941475128     -76.6256459
9.228                0.941325843     -76.7520632
9.229                0.941176111      -76.878816
9.23                 0.941025932     -77.0059055
9.231                0.940875306     -77.1333328
9.232                 0.94072423     -77.2610988
9.233                0.940572705     -77.3892048
9.234                0.940420729     -77.5176518
9.235                0.940268302     -77.6464409
9.236                0.940115423     -77.7755732
9.237                0.939962091     -77.9050499
9.238                0.939808305     -78.0348719
9.239                0.939654064     -78.1650404
9.24                 0.939499369     -78.2955566
9.241                0.939344217     -78.4264215
9.242                0.939188608     -78.5576363
9.243                0.939032542     -78.6892021
9.244                0.938876018     -78.8211199
9.245                0.938719035     -78.9533909
9.246                0.938561592     -79.0860163
9.247                0.938403688     -79.2189971
9.248                0.938245324     -79.3523346
9.249                0.938086497     -79.4860297
9.25                 0.937927208     -79.6200837
9.251                0.937767456     -79.7544977
9.252                 0.93760724     -79.8892729
9.253                 0.93744656     -80.0244103
9.254                0.937285414     -80.1599112
9.255                0.937123802     -80.2957766
9.256                0.936961724     -80.4320077
9.257                0.936799179     -80.5686057
9.258                0.936636166     -80.7055718
9.259                0.936472685      -80.842907
9.26                 0.936308735     -80.9806126
9.261                0.936144316     -81.1186897
9.262                0.935979426     -81.2571394
9.263                0.935814066      -81.395963
9.264                0.935648235     -81.5351616
9.265                0.935481932     -81.6747363
9.266                0.935315157     -81.8146884
9.267                0.935147909      -81.955019
9.268                0.934980189     -82.0957294
9.269                0.934811994     -82.2368206
9.27                 0.934643325     -82.3782938
9.271                0.934474182     -82.5201503
9.272                0.934304564     -82.6623913
9.273                0.934134471     -82.8050178
9.274                0.933963901     -82.9480312
9.275                0.933792855     -83.0914326
9.276                0.933621333     -83.2352231
9.277                0.933449333     -83.3794041
9.278                0.933276857     -83.5239766
9.279                0.933103902     -83.6689419
9.28                  0.93293047     -83.8143012
9.281                0.932756559     -83.9600557
9.282                0.932582169     -84.1062066
9.283                  0.9324073     -84.2527551
9.284                0.932231953     -84.3997024
9.285                0.932056125     -84.5470498
9.286                0.931879818     -84.6947983
9.287                0.931703031     -84.8429493
9.288                0.931525764      -84.991504
9.289                0.931348017     -85.1404636
9.29                 0.931169789     -85.2898293
9.291                 0.93099108     -85.4396022
9.292                0.930811891     -85.5897838
9.293                0.930632221     -85.7403751
9.294                 0.93045207     -85.8913774
9.295                0.930271437     -86.0427919
9.296                0.930090324     -86.1946198
9.297                 0.92990873     -86.3468624
9.298                0.929726654     -86.4995209
9.299                0.929544097     -86.6525966
9.3                  0.929361059     -86.8060906
9.301                 0.92917754     -86.9600042
9.302                0.928993539     -87.1143386
9.303                0.928809058     -87.2690952
9.304                0.928624096      -87.424275
9.305                0.928438653     -87.5798793
9.306                 0.92825273     -87.7359095
9.307                0.928066326     -87.8923666
9.308                0.927879441      -88.049252
9.309                0.927692077      -88.206567
9.31                 0.927504233     -88.3643126
9.311                0.927315909     -88.5224903
9.312                0.927127106     -88.6811011
9.313                0.926937824     -88.8401465
9.314                0.926748063     -88.9996276
9.315                0.926557824     -89.1595456
9.316                0.926367107     -89.3199018
9.317                0.926175913     -89.4806975
9.318                0.925984241     -89.6419339
9.319                0.925792092     -89.8036122
9.32                 0.925599468     -89.9657337
9.321                0.925406367     -90.1282997
9.322                0.925212792     -90.2913113
9.323                0.925018742     -90.4547699
9.324                0.924824218     -90.6186766
9.325                 0.92462922     -90.7830328
9.326                0.924433749     -90.9478396
9.327                0.924237807     -91.1130984
9.328                0.924041393     -91.2788103
9.329                0.923844508     -91.4449767
9.33                 0.923647153     -91.6115986
9.331                0.923449329     -91.7786775
9.332                0.923251037     -91.9462146
9.333                0.923052277      -92.114211
9.334                 0.92285305      -92.282668
9.335                0.922653357      -92.451587
9.336                  0.9224532      -92.620969
9.337                0.922252578     -92.7908154
9.338                0.922051494     -92.9611274
9.339                0.921849948     -93.1319062
9.34                 0.921647941     -93.3031532
9.341                0.921445474     -93.4748694
9.342                0.921242548     -93.6470562
9.343                0.921039165     -93.8197147
9.344                0.920835326     -93.9928463
9.345                0.920631031     -94.1664522
9.346                0.920426283     -94.3405335
9.347                0.920221082     -94.5150915
9.348                 0.92001543     -94.6901275
9.349                0.919809328     -94.8656426
9.35                 0.919602778     -95.0416381
9.351                0.919395781     -95.2181152
9.352                0.919188338     -95.3950752
9.353                0.918980451     -95.5725192
9.354                0.918772121     -95.7504484
9.355                0.918563351     -95.9288641
9.356                0.918354141     -96.1077676
9.357                0.918144493     -96.2871599
9.358                 0.91793441     -96.4670423
9.359                0.917723892      -96.647416
9.36                 0.917512942     -96.8282823
9.361                0.917301562     -97.0096422
9.362                0.917089752      -97.191497
9.363                0.916877516      -97.373848
9.364                0.916664855     -97.5566962
9.365                 0.91645177     -97.7400428
9.366                0.916238265     -97.9238892
9.367                0.916024341     -98.1082363
9.368                0.915810001     -98.2930855
9.369                0.915595245     -98.4784379
9.37                 0.915380078     -98.6642945
9.371                  0.9151645     -98.8506568
9.372                0.914948514     -99.0375256
9.373                0.914732123     -99.2249024
9.374                0.914515328     -99.4127881
9.375                0.914298133     -99.6011839
9.376                0.914080539      -99.790091
9.377                 0.91386255     -99.9795105
9.378                0.913644167     -100.169444
9.379                0.913425394     -100.359891
9.38                 0.913206232     -100.550855
9.381                0.912986686     -100.742336
9.382                0.912766757     -100.934334
9.383                0.912546448     -101.126852
9.384                0.912325762      -101.31989
9.385                0.912104703     -101.513449
9.386                0.911883272     -101.707531
9.387                0.911661473     -101.902136
9.388                0.911439309     -102.097267
9.389                0.911216784     -102.292922
9.39                 0.910993899     -102.489105
9.391                0.910770659     -102.685815
9.392                0.910547067     -102.883055
9.393                0.910323125     -103.080824
9.394                0.910098838     -103.279124
9.395                0.909874209     -103.477956
9.396                0.909649241     -103.677322
