! TOUCHSTONE file generated by CST DESIGN STUDIO
! Date and time: Tue Feb  4 17:05:16 2025
! Project name: C:\Work\MatlabApps\UnitCellOptimizationMatlab\CST\unitcell.cst
! Tree item: Tasks\Sweep1\SPara1\S-Parameters
! Header version: 2024
! Port assignment regex: !\s*Touchstone port\s*([0-9]+)\s*=\s*(CST MWS port|CST DES external port|CST DES block port)\s*(.+)\s* \(\"(.*)\"\)(\s*mode\s*([0-9]+))?.*
! Touchstone port assignment:
! Touchstone port 1 = CST DES external port 1 ("")
# GHz S MA R 50
9                    0.954601074     -74.4341157
9.001                 0.95448218     -74.5514639
9.002                0.954362879      -74.669116
9.003                0.954243171     -74.7870727
9.004                0.954123054     -74.9053351
9.005                0.954002527     -75.0239042
9.006                0.953881589     -75.1427809
9.007                 0.95376024     -75.2619663
9.008                0.953638477     -75.3814612
9.009                  0.9535163     -75.5012668
9.01                 0.953393709     -75.6213839
9.011                0.953270701     -75.7418136
9.012                0.953147276     -75.8625569
9.013                0.953023432     -75.9836148
9.014                 0.95289917     -76.1049883
9.015                0.952774487     -76.2266783
9.016                0.952649382     -76.3486859
9.017                0.952523855     -76.4710121
9.018                0.952397905     -76.5936579
9.019                 0.95227153     -76.7166244
9.02                  0.95214473     -76.8399124
9.021                0.952017503     -76.9635231
9.022                0.951889848     -77.0874575
9.023                0.951761765     -77.2117166
9.024                0.951633252     -77.3363015
9.025                0.951504309      -77.461213
9.026                0.951374934     -77.5864524
9.027                0.951245126     -77.7120206
9.028                0.951114885     -77.8379187
9.029                0.950984209     -77.9641476
9.03                 0.950853097     -78.0907085
9.031                0.950721549     -78.2176024
9.032                0.950589563     -78.3448304
9.033                0.950457138     -78.4723934
9.034                0.950324274     -78.6002925
9.035                 0.95019097     -78.7285289
9.036                0.950057224     -78.8571035
9.037                0.949923035     -78.9860174
9.038                0.949788403     -79.1152717
9.039                0.949653327     -79.2448674
9.04                 0.949517805     -79.3748056
9.041                0.949381837     -79.5050874
9.042                0.949245422     -79.6357139
9.043                0.949108559     -79.7666861
9.044                0.948971247      -79.898005
9.045                0.948833485     -80.0296718
9.046                0.948695272     -80.1616876
9.047                0.948556608     -80.2940535
9.048                0.948417491     -80.4267704
9.049                 0.94827792     -80.5598396
9.05                 0.948137895     -80.6932621
9.051                0.947997415      -80.827039
9.052                0.947856478     -80.9611713
9.053                0.947715085     -81.0956603
9.054                0.947573234     -81.2305069
9.055                0.947430924     -81.3657124
9.056                0.947288154     -81.5012777
9.057                0.947144925      -81.637204
9.058                0.947001234     -81.7734925
9.059                0.946857081     -81.9101441
9.06                 0.946712466     -82.0471601
9.061                0.946567386     -82.1845415
9.062                0.946421843     -82.3222895
9.063                0.946275834     -82.4604052
9.064                 0.94612936     -82.5988897
9.065                0.945982419     -82.7377441
9.066                 0.94583501     -82.8769695
9.067                0.945687134     -83.0165671
9.068                0.945538789     -83.1565381
9.069                0.945389974     -83.2968834
9.07                 0.945240688     -83.4376043
9.071                0.945090932     -83.5787019
9.072                0.944940704     -83.7201774
9.073                0.944790004     -83.8620318
9.074                0.944638831     -84.0042663
9.075                0.944487184     -84.1468821
9.076                0.944335063     -84.2898803
9.077                0.944182467      -84.433262
9.078                0.944029395     -84.5770284
9.079                0.943875847     -84.7211807
9.08                 0.943721823     -84.8657199
9.081                0.943567321     -85.0106473
9.082                0.943412341     -85.1559639
9.083                0.943256883      -85.301671
9.084                0.943100946     -85.4477697
9.085                0.942944529     -85.5942611
9.086                0.942787632     -85.7411465
9.087                0.942630255     -85.8884269
9.088                0.942472396     -86.0361035
9.089                0.942314056     -86.1841776
9.09                 0.942155234     -86.3326502
9.091                 0.94199593     -86.4815225
9.092                0.941836142     -86.6307958
9.093                0.941675872     -86.7804711
9.094                0.941515117     -86.9305496
9.095                0.941353879     -87.0810325
9.096                0.941192156      -87.231921
9.097                0.941029948     -87.3832162
9.098                0.940867255     -87.5349194
9.099                0.940704076     -87.6870316
9.1                  0.940540412     -87.8395541
9.101                0.940376262     -87.9924881
9.102                0.940211625     -88.1458346
9.103                0.940046501      -88.299595
9.104                0.939880891     -88.4537703
9.105                0.939714793     -88.6083618
9.106                0.939548209     -88.7633706
9.107                0.939381136     -88.9187979
9.108                0.939213576      -89.074645
9.109                0.939045528     -89.2309129
9.11                 0.938876992     -89.3876028
9.111                0.938707968      -89.544716
9.112                0.938538456     -89.7022536
9.113                0.938368456     -89.8602169
9.114                0.938197967     -90.0186069
9.115                 0.93802699     -90.1774249
9.116                0.937855525      -90.336672
9.117                0.937683571     -90.4963495
9.118                0.937511129     -90.6564586
9.119                0.937338199     -90.8170003
9.12                  0.93716478     -90.9779759
9.121                0.936990874     -91.1393866
9.122                0.936816479     -91.3012336
9.123                0.936641597      -91.463518
9.124                0.936466227     -91.6262411
9.125                0.936290369      -91.789404
9.126                0.936114024     -91.9530078
9.127                0.935937192     -92.1170539
9.128                0.935759873     -92.2815433
9.129                0.935582068     -92.4464773
9.13                 0.935403776      -92.611857
9.131                0.935224999     -92.7776836
9.132                0.935045736     -92.9439583
9.133                0.934865988     -93.1106823
9.134                0.934685755     -93.2778567
9.135                0.934505038     -93.4454828
9.136                0.934323836     -93.6135616
9.137                0.934142152     -93.7820945
9.138                0.933959985     -93.9510824
9.139                0.933777335     -94.1205268
9.14                 0.933594203     -94.2904286
9.141                0.933410591     -94.4607891
9.142                0.933226497     -94.6316094
9.143                0.933041924     -94.8028907
9.144                0.932856872     -94.9746342
9.145                0.932671341     -95.1468411
9.146                0.932485332     -95.3195124
9.147                0.932298847     -95.4926495
9.148                0.932111885     -95.6662533
9.149                0.931924448     -95.8403251
9.15                 0.931736536     -96.0148661
9.151                0.931548151     -96.1898774
9.152                0.931359293     -96.3653601
9.153                0.931169963     -96.5413154
9.154                0.930980163     -96.7177444
9.155                0.930789892     -96.8946484
9.156                0.930599153     -97.0720284
9.157                0.930407947     -97.2498855
9.158                0.930216274      -97.428221
9.159                0.930024136     -97.6070359
9.16                 0.929831534     -97.7863314
9.161                0.929638469     -97.9661085
9.162                0.929444942     -98.1463686
9.163                0.929250955     -98.3271125
9.164                0.929056509     -98.5083416
9.165                0.928861605     -98.6900569
9.166                0.928666245     -98.8722594
9.167                 0.92847043     -99.0549504
9.168                0.928274162     -99.2381309
9.169                0.928077443      -99.421802
9.17                 0.927880273     -99.6059649
9.171                0.927682654     -99.7906205
9.172                0.927484589     -99.9757701
9.173                0.927286078     -100.161415
9.174                0.927087123     -100.347555
9.175                0.926887727     -100.534193
9.176                0.926687891     -100.721329
9.177                0.926487616     -100.908965
9.178                0.926286905       -101.0971
9.179                 0.92608576     -101.285738
9.18                 0.925884182     -101.474877
9.181                0.925682174     -101.664521
9.182                0.925479738     -101.854668
9.183                0.925276875     -102.045322
9.184                0.925073587     -102.236482
9.185                0.924869878      -102.42815
9.186                0.924665749     -102.620326
9.187                0.924461203     -102.813013
9.188                0.924256241      -103.00621
9.189                0.924050866     -103.199919
9.19                 0.923845081      -103.39414
9.191                0.923638888     -103.588876
9.192                0.923432289     -103.784126
9.193                0.923225287     -103.979892
9.194                0.923017885     -104.176174
9.195                0.922810085     -104.372975
9.196                 0.92260189     -104.570294
9.197                0.922393303     -104.768132
9.198                0.922184326     -104.966492
9.199                0.921974962     -105.165372
9.2                  0.921765214     -105.364775
9.201                0.921555085     -105.564702
9.202                0.921344579     -105.765153
9.203                0.921133697     -105.966129
9.204                0.920922443     -106.167631
9.205                0.920710821      -106.36966
9.206                0.920498833     -106.572218
9.207                0.920286483     -106.775304
9.208                0.920073773     -106.978919
9.209                0.919860708     -107.183066
9.21                  0.91964729     -107.387743
9.211                0.919433524     -107.592953
9.212                0.919219412     -107.798696
9.213                0.919004959     -108.004973
9.214                0.918790167     -108.211785
9.215                 0.91857504     -108.419132
9.216                0.918359583     -108.627016
9.217                0.918143799     -108.835437
9.218                0.917927691     -109.044396
9.219                0.917711264     -109.253893
9.22                 0.917494521      -109.46393
9.221                0.917277468     -109.674508
9.222                0.917060106     -109.885626
9.223                0.916842442     -110.097286
9.224                0.916624478     -110.309489
9.225                0.916406219     -110.522234
9.226                 0.91618767     -110.735524
9.227                0.915968835     -110.949358
9.228                0.915749718     -111.163738
9.229                0.915530323     -111.378663
9.23                 0.915310656     -111.594135
9.231                 0.91509072     -111.810155
9.232                0.914870521     -112.026722
9.233                0.914650063     -112.243837
9.234                 0.91442935     -112.461502
9.235                0.914208389     -112.679717
9.236                0.913987182     -112.898482
9.237                0.913765737     -113.117797
9.238                0.913544057     -113.337664
9.239                0.913322147     -113.558083
9.24                 0.913100014     -113.779055
9.241                0.912877661      -114.00058
9.242                0.912655095     -114.222658
9.243                 0.91243232      -114.44529
9.244                0.912209342     -114.668477
9.245                0.911986166     -114.892219
9.246                0.911762798     -115.116516
9.247                0.911539244     -115.341369
9.248                0.911315509     -115.566778
9.249                0.911091598     -115.792744
9.25                 0.910867518     -116.019267
9.251                0.910643275     -116.246348
9.252                0.910418874     -116.473987
9.253                0.910194321     -116.702183
9.254                0.909969623     -116.930939
9.255                0.909744785     -117.160253
9.256                0.909519814     -117.390126
9.257                0.909294716     -117.620559
9.258                0.909069496     -117.851551
9.259                0.908844163     -118.083104
9.26                 0.908618721     -118.315216
9.261                0.908393177     -118.547889
9.262                0.908167539     -118.781123
9.263                0.907941812     -119.014917
9.264                0.907716003     -119.249273
9.265                 0.90749012     -119.484189
9.266                0.907264168     -119.719667
9.267                0.907038155     -119.955706
9.268                0.906812088     -120.192307
9.269                0.906585974     -120.429469
9.27                 0.906359819     -120.667193
9.271                0.906133632     -120.905478
9.272                0.905907419     -121.144325
9.273                0.905681187     -121.383734
9.274                0.905454944     -121.623704
9.275                0.905228697     -121.864236
9.276                0.905002455      -122.10533
9.277                0.904776223     -122.346985
9.278                0.904550011     -122.589202
9.279                0.904323825     -122.831979
9.28                 0.904097674     -123.075318
9.281                0.903871565     -123.319218
9.282                0.903645506     -123.563679
9.283                0.903419505       -123.8087
9.284                 0.90319357     -124.054281
9.285                0.902967709     -124.300423
9.286                0.902741931     -124.547125
9.287                0.902516243     -124.794386
9.288                0.902290654     -125.042207
9.289                0.902065172     -125.290586
9.29                 0.901839806     -125.539524
9.291                0.901614564     -125.789021
9.292                0.901389454     -126.039075
9.293                0.901164485     -126.289687
9.294                0.900939667     -126.540855
9.295                0.900715006     -126.792581
9.296                0.900490513     -127.044862
9.297                0.900266197     -127.297699
9.298                0.900042065      -127.55109
9.299                0.899818127     -127.805037
9.3                  0.899594393     -128.059537
9.301                 0.89937087      -128.31459
9.302                0.899147569     -128.570196
9.303                0.898924499     -128.826354
9.304                0.898701668     -129.083063
9.305                0.898479086     -129.340323
9.306                0.898256763     -129.598133
9.307                0.898034708     -129.856492
9.308                 0.89781293     -130.115399
9.309                0.897591439     -130.374854
9.31                 0.897370245     -130.634855
9.311                0.897149358     -130.895402
9.312                0.896928786     -131.156495
9.313                 0.89670854     -131.418131
9.314                0.896488629      -131.68031
9.315                0.896269065     -131.943032
9.316                0.896049855     -132.206294
9.317                0.895831011     -132.470097
9.318                0.895612543     -132.734439
9.319                 0.89539446     -132.999319
9.32                 0.895176773     -133.264736
9.321                0.894959492     -133.530688
9.322                0.894742627     -133.797176
9.323                0.894526189     -134.064197
9.324                0.894310187      -134.33175
9.325                0.894094633     -134.599834
9.326                0.893879536     -134.868448
9.327                0.893664907      -135.13759
9.328                0.893450757      -135.40726
9.329                0.893237096     -135.677455
9.33                 0.893023935     -135.948175
9.331                0.892811284     -136.219418
9.332                0.892599154     -136.491183
9.333                0.892387556     -136.763467
9.334                0.892176501     -137.036271
9.335                0.891965999     -137.309591
9.336                0.891756061     -137.583427
9.337                0.891546698     -137.857777
9.338                0.891337921      -138.13264
9.339                0.891129741     -138.408013
9.34                 0.890922169     -138.683895
9.341                0.890715216     -138.960285
9.342                0.890508893      -139.23718
9.343                 0.89030321     -139.514579
9.344                 0.89009818     -139.792481
9.345                0.889893812     -140.070882
9.346                0.889690119     -140.349782
9.347                0.889487111     -140.629179
9.348                  0.8892848      -140.90907
9.349                0.889083197     -141.189454
9.35                 0.888882312     -141.470329
9.351                0.888682158     -141.751692
9.352                0.888482746     -142.033542
9.353                0.888284086     -142.315877
9.354                 0.88808619     -142.598695
9.355                0.887889069     -142.881992
9.356                0.887692736     -143.165768
9.357                  0.8874972     -143.450021
9.358                0.887302474     -143.734747
9.359                0.887108568     -144.019944
9.36                 0.886915494     -144.305611
9.361                0.886723264     -144.591745
9.362                0.886531889     -144.878344
9.363                0.886341379     -145.165405
9.364                0.886151748     -145.452926
9.365                0.885963005     -145.740904
9.366                0.885775162     -146.029337
9.367                0.885588231     -146.318223
9.368                0.885402223     -146.607559
9.369                0.885217149     -146.897343
9.37                 0.885033021     -147.187571
9.371                 0.88484985     -147.478241
9.372                0.884667647     -147.769351
9.373                0.884486424     -148.060898
9.374                0.884306192     -148.352879
9.375                0.884126962     -148.645291
9.376                0.883948746     -148.938132
9.377                0.883771554     -149.231399
9.378                0.883595399     -149.525089
9.379                 0.88342029     -149.819199
9.38                  0.88324624     -150.113726
9.381                0.883073259     -150.408668
9.382                 0.88290136     -150.704021
9.383                0.882730551     -150.999782
9.384                0.882560846     -151.295949
9.385                0.882392255     -151.592518
9.386                0.882224788     -151.889486
9.387                0.882058458      -152.18685
9.388                0.881893274     -152.484607
9.389                0.881729248     -152.782754
9.39                  0.88156639     -153.081288
9.391                0.881404712     -153.380204
9.392                0.881244225     -153.679501
9.393                0.881084938     -153.979175
9.394                0.880926862     -154.279222
9.395                0.880770009      -154.57964
9.396                0.880614389     -154.880424
