! TOUCHSTONE file generated by CST DESIGN STUDIO
! Date and time: Tue Feb  4 17:05:27 2025
! Project name: C:\Work\MatlabApps\UnitCellOptimizationMatlab\CST\unitcell.cst
! Tree item: Tasks\Sweep1\SPara1\S-Parameters
! Header version: 2024
! Port assignment regex: !\s*Touchstone port\s*([0-9]+)\s*=\s*(CST MWS port|CST DES external port|CST DES block port)\s*(.+)\s* \(\"(.*)\"\)(\s*mode\s*([0-9]+))?.*
! Touchstone port assignment:
! Touchstone port 1 = CST DES external port 1 ("")
# GHz S MA R 50
9                    0.963644501     -58.4895757
9.001                0.963563305     -58.5696696
9.002                0.963481838     -58.6499476
9.003                0.963400098     -58.7304103
9.004                0.963318086     -58.8110583
9.005                  0.9632358     -58.8918922
9.006                0.963153239     -58.9729124
9.007                0.963070402     -59.0541198
9.008                0.962987289     -59.1355147
9.009                0.962903899     -59.2170979
9.01                 0.962820231     -59.2988699
9.011                0.962736283     -59.3808314
9.012                0.962652056     -59.4629829
9.013                0.962567548      -59.545325
9.014                0.962482758     -59.6278584
9.015                0.962397686     -59.7105836
9.016                 0.96231233     -59.7935013
9.017                 0.96222669     -59.8766121
9.018                0.962140765     -59.9599166
9.019                0.962054554     -60.0434155
9.02                 0.961968055     -60.1271092
9.021                0.961881269     -60.2109986
9.022                0.961794194     -60.2950841
9.023                0.961706829     -60.3793665
9.024                0.961619174     -60.4638463
9.025                0.961531227     -60.5485242
9.026                0.961442988     -60.6334008
9.027                0.961354456     -60.7184768
9.028                0.961265629     -60.8037527
9.029                0.961176507     -60.8892293
9.03                 0.961087089     -60.9749072
9.031                0.960997375      -61.060787
9.032                0.960907362     -61.1468694
9.033                 0.96081705     -61.2331551
9.034                0.960726439     -61.3196446
9.035                0.960635527     -61.4063386
9.036                0.960544314     -61.4932379
9.037                0.960452798      -61.580343
9.038                0.960360978     -61.6676546
9.039                0.960268854     -61.7551734
9.04                 0.960176425        -61.8429
9.041                 0.96008369     -61.9308352
9.042                0.959990647     -62.0189796
9.043                0.959897296     -62.1073338
9.044                0.959803636     -62.1958986
9.045                0.959709666     -62.2846746
9.046                0.959615385     -62.3736625
9.047                0.959520792      -62.462863
9.048                0.959425887     -62.5522768
9.049                0.959330667     -62.6419046
9.05                 0.959235133      -62.731747
9.051                0.959139283     -62.8218047
9.052                0.959043116     -62.9120785
9.053                0.958946631     -63.0025691
9.054                0.958849828     -63.0932771
9.055                0.958752705     -63.1842033
9.056                0.958655262     -63.2753483
9.057                0.958557497     -63.3667129
9.058                0.958459409     -63.4582978
9.059                0.958360998     -63.5501036
9.06                 0.958262263     -63.6421312
9.061                0.958163202     -63.7343812
9.062                0.958063814     -63.8268544
9.063                0.957964099     -63.9195514
9.064                0.957864056      -64.012473
9.065                0.957763683       -64.10562
9.066                 0.95766298      -64.198993
9.067                0.957561946     -64.2925928
9.068                0.957460579     -64.3864202
9.069                0.957358879     -64.4804758
9.07                 0.957256845     -64.5747604
9.071                0.957154475     -64.6692748
9.072                0.957051769     -64.7640197
9.073                0.956948726     -64.8589959
9.074                0.956845344     -64.9542041
9.075                0.956741623      -65.049645
9.076                0.956637562     -65.1453194
9.077                0.956533159     -65.2412281
9.078                0.956428414     -65.3373719
9.079                0.956323326     -65.4337515
9.08                 0.956217893     -65.5303676
9.081                0.956112115     -65.6272211
9.082                 0.95600599     -65.7243127
9.083                0.955899519     -65.8216432
9.084                0.955792698     -65.9192134
9.085                0.955685529      -66.017024
9.086                0.955578009     -66.1150759
9.087                0.955470137     -66.2133698
9.088                0.955361913     -66.3119065
9.089                0.955253336     -66.4106868
9.09                 0.955144404     -66.5097115
9.091                0.955035116     -66.6089814
9.092                0.954925472     -66.7084973
9.093                0.954815471       -66.80826
9.094                0.954705111     -66.9082703
9.095                0.954594391      -67.008529
9.096                 0.95448331     -67.1090369
9.097                0.954371868     -67.2097949
9.098                0.954260064     -67.3108037
9.099                0.954147895     -67.4120642
9.1                  0.954035362     -67.5135772
9.101                0.953922463     -67.6153435
9.102                0.953809197     -67.7173639
9.103                0.953695564     -67.8196394
9.104                0.953581561     -67.9221706
9.105                0.953467189     -68.0249585
9.106                0.953352446     -68.1280038
9.107                 0.95323733     -68.2313075
9.108                0.953121842     -68.3348703
9.109                 0.95300598     -68.4386932
9.11                 0.952889742     -68.5427769
9.111                0.952773129     -68.6471223
9.112                0.952656138     -68.7517303
9.113                 0.95253877     -68.8566018
9.114                0.952421022     -68.9617375
9.115                0.952302893     -69.0671383
9.116                0.952184384     -69.1728052
9.117                0.952065492      -69.278739
9.118                0.951946217     -69.3849405
9.119                0.951826558     -69.4914106
9.12                 0.951706513     -69.5981503
9.121                0.951586082     -69.7051603
9.122                0.951465263     -69.8124416
9.123                0.951344056     -69.9199951
9.124                0.951222459     -70.0278216
9.125                0.951100472      -70.135922
9.126                0.950978093     -70.2442973
9.127                0.950855321     -70.3529483
9.128                0.950732156      -70.461876
9.129                0.950608596     -70.5710811
9.13                  0.95048464     -70.6805647
9.131                0.950360288     -70.7903277
9.132                0.950235538     -70.9003709
9.133                0.950110389     -71.0106952
9.134                 0.94998484     -71.1213017
9.135                0.949858891     -71.2321912
9.136                0.949732539     -71.3433645
9.137                0.949605785     -71.4548228
9.138                0.949478627     -71.5665668
9.139                0.949351063     -71.6785976
9.14                 0.949223094      -71.790916
9.141                0.949094718     -71.9035229
9.142                0.948965934     -72.0164194
9.143                0.948836741     -72.1296064
9.144                0.948707138     -72.2430848
9.145                0.948577124     -72.3568555
9.146                0.948446698     -72.4709196
9.147                0.948315859     -72.5852779
9.148                0.948184605     -72.6999315
9.149                0.948052937     -72.8148812
9.15                 0.947920853     -72.9301281
9.151                0.947788352     -73.0456731
9.152                0.947655432     -73.1615172
9.153                0.947522094     -73.2776613
9.154                0.947388336     -73.3941064
9.155                0.947254157     -73.5108536
9.156                0.947119555     -73.6279037
9.157                0.946984531     -73.7452578
9.158                0.946849083     -73.8629168
9.159                 0.94671321     -73.9808818
9.16                 0.946576911     -74.0991537
9.161                0.946440185     -74.2177336
9.162                0.946303031     -74.3366223
9.163                0.946165449      -74.455821
9.164                0.946027437     -74.5753306
9.165                0.945888994     -74.6951521
9.166                0.945750119     -74.8152866
9.167                0.945610812     -74.9357349
9.168                0.945471071     -75.0564983
9.169                0.945330896     -75.1775776
9.17                 0.945190286      -75.298974
9.171                0.945049239     -75.4206883
9.172                0.944907754     -75.5427217
9.173                0.944765832     -75.6650751
9.174                 0.94462347     -75.7877497
9.175                0.944480669     -75.9107464
9.176                0.944337426     -76.0340662
9.177                0.944193741     -76.1577103
9.178                0.944049614     -76.2816796
9.179                0.943905043     -76.4059752
9.18                 0.943760028     -76.5305981
9.181                0.943614567     -76.6555494
9.182                0.943468659     -76.7808302
9.183                0.943322305     -76.9064414
9.184                0.943175502     -77.0323843
9.185                0.943028251     -77.1586597
9.186                0.942880549     -77.2852688
9.187                0.942732397     -77.4122126
9.188                0.942583794     -77.5394923
9.189                0.942434738     -77.6671088
9.19                 0.942285229     -77.7950633
9.191                0.942135266     -77.9233568
9.192                0.941984849     -78.0519905
9.193                0.941833975     -78.1809653
9.194                0.941682646     -78.3102824
9.195                0.941530859     -78.4399429
9.196                0.941378614     -78.5699478
9.197                 0.94122591     -78.7002982
9.198                0.941072746     -78.8309953
9.199                0.940919123     -78.9620402
9.2                  0.940765038     -79.0934339
9.201                0.940610491     -79.2251775
9.202                0.940455482     -79.3572721
9.203                0.940300009      -79.489719
9.204                0.940144072      -79.622519
9.205                0.939987671     -79.7556735
9.206                0.939830804     -79.8891834
9.207                 0.93967347     -80.0230499
9.208                 0.93951567     -80.1572742
9.209                0.939357402     -80.2918573
9.21                 0.939198666     -80.4268004
9.211                0.939039461     -80.5621045
9.212                0.938879787     -80.6977709
9.213                0.938719642     -80.8338007
9.214                0.938559026     -80.9701949
9.215                0.938397939     -81.1069548
9.216                 0.93823638     -81.2440814
9.217                0.938074348     -81.3815759
9.218                0.937911843     -81.5194395
9.219                0.937748864     -81.6576733
9.22                  0.93758541     -81.7962784
9.221                0.937421482      -81.935256
9.222                0.937257077     -82.0746072
9.223                0.937092197     -82.2143332
9.224                 0.93692684     -82.3544352
9.225                0.936761006     -82.4949143
9.226                0.936594695     -82.6357716
9.227                0.936427905     -82.7770084
9.228                0.936260636     -82.9186258
9.229                0.936092889     -83.0606249
9.23                 0.935924662      -83.203007
9.231                0.935755955     -83.3457731
9.232                0.935586768     -83.4889245
9.233                0.935417099     -83.6324624
9.234                 0.93524695     -83.7763879
9.235                0.935076319     -83.9207021
9.236                0.934905207     -84.0654064
9.237                0.934733611     -84.2105018
9.238                0.934561534     -84.3559895
9.239                0.934388973     -84.5018707
9.24                 0.934215929     -84.6481467
9.241                0.934042402     -84.7948185
9.242                0.933868391     -84.9418875
9.243                0.933693896     -85.0893547
9.244                0.933518916     -85.2372214
9.245                0.933343452     -85.3854887
9.246                0.933167503     -85.5341579
9.247                0.932991069     -85.6832302
9.248                 0.93281415     -85.8327067
9.249                0.932636746     -85.9825886
9.25                 0.932458857     -86.1328773
9.251                0.932280482     -86.2835737
9.252                0.932101621     -86.4346793
9.253                0.931922274     -86.5861951
9.254                0.931742442     -86.7381223
9.255                0.931562124     -86.8904623
9.256                 0.93138132     -87.0432161
9.257                 0.93120003     -87.1963851
9.258                0.931018254     -87.3499703
9.259                0.930835992     -87.5039731
9.26                 0.930653245     -87.6583946
9.261                0.930470012      -87.813236
9.262                0.930286293     -87.9684986
9.263                0.930102088     -88.1241836
9.264                0.929917399     -88.2802922
9.265                0.929732224     -88.4368256
9.266                0.929546563      -88.593785
9.267                0.929360418     -88.7511717
9.268                0.929173789     -88.9089868
9.269                0.928986675     -89.0672317
9.27                 0.928799077     -89.2259074
9.271                0.928610995     -89.3850152
9.272                0.928422429     -89.5445564
9.273                 0.92823338     -89.7045322
9.274                0.928043849     -89.8649438
9.275                0.927853835     -90.0257923
9.276                0.927663338     -90.1870791
9.277                0.927472361     -90.3488054
9.278                0.927280902     -90.5109723
9.279                0.927088962     -90.6735812
9.28                 0.926896543     -90.8366331
9.281                0.926703643     -91.0001294
9.282                0.926510265     -91.1640713
9.283                0.926316408       -91.32846
9.284                0.926122073     -91.4932967
9.285                0.925927262     -91.6585826
9.286                0.925731973     -91.8243189
9.287                0.925536209      -91.990507
9.288                 0.92533997     -92.1571479
9.289                0.925143256      -92.324243
9.29                 0.924946069     -92.4917933
9.291                 0.92474841     -92.6598003
9.292                0.924550278      -92.828265
9.293                0.924351675     -92.9971887
9.294                0.924152603     -93.1665726
9.295                0.923953061     -93.3364179
9.296                0.923753051     -93.5067258
9.297                0.923552574     -93.6774976
9.298                0.923351631     -93.8487344
9.299                0.923150222     -94.0204375
9.3                   0.92294835     -94.1926081
9.301                0.922746015     -94.3652473
9.302                0.922543219     -94.5383565
9.303                0.922339961     -94.7119367
9.304                0.922136245     -94.8859893
9.305                0.921932071     -95.0605153
9.306                 0.92172744      -95.235516
9.307                0.921522354     -95.4109926
9.308                0.921316814     -95.5869463
9.309                0.921110821     -95.7633783
9.31                 0.920904378     -95.9402898
9.311                0.920697485     -96.1176819
9.312                0.920490143     -96.2955559
9.313                0.920282356     -96.4739129
9.314                0.920074123     -96.6527542
9.315                0.919865447     -96.8320808
9.316                0.919656329      -97.011894
9.317                0.919446772      -97.192195
9.318                0.919236776     -97.3729848
9.319                0.919026345     -97.5542648
9.32                 0.918815478      -97.736036
9.321                0.918604179     -97.9182997
9.322                0.918392449     -98.1010569
9.323                0.918180291     -98.2843088
9.324                0.917967706     -98.4680567
9.325                0.917754695     -98.6523016
9.326                0.917541263     -98.8370446
9.327                0.917327409      -99.022287
9.328                0.917113138     -99.2080298
9.329                 0.91689845     -99.3942743
9.33                 0.916683348     -99.5810215
9.331                0.916467834     -99.7682725
9.332                0.916251912     -99.9560285
9.333                0.916035582     -100.144291
9.334                0.915818848      -100.33306
9.335                0.915601712     -100.522337
9.336                0.915384176     -100.712125
9.337                0.915166244     -100.902422
9.338                0.914947917     -101.093231
9.339                0.914729198     -101.284553
9.34                 0.914510091     -101.476389
9.341                0.914290597     -101.668739
9.342                 0.91407072     -101.861606
9.343                0.913850463     -102.054989
9.344                0.913629828     -102.248891
9.345                0.913408818     -102.443312
9.346                0.913187436     -102.638252
9.347                0.912965686     -102.833715
9.348                0.912743571     -103.029699
9.349                0.912521093     -103.226207
9.35                 0.912298256     -103.423239
9.351                0.912075064     -103.620796
9.352                0.911851518      -103.81888
9.353                0.911627624     -104.017491
9.354                0.911403384      -104.21663
9.355                0.911178801     -104.416299
9.356                 0.91095388     -104.616498
9.357                0.910728623     -104.817229
9.358                0.910503035     -105.018492
9.359                 0.91027712     -105.220288
9.36                  0.91005088     -105.422618
9.361                 0.90982432     -105.625484
9.362                0.909597443     -105.828885
9.363                0.909370254     -106.032824
9.364                0.909142756       -106.2373
9.365                0.908914954     -106.442316
9.366                0.908686851     -106.647871
9.367                0.908458452     -106.853967
9.368                0.908229761     -107.060605
9.369                0.908000782     -107.267785
9.37                 0.907771519     -107.475509
9.371                0.907541978     -107.683776
9.372                0.907312161     -107.892589
9.373                0.907082075     -108.101948
9.374                0.906851723     -108.311853
9.375                0.906621109     -108.522306
9.376                 0.90639024     -108.733307
9.377                0.906159119     -108.944858
9.378                0.905927751     -109.156958
9.379                0.905696141      -109.36961
9.38                 0.905464294     -109.582812
9.381                0.905232215     -109.796568
9.382                 0.90499991     -110.010876
9.383                0.904767382     -110.225738
9.384                0.904534638     -110.441154
9.385                0.904301682     -110.657126
9.386                 0.90406852     -110.873654
9.387                0.903835158     -111.090738
9.388                  0.9036016      -111.30838
9.389                0.903367852     -111.526579
9.39                  0.90313392     -111.745338
9.391                 0.90289981     -111.964655
9.392                0.902665527     -112.184533
9.393                0.902431076     -112.404971
9.394                0.902196464      -112.62597
9.395                0.901961697     -112.847532
9.396                0.901726781     -113.069655
