! TOUCHSTONE file generated by CST DESIGN STUDIO
! Date and time: Wed Feb  5 13:45:21 2025
! Project name: C:\Work\MatlabApps\UnitCellOptimizationMatlab\CST\unitcell.cst
! Tree item: Tasks\Sweep1\SPara1\S-Parameters
! Header version: 2024
! Port assignment regex: !\s*Touchstone port\s*([0-9]+)\s*=\s*(CST MWS port|CST DES external port|CST DES block port)\s*(.+)\s* \(\"(.*)\"\)(\s*mode\s*([0-9]+))?.*
! Touchstone port assignment:
! Touchstone port 1 = CST DES external port 1 ("")
# GHz S MA R 50
9                    0.968336519     -46.4291043
9.001                0.968285211     -46.4866581
9.002                 0.96823374     -46.5443275
9.003                0.968182108     -46.6021129
9.004                0.968130313     -46.6600146
9.005                0.968078355     -46.7180329
9.006                0.968026234     -46.7761683
9.007                0.967973948      -46.834421
9.008                0.967921497     -46.8927915
9.009                0.967868881       -46.95128
9.01                 0.967816099     -47.0098869
9.011                0.967763151     -47.0686127
9.012                0.967710036     -47.1274575
9.013                0.967656753     -47.1864218
9.014                0.967603303      -47.245506
9.015                0.967549684     -47.3047104
9.016                0.967495895     -47.3640354
9.017                0.967441938     -47.4234812
9.018                0.967387809     -47.4830484
9.019                 0.96733351     -47.5427373
9.02                  0.96727904     -47.6025482
9.021                0.967224398     -47.6624814
9.022                0.967169583     -47.7225375
9.023                0.967114596     -47.7827166
9.024                0.967059434     -47.8430193
9.025                0.967004099     -47.9034459
9.026                0.966948589     -47.9639967
9.027                0.966892903     -48.0246722
9.028                0.966837042     -48.0854726
9.029                0.966781004     -48.1463985
9.03                 0.966724789     -48.2074501
9.031                0.966668396     -48.2686279
9.032                0.966611825     -48.3299322
9.033                0.966555075     -48.3913634
9.034                0.966498146      -48.452922
9.035                0.966441037     -48.5146082
9.036                0.966383747     -48.5764225
9.037                0.966326276     -48.6383653
9.038                0.966268624     -48.7004369
9.039                0.966210789     -48.7626378
9.04                  0.96615277     -48.8249683
9.041                0.966094569     -48.8874289
9.042                0.966036183       -48.95002
9.043                0.965977612     -49.0127419
9.044                0.965918856      -49.075595
9.045                0.965859913     -49.1385797
9.046                0.965800784     -49.2016965
9.047                0.965741468     -49.2649458
9.048                0.965681964     -49.3283279
9.049                0.965622271     -49.3918433
9.05                 0.965562389     -49.4554924
9.051                0.965502318     -49.5192755
9.052                0.965442055     -49.5831932
9.053                0.965381602     -49.6472457
9.054                0.965320957     -49.7114336
9.055                 0.96526012     -49.7757572
9.056                 0.96519909      -49.840217
9.057                0.965137866     -49.9048134
9.058                0.965076448     -49.9695468
9.059                0.965014835     -50.0344176
9.06                 0.964953026     -50.0994262
9.061                0.964891021     -50.1645732
9.062                 0.96482882     -50.2298588
9.063                 0.96476642     -50.2952836
9.064                0.964703823     -50.3608479
9.065                0.964641027     -50.4265522
9.066                0.964578031      -50.492397
9.067                0.964514835     -50.5583826
9.068                0.964451438     -50.6245095
9.069                 0.96438784     -50.6907782
9.07                 0.964324039      -50.757189
9.071                0.964260036     -50.8237425
9.072                0.964195829     -50.8904391
9.073                0.964131417     -50.9572791
9.074                0.964066801     -51.0242631
9.075                0.964001979     -51.0913916
9.076                0.963936951     -51.1586648
9.077                0.963871716     -51.2260834
9.078                0.963806273     -51.2936478
9.079                0.963740622     -51.3613584
9.08                 0.963674762     -51.4292156
9.081                0.963608692       -51.49722
9.082                0.963542411      -51.565372
9.083                0.963475919     -51.6336721
9.084                0.963409216     -51.7021206
9.085                0.963342299     -51.7707182
9.086                 0.96327517     -51.8394652
9.087                0.963207826     -51.9083622
9.088                0.963140268     -51.9774095
9.089                0.963072494     -52.0466077
9.09                 0.963004504     -52.1159572
9.091                0.962936297     -52.1854586
9.092                0.962867872     -52.2551122
9.093                0.962799229     -52.3249187
9.094                0.962730366     -52.3948783
9.095                0.962661284     -52.4649918
9.096                0.962591982     -52.5352594
9.097                0.962522457     -52.6056818
9.098                0.962452711     -52.6762593
9.099                0.962382742     -52.7469925
9.1                  0.962312549      -52.817882
9.101                0.962242132     -52.8889281
9.102                 0.96217149     -52.9601313
9.103                0.962100622     -53.0314923
9.104                0.962029528     -53.1030114
9.105                0.961958206     -53.1746891
9.106                0.961886656     -53.2465261
9.107                0.961814876     -53.3185227
9.108                0.961742868     -53.3906795
9.109                0.961670628      -53.462997
9.11                 0.961598158     -53.5354757
9.111                0.961525455     -53.6081161
9.112                 0.96145252     -53.6809187
9.113                0.961379351     -53.7538841
9.114                0.961305948     -53.8270127
9.115                 0.96123231     -53.9003052
9.116                0.961158435     -53.9737619
9.117                0.961084324     -54.0473835
9.118                0.961009975     -54.1211704
9.119                0.960935388     -54.1951232
9.12                 0.960860562     -54.2692425
9.121                0.960785496     -54.3435286
9.122                0.960710189     -54.4179823
9.123                0.960634641      -54.492604
9.124                 0.96055885     -54.5673942
9.125                0.960482816     -54.6423535
9.126                0.960406538     -54.7174825
9.127                0.960330015     -54.7927816
9.128                0.960253247     -54.8682515
9.129                0.960176232     -54.9438926
9.13                  0.96009897     -55.0197056
9.131                0.960021459     -55.0956909
9.132                  0.9599437     -55.1718492
9.133                 0.95986569     -55.2481809
9.134                 0.95978743     -55.3246867
9.135                0.959708919     -55.4013671
9.136                0.959630155     -55.4782227
9.137                0.959551138      -55.555254
9.138                0.959471867     -55.6324616
9.139                0.959392341      -55.709846
9.14                  0.95931256     -55.7874079
9.141                0.959232521     -55.8651478
9.142                0.959152226     -55.9430663
9.143                0.959071672     -56.0211639
9.144                0.958990858     -56.0994413
9.145                0.958909785      -56.177899
9.146                0.958828451     -56.2565377
9.147                0.958746855     -56.3353578
9.148                0.958664996     -56.4143599
9.149                0.958582874     -56.4935448
9.15                 0.958500487     -56.5729129
9.151                0.958417835     -56.6524649
9.152                0.958334916     -56.7322013
9.153                0.958251731     -56.8121228
9.154                0.958168277     -56.8922299
9.155                0.958084555     -56.9725233
9.156                0.958000562     -57.0530035
9.157                0.957916299     -57.1336712
9.158                0.957831765      -57.214527
9.159                0.957746958     -57.2955715
9.16                 0.957661877     -57.3768053
9.161                0.957576522      -57.458229
9.162                0.957490892     -57.5398433
9.163                0.957404986     -57.6216487
9.164                0.957318803     -57.7036459
9.165                0.957232341     -57.7858355
9.166                0.957145601     -57.8682181
9.167                0.957058581     -57.9507944
9.168                 0.95697128     -58.0335651
9.169                0.956883697     -58.1165306
9.17                 0.956795832     -58.1996917
9.171                0.956707683     -58.2830491
9.172                 0.95661925     -58.3666033
9.173                0.956530531      -58.450355
9.174                0.956441525     -58.5343049
9.175                0.956352232     -58.6184536
9.176                0.956262651     -58.7028017
9.177                0.956172781     -58.7873499
9.178                 0.95608262     -58.8720989
9.179                0.955992169     -58.9570493
9.18                 0.955901425     -59.0422018
9.181                0.955810388      -59.127557
9.182                0.955719057     -59.2131156
9.183                 0.95562743     -59.2988784
9.184                0.955535508     -59.3848458
9.185                0.955443289     -59.4710187
9.186                0.955350772     -59.5573977
9.187                0.955257956     -59.6439835
9.188                 0.95516484     -59.7307768
9.189                0.955071423     -59.8177782
9.19                 0.954977704     -59.9049884
9.191                0.954883682     -59.9924081
9.192                0.954789357     -60.0800381
9.193                0.954694726     -60.1678789
9.194                 0.95459979     -60.2559314
9.195                0.954504547     -60.3441961
9.196                0.954408995     -60.4326739
9.197                0.954313136     -60.5213654
9.198                0.954216966     -60.6102712
9.199                0.954120485     -60.6993922
9.2                  0.954023693      -60.788729
9.201                0.953926587     -60.8782824
9.202                0.953829168      -60.968053
9.203                0.953731434     -61.0580416
9.204                0.953633383     -61.1482489
9.205                0.953535016     -61.2386756
9.206                0.953436331     -61.3293225
9.207                0.953337327     -61.4201903
9.208                0.953238003     -61.5112797
9.209                0.953138357     -61.6025914
9.21                  0.95303839     -61.6941262
9.211                  0.9529381     -61.7858849
9.212                0.952837485     -61.8778681
9.213                0.952736545     -61.9700766
9.214                0.952635279     -62.0625112
9.215                0.952533686     -62.1551726
9.216                0.952431764     -62.2480616
9.217                0.952329513     -62.3411789
9.218                0.952226931     -62.4345253
9.219                0.952124018     -62.5281016
9.22                 0.952020773     -62.6219084
9.221                0.951917194     -62.7159467
9.222                 0.95181328     -62.8102171
9.223                 0.95170903     -62.9047204
9.224                0.951604444     -62.9994574
9.225                 0.95149952     -63.0944288
9.226                0.951394258     -63.1896356
9.227                0.951288655     -63.2850783
9.228                0.951182711     -63.3807579
9.229                0.951076425     -63.4766751
9.23                 0.950969796     -63.5728307
9.231                0.950862823     -63.6692256
9.232                0.950755504     -63.7658604
9.233                 0.95064784      -63.862736
9.234                0.950539827     -63.9598532
9.235                0.950431466     -64.0572129
9.236                0.950322756     -64.1548157
9.237                0.950213695     -64.2526626
9.238                0.950104282     -64.3507544
9.239                0.949994516     -64.4490918
9.24                 0.949884397     -64.5476757
9.241                0.949773922     -64.6465069
9.242                0.949663091     -64.7455862
9.243                0.949551903     -64.8449145
9.244                0.949440357     -64.9444926
9.245                0.949328452     -65.0443213
9.246                0.949216186     -65.1444015
9.247                0.949103558      -65.244734
9.248                0.948990568     -65.3453196
9.249                0.948877214     -65.4461593
9.25                 0.948763495     -65.5472538
9.251                 0.94864941      -65.648604
9.252                0.948534958     -65.7502108
9.253                0.948420138     -65.8520749
9.254                0.948304949     -65.9541974
9.255                0.948189389      -66.056579
9.256                0.948073458     -66.1592206
9.257                0.947957155     -66.2621231
9.258                0.947840478     -66.3652873
9.259                0.947723426     -66.4687142
9.26                 0.947605998     -66.5724045
9.261                0.947488193     -66.6763593
9.262                 0.94737001     -66.7805793
9.263                0.947251448     -66.8850655
9.264                0.947132505     -66.9898187
9.265                0.947013181     -67.0948399
9.266                0.946893475       -67.20013
9.267                0.946773385     -67.3056897
9.268                0.946652911     -67.4115202
9.269                 0.94653205     -67.5176222
9.27                 0.946410803     -67.6239966
9.271                0.946289167     -67.7306444
9.272                0.946167142     -67.8375665
9.273                0.946044727     -67.9447639
9.274                0.945921921     -68.0522373
9.275                0.945798722     -68.1599878
9.276                 0.94567513     -68.2680163
9.277                0.945551143     -68.3763237
9.278                 0.94542676      -68.484911
9.279                 0.94530198      -68.593779
9.28                 0.945176802     -68.7029287
9.281                0.945051225     -68.8123612
9.282                0.944925248     -68.9220772
9.283                0.944798869     -69.0320778
9.284                0.944672088     -69.1423639
9.285                0.944544904     -69.2529365
9.286                0.944417314     -69.3637965
9.287                0.944289319     -69.4749449
9.288                0.944160918     -69.5863826
9.289                0.944032108     -69.6981107
9.29                 0.943902889       -69.81013
9.291                 0.94377326     -69.9224416
9.292                 0.94364322     -70.0350465
9.293                0.943512767     -70.1479456
9.294                0.943381901     -70.2611398
9.295                 0.94325062     -70.3746303
9.296                0.943118924      -70.488418
9.297                0.942986811     -70.6025038
9.298                0.942854281     -70.7168888
9.299                0.942721331     -70.8315739
9.3                  0.942587962     -70.9465603
9.301                0.942454171     -71.0618487
9.302                0.942319959     -71.1774404
9.303                0.942185323     -71.2933363
9.304                0.942050263     -71.4095374
9.305                0.941914777     -71.5260447
9.306                0.941778865     -71.6428592
9.307                0.941642526      -71.759982
9.308                0.941505758     -71.8774141
9.309                0.941368561     -71.9951565
9.31                 0.941230933     -72.1132103
9.311                0.941092873     -72.2315765
9.312                 0.94095438     -72.3502561
9.313                0.940815454     -72.4692502
9.314                0.940676092     -72.5885598
9.315                0.940536295      -72.708186
9.316                0.940396061     -72.8281297
9.317                0.940255389     -72.9483922
9.318                0.940114278     -73.0689744
9.319                0.939972727     -73.1898774
9.32                 0.939830735     -73.3111022
9.321                  0.9396883       -73.43265
9.322                0.939545423     -73.5545217
9.323                0.939402101     -73.6767185
9.324                0.939258335     -73.7992415
9.325                0.939114122     -73.9220916
9.326                0.938969462     -74.0452701
9.327                0.938824354      -74.168778
9.328                0.938678797     -74.2926163
9.329                 0.93853279     -74.4167863
9.33                 0.938386331     -74.5412888
9.331                0.938239421     -74.6661252
9.332                0.938092058     -74.7912964
9.333                 0.93794424     -74.9168035
9.334                0.937795968     -75.0426478
9.335                 0.93764724     -75.1688302
9.336                0.937498055     -75.2953519
9.337                0.937348412      -75.422214
9.338                0.937198311     -75.5494177
9.339                0.937047749     -75.6769639
9.34                 0.936896728      -75.804854
9.341                0.936745245      -75.933089
9.342                0.936593299       -76.06167
9.343                 0.93644089     -76.1905982
9.344                0.936288017     -76.3198746
9.345                0.936134679     -76.4495005
9.346                0.935980875      -76.579477
9.347                0.935826604     -76.7098053
9.348                0.935671865     -76.8404864
9.349                0.935516658     -76.9715215
9.35                 0.935360982     -77.1029118
9.351                0.935204835     -77.2346584
9.352                0.935048217     -77.3667626
9.353                0.934891127     -77.4992254
9.354                0.934733565      -77.632048
9.355                0.934575529     -77.7652316
9.356                0.934417018     -77.8987774
9.357                0.934258033     -78.0326865
9.358                0.934098571     -78.1669602
9.359                0.933938633     -78.3015995
9.36                 0.933778217     -78.4366057
9.361                0.933617324       -78.57198
9.362                0.933455951     -78.7077235
9.363                0.933294099     -78.8438374
9.364                0.933131766      -78.980323
9.365                0.932968952     -79.1171814
9.366                0.932805656     -79.2544138
9.367                0.932641878     -79.3920214
9.368                0.932477617     -79.5300055
9.369                0.932312871     -79.6683672
9.37                 0.932147642     -79.8071077
9.371                0.931981927     -79.9462283
9.372                0.931815726     -80.0857302
9.373                0.931649039     -80.2256145
9.374                0.931481865     -80.3658825
9.375                0.931314203     -80.5065355
9.376                0.931146053     -80.6475746
9.377                0.930977414      -80.789001
9.378                0.930808286     -80.9308161
9.379                0.930638668      -81.073021
9.38                  0.93046856     -81.2156169
9.381                0.930297961     -81.3586052
9.382                 0.93012687     -81.5019869
9.383                0.929955287     -81.6457635
9.384                0.929783212      -81.789936
9.385                0.929610644     -81.9345058
9.386                0.929437583     -82.0794741
9.387                0.929264028     -82.2248422
9.388                0.929089978     -82.3706113
9.389                0.928915435     -82.5167826
9.39                 0.928740396     -82.6633575
9.391                0.928564862     -82.8103371
9.392                0.928388832     -82.9577227
9.393                0.928212306     -83.1055156
9.394                0.928035284     -83.2537171
9.395                0.927857766     -83.4023284
9.396                 0.92767975     -83.5513507
