! TOUCHSTONE file generated by CST DESIGN STUDIO
! Date and time: Wed Feb  5 13:45:11 2025
! Project name: C:\Work\MatlabApps\UnitCellOptimizationMatlab\CST\unitcell.cst
! Tree item: Tasks\Sweep1\SPara1\S-Parameters
! Header version: 2024
! Port assignment regex: !\s*Touchstone port\s*([0-9]+)\s*=\s*(CST MWS port|CST DES external port|CST DES block port)\s*(.+)\s* \(\"(.*)\"\)(\s*mode\s*([0-9]+))?.*
! Touchstone port assignment:
! Touchstone port 1 = CST DES external port 1 ("")
# GHz S MA R 50
9                    0.955603082     -69.0194346
9.001                0.955496367     -69.1221735
9.002                0.955389313     -69.2251691
9.003                0.955281919     -69.3284223
9.004                0.955174183     -69.4319339
9.005                0.955066105     -69.5357048
9.006                0.954957684     -69.6397356
9.007                0.954848919     -69.7440274
9.008                0.954739808      -69.848581
9.009                 0.95463035     -69.9533971
9.01                 0.954520546     -70.0584766
9.011                0.954410393     -70.1638204
9.012                 0.95429989     -70.2694293
9.013                0.954189037     -70.3753042
9.014                0.954077833      -70.481446
9.015                0.953966276     -70.5878554
9.016                0.953854365     -70.6945334
9.017                  0.9537421     -70.8014807
9.018                 0.95362948     -70.9086984
9.019                0.953516503     -71.0161872
9.02                 0.953403168      -71.123948
9.021                0.953289474     -71.2319817
9.022                0.953175421     -71.3402892
9.023                0.953061007     -71.4488714
9.024                0.952946232      -71.557729
9.025                0.952831094     -71.6668631
9.026                0.952715592     -71.7762745
9.027                0.952599725      -71.885964
9.028                0.952483492     -71.9959327
9.029                0.952366893     -72.1061813
9.03                 0.952249926     -72.2167108
9.031                0.952132589     -72.3275221
9.032                0.952014884     -72.4386161
9.033                0.951896807     -72.5499936
9.034                0.951778358     -72.6616557
9.035                0.951659536     -72.7736031
9.036                0.951540341     -72.8858369
9.037                 0.95142077     -72.9983579
9.038                0.951300824     -73.1111671
9.039                0.951180501     -73.2242654
9.04                 0.951059799     -73.3376536
9.041                0.950938719     -73.4513328
9.042                0.950817259     -73.5653039
9.043                0.950695418     -73.6795677
9.044                0.950573195     -73.7941253
9.045                0.950450588     -73.9089775
9.046                0.950327598     -74.0241254
9.047                0.950204223     -74.1395698
9.048                0.950080462     -74.2553117
9.049                0.949956314      -74.371352
9.05                 0.949831778     -74.4876917
9.051                0.949706853     -74.6043318
9.052                0.949581539     -74.7212732
9.053                0.949455833     -74.8385169
9.054                0.949329736     -74.9560638
9.055                0.949203245     -75.0739149
9.056                0.949076361     -75.1920712
9.057                0.948949082     -75.3105336
9.058                0.948821407     -75.4293031
9.059                0.948693336     -75.5483806
9.06                 0.948564866     -75.6677673
9.061                0.948435999     -75.7874639
9.062                0.948306731     -75.9074716
9.063                0.948177063     -76.0277913
9.064                0.948046993      -76.148424
9.065                0.947916521     -76.2693707
9.066                0.947785646     -76.3906323
9.067                0.947654366       -76.51221
9.068                0.947522681     -76.6341046
9.069                 0.94739059     -76.7563171
9.07                 0.947258091     -76.8788487
9.071                0.947125184     -77.0017002
9.072                0.946991869     -77.1248727
9.073                0.946858143     -77.2483673
9.074                0.946724007     -77.3721848
9.075                0.946589459     -77.4963264
9.076                0.946454498      -77.620793
9.077                0.946319124     -77.7455857
9.078                0.946183335     -77.8707055
9.079                0.946047131     -77.9961534
9.08                 0.945910511     -78.1219305
9.081                0.945773473     -78.2480378
9.082                0.945636018     -78.3744762
9.083                0.945498144      -78.501247
9.084                 0.94535985      -78.628351
9.085                0.945221136     -78.7557893
9.086                   0.945082     -78.8835631
9.087                0.944942442     -79.0116732
9.088                0.944802461     -79.1401208
9.089                0.944662056      -79.268907
9.09                 0.944521226     -79.3980327
9.091                0.944379971      -79.527499
9.092                0.944238289     -79.6573071
9.093                 0.94409618     -79.7874578
9.094                0.943953643     -79.9179524
9.095                0.943810677     -80.0487919
9.096                0.943667282     -80.1799773
9.097                0.943523456     -80.3115097
9.098                  0.9433792     -80.4433902
9.099                0.943234511     -80.5756198
9.1                   0.94308939     -80.7081997
9.101                0.942943835     -80.8411309
9.102                0.942797846     -80.9744144
9.103                0.942651422     -81.1080515
9.104                0.942504563     -81.2420431
9.105                0.942357267     -81.3763903
9.106                0.942209535     -81.5110943
9.107                0.942061364      -81.646156
9.108                0.941912756     -81.7815767
9.109                0.941763708     -81.9173575
9.11                  0.94161422     -82.0534993
9.111                0.941464292     -82.1900033
9.112                0.941313923     -82.3268706
9.113                0.941163112     -82.4641024
9.114                0.941011858     -82.6016997
9.115                0.940860162     -82.7396635
9.116                0.940708022     -82.8779952
9.117                0.940555438     -83.0166956
9.118                0.940402409      -83.155766
9.119                0.940248935     -83.2952075
9.12                 0.940095014     -83.4350212
9.121                0.939940648     -83.5752082
9.122                0.939785834     -83.7157696
9.123                0.939630572     -83.8567066
9.124                0.939474862     -83.9980202
9.125                0.939318704     -84.1397116
9.126                0.939162097      -84.281782
9.127                0.939005039     -84.4242324
9.128                0.938847532      -84.567064
9.129                0.938689574     -84.7102779
9.13                 0.938531165     -84.8538753
9.131                0.938372305     -84.9978572
9.132                0.938212992     -85.1422249
9.133                0.938053228     -85.2869794
9.134                 0.93789301     -85.4321219
9.135                 0.93773234     -85.5776536
9.136                0.937571216     -85.7235755
9.137                0.937409638     -85.8698889
9.138                0.937247606     -86.0165948
9.139                0.937085119     -86.1636945
9.14                 0.936922177      -86.311189
9.141                0.936758781     -86.4590796
9.142                0.936594929     -86.6073673
9.143                0.936430621     -86.7560533
9.144                0.936265857     -86.9051388
9.145                0.936100637     -87.0546249
9.146                0.935934961     -87.2045128
9.147                0.935768828     -87.3548036
9.148                0.935602238     -87.5054986
9.149                0.935435191     -87.6565987
9.15                 0.935267687     -87.8081053
9.151                0.935099726     -87.9600194
9.152                0.934931307     -88.1123423
9.153                0.934762431     -88.2650751
9.154                0.934593097     -88.4182189
9.155                0.934423306     -88.5717749
9.156                0.934253057     -88.7257442
9.157                 0.93408235     -88.8801282
9.158                0.933911185     -89.0349278
9.159                0.933739563     -89.1901443
9.16                 0.933567483     -89.3457788
9.161                0.933394945     -89.5018325
9.162                 0.93322195     -89.6583066
9.163                0.933048497     -89.8152023
9.164                0.932874586     -89.9725206
9.165                0.932700219     -90.1302628
9.166                0.932525394       -90.28843
9.167                0.932350113     -90.4470234
9.168                0.932174374     -90.6060442
9.169                 0.93199818     -90.7654935
9.17                 0.931821529     -90.9253726
9.171                0.931644421     -91.0856825
9.172                0.931466858     -91.2464244
9.173                 0.93128884     -91.4075996
9.174                0.931110366     -91.5692091
9.175                0.930931438     -91.7312541
9.176                0.930752056     -91.8937359
9.177                0.930572219     -92.0566556
9.178                0.930391929     -92.2200142
9.179                0.930211185     -92.3838131
9.18                 0.930029989     -92.5480534
9.181                0.929848341     -92.7127362
9.182                0.929666241     -92.8778627
9.183                0.929483691      -93.043434
9.184                0.929300689     -93.2094514
9.185                0.929117238      -93.375916
9.186                0.928933338     -93.5428289
9.187                0.928748989     -93.7101913
9.188                0.928564192     -93.8780043
9.189                0.928378948     -94.0462692
9.19                 0.928193257     -94.2149871
9.191                0.928007121     -94.3841591
9.192                 0.92782054     -94.5537863
9.193                0.927633515       -94.72387
9.194                0.927446046     -94.8944113
9.195                0.927258135     -95.0654113
9.196                0.927069783     -95.2368712
9.197                0.926880991     -95.4087921
9.198                0.926691759     -95.5811752
9.199                0.926502088     -95.7540216
9.2                   0.92631198     -95.9273325
9.201                0.926121436     -96.1011089
9.202                0.925930456     -96.2753521
9.203                0.925739043     -96.4500631
9.204                0.925547196     -96.6252431
9.205                0.925354918     -96.8008932
9.206                0.925162209     -96.9770146
9.207                0.924969071     -97.1536083
9.208                0.924775504     -97.3306756
9.209                0.924581512     -97.5082174
9.21                 0.924387094      -97.686235
9.211                0.924192252     -97.8647294
9.212                0.923996988     -98.0437018
9.213                0.923801303     -98.2231532
9.214                0.923605198     -98.4030848
9.215                0.923408676     -98.5834977
9.216                0.923211737     -98.7643929
9.217                0.923014384     -98.9457716
9.218                0.922816617     -99.1276348
9.219                 0.92261844     -99.3099837
9.22                 0.922419852     -99.4928193
9.221                0.922220857     -99.6761427
9.222                0.922021456      -99.859955
9.223                0.921821651     -100.044257
9.224                0.921621444     -100.229051
9.225                0.921420836     -100.414336
9.226                 0.92121983     -100.600114
9.227                0.921018428     -100.786387
9.228                0.920816631     -100.973155
9.229                0.920614443     -101.160419
9.23                 0.920411864     -101.348181
9.231                0.920208897     -101.536441
9.232                0.920005545       -101.7252
9.233                0.919801809      -101.91446
9.234                0.919597692     -102.104222
9.235                0.919393197     -102.294486
9.236                0.919188325     -102.485253
9.237                0.918983079     -102.676525
9.238                0.918777462     -102.868302
9.239                0.918571476     -103.060586
9.24                 0.918365123     -103.253377
9.241                0.918158407     -103.446677
9.242                 0.91795133     -103.640486
9.243                0.917743894     -103.834806
9.244                0.917536103     -104.029637
9.245                0.917327959     -104.224981
9.246                0.917119466     -104.420838
9.247                0.916910625     -104.617209
9.248                 0.91670144     -104.814095
9.249                0.916491914     -105.011497
9.25                  0.91628205     -105.209417
9.251                0.916071851     -105.407854
9.252                 0.91586132      -105.60681
9.253                 0.91565046     -105.806287
9.254                0.915439276     -106.006283
9.255                0.915227769     -106.206802
9.256                0.915015943     -106.407843
9.257                0.914803802     -106.609407
9.258                0.914591349     -106.811495
9.259                0.914378588     -107.014109
9.26                 0.914165521     -107.217248
9.261                0.913952154     -107.420914
9.262                0.913738489     -107.625108
9.263                 0.91352453      -107.82983
9.264                0.913310281     -108.035082
9.265                0.913095745     -108.240863
9.266                0.912880927     -108.447175
9.267                0.912665831     -108.654019
9.268                 0.91245046     -108.861395
9.269                0.912234818     -109.069305
9.27                  0.91201891     -109.277748
9.271                 0.91180274     -109.486726
9.272                0.911586312      -109.69624
9.273                0.911369629     -109.906289
9.274                0.911152698     -110.116876
9.275                0.910935521        -110.328
9.276                0.910718103     -110.539662
9.277                0.910500449     -110.751863
9.278                0.910282564     -110.964604
9.279                0.910064451     -111.177885
9.28                 0.909846116     -111.391708
9.281                0.909627563     -111.606071
9.282                0.909408797     -111.820977
9.283                0.909189823     -112.036426
9.284                0.908970646     -112.252419
9.285                0.908751271     -112.468955
9.286                0.908531702     -112.686036
9.287                0.908311945     -112.903662
9.288                0.908092005     -113.121834
9.289                0.907871887     -113.340553
9.29                 0.907651597     -113.559818
9.291                0.907431139      -113.77963
9.292                0.907210519     -113.999991
9.293                0.906989743       -114.2209
9.294                0.906768816     -114.442357
9.295                0.906547743     -114.664364
9.296                0.906326531     -114.886921
9.297                0.906105184     -115.110028
9.298                 0.90588371     -115.333686
9.299                0.905662112     -115.557894
9.3                  0.905440398     -115.782655
9.301                0.905218573     -116.007967
9.302                0.904996643     -116.233831
9.303                0.904774615     -116.460247
9.304                0.904552494     -116.687217
9.305                0.904330286      -116.91474
9.306                0.904107999     -117.142816
9.307                0.903885637     -117.371446
9.308                0.903663208      -117.60063
9.309                0.903440718     -117.830369
9.31                 0.903218174     -118.060662
9.311                0.902995582      -118.29151
9.312                0.902772948     -118.522913
9.313                0.902550279     -118.754871
9.314                0.902327583     -118.987385
9.315                0.902104866     -119.220454
9.316                0.901882134     -119.454078
9.317                0.901659395     -119.688259
9.318                0.901436656     -119.922995
9.319                0.901213924     -120.158288
9.32                 0.900991206     -120.394136
9.321                0.900768509     -120.630541
9.322                 0.90054584     -120.867502
9.323                0.900323207     -121.105018
9.324                0.900100618     -121.343091
9.325                0.899878079     -121.581721
9.326                0.899655598     -121.820906
9.327                0.899433183     -122.060647
9.328                0.899210841     -122.300945
9.329                0.898988581     -122.541798
9.33                 0.898766409     -122.783206
9.331                0.898544334     -123.025171
9.332                0.898322364     -123.267691
9.333                0.898100506     -123.510766
9.334                0.897878769     -123.754396
9.335                0.897657161     -123.998581
9.336                0.897435689      -124.24332
9.337                0.897214363     -124.488614
9.338                 0.89699319     -124.734462
9.339                0.896772178     -124.980863
9.34                 0.896551336     -125.227818
9.341                0.896330673     -125.475326
9.342                0.896110197     -125.723387
9.343                0.895889917        -125.972
9.344                0.895669841     -126.221164
9.345                0.895449978     -126.470881
9.346                0.895230336     -126.721148
9.347                0.895010925     -126.971965
9.348                0.894791753     -127.223332
9.349                 0.89457283     -127.475249
9.35                 0.894354163     -127.727715
9.351                0.894135763     -127.980729
9.352                0.893917639     -128.234291
9.353                0.893699799     -128.488399
9.354                0.893482253     -128.743055
9.355                0.893265009     -128.998255
9.356                0.893048079     -129.254001
9.357                 0.89283147     -129.510291
9.358                0.892615192     -129.767125
9.359                0.892399254     -130.024501
9.36                 0.892183667      -130.28242
9.361                 0.89196844     -130.540879
9.362                0.891753582     -130.799879
9.363                0.891539103     -131.059419
9.364                0.891325013     -131.319496
9.365                0.891111322     -131.580112
9.366                0.890898039     -131.841264
9.367                0.890685174     -132.102951
9.368                0.890472738     -132.365174
9.369                 0.89026074      -132.62793
9.37                  0.89004919     -132.891218
9.371                0.889838098     -133.155038
9.372                0.889627475     -133.419389
9.373                0.889417331     -133.684268
9.374                0.889207676     -133.949676
9.375                0.888998519      -134.21561
9.376                0.888789872     -134.482071
9.377                0.888581745     -134.749055
9.378                0.888374148     -135.016563
9.379                0.888167091     -135.284592
9.38                 0.887960585     -135.553142
9.381                 0.88775464     -135.822211
9.382                0.887549268     -136.091798
9.383                0.887344478     -136.361901
9.384                0.887140281     -136.632519
9.385                0.886936688     -136.903651
9.386                0.886733709     -137.175294
9.387                0.886531355     -137.447447
9.388                0.886329636      -137.72011
9.389                0.886128565     -137.993279
9.39                  0.88592815     -138.266955
9.391                0.885728404     -138.541134
9.392                0.885529336     -138.815815
9.393                0.885330959     -139.090997
9.394                0.885133282     -139.366678
9.395                0.884936316     -139.642856
9.396                0.884740073     -139.919529
