! TOUCHSTONE file generated by CST DESIGN STUDIO
! Date and time: Wed Feb  5 13:45:16 2025
! Project name: C:\Work\MatlabApps\UnitCellOptimizationMatlab\CST\unitcell.cst
! Tree item: Tasks\Sweep1\SPara1\S-Parameters
! Header version: 2024
! Port assignment regex: !\s*Touchstone port\s*([0-9]+)\s*=\s*(CST MWS port|CST DES external port|CST DES block port)\s*(.+)\s* \(\"(.*)\"\)(\s*mode\s*([0-9]+))?.*
! Touchstone port assignment:
! Touchstone port 1 = CST DES external port 1 ("")
# GHz S MA R 50
9                    0.962229782     -57.1724536
9.001                0.962153021     -57.2492115
9.002                0.962076018     -57.3261439
9.003                0.961998772     -57.4032514
9.004                0.961921282     -57.4805344
9.005                0.961843547     -57.5579936
9.006                0.961765567     -57.6356295
9.007                0.961687339     -57.7134427
9.008                0.961608865     -57.7914336
9.009                0.961530142      -57.869603
9.01                  0.96145117     -57.9479513
9.011                0.961371949     -58.0264791
9.012                0.961292476      -58.105187
9.013                0.961212752     -58.1840755
9.014                0.961132776     -58.2631453
9.015                0.961052546     -58.3423969
9.016                0.960972062     -58.4218308
9.017                0.960891323     -58.5014477
9.018                0.960810329     -58.5812482
9.019                0.960729077     -58.6612327
9.02                 0.960647568      -58.741402
9.021                0.960565801     -58.8217565
9.022                0.960483774      -58.902297
9.023                0.960401487     -58.9830238
9.024                0.960318939     -59.0639378
9.025                0.960236129     -59.1450394
9.026                0.960153056     -59.2263293
9.027                0.960069719      -59.307808
9.028                0.959986118     -59.3894762
9.029                0.959902252     -59.4713344
9.03                 0.959818119     -59.5533833
9.031                0.959733718     -59.6356235
9.032                 0.95964905     -59.7180556
9.033                0.959564112     -59.8006802
9.034                0.959478905     -59.8834979
9.035                0.959393427     -59.9665093
9.036                0.959307677     -60.0497151
9.037                0.959221654     -60.1331158
9.038                0.959135357     -60.2167122
9.039                0.959048787     -60.3005047
9.04                 0.958961941     -60.3844941
9.041                0.958874818      -60.468681
9.042                0.958787418      -60.553066
9.043                 0.95869974     -60.6376498
9.044                0.958611783     -60.7224329
9.045                0.958523546     -60.8074161
9.046                0.958435028        -60.8926
9.047                0.958346229     -60.9779851
9.048                0.958257146     -61.0635722
9.049                 0.95816778     -61.1493619
9.05                 0.958078129     -61.2353549
9.051                0.957988192     -61.3215518
9.052                0.957897969     -61.4079532
9.053                0.957807459     -61.4945599
9.054                0.957716659     -61.5813725
9.055                0.957625571     -61.6683916
9.056                0.957534192     -61.7556179
9.057                0.957442522     -61.8430521
9.058                 0.95735056     -61.9306948
9.059                0.957258304     -62.0185468
9.06                 0.957165755     -62.1066087
9.061                 0.95707291     -62.1948811
9.062                0.956979769     -62.2833648
9.063                0.956886331     -62.3720604
9.064                0.956792595     -62.4609687
9.065                 0.95669856     -62.5500902
9.066                0.956604225     -62.6394258
9.067                 0.95650959      -62.728976
9.068                0.956414652     -62.8187416
9.069                0.956319411     -62.9087232
9.07                 0.956223867     -62.9989217
9.071                0.956128017     -63.0893376
9.072                0.956031862     -63.1799717
9.073                  0.9559354     -63.2708247
9.074                 0.95583863     -63.3618972
9.075                0.955741552     -63.4531901
9.076                0.955644163      -63.544704
9.077                0.955546464     -63.6364396
9.078                0.955448453     -63.7283976
9.079                0.955350129     -63.8205789
9.08                 0.955251492      -63.912984
9.081                0.955152539     -64.0056137
9.082                0.955053271     -64.0984688
9.083                0.954953686     -64.1915499
9.084                0.954853784     -64.2848579
9.085                0.954753562     -64.3783934
9.086                0.954653021     -64.4721572
9.087                0.954552158       -64.56615
9.088                0.954450974     -64.6603726
9.089                0.954349468     -64.7548257
9.09                 0.954247637     -64.8495101
9.091                0.954145481     -64.9444264
9.092                0.954042999     -65.0395756
9.093                0.953940191     -65.1349583
9.094                0.953837054     -65.2305752
9.095                0.953733589     -65.3264272
9.096                0.953629793      -65.422515
9.097                0.953525667     -65.5188394
9.098                0.953421208     -65.6154011
9.099                0.953316416     -65.7122009
9.1                  0.953211291     -65.8092397
9.101                 0.95310583     -65.9065181
9.102                0.953000032     -66.0040369
9.103                0.952893898      -66.101797
9.104                0.952787425     -66.1997991
9.105                0.952680613     -66.2980439
9.106                 0.95257346     -66.3965324
9.107                0.952465967     -66.4952653
9.108                 0.95235813     -66.5942433
9.109                 0.95224995     -66.6934674
9.11                 0.952141426     -66.7929382
9.111                0.952032556     -66.8926566
9.112                 0.95192334     -66.9926234
9.113                0.951813775     -67.0928393
9.114                0.951703863     -67.1933053
9.115                  0.9515936     -67.2940222
9.116                0.951482986     -67.3949906
9.117                0.951372021     -67.4962116
9.118                0.951260703     -67.5976858
9.119                 0.95114903     -67.6994141
9.12                 0.951037003     -67.8013973
9.121                 0.95092462     -67.9036364
9.122                0.950811879      -68.006132
9.123                 0.95069878     -68.1088851
9.124                0.950585322     -68.2118964
9.125                0.950471504     -68.3151669
9.126                0.950357324     -68.4186973
9.127                0.950242782     -68.5224886
9.128                0.950127877     -68.6265415
9.129                0.950012607     -68.7308569
9.13                 0.949896971     -68.8354357
9.131                0.949780969     -68.9402787
9.132                0.949664599     -69.0453868
9.133                 0.94954786     -69.1507608
9.134                0.949430751     -69.2564017
9.135                0.949313272     -69.3623102
9.136                 0.94919542     -69.4684874
9.137                0.949077196     -69.5749339
9.138                0.948958597     -69.6816508
9.139                0.948839624     -69.7886388
9.14                 0.948720274     -69.8958989
9.141                0.948600547      -70.003432
9.142                0.948480442     -70.1112389
9.143                0.948359957     -70.2193206
9.144                0.948239092     -70.3276779
9.145                0.948117845     -70.4363118
9.146                0.947996216      -70.545223
9.147                0.947874204     -70.6544126
9.148                0.947751807     -70.7638815
9.149                0.947629024     -70.8736305
9.15                 0.947505854     -70.9836605
9.151                0.947382297     -71.0939726
9.152                 0.94725835     -71.2045675
9.153                0.947134014     -71.3154462
9.154                0.947009287     -71.4266097
9.155                0.946884168     -71.5380588
9.156                0.946758656     -71.6497945
9.157                 0.94663275     -71.7618177
9.158                0.946506449     -71.8741293
9.159                0.946379752     -71.9867304
9.16                 0.946252657     -72.0996218
9.161                0.946125165     -72.2128044
9.162                0.945997273     -72.3262793
9.163                 0.94586898     -72.4400473
9.164                0.945740287     -72.5541094
9.165                0.945611191     -72.6684666
9.166                0.945481691     -72.7831198
9.167                0.945351788       -72.89807
9.168                0.945221479     -73.0133181
9.169                0.945090763     -73.1288651
9.17                  0.94495964      -73.244712
9.171                0.944828108     -73.3608598
9.172                0.944696167     -73.4773093
9.173                0.944563815     -73.5940617
9.174                0.944431052     -73.7111178
9.175                0.944297876     -73.8284786
9.176                0.944164287     -73.9461452
9.177                0.944030283     -74.0641186
9.178                0.943895864     -74.1823996
9.179                0.943761028     -74.3009893
9.18                 0.943625774     -74.4198887
9.181                0.943490102     -74.5390989
9.182                0.943354011     -74.6586207
9.183                0.943217499     -74.7784552
9.184                0.943080565     -74.8986035
9.185                0.942943209     -75.0190664
9.186                 0.94280543     -75.1398451
9.187                0.942667226     -75.2609405
9.188                0.942528597     -75.3823537
9.189                0.942389542     -75.5040856
9.19                 0.942250059     -75.6261374
9.191                0.942110148       -75.74851
9.192                0.941969808     -75.8712044
9.193                0.941829038     -75.9942218
9.194                0.941687837      -76.117563
9.195                0.941546204     -76.2412292
9.196                0.941404138     -76.3652214
9.197                0.941261638     -76.4895407
9.198                0.941118704      -76.614188
9.199                0.940975334     -76.7391644
9.2                  0.940831527     -76.8644711
9.201                0.940687283     -76.9901089
9.202                  0.9405426     -77.1160791
9.203                0.940397479     -77.2423826
9.204                0.940251917     -77.3690205
9.205                0.940105914     -77.4959938
9.206                0.939959469     -77.6233037
9.207                0.939812582     -77.7509512
9.208                0.939665251     -77.8789374
9.209                0.939517475     -78.0072633
9.21                 0.939369255     -78.1359301
9.211                0.939220588     -78.2649387
9.212                0.939071474     -78.3942903
9.213                0.938921912      -78.523986
9.214                0.938771902     -78.6540268
9.215                0.938621443     -78.7844139
9.216                0.938470533     -78.9151483
9.217                0.938319172     -79.0462311
9.218                0.938167359     -79.1776634
9.219                0.938015094     -79.3094464
9.22                 0.937862376     -79.4415811
9.221                0.937709203     -79.5740686
9.222                0.937555576       -79.70691
9.223                0.937401493     -79.8401064
9.224                0.937246954      -79.973659
9.225                0.937091957     -80.1075689
9.226                0.936936503     -80.2418371
9.227                0.936780591     -80.3764649
9.228                0.936624219     -80.5114532
9.229                0.936467387     -80.6468033
9.23                 0.936310095     -80.7825162
9.231                0.936152341     -80.9185931
9.232                0.935994126     -81.0550351
9.233                0.935835448     -81.1918434
9.234                0.935676307      -81.329019
9.235                0.935516703     -81.4665632
9.236                0.935356633      -81.604477
9.237                0.935196099     -81.7427616
9.238                0.935035099     -81.8814181
9.239                0.934873633     -82.0204477
9.24                   0.9347117     -82.1598516
9.241                  0.9345493     -82.2996308
9.242                0.934386432     -82.4397865
9.243                0.934223096     -82.5803199
9.244                 0.93405929     -82.7212321
9.245                0.933895016     -82.8625243
9.246                0.933730271     -83.0041976
9.247                0.933565056     -83.1462533
9.248                0.933399369     -83.2886924
9.249                0.933233212     -83.4315162
9.25                 0.933066583     -83.5747257
9.251                0.932899481     -83.7183222
9.252                0.932731907     -83.8623068
9.253                 0.93256386     -84.0066807
9.254                0.932395339     -84.1514451
9.255                0.932226344     -84.2966012
9.256                0.932056875     -84.4421501
9.257                0.931886932     -84.5880929
9.258                0.931716514      -84.734431
9.259                0.931545621     -84.8811654
9.26                 0.931374252     -85.0282974
9.261                0.931202407     -85.1758281
9.262                0.931030087     -85.3237587
9.263                 0.93085729     -85.4720904
9.264                0.930684016     -85.6208244
9.265                0.930510266     -85.7699618
9.266                0.930336039      -85.919504
9.267                0.930161335      -86.069452
9.268                0.929986154      -86.219807
9.269                0.929810495     -86.3705704
9.27                 0.929634359     -86.5217431
9.271                0.929457745     -86.6733265
9.272                0.929280653     -86.8253217
9.273                0.929103084       -86.97773
9.274                0.928925036     -87.1305525
9.275                0.928746511     -87.2837905
9.276                0.928567508     -87.4374451
9.277                0.928388027     -87.5915176
9.278                0.928208068     -87.7460091
9.279                0.928027632     -87.9009208
9.28                 0.927846717      -88.056254
9.281                0.927665325     -88.2120099
9.282                0.927483455     -88.3681897
9.283                0.927301108     -88.5247945
9.284                0.927118284     -88.6818257
9.285                0.926934983     -88.8392843
9.286                0.926751205     -88.9971717
9.287                 0.92656695      -89.155489
9.288                0.926382218     -89.3142374
9.289                0.926197011     -89.4734181
9.29                 0.926011328     -89.6330324
9.291                0.925825169     -89.7930815
9.292                0.925638535     -89.9535665
9.293                0.925451426     -90.1144887
9.294                0.925263843     -90.2758493
9.295                0.925075785     -90.4376495
9.296                0.924887255     -90.5998906
9.297                0.924698251     -90.7625737
9.298                0.924508774        -90.9257
9.299                0.924318825     -91.0892708
9.3                  0.924128405     -91.2532872
9.301                0.923937514     -91.4177505
9.302                0.923746152     -91.5826619
9.303                0.923554321     -91.7480226
9.304                 0.92336202     -91.9138338
9.305                0.923169252     -92.0800968
9.306                0.922976015     -92.2468126
9.307                0.922782312     -92.4139826
9.308                0.922588142     -92.5816079
9.309                0.922393507     -92.7496898
9.31                 0.922198407     -92.9182294
9.311                0.922002844      -93.087228
9.312                0.921806818     -93.2566867
9.313                 0.92161033     -93.4266068
9.314                0.921413381     -93.5969894
9.315                0.921215972     -93.7678358
9.316                0.921018104     -93.9391471
9.317                0.920819778     -94.1109247
9.318                0.920620996     -94.2831695
9.319                0.920421758     -94.4558829
9.32                 0.920222065     -94.6290661
9.321                0.920021919     -94.8027201
9.322                0.919821321     -94.9768463
9.323                0.919620272     -95.1514458
9.324                0.919418773     -95.3265198
9.325                0.919216826     -95.5020695
9.326                0.919014433      -95.678096
9.327                0.918811593     -95.8546005
9.328                 0.91860831     -96.0315843
9.329                0.918404584     -96.2090484
9.33                 0.918200417     -96.3869941
9.331                 0.91799581     -96.5654225
9.332                0.917790765     -96.7443348
9.333                0.917585284     -96.9237322
9.334                0.917379368     -97.1036158
9.335                0.917173019     -97.2839868
9.336                0.916966239     -97.4648463
9.337                0.916759029     -97.6461955
9.338                0.916551392     -97.8280355
9.339                0.916343328     -98.0103675
9.34                 0.916134841     -98.1931927
9.341                0.915925932     -98.3765121
9.342                0.915716602     -98.5603269
9.343                0.915506855     -98.7446382
9.344                0.915296691     -98.9294472
9.345                0.915086114      -99.114755
9.346                0.914875124     -99.3005627
9.347                0.914663726     -99.4868715
9.348                 0.91445192     -99.6736824
9.349                0.914239708     -99.8609965
9.35                 0.914027095     -100.048815
9.351                 0.91381408     -100.237139
9.352                0.913600668     -100.425969
9.353                 0.91338686     -100.615308
9.354                 0.91317266     -100.805154
9.355                0.912958069     -100.995511
9.356                 0.91274309     -101.186379
9.357                0.912527726     -101.377758
9.358                0.912311979     -101.569651
9.359                0.912095852     -101.762057
9.36                 0.911879349     -101.954979
9.361                0.911662471     -102.148417
9.362                0.911445222     -102.342372
9.363                0.911227605     -102.536845
9.364                0.911009623     -102.731838
9.365                0.910791278     -102.927351
9.366                0.910572574     -103.123386
9.367                0.910353514     -103.319942
9.368                0.910134101     -103.517022
9.369                0.909914338     -103.714627
9.37                 0.909694229     -103.912757
9.371                0.909473777     -104.111413
9.372                0.909252985     -104.310596
9.373                0.909031857     -104.510308
9.374                0.908810397     -104.710549
9.375                0.908588607     -104.911321
9.376                0.908366492     -105.112623
9.377                0.908144056     -105.314458
9.378                0.907921301     -105.516825
9.379                0.907698231     -105.719727
9.38                 0.907474852     -105.923163
9.381                0.907251165     -106.127136
9.382                0.907027176     -106.331645
9.383                0.906802889     -106.536691
9.384                0.906578307     -106.742277
9.385                0.906353434     -106.948401
9.386                0.906128275     -107.155066
9.387                0.905902835     -107.362272
9.388                0.905677116     -107.570019
9.389                0.905451124      -107.77831
9.39                 0.905224863     -107.987144
9.391                0.904998338     -108.196523
9.392                0.904771553     -108.406447
9.393                0.904544512     -108.616917
9.394                0.904317221     -108.827933
9.395                0.904089683     -109.039498
9.396                0.903861905     -109.251611
