! TOUCHSTONE file generated by CST DESIGN STUDIO
! Date and time: Wed Feb  5 13:45:04 2025
! Project name: C:\Work\MatlabApps\UnitCellOptimizationMatlab\CST\unitcell.cst
! Tree item: Tasks\Sweep1\SPara1\S-Parameters
! Header version: 2024
! Port assignment regex: !\s*Touchstone port\s*([0-9]+)\s*=\s*(CST MWS port|CST DES external port|CST DES block port)\s*(.+)\s* \(\"(.*)\"\)(\s*mode\s*([0-9]+))?.*
! Touchstone port assignment:
! Touchstone port 1 = CST DES external port 1 ("")
# GHz S MA R 50
9                    0.947259335     -85.1202331
9.001                0.947114196     -85.2643948
9.002                0.946968631     -85.4089434
9.003                 0.94682264     -85.5538803
9.004                0.946676223     -85.6992064
9.005                0.946529378     -85.8449229
9.006                0.946382107      -85.991031
9.007                0.946234408     -86.1375319
9.008                 0.94608628     -86.2844266
9.009                0.945937724     -86.4317164
9.01                 0.945788738     -86.5794023
9.011                0.945639323     -86.7274856
9.012                0.945489478     -86.8759674
9.013                0.945339203     -87.0248489
9.014                0.945188497     -87.1741311
9.015                 0.94503736     -87.3238153
9.016                0.944885791     -87.4739026
9.017                 0.94473379     -87.6243943
9.018                0.944581358     -87.7752914
9.019                0.944428493     -87.9265951
9.02                 0.944275195     -88.0783065
9.021                0.944121464     -88.2304269
9.022                  0.9439673     -88.3829575
9.023                0.943812703     -88.5358993
9.024                0.943657671     -88.6892535
9.025                0.943502206     -88.8430214
9.026                0.943346307      -88.997204
9.027                0.943189973     -89.1518026
9.028                0.943033205     -89.3068183
9.029                0.942876002     -89.4622523
9.03                 0.942718364     -89.6181057
9.031                0.942560292     -89.7743798
9.032                0.942401784     -89.9310756
9.033                0.942242841     -90.0881945
9.034                0.942083463     -90.2457375
9.035                 0.94192365     -90.4037058
9.036                0.941763402     -90.5621006
9.037                0.941602719      -90.720923
9.038                  0.9414416     -90.8801743
9.039                0.941280046     -91.0398556
9.04                 0.941118057     -91.1999681
9.041                0.940955633     -91.3605129
9.042                0.940792774     -91.5214912
9.043                0.940629481     -91.6829043
9.044                0.940465752     -91.8447532
9.045                0.940301589     -92.0070391
9.046                0.940136992     -92.1697633
9.047                 0.93997196     -92.3329269
9.048                0.939806494      -92.496531
9.049                0.939640595     -92.6605768
9.05                 0.939474262     -92.8250655
9.051                0.939307496     -92.9899983
9.052                0.939140297     -93.1553763
9.053                0.938972666     -93.3212008
9.054                0.938804602     -93.4874728
9.055                0.938636106     -93.6541935
9.056                0.938467179     -93.8213641
9.057                0.938297821     -93.9889858
9.058                0.938128033     -94.1570596
9.059                0.937957814     -94.3255869
9.06                 0.937787166     -94.4945687
9.061                0.937616089     -94.6640063
9.062                0.937444583     -94.8339007
9.063                 0.93727265     -95.0042531
9.064                0.937100289     -95.1750646
9.065                0.936927501     -95.3463365
9.066                0.936754287     -95.5180699
9.067                0.936580648     -95.6902659
9.068                0.936406585     -95.8629257
9.069                0.936232097     -96.0360504
9.07                 0.936057186     -96.2096412
9.071                0.935881853     -96.3836991
9.072                0.935706098     -96.5582254
9.073                0.935529923     -96.7332212
9.074                0.935353328     -96.9086876
9.075                0.935176314     -97.0846258
9.076                0.934998882     -97.2610369
9.077                0.934821033     -97.4379219
9.078                0.934642768     -97.6152821
9.079                0.934464088     -97.7931186
9.08                 0.934284994     -97.9714324
9.081                0.934105488     -98.1502248
9.082                 0.93392557     -98.3294967
9.083                0.933745241     -98.5092494
9.084                0.933564503     -98.6894839
9.085                0.933383357     -98.8702014
9.086                0.933201804     -99.0514028
9.087                0.933019845     -99.2330895
9.088                0.932837483     -99.4152623
9.089                0.932654717     -99.5979225
9.09                  0.93247155     -99.7810711
9.091                0.932287983     -99.9647092
9.092                0.932104017     -100.148838
9.093                0.931919655     -100.333458
9.094                0.931734897     -100.518571
9.095                0.931549744     -100.704178
9.096                  0.9313642      -100.89028
9.097                0.931178264     -101.076877
9.098                 0.93099194     -101.263972
9.099                0.930805229     -101.451564
9.1                  0.930618131     -101.639656
9.101                 0.93043065     -101.828248
9.102                0.930242788     -102.017341
9.103                0.930054545     -102.206936
9.104                0.929865924     -102.397034
9.105                0.929676926     -102.587636
9.106                0.929487555     -102.778744
9.107                0.929297811     -102.970358
9.108                0.929107697     -103.162479
9.109                0.928917216     -103.355108
9.11                 0.928726368     -103.548247
9.111                0.928535157     -103.741896
9.112                0.928343584     -103.936056
9.113                0.928151653     -104.130728
9.114                0.927959364     -104.325914
9.115                0.927766721     -104.521613
9.116                0.927573726     -104.717828
9.117                0.927380382     -104.914558
9.118                 0.92718669     -105.111806
9.119                0.926992654     -105.309571
9.12                 0.926798276     -105.507855
9.121                0.926603559     -105.706659
9.122                0.926408505     -105.905984
9.123                0.926213117      -106.10583
9.124                0.926017398     -106.306198
9.125                0.925821351      -106.50709
9.126                0.925624978     -106.708506
9.127                0.925428283     -106.910447
9.128                0.925231268     -107.112914
9.129                0.925033937     -107.315908
9.13                 0.924836292      -107.51943
9.131                0.924638336      -107.72348
9.132                0.924440073      -107.92806
9.133                0.924241507     -108.133169
9.134                0.924042639      -108.33881
9.135                0.923843474     -108.544982
9.136                0.923644015     -108.751688
9.137                0.923444264     -108.958926
9.138                0.923244227     -109.166698
9.139                0.923043906     -109.375006
9.14                 0.922843304     -109.583849
9.141                0.922642426     -109.793229
9.142                0.922441275     -110.003145
9.143                0.922239854       -110.2136
9.144                0.922038168     -110.424593
9.145                 0.92183622     -110.636126
9.146                0.921634014     -110.848199
9.147                0.921431554     -111.060812
9.148                0.921228844     -111.273967
9.149                0.921025889     -111.487663
9.15                 0.920822691     -111.701903
9.151                0.920619256     -111.916685
9.152                0.920415587     -112.132012
9.153                0.920211689     -112.347883
9.154                0.920007565       -112.5643
9.155                0.919803221     -112.781262
9.156                0.919598661     -112.998771
9.157                0.919393889     -113.216826
9.158                 0.91918891      -113.43543
9.159                0.918983728     -113.654581
9.16                 0.918778348      -113.87428
9.161                0.918572774     -114.094529
9.162                0.918367012     -114.315327
9.163                0.918161067     -114.536676
9.164                0.917954942     -114.758575
9.165                0.917748643     -114.981025
9.166                0.917542175     -115.204026
9.167                0.917335544      -115.42758
9.168                0.917128753     -115.651685
9.169                0.916921808     -115.876344
9.17                 0.916714715     -116.101555
9.171                0.916507479      -116.32732
9.172                0.916300105     -116.553639
9.173                0.916092598     -116.780512
9.174                0.915884965      -117.00794
9.175                0.915677209     -117.235922
9.176                0.915469338      -117.46446
9.177                0.915261356     -117.693553
9.178                 0.91505327     -117.923202
9.179                0.914845084     -118.153407
9.18                 0.914636806     -118.384168
9.181                 0.91442844     -118.615485
9.182                0.914219993     -118.847359
9.183                 0.91401147      -119.07979
9.184                0.913802879     -119.312778
9.185                0.913594224     -119.546323
9.186                0.913385512     -119.780425
9.187                0.913176749     -120.015084
9.188                0.912967942     -120.250302
9.189                0.912759096     -120.486076
9.19                 0.912550219     -120.722408
9.191                0.912341316     -120.959298
9.192                0.912132395     -121.196746
9.193                0.911923462     -121.434751
9.194                0.911714523     -121.673314
9.195                0.911505586     -121.912435
9.196                0.911296656     -122.152113
9.197                0.911087741     -122.392349
9.198                0.910878848     -122.633142
9.199                0.910669984     -122.874493
9.2                  0.910461155       -123.1164
9.201                 0.91025237     -123.358865
9.202                0.910043634     -123.601887
9.203                0.909834955     -123.845465
9.204                 0.90962634       -124.0896
9.205                0.909417798     -124.334292
9.206                0.909209334     -124.579539
9.207                0.909000957     -124.825342
9.208                0.908792674       -125.0717
9.209                0.908584492     -125.318613
9.21                 0.908376419     -125.566082
9.211                0.908168463     -125.814104
9.212                0.907960632     -126.062681
9.213                0.907752933     -126.311811
9.214                0.907545375     -126.561495
9.215                0.907337964     -126.811731
9.216                0.907130709     -127.062519
9.217                0.906923618      -127.31386
9.218                  0.9067167     -127.565751
9.219                0.906509962     -127.818193
9.22                 0.906303412     -128.071186
9.221                0.906097058     -128.324728
9.222                 0.90589091     -128.578818
9.223                0.905684975     -128.833458
9.224                0.905479261     -129.088644
9.225                0.905273778     -129.344378
9.226                0.905068533     -129.600658
9.227                0.904863536     -129.857484
9.228                0.904658794     -130.114854
9.229                0.904454317     -130.372768
9.23                 0.904250112     -130.631225
9.231                 0.90404619     -130.890225
9.232                0.903842559     -131.149766
9.233                0.903639227     -131.409848
9.234                0.903436204     -131.670469
9.235                0.903233499     -131.931629
9.236                0.903031119     -132.193327
9.237                0.902829076     -132.455561
9.238                0.902627377     -132.718331
9.239                0.902426032     -132.981636
9.24                  0.90222505     -133.245474
9.241                0.902024441     -133.509845
9.242                0.901824213     -133.774748
9.243                0.901624376      -134.04018
9.244                 0.90142494     -134.306142
9.245                0.901225913     -134.572631
9.246                0.901027305     -134.839647
9.247                0.900829126     -135.107189
9.248                0.900631386     -135.375254
9.249                0.900434093     -135.643842
9.25                 0.900237257     -135.912952
9.251                0.900040889     -136.182581
9.252                0.899844998     -136.452729
9.253                0.899649593     -136.723395
9.254                0.899454685     -136.994576
9.255                0.899260283     -137.266271
9.256                0.899066396     -137.538479
9.257                0.898873036     -137.811198
9.258                0.898680211     -138.084426
9.259                0.898487932     -138.358163
9.26                 0.898296209     -138.632406
9.261                0.898105051     -138.907153
9.262                0.897914469     -139.182404
9.263                0.897724473     -139.458156
9.264                0.897535073     -139.734407
9.265                0.897346278     -140.011156
9.266                0.897158099     -140.288401
9.267                0.896970547      -140.56614
9.268                0.896783631     -140.844371
9.269                0.896597361     -141.123093
9.27                 0.896411748     -141.402302
9.271                0.896226803     -141.681999
9.272                0.896042534     -141.962179
9.273                0.895858953     -142.242842
9.274                0.895676069     -142.523986
9.275                0.895493893     -142.805607
9.276                0.895312436     -143.087705
9.277                0.895131707     -143.370277
9.278                0.894951718     -143.653321
9.279                0.894772477     -143.936834
9.28                 0.894593996     -144.220815
9.281                0.894416285      -144.50526
9.282                0.894239355     -144.790169
9.283                0.894063215     -145.075538
9.284                0.893887876     -145.361366
9.285                0.893713348     -145.647649
9.286                0.893539642     -145.934385
9.287                0.893366768     -146.221572
9.288                0.893194737     -146.509208
9.289                0.893023558      -146.79729
9.29                 0.892853243     -147.085815
9.291                0.892683801     -147.374781
9.292                0.892515242     -147.664185
9.293                0.892347578     -147.954024
9.294                0.892180818     -148.244297
9.295                0.892014973        -148.535
9.296                0.891850053      -148.82613
9.297                0.891686068     -149.117685
9.298                0.891523028     -149.409662
9.299                0.891360944     -149.702058
9.3                  0.891199826     -149.994871
9.301                0.891039684     -150.288097
9.302                0.890880529     -150.581733
9.303                 0.89072237     -150.875777
9.304                0.890565217     -151.170226
9.305                0.890409081     -151.465077
9.306                0.890253971     -151.760326
9.307                0.890099898      -152.05597
9.308                0.889946872     -152.352007
9.309                0.889794903     -152.648434
9.31                    0.889644     -152.945247
9.311                0.889494173     -153.242443
9.312                0.889345433     -153.540018
9.313                0.889197789     -153.837971
9.314                0.889051251     -154.136297
9.315                0.888905828     -154.434993
9.316                0.888761531     -154.734055
9.317                0.888618368     -155.033482
9.318                0.888476351     -155.333268
9.319                0.888335487     -155.633411
9.32                 0.888195786     -155.933907
9.321                0.888057259     -156.234753
9.322                0.887919914     -156.535946
9.323                0.887783761     -156.837481
9.324                0.887648809     -157.139356
9.325                0.887515067     -157.441566
9.326                0.887382544     -157.744108
9.327                 0.88725125     -158.046979
9.328                0.887121193     -158.350175
9.329                0.886992383     -158.653692
9.33                 0.886864828     -158.957527
9.331                0.886738537     -159.261675
9.332                0.886613519     -159.566133
9.333                0.886489782     -159.870898
9.334                0.886367336     -160.175965
9.335                0.886246189     -160.481331
9.336                0.886126349     -160.786992
9.337                0.886007824     -161.092943
9.338                0.885890624     -161.399182
9.339                0.885774755     -161.705703
9.34                 0.885660227     -162.012504
9.341                0.885547048      -162.31958
9.342                0.885435224     -162.626927
9.343                0.885324766     -162.934542
9.344                0.885215679     -163.242419
9.345                0.885107972     -163.550556
9.346                0.885001652     -163.858948
9.347                0.884896728      -164.16759
9.348                0.884793206      -164.47648
9.349                0.884691094     -164.785612
9.35                 0.884590398     -165.094982
9.351                0.884491128     -165.404587
9.352                0.884393288     -165.714422
9.353                0.884296887     -166.024483
9.354                 0.88420193     -166.334765
9.355                0.884108426     -166.645265
9.356                 0.88401638     -166.955977
9.357                  0.8839258     -167.266899
9.358                0.883836691     -167.578025
9.359                 0.88374906     -167.889351
9.36                 0.883662913     -168.200872
9.361                0.883578256     -168.512585
9.362                0.883495095     -168.824485
9.363                0.883413437     -169.136568
9.364                0.883333287     -169.448828
9.365                 0.88325465     -169.761263
9.366                0.883177533     -170.073866
9.367                 0.88310194     -170.386634
9.368                0.883027877     -170.699563
9.369                0.882955349     -171.012647
9.37                 0.882884362     -171.325882
9.371                0.882814919     -171.639265
9.372                0.882747027     -171.952789
9.373                 0.88268069     -172.266451
9.374                0.882615912     -172.580246
9.375                0.882552697     -172.894169
9.376                0.882491051     -173.208216
9.377                0.882430978     -173.522383
9.378                0.882372481     -173.836664
9.379                0.882315564     -174.151055
9.38                 0.882260232     -174.465551
9.381                0.882206488     -174.780149
9.382                0.882154335     -175.094842
9.383                0.882103778     -175.409627
9.384                0.882054819     -175.724498
9.385                0.882007461     -176.039452
9.386                0.881961708     -176.354482
9.387                0.881917563     -176.669586
9.388                0.881875028     -176.984758
9.389                0.881834107     -177.299993
9.39                   0.8817948     -177.615286
9.391                0.881757112     -177.930633
9.392                0.881721044      -178.24603
9.393                0.881686598      -178.56147
9.394                0.881653776     -178.876951
9.395                0.881622581     -179.192466
9.396                0.881593013     -179.508012
