! TOUCHSTONE file generated by CST DESIGN STUDIO
! Date and time: Wed Feb  5 13:45:09 2025
! Project name: C:\Work\MatlabApps\UnitCellOptimizationMatlab\CST\unitcell.cst
! Tree item: Tasks\Sweep1\SPara1\S-Parameters
! Header version: 2024
! Port assignment regex: !\s*Touchstone port\s*([0-9]+)\s*=\s*(CST MWS port|CST DES external port|CST DES block port)\s*(.+)\s* \(\"(.*)\"\)(\s*mode\s*([0-9]+))?.*
! Touchstone port assignment:
! Touchstone port 1 = CST DES external port 1 ("")
# GHz S MA R 50
9                    0.953387277     -73.1153309
9.001                0.953270242     -73.2280311
9.002                0.953152838       -73.34102
9.003                0.953035065     -73.4542985
9.004                0.952916921     -73.5678674
9.005                0.952798405     -73.6817278
9.006                0.952679517     -73.7958805
9.007                0.952560255     -73.9103266
9.008                0.952440618     -74.0250668
9.009                0.952320605     -74.1401022
9.01                 0.952200216     -74.2554337
9.011                0.952079449     -74.3710622
9.012                0.951958303     -74.4869888
9.013                0.951836778     -74.6032143
9.014                0.951714871     -74.7197396
9.015                0.951592584     -74.8365658
9.016                0.951469913     -74.9536938
9.017                0.951346859     -75.0711246
9.018                 0.95122342     -75.1888591
9.019                0.951099596     -75.3068982
9.02                 0.950975385     -75.4252431
9.021                0.950850787     -75.5438945
9.022                  0.9507258     -75.6628535
9.023                0.950600424     -75.7821211
9.024                0.950474657     -75.9016983
9.025                0.950348499      -76.021586
9.026                0.950221948     -76.1417851
9.027                0.950095005     -76.2622968
9.028                0.949967667      -76.383122
9.029                0.949839934     -76.5042616
9.03                 0.949711805     -76.6257167
9.031                0.949583278     -76.7474882
9.032                0.949454354     -76.8695772
9.033                0.949325031     -76.9919847
9.034                0.949195308     -77.1147116
9.035                0.949065184      -77.237759
9.036                0.948934658     -77.3611279
9.037                 0.94880373     -77.4848192
9.038                0.948672399     -77.6088341
9.039                0.948540662     -77.7331734
9.04                 0.948408521     -77.8578383
9.041                0.948275973     -77.9828298
9.042                0.948143018     -78.1081488
9.043                0.948009655     -78.2337964
9.044                0.947875884     -78.3597736
9.045                0.947741702     -78.4860815
9.046                 0.94760711     -78.6127211
9.047                0.947472106     -78.7396935
9.048                 0.94733669     -78.8669996
9.049                 0.94720086     -78.9946405
9.05                 0.947064617     -79.1226172
9.051                0.946927958     -79.2509308
9.052                0.946790884     -79.3795824
9.053                0.946653393      -79.508573
9.054                0.946515484     -79.6379036
9.055                0.946377157     -79.7675753
9.056                0.946238411     -79.8975891
9.057                0.946099245     -80.0279462
9.058                0.945959659     -80.1586475
9.059                0.945819651     -80.2896942
9.06                  0.94567922     -80.4210872
9.061                0.945538366     -80.5528278
9.062                0.945397089     -80.6849168
9.063                0.945255387     -80.8173555
9.064                0.945113259     -80.9501449
9.065                0.944970705      -81.083286
9.066                0.944827725       -81.21678
9.067                0.944684316     -81.3506279
9.068                 0.94454048     -81.4848308
9.069                0.944396214     -81.6193897
9.07                 0.944251518     -81.7543059
9.071                0.944106391     -81.8895803
9.072                0.943960834     -82.0252141
9.073                0.943814844     -82.1612084
9.074                0.943668422     -82.2975641
9.075                0.943521567     -82.4342826
9.076                0.943374277     -82.5713648
9.077                0.943226553     -82.7088118
9.078                0.943078394     -82.8466247
9.079                0.942929799     -82.9848048
9.08                 0.942780767     -83.1233529
9.081                0.942631298     -83.2622704
9.082                0.942481391     -83.4015582
9.083                0.942331047     -83.5412176
9.084                0.942180263     -83.6812495
9.085                0.942029039     -83.8216552
9.086                0.941877376     -83.9624357
9.087                0.941725272     -84.1035922
9.088                0.941572727     -84.2451257
9.089                 0.94141974     -84.3870375
9.09                 0.941266311     -84.5293286
9.091                0.941112439     -84.6720001
9.092                0.940958124     -84.8150533
9.093                0.940803365     -84.9584891
9.094                0.940648162     -85.1023088
9.095                0.940492515     -85.2465135
9.096                0.940336422     -85.3911043
9.097                0.940179884     -85.5360824
9.098                0.940022901     -85.6814488
9.099                 0.93986547     -85.8272048
9.1                  0.939707594     -85.9733514
9.101                 0.93954927     -86.1198898
9.102                0.939390498     -86.2668212
9.103                0.939231279     -86.4141467
9.104                0.939071612     -86.5618674
9.105                0.938911496     -86.7099845
9.106                0.938750932     -86.8584992
9.107                0.938589918     -87.0074125
9.108                0.938428455     -87.1567256
9.109                0.938266543     -87.3064397
9.11                 0.938104181      -87.456556
9.111                0.937941369     -87.6070755
9.112                0.937778106     -87.7579995
9.113                0.937614393      -87.909329
9.114                 0.93745023     -88.0610653
9.115                0.937285615     -88.2132095
9.116                 0.93712055     -88.3657628
9.117                0.936955034     -88.5187263
9.118                0.936789066     -88.6721011
9.119                0.936622648     -88.8258885
9.12                 0.936455777     -88.9800896
9.121                0.936288456     -89.1347056
9.122                0.936120683     -89.2897375
9.123                0.935952459     -89.4451866
9.124                0.935783783     -89.6010541
9.125                0.935614656      -89.757341
9.126                0.935445077     -89.9140487
9.127                0.935275047     -90.0711781
9.128                0.935104566     -90.2287305
9.129                0.934933634     -90.3867071
9.13                  0.93476225      -90.545109
9.131                0.934590416     -90.7039374
9.132                0.934418131     -90.8631934
9.133                0.934245395     -91.0228782
9.134                0.934072209      -91.182993
9.135                0.933898573     -91.3435389
9.136                0.933724487     -91.5045171
9.137                0.933549952     -91.6659287
9.138                0.933374967      -91.827775
9.139                0.933199534      -91.990057
9.14                 0.933023651      -92.152776
9.141                 0.93284732     -92.3159331
9.142                0.932670542     -92.4795294
9.143                0.932493316     -92.6435662
9.144                0.932315643     -92.8080445
9.145                0.932137523     -92.9729656
9.146                0.931958957     -93.1383306
9.147                0.931779946     -93.3041407
9.148                0.931600489     -93.4703969
9.149                0.931420589     -93.6371006
9.15                 0.931240244     -93.8042527
9.151                0.931059456     -93.9718546
9.152                0.930878225     -94.1399072
9.153                0.930696552     -94.3084119
9.154                0.930514438     -94.4773697
9.155                0.930331884     -94.6467817
9.156                 0.93014889     -94.8166492
9.157                0.929965456     -94.9869733
9.158                0.929781585     -95.1577551
9.159                0.929597276     -95.3289957
9.16                  0.92941253     -95.5006964
9.161                0.929227349     -95.6728581
9.162                0.929041734     -95.8454822
9.163                0.928855684     -96.0185697
9.164                0.928669202     -96.1921217
9.165                0.928482288     -96.3661394
9.166                0.928294944     -96.5406239
9.167                 0.92810717     -96.7155764
9.168                0.927918967     -96.8909979
9.169                0.927730337     -97.0668895
9.17                 0.927541281     -97.2432525
9.171                  0.9273518     -97.4200879
9.172                0.927161896     -97.5973969
9.173                0.926971569     -97.7751805
9.174                 0.92678082     -97.9534398
9.175                0.926589653      -98.132176
9.176                0.926398066     -98.3113902
9.177                0.926206063     -98.4910834
9.178                0.926013644     -98.6712568
9.179                0.925820812     -98.8519115
9.18                 0.925627566     -99.0330485
9.181                 0.92543391     -99.2146689
9.182                0.925239845     -99.3967739
9.183                0.925045371     -99.5793644
9.184                0.924850492     -99.7624417
9.185                0.924655208     -99.9460066
9.186                0.924459522      -100.13006
9.187                0.924263435     -100.314604
9.188                0.924066949     -100.499639
9.189                0.923870066     -100.685165
9.19                 0.923672787     -100.871185
9.191                0.923475116     -101.057699
9.192                0.923277053     -101.244708
9.193                  0.9230786     -101.432213
9.194                0.922879761     -101.620215
9.195                0.922680536     -101.808716
9.196                0.922480929     -101.997715
9.197                 0.92228094     -102.187215
9.198                0.922080573     -102.377217
9.199                 0.92187983      -102.56772
9.2                  0.921678713     -102.758727
9.201                0.921477224     -102.950239
9.202                0.921275366     -103.142255
9.203                0.921073141     -103.334778
9.204                0.920870551     -103.527808
9.205                  0.9206676     -103.721347
9.206                 0.92046429     -103.915394
9.207                0.920260624     -104.109952
9.208                0.920056603     -104.305021
9.209                0.919852231     -104.500602
9.21                 0.919647511     -104.696696
9.211                0.919442445     -104.893304
9.212                0.919237036     -105.090427
9.213                0.919031288     -105.288066
9.214                0.918825202     -105.486221
9.215                0.918618783     -105.684894
9.216                0.918412033     -105.884085
9.217                0.918204955     -106.083796
9.218                0.917997552     -106.284028
9.219                0.917789828      -106.48478
9.22                 0.917581786     -106.686055
9.221                0.917373429     -106.887852
9.222                0.917164761     -107.090174
9.223                0.916955784      -107.29302
9.224                0.916746502     -107.496391
9.225                 0.91653692     -107.700289
9.226                0.916327039     -107.904713
9.227                0.916116865     -108.109666
9.228                  0.9159064     -108.315148
9.229                0.915695649     -108.521159
9.23                 0.915484614       -108.7277
9.231                0.915273301     -108.934772
9.232                0.915061712     -109.142377
9.233                0.914849852     -109.350514
9.234                0.914637724     -109.559184
9.235                0.914425334     -109.768388
9.236                0.914212683     -109.978127
9.237                0.913999778     -110.188402
9.238                0.913786622     -110.399213
9.239                 0.91357322     -110.610561
9.24                 0.913359574     -110.822446
9.241                0.913145691      -111.03487
9.242                0.912931575     -111.247833
9.243                0.912717229     -111.461336
9.244                0.912502659     -111.675378
9.245                0.912287869     -111.889962
9.246                0.912072863     -112.105087
9.247                0.911857647     -112.320754
9.248                0.911642225     -112.536964
9.249                0.911426602     -112.753717
9.25                 0.911210783     -112.971014
9.251                0.910994773     -113.188856
9.252                0.910778576     -113.407242
9.253                0.910562198     -113.626174
9.254                0.910345645     -113.845652
9.255                 0.91012892     -114.065676
9.256                 0.90991203     -114.286248
9.257                 0.90969498     -114.507367
9.258                0.909477774     -114.729034
9.259                0.909260419     -114.951249
9.26                  0.90904292     -115.174013
9.261                0.908825283     -115.397327
9.262                0.908607512      -115.62119
9.263                0.908389615     -115.845603
9.264                0.908171596     -116.070567
9.265                0.907953461     -116.296081
9.266                0.907735216     -116.522147
9.267                0.907516868     -116.748764
9.268                0.907298421     -116.975933
9.269                0.907079882     -117.203655
9.27                 0.906861258     -117.431928
9.271                0.906642553     -117.660755
9.272                0.906423776     -117.890134
9.273                0.906204931     -118.120066
9.274                0.905986025     -118.350552
9.275                0.905767064     -118.581592
9.276                0.905548056     -118.813185
9.277                0.905329006     -119.045333
9.278                0.905109922     -119.278034
9.279                0.904890809      -119.51129
9.28                 0.904671675     -119.745101
9.281                0.904452525     -119.979466
9.282                0.904233369     -120.214385
9.283                0.904014211     -120.449859
9.284                0.903795059     -120.685888
9.285                 0.90357592     -120.922472
9.286                0.903356801     -121.159611
9.287                 0.90313771     -121.397304
9.288                0.902918653     -121.635552
9.289                0.902699638     -121.874355
9.29                 0.902480672     -122.113712
9.291                0.902261763     -122.353625
9.292                0.902042918     -122.594091
9.293                0.901824144     -122.835112
9.294                0.901605449     -123.076688
9.295                0.901386842     -123.318817
9.296                0.901168328       -123.5615
9.297                0.900949918     -123.804737
9.298                0.900731617     -124.048528
9.299                0.900513434     -124.292872
9.3                  0.900295377     -124.537768
9.301                0.900077455     -124.783218
9.302                0.899859674     -125.029219
9.303                0.899642044     -125.275773
9.304                0.899424572     -125.522879
9.305                0.899207267     -125.770536
9.306                0.898990137     -126.018744
9.307                 0.89877319     -126.267503
9.308                0.898556435     -126.516811
9.309                0.898339881     -126.766669
9.31                 0.898123535     -127.017077
9.311                0.897907407     -127.268033
9.312                0.897691506     -127.519537
9.313                0.897475839     -127.771589
9.314                0.897260416     -128.024188
9.315                0.897045245     -128.277334
9.316                0.896830336     -128.531025
9.317                0.896615697     -128.785261
9.318                0.896401338     -129.040042
9.319                0.896187267     -129.295366
9.32                 0.895973494     -129.551234
9.321                0.895760027     -129.807644
9.322                0.895546877     -130.064596
9.323                0.895334051     -130.322088
9.324                0.895121561      -130.58012
9.325                0.894909414     -130.838692
9.326                 0.89469762     -131.097802
9.327                 0.89448619     -131.357449
9.328                0.894275132     -131.617632
9.329                0.894064456     -131.878351
9.33                 0.893854171     -132.139605
9.331                0.893644288     -132.401392
9.332                0.893434815     -132.663711
9.333                0.893225763     -132.926562
9.334                0.893017142     -133.189944
9.335                0.892808962     -133.453854
9.336                0.892601231     -133.718293
9.337                0.892393961     -133.983259
9.338                0.892187161      -134.24875
9.339                0.891980841     -134.514766
9.34                 0.891775012     -134.781306
9.341                0.891569683     -135.048367
9.342                0.891364864      -135.31595
9.343                0.891160567     -135.584052
9.344                  0.8909568     -135.852672
9.345                0.890753574     -136.121808
9.346                  0.8905509      -136.39146
9.347                0.890348788     -136.661626
9.348                0.890147248     -136.932305
9.349                0.889946291     -137.203494
9.35                 0.889745927     -137.475193
9.351                0.889546166     -137.747399
9.352                0.889347019     -138.020112
9.353                0.889148497      -138.29333
9.354                 0.88895061     -138.567051
9.355                0.888753368     -138.841273
9.356                0.888556783     -139.115994
9.357                0.888360864     -139.391214
9.358                0.888165623      -139.66693
9.359                0.887971071      -139.94314
9.36                 0.887777217     -140.219844
9.361                0.887584072     -140.497037
9.362                0.887391648      -140.77472
9.363                0.887199955      -141.05289
9.364                0.887009004     -141.331545
9.365                0.886818805     -141.610683
9.366                 0.88662937     -141.890302
9.367                0.886440709       -142.1704
9.368                0.886252833     -142.450976
9.369                0.886065752     -142.732026
9.37                 0.885879479     -143.013549
9.371                0.885694023     -143.295544
9.372                0.885509395     -143.578006
9.373                0.885325607     -143.860935
9.374                0.885142668     -144.144328
9.375                0.884960591     -144.428183
9.376                0.884779385     -144.712498
9.377                0.884599063      -144.99727
9.378                0.884419633     -145.282497
9.379                0.884241109     -145.568176
9.38                 0.884063499     -145.854306
9.381                0.883886816     -146.140883
9.382                0.883711069     -146.427905
9.383                0.883536271      -146.71537
9.384                0.883362431     -147.003276
9.385                 0.88318956     -147.291619
9.386                 0.88301767     -147.580397
9.387                0.882846771     -147.869607
9.388                0.882676874     -148.159247
9.389                0.882507989     -148.449314
9.39                 0.882340128     -148.739806
9.391                0.882173301     -149.030719
9.392                0.882007518     -149.322051
9.393                0.881842791     -149.613799
9.394                 0.88167913      -149.90596
9.395                0.881516545     -150.198532
9.396                0.881355048     -150.491511
