! TOUCHSTONE file generated by CST DESIGN STUDIO
! Date and time: Wed Feb  5 13:33:24 2025
! Project name: C:\Work\MatlabApps\UnitCellOptimizationMatlab\CST\unitcell.cst
! Tree item: Tasks\Sweep1\SPara1\S-Parameters
! Header version: 2024
! Port assignment regex: !\s*Touchstone port\s*([0-9]+)\s*=\s*(CST MWS port|CST DES external port|CST DES block port)\s*(.+)\s* \(\"(.*)\"\)(\s*mode\s*([0-9]+))?.*
! Touchstone port assignment:
! Touchstone port 1 = CST DES external port 1 ("")
# GHz S MA R 50
9                    0.979045167     -71.2544667
9.001                0.978996813     -71.3590845
9.002                 0.97894831      -71.463956
9.003                0.978899658     -71.5690819
9.004                0.978850857      -71.674463
9.005                0.978801907        -71.7801
9.006                0.978752806     -71.8859938
9.007                0.978703555     -71.9921451
9.008                0.978654153     -72.0985547
9.009                  0.9786046     -72.2052234
9.01                 0.978554896      -72.312152
9.011                 0.97850504     -72.4193412
9.012                0.978455031      -72.526792
9.013                0.978404869      -72.634505
9.014                0.978354555     -72.7424811
9.015                0.978304087      -72.850721
9.016                0.978253465     -72.9592256
9.017                0.978202689     -73.0679957
9.018                0.978151759      -73.177032
9.019                0.978100673     -73.2863355
9.02                 0.978049432     -73.3959068
9.021                0.977998036     -73.5057469
9.022                0.977946483     -73.6158565
9.023                0.977894774     -73.7262364
9.024                0.977842908     -73.8368875
9.025                0.977790885     -73.9478106
9.026                0.977738704     -74.0590065
9.027                0.977686366     -74.1704761
9.028                0.977633869     -74.2822201
9.029                0.977581213     -74.3942394
9.03                 0.977528398     -74.5065348
9.031                0.977475424     -74.6191073
9.032                 0.97742229     -74.7319575
9.033                0.977368996     -74.8450863
9.034                0.977315541     -74.9584947
9.035                0.977261926     -75.0721834
9.036                0.977208149     -75.1861532
9.037                0.977154211     -75.3004051
9.038                 0.97710011     -75.4149398
9.039                0.977045848     -75.5297583
9.04                 0.976991422     -75.6448613
9.041                0.976936834     -75.7602498
9.042                0.976882082     -75.8759245
9.043                0.976827167     -75.9918864
9.044                0.976772087     -76.1081363
9.045                0.976716843     -76.2246751
9.046                0.976661434     -76.3415037
9.047                 0.97660586     -76.4586228
9.048                0.976550121     -76.5760335
9.049                0.976494216     -76.6937365
9.05                 0.976438144     -76.8117327
9.051                0.976381906      -76.930023
9.052                0.976325501     -77.0486083
9.053                0.976268929     -77.1674895
9.054                0.976212189     -77.2866675
9.055                0.976155282      -77.406143
9.056                0.976098206     -77.5259171
9.057                0.976040962     -77.6459906
9.058                0.975983549     -77.7663644
9.059                0.975925966     -77.8870394
9.06                 0.975868214     -78.0080165
9.061                0.975810293     -78.1292965
9.062                0.975752201     -78.2508805
9.063                0.975693939     -78.3727692
9.064                0.975635505     -78.4949636
9.065                0.975576901     -78.6174646
9.066                0.975518125     -78.7402731
9.067                0.975459178       -78.86339
9.068                0.975400058     -78.9868162
9.069                0.975340766     -79.1105527
9.07                 0.975281302     -79.2346003
9.071                0.975221664     -79.3589599
9.072                0.975161854     -79.4836325
9.073                0.975101869      -79.608619
9.074                0.975041711     -79.7339203
9.075                0.974981379     -79.8595374
9.076                0.974920872     -79.9854711
9.077                 0.97486019     -80.1117224
9.078                0.974799334     -80.2382922
9.079                0.974738302     -80.3651815
9.08                 0.974677095     -80.4923911
9.081                0.974615712     -80.6199221
9.082                0.974554153     -80.7477753
9.083                0.974492417     -80.8759516
9.084                0.974430505     -81.0044521
9.085                0.974368416     -81.1332777
9.086                0.974306149     -81.2624292
9.087                0.974243706     -81.3919078
9.088                0.974181084     -81.5217142
9.089                0.974118285     -81.6518494
9.09                 0.974055308     -81.7823144
9.091                0.973992152     -81.9131102
9.092                0.973928817     -82.0442376
9.093                0.973865304     -82.1756977
9.094                0.973801612     -82.3074914
9.095                 0.97373774     -82.4396196
9.096                0.973673689     -82.5720834
9.097                0.973609458     -82.7048836
9.098                0.973545047     -82.8380212
9.099                0.973480456     -82.9714972
9.1                  0.973415684     -83.1053126
9.101                0.973350732     -83.2394683
9.102                0.973285599     -83.3739653
9.103                0.973220285     -83.5088045
9.104                 0.97315479      -83.643987
9.105                0.973089113     -83.7795136
9.106                0.973023255     -83.9153854
9.107                0.972957216     -84.0516033
9.108                0.972890994     -84.1881684
9.109                 0.97282459     -84.3250815
9.11                 0.972758004     -84.4623436
9.111                0.972691236     -84.5999559
9.112                0.972624285     -84.7379191
9.113                0.972557152     -84.8762343
9.114                0.972489835     -85.0149025
9.115                0.972422336     -85.1539246
9.116                0.972354654     -85.2933017
9.117                0.972286788     -85.4330347
9.118                0.972218739     -85.5731246
9.119                0.972150507     -85.7135724
9.12                 0.972082091      -85.854379
9.121                0.972013492     -85.9955456
9.122                0.971944708      -86.137073
9.123                0.971875741     -86.2789622
9.124                 0.97180659     -86.4212142
9.125                0.971737255     -86.5638301
9.126                0.971667735     -86.7068108
9.127                0.971598032     -86.8501573
9.128                0.971528144     -86.9938706
9.129                0.971458072     -87.1379518
9.13                 0.971387816     -87.2824016
9.131                0.971317375     -87.4272213
9.132                 0.97124675     -87.5724118
9.133                 0.97117594      -87.717974
9.134                0.971104946      -87.863909
9.135                0.971033768     -88.0102178
9.136                0.970962404     -88.1569013
9.137                0.970890857     -88.3039606
9.138                0.970819125     -88.4513967
9.139                0.970747208     -88.5992105
9.14                 0.970675107     -88.7474031
9.141                0.970602821     -88.8959754
9.142                0.970530351     -89.0449285
9.143                0.970457697     -89.1942634
9.144                0.970384858      -89.343981
9.145                0.970311835     -89.4940823
9.146                0.970238627     -89.6445685
9.147                0.970165236     -89.7954404
9.148                 0.97009166      -89.946699
9.149                0.970017901     -90.0983454
9.15                 0.969943957     -90.2503806
9.151                 0.96986983     -90.4028055
9.152                0.969795519     -90.5556211
9.153                0.969721024     -90.7088286
9.154                0.969646346     -90.8624288
9.155                0.969571485     -91.0164227
9.156                 0.96949644     -91.1708114
9.157                0.969421213     -91.3255958
9.158                0.969345803      -91.480777
9.159                 0.96927021     -91.6363559
9.16                 0.969194434     -91.7923336
9.161                0.969118476      -91.948711
9.162                0.969042336     -92.1054891
9.163                0.968966015      -92.262669
9.164                0.968889511     -92.4202516
9.165                0.968812826     -92.5782379
9.166                 0.96873596     -92.7366289
9.167                0.968658913     -92.8954256
9.168                0.968581685      -93.054629
9.169                0.968504277     -93.2142401
9.17                 0.968426688     -93.3742598
9.171                 0.96834892     -93.5346892
9.172                0.968270972     -93.6955292
9.173                0.968192845     -93.8567809
9.174                0.968114539     -94.0184451
9.175                0.968036054      -94.180523
9.176                0.967957391     -94.3430154
9.177                 0.96787855     -94.5059234
9.178                0.967799532     -94.6692479
9.179                0.967720336     -94.8329899
9.18                 0.967640964     -94.9971504
9.181                0.967561415     -95.1617304
9.182                 0.96748169     -95.3267308
9.183                 0.96740179     -95.4921526
9.184                0.967321715     -95.6579967
9.185                0.967241464     -95.8242642
9.186                 0.96716104      -95.990956
9.187                0.967080442      -96.158073
9.188                0.966999671     -96.3256163
9.189                0.966918727     -96.4935867
9.19                  0.96683761     -96.6619853
9.191                0.966756322     -96.8308129
9.192                0.966674863     -97.0000706
9.193                0.966593233     -97.1697593
9.194                0.966511433     -97.3398799
9.195                0.966429463     -97.5104334
9.196                0.966347325     -97.6814207
9.197                0.966265018     -97.8528427
9.198                0.966182543     -98.0247005
9.199                0.966099901     -98.1969949
9.2                  0.966017093     -98.3697268
9.201                0.965934119     -98.5428972
9.202                 0.96585098      -98.716507
9.203                0.965767676     -98.8905572
9.204                0.965684209     -99.0650486
9.205                0.965600578     -99.2399821
9.206                0.965516786     -99.4153587
9.207                0.965432831     -99.5911793
9.208                0.965348716     -99.7674448
9.209                0.965264441      -99.944156
9.21                 0.965180006     -100.121314
9.211                0.965095413     -100.298919
9.212                0.965010663     -100.476973
9.213                0.964925755     -100.655477
9.214                0.964840692      -100.83443
9.215                0.964755474     -101.013835
9.216                0.964670101     -101.193691
9.217                0.964584575     -101.374001
9.218                0.964498896     -101.554764
9.219                0.964413066     -101.735982
9.22                 0.964327086     -101.917655
9.221                0.964240956     -102.099784
9.222                0.964154677     -102.282371
9.223                 0.96406825     -102.465415
9.224                0.963981678     -102.648918
9.225                0.963894959     -102.832881
9.226                0.963808096     -103.017305
9.227                0.963721089     -103.202189
9.228                0.963633941     -103.387536
9.229                 0.96354665     -103.573346
9.23                  0.96345922     -103.759619
9.231                0.963371651     -103.946357
9.232                0.963283943      -104.13356
9.233                0.963196099     -104.321229
9.234                 0.96310812     -104.509365
9.235                0.963020006     -104.697969
9.236                0.962931759     -104.887041
9.237                 0.96284338     -105.076582
9.238                0.962754871     -105.266593
9.239                0.962666232     -105.457075
9.24                 0.962577466     -105.648029
9.241                0.962488572     -105.839454
9.242                0.962399554     -106.031353
9.243                0.962310411     -106.223725
9.244                0.962221146     -106.416571
9.245                0.962131759     -106.609893
9.246                0.962042253      -106.80369
9.247                0.961952629     -106.997964
9.248                0.961862887     -107.192714
9.249                 0.96177303     -107.387943
9.25                 0.961683059      -107.58365
9.251                0.961592976     -107.779837
9.252                0.961502782     -107.976503
9.253                0.961412479      -108.17365
9.254                0.961322068     -108.371278
9.255                 0.96123155     -108.569387
9.256                0.961140929     -108.767979
9.257                0.961050204     -108.967054
9.258                0.960959378     -109.166613
9.259                0.960868453     -109.366656
9.26                  0.96077743     -109.567183
9.261                0.960686311     -109.768197
9.262                0.960595097     -109.969696
9.263                0.960503791     -110.171681
9.264                0.960412395     -110.374154
9.265                0.960320909     -110.577114
9.266                0.960229336     -110.780563
9.267                0.960137678       -110.9845
9.268                0.960045937     -111.188927
9.269                0.959954114     -111.393844
9.27                 0.959862211      -111.59925
9.271                0.959770232     -111.805148
9.272                0.959678176     -112.011536
9.273                0.959586047     -112.218417
9.274                0.959493846     -112.425789
9.275                0.959401576     -112.633654
9.276                0.959309238     -112.842012
9.277                0.959216835     -113.050864
9.278                0.959124368      -113.26021
9.279                 0.95903184      -113.47005
9.28                 0.958939254     -113.680384
9.281                 0.95884661     -113.891214
9.282                0.958753912     -114.102539
9.283                0.958661161      -114.31436
9.284                 0.95856836     -114.526678
9.285                0.958475512     -114.739491
9.286                0.958382618     -114.952802
9.287                 0.95828968      -115.16661
9.288                0.958196702     -115.380915
9.289                0.958103685     -115.595718
9.29                 0.958010632     -115.811019
9.291                0.957917545     -116.026818
9.292                0.957824426     -116.243116
9.293                0.957731279     -116.459913
9.294                0.957638106     -116.677208
9.295                0.957544909     -116.895003
9.296                 0.95745169     -117.113298
9.297                0.957358453     -117.332092
9.298                0.957265199     -117.551385
9.299                0.957171932     -117.771179
9.3                  0.957078654     -117.991473
9.301                0.956985368     -118.212267
9.302                0.956892076     -118.433561
9.303                0.956798782     -118.655356
9.304                0.956705487     -118.877652
9.305                0.956612195     -119.100448
9.306                0.956518908     -119.323745
9.307                0.956425629     -119.547542
9.308                0.956332361      -119.77184
9.309                0.956239107     -119.996639
9.31                  0.95614587     -120.221939
9.311                0.956052653      -120.44774
9.312                0.955959458     -120.674041
9.313                0.955866289     -120.900843
9.314                0.955773148     -121.128146
9.315                0.955680038     -121.355949
9.316                0.955586963     -121.584253
9.317                0.955493926     -121.813057
9.318                0.955400929     -122.042361
9.319                0.955307976     -122.272166
9.32                  0.95521507      -122.50247
9.321                0.955122213     -122.733275
9.322                 0.95502941     -122.964578
9.323                0.954936663     -123.196382
9.324                0.954843976     -123.428684
9.325                0.954751351     -123.661485
9.326                0.954658792     -123.894785
9.327                0.954566303     -124.128583
9.328                0.954473886      -124.36288
9.329                0.954381545     -124.597674
9.33                 0.954289284     -124.832965
9.331                0.954197105     -125.068754
9.332                0.954105012     -125.305039
9.333                0.954013009     -125.541821
9.334                0.953921098     -125.779099
9.335                0.953829284     -126.016872
9.336                 0.95373757      -126.25514
9.337                0.953645959     -126.493903
9.338                0.953554455     -126.733161
9.339                0.953463061     -126.972911
9.34                 0.953371782     -127.213155
9.341                 0.95328062     -127.453892
9.342                0.953189579      -127.69512
9.343                0.953098664     -127.936841
9.344                0.953007877     -128.179052
9.345                0.952917222     -128.421753
9.346                0.952826703     -128.664944
9.347                0.952736323     -128.908624
9.348                0.952646088     -129.152792
9.349                0.952555999     -129.397448
9.35                 0.952466061     -129.642591
9.351                0.952376278      -129.88822
9.352                0.952286654     -130.134335
9.353                0.952197192     -130.380934
9.354                0.952107896     -130.628017
9.355                0.952018771     -130.875583
9.356                0.951929819     -131.123632
9.357                0.951841046     -131.372161
9.358                0.951752455     -131.621172
9.359                0.951664049     -131.870662
9.36                 0.951575834      -132.12063
9.361                0.951487812     -132.371076
9.362                0.951399988     -132.621999
9.363                0.951312366     -132.873398
9.364                 0.95122495     -133.125272
9.365                0.951137744     -133.377619
9.366                0.951050752     -133.630439
9.367                0.950963978      -133.88373
9.368                0.950877426     -134.137492
9.369                0.950791101     -134.391724
9.37                 0.950705006     -134.646424
9.371                0.950619146      -134.90159
9.372                0.950533525     -135.157223
9.373                0.950448147      -135.41332
9.374                0.950363016     -135.669881
9.375                0.950278137     -135.926904
9.376                0.950193513     -136.184388
9.377                0.950109149     -136.442332
9.378                0.950025049     -136.700734
9.379                0.949941217     -136.959592
9.38                 0.949857658     -137.218907
9.381                0.949774376     -137.478675
9.382                0.949691375     -137.738897
9.383                0.949608659     -137.999569
9.384                0.949526233     -138.260692
9.385                0.949444102     -138.522263
9.386                0.949362268      -138.78428
9.387                0.949280738     -139.046743
9.388                0.949199514      -139.30965
9.389                0.949118602     -139.572999
9.39                 0.949038006     -139.836789
9.391                 0.94895773     -140.101017
9.392                0.948877778     -140.365683
9.393                0.948798155     -140.630784
9.394                0.948718865     -140.896319
9.395                0.948639913     -141.162287
9.396                0.948561303     -141.428685
