! TOUCHSTONE file generated by CST DESIGN STUDIO
! Date and time: Wed Feb  5 13:33:30 2025
! Project name: C:\Work\MatlabApps\UnitCellOptimizationMatlab\CST\unitcell.cst
! Tree item: Tasks\Sweep1\SPara1\S-Parameters
! Header version: 2024
! Port assignment regex: !\s*Touchstone port\s*([0-9]+)\s*=\s*(CST MWS port|CST DES external port|CST DES block port)\s*(.+)\s* \(\"(.*)\"\)(\s*mode\s*([0-9]+))?.*
! Touchstone port assignment:
! Touchstone port 1 = CST DES external port 1 ("")
# GHz S MA R 50
9                    0.979884952     -63.3310743
9.001                0.979843701     -63.4190798
9.002                0.979802323     -63.5072896
9.003                0.979760818     -63.5957043
9.004                0.979719185     -63.6843246
9.005                0.979677425     -63.7731512
9.006                0.979635537     -63.8621846
9.007                 0.97959352     -63.9514256
9.008                0.979551374     -64.0408747
9.009                0.979509099     -64.1305326
9.01                 0.979466695     -64.2203999
9.011                 0.97942416     -64.3104773
9.012                0.979381495     -64.4007655
9.013                0.979338699     -64.4912651
9.014                0.979295772     -64.5819768
9.015                0.979252713     -64.6729011
9.016                0.979209523     -64.7640389
9.017                  0.9791662     -64.8553907
9.018                0.979122744     -64.9469572
9.019                0.979079155     -65.0387391
9.02                 0.979035433      -65.130737
9.021                0.978991577     -65.2229516
9.022                0.978947587     -65.3153836
9.023                0.978903462     -65.4080337
9.024                0.978859202     -65.5009026
9.025                0.978814806     -65.5939909
9.026                0.978770275     -65.6872992
9.027                0.978725608     -65.7808284
9.028                0.978680804      -65.874579
9.029                0.978635863     -65.9685519
9.03                 0.978590784     -66.0627475
9.031                0.978545568     -66.1571668
9.032                0.978500214     -66.2518103
9.033                0.978454721     -66.3466787
9.034                0.978409089     -66.4417728
9.035                0.978363318     -66.5370932
9.036                0.978317408     -66.6326407
9.037                0.978271357     -66.7284159
9.038                0.978225165     -66.8244196
9.039                0.978178833     -66.9206525
9.04                 0.978132359     -67.0171153
9.041                0.978085744     -67.1138087
9.042                0.978038987     -67.2107334
9.043                0.977992087     -67.3078902
9.044                0.977945044     -67.4052798
9.045                0.977897858     -67.5029028
9.046                0.977850529     -67.6007601
9.047                0.977803055     -67.6988523
9.048                0.977755437     -67.7971802
9.049                0.977707674     -67.8957446
9.05                 0.977659765     -67.9945461
9.051                0.977611711     -68.0935854
9.052                0.977563511     -68.1928635
9.053                0.977515165     -68.2923808
9.054                0.977466672     -68.3921384
9.055                0.977418031     -68.4921367
9.056                0.977369243     -68.5923768
9.057                0.977320307     -68.6928591
9.058                0.977271222     -68.7935846
9.059                0.977221989      -68.894554
9.06                 0.977172606      -68.995768
9.061                0.977123074     -69.0972275
9.062                0.977073392     -69.1989331
9.063                0.977023559     -69.3008856
9.064                0.976973575     -69.4030858
9.065                 0.97692344     -69.5055345
9.066                0.976873154     -69.6082325
9.067                0.976822716     -69.7111804
9.068                0.976772125     -69.8143792
9.069                0.976721381     -69.9178295
9.07                 0.976670484     -70.0215322
9.071                0.976619434      -70.125488
9.072                0.976568229     -70.2296978
9.073                 0.97651687     -70.3341623
9.074                0.976465357     -70.4388823
9.075                0.976413688     -70.5438586
9.076                0.976361863      -70.649092
9.077                0.976309883     -70.7545832
9.078                0.976257746     -70.8603332
9.079                0.976205453     -70.9663427
9.08                 0.976153002     -71.0726125
9.081                0.976100394     -71.1791434
9.082                0.976047627     -71.2859362
9.083                0.975994703     -71.3929918
9.084                0.975941619     -71.5003109
9.085                0.975888377     -71.6078943
9.086                0.975834975      -71.715743
9.087                0.975781413     -71.8238576
9.088                0.975727691     -71.9322391
9.089                0.975673808     -72.0408883
9.09                 0.975619764     -72.1498059
9.091                0.975565559     -72.2589928
9.092                0.975511191     -72.3684499
9.093                0.975456662      -72.478178
9.094                 0.97540197     -72.5881779
9.095                0.975347114     -72.6984504
9.096                0.975292096     -72.8089965
9.097                0.975236914     -72.9198169
9.098                0.975181567     -73.0309124
9.099                0.975126056     -73.1422841
9.1                   0.97507038     -73.2539326
9.101                0.975014539     -73.3658589
9.102                0.974958532     -73.4780637
9.103                0.974902359     -73.5905481
9.104                0.974846019     -73.7033127
9.105                0.974789513     -73.8163586
9.106                 0.97473284     -73.9296864
9.107                0.974675999     -74.0432972
9.108                 0.97461899     -74.1571918
9.109                0.974561812     -74.2713711
9.11                 0.974504466     -74.3858359
9.111                0.974446951      -74.500587
9.112                0.974389267     -74.6156255
9.113                0.974331413     -74.7309522
9.114                0.974273389     -74.8465678
9.115                0.974215194     -74.9624735
9.116                0.974156828     -75.0786699
9.117                0.974098291     -75.1951581
9.118                0.974039583     -75.3119389
9.119                0.973980702     -75.4290131
9.12                  0.97392165     -75.5463818
9.121                0.973862424     -75.6640458
9.122                0.973803026     -75.7820059
9.123                0.973743454     -75.9002632
9.124                0.973683709     -76.0188185
9.125                 0.97362379     -76.1376726
9.126                0.973563696     -76.2568266
9.127                0.973503427     -76.3762814
9.128                0.973442984     -76.4960378
9.129                0.973382365     -76.6160967
9.13                  0.97332157     -76.7364591
9.131                0.973260599      -76.857126
9.132                0.973199452     -76.9780981
9.133                0.973138128     -77.0993765
9.134                0.973076627     -77.2209621
9.135                0.973014949     -77.3428558
9.136                0.972953093     -77.4650586
9.137                0.972891059     -77.5875713
9.138                0.972828846     -77.7103949
9.139                0.972766455     -77.8335303
9.14                 0.972703885     -77.9569786
9.141                0.972641136     -78.0807406
9.142                0.972578207     -78.2048172
9.143                0.972515098     -78.3292094
9.144                0.972451809     -78.4539182
9.145                 0.97238834     -78.5789446
9.146                 0.97232469     -78.7042893
9.147                0.972260858     -78.8299535
9.148                0.972196846     -78.9559381
9.149                0.972132651      -79.082244
9.15                 0.972068275     -79.2088722
9.151                0.972003716     -79.3358236
9.152                0.971938975     -79.4630993
9.153                0.971874052     -79.5907001
9.154                0.971808945     -79.7186271
9.155                0.971743655     -79.8468812
9.156                0.971678181     -79.9754634
9.157                0.971612523     -80.1043746
9.158                0.971546682     -80.2336159
9.159                0.971480656     -80.3631882
9.16                 0.971414445     -80.4930924
9.161                 0.97134805     -80.6233297
9.162                0.971281469     -80.7539009
9.163                0.971214703      -80.884807
9.164                0.971147752      -81.016049
9.165                0.971080615      -81.147628
9.166                0.971013292     -81.2795448
9.167                0.970945782     -81.4118005
9.168                0.970878086     -81.5443961
9.169                0.970810204     -81.6773326
9.17                 0.970742134     -81.8106109
9.171                0.970673878     -81.9442322
9.172                0.970605434     -82.0781972
9.173                0.970536802     -82.2125072
9.174                0.970467983      -82.347163
9.175                0.970398977     -82.4821656
9.176                0.970329782     -82.6175162
9.177                0.970260399     -82.7532156
9.178                0.970190827     -82.8892649
9.179                0.970121067     -83.0256651
9.18                 0.970051118     -83.1624172
9.181                0.969980981     -83.2995222
9.182                0.969910654     -83.4369812
9.183                0.969840138     -83.5747951
9.184                0.969769433      -83.712965
9.185                0.969698538     -83.8514918
9.186                0.969627454     -83.9903767
9.187                 0.96955618     -84.1296206
9.188                0.969484716     -84.2692245
9.189                0.969413063     -84.4091895
9.19                 0.969341219     -84.5495166
9.191                0.969269185     -84.6902068
9.192                0.969196961     -84.8312611
9.193                0.969124546     -84.9726806
9.194                0.969051941     -85.1144663
9.195                0.968979146     -85.2566193
9.196                 0.96890616     -85.3991405
9.197                0.968832983     -85.5420309
9.198                0.968759616     -85.6852917
9.199                0.968686058     -85.8289239
9.2                  0.968612309     -85.9729284
9.201                0.968538369     -86.1173064
9.202                0.968464239     -86.2620588
9.203                0.968389918     -86.4071867
9.204                0.968315405     -86.5526912
9.205                0.968240702     -86.6985732
9.206                0.968165808     -86.8448339
9.207                0.968090723     -86.9914741
9.208                0.968015447     -87.1384951
9.209                 0.96793998     -87.2858978
9.21                 0.967864323     -87.4336833
9.211                0.967788474     -87.5818526
9.212                0.967712435     -87.7304068
9.213                0.967636205     -87.8793469
9.214                0.967559785     -88.0286739
9.215                0.967483174     -88.1783889
9.216                0.967406372      -88.328493
9.217                 0.96732938     -88.4789871
9.218                0.967252198     -88.6298723
9.219                0.967174825     -88.7811498
9.22                 0.967097263     -88.9328204
9.221                 0.96701951     -89.0848853
9.222                0.966941567     -89.2373455
9.223                0.966863435     -89.3902021
9.224                0.966785113      -89.543456
9.225                0.966706602     -89.6971084
9.226                0.966627901     -89.8511603
9.227                0.966549012     -90.0056127
9.228                0.966469933     -90.1604667
9.229                0.966390666     -90.3157234
9.23                  0.96631121     -90.4713837
9.231                0.966231566     -90.6274487
9.232                0.966151734     -90.7839194
9.233                0.966071714      -90.940797
9.234                0.965991506     -91.0980825
9.235                0.965911111     -91.2557768
9.236                0.965830529      -91.413881
9.237                 0.96574976     -91.5723963
9.238                0.965668805     -91.7313235
9.239                0.965587663     -91.8906638
9.24                 0.965506335     -92.0504182
9.241                0.965424822     -92.2105878
9.242                0.965343124     -92.3711735
9.243                 0.96526124     -92.5321764
9.244                0.965179172     -92.6935976
9.245                 0.96509692     -92.8554381
9.246                0.965014484     -93.0176989
9.247                0.964931865      -93.180381
9.248                0.964849062     -93.3434855
9.249                0.964766077     -93.5070135
9.25                 0.964682909     -93.6709658
9.251                 0.96459956     -93.8353437
9.252                0.964516029     -94.0001481
9.253                0.964432318       -94.16538
9.254                0.964348426     -94.3310404
9.255                0.964264354     -94.4971304
9.256                0.964180103      -94.663651
9.257                0.964095673     -94.8306032
9.258                0.964011064     -94.9979881
9.259                0.963926278     -95.1658065
9.26                 0.963841314     -95.3340597
9.261                0.963756173     -95.5027485
9.262                0.963670857      -95.671874
9.263                0.963585364     -95.8414372
9.264                0.963499697      -96.011439
9.265                0.963413856     -96.1818806
9.266                0.963327841     -96.3527628
9.267                0.963241652     -96.5240868
9.268                0.963155292     -96.6958534
9.269                0.963068759     -96.8680637
9.27                 0.962982056     -97.0407187
9.271                0.962895182     -97.2138193
9.272                0.962808139     -97.3873666
9.273                0.962720927     -97.5613615
9.274                0.962633547      -97.735805
9.275                   0.962546      -97.910698
9.276                0.962458286     -98.0860417
9.277                0.962370406     -98.2618368
9.278                0.962282361     -98.4380845
9.279                0.962194152     -98.6147855
9.28                 0.962105781      -98.791941
9.281                0.962017246     -98.9695519
9.282                0.961928551     -99.1476191
9.283                0.961839694     -99.3261435
9.284                0.961750678     -99.5051262
9.285                0.961661504      -99.684568
9.286                0.961572171     -99.8644699
9.287                0.961482682     -100.044833
9.288                0.961393037     -100.225658
9.289                0.961303237     -100.406946
9.29                 0.961213283     -100.588697
9.291                0.961123177     -100.770913
9.292                0.961032918     -100.953595
9.293                 0.96094251     -101.136744
9.294                0.960851951      -101.32036
9.295                0.960761245     -101.504444
9.296                0.960670391     -101.688997
9.297                 0.96057939     -101.874021
9.298                0.960488245     -102.059516
9.299                0.960396956     -102.245482
9.3                  0.960305525     -102.431921
9.301                0.960213952     -102.618834
9.302                0.960122239     -102.806222
9.303                0.960030387     -102.994084
9.304                0.959938398     -103.182423
9.305                0.959846272     -103.371239
9.306                0.959754011     -103.560533
9.307                0.959661617     -103.750306
9.308                 0.95956909     -103.940558
9.309                0.959476433      -104.13129
9.31                 0.959383646     -104.322504
9.311                0.959290731       -104.5142
9.312                 0.95919769     -104.706378
9.313                0.959104524      -104.89904
9.314                0.959011233     -105.092186
9.315                0.958917821     -105.285818
9.316                0.958824288     -105.479936
9.317                0.958730636      -105.67454
9.318                0.958636867     -105.869632
9.319                0.958542982     -106.065211
9.32                 0.958448982      -106.26128
9.321                 0.95835487     -106.457839
9.322                0.958260647     -106.654888
9.323                0.958166315     -106.852428
9.324                0.958071875     -107.050461
9.325                0.957977329     -107.248985
9.326                0.957882679     -107.448003
9.327                0.957787927     -107.647515
9.328                0.957693074     -107.847522
9.329                0.957598123     -108.048024
9.33                 0.957503075     -108.249022
9.331                0.957407931     -108.450517
9.332                0.957312695     -108.652509
9.333                0.957217367     -108.854999
9.334                0.957121951     -109.057988
9.335                0.957026447     -109.261476
9.336                0.956930857     -109.465464
9.337                0.956835184     -109.669952
9.338                 0.95673943     -109.874941
9.339                0.956643597     -110.080432
9.34                 0.956547687     -110.286425
9.341                0.956451701     -110.492921
9.342                0.956355643      -110.69992
9.343                0.956259514     -110.907424
9.344                0.956163316     -111.115431
9.345                0.956067052     -111.323944
9.346                0.955970724     -111.532961
9.347                0.955874334     -111.742485
9.348                0.955777885     -111.952516
9.349                0.955681378     -112.163053
9.35                 0.955584816     -112.374098
9.351                0.955488201      -112.58565
9.352                0.955391536     -112.797711
9.353                0.955294823      -113.01028
9.354                0.955198065     -113.223359
9.355                0.955101264     -113.436948
9.356                0.955004423     -113.651046
9.357                0.954907543     -113.865655
9.358                0.954810628     -114.080774
9.359                 0.95471368     -114.296405
9.36                 0.954616702     -114.512547
9.361                0.954519696     -114.729201
9.362                0.954422665     -114.946367
9.363                0.954325612     -115.164045
9.364                0.954228538     -115.382236
9.365                0.954131448     -115.600941
9.366                0.954034344     -115.820158
9.367                0.953937228     -116.039889
9.368                0.953840104     -116.260134
9.369                0.953742973     -116.480893
9.37                  0.95364584     -116.702167
9.371                0.953548706     -116.923955
9.372                0.953451575     -117.146257
9.373                 0.95335445     -117.369075
9.374                0.953257333     -117.592407
9.375                0.953160228     -117.816255
9.376                0.953063138     -118.040618
9.377                0.952966065     -118.265496
9.378                0.952869013      -118.49089
9.379                0.952771985     -118.716799
9.38                 0.952674983     -118.943224
9.381                0.952578012     -119.170165
9.382                0.952481073     -119.397622
9.383                0.952384171     -119.625595
9.384                0.952287309     -119.854083
9.385                 0.95219049     -120.083087
9.386                0.952093716     -120.312607
9.387                0.951996992     -120.542643
9.388                0.951900321     -120.773194
9.389                0.951803705     -121.004261
9.39                 0.951707149     -121.235844
9.391                0.951610656     -121.467942
9.392                0.951514229     -121.700555
9.393                0.951417872     -121.933684
9.394                0.951321588     -122.167327
9.395                0.951225381     -122.401486
9.396                0.951129254     -122.636159
