! TOUCHSTONE file generated by CST DESIGN STUDIO
! Date and time: Tue Feb  4 15:55:10 2025
! Project name: C:\Work\MatlabApps\UnitCellOptimizationMatlab\CST\unitcell.cst
! Tree item: Tasks\Sweep1\SPara1\S-Parameters
! Header version: 2024
! Port assignment regex: !\s*Touchstone port\s*([0-9]+)\s*=\s*(CST MWS port|CST DES external port|CST DES block port)\s*(.+)\s* \(\"(.*)\"\)(\s*mode\s*([0-9]+))?.*
! Touchstone port assignment:
! Touchstone port 1 = CST DES external port 1 ("")
# GHz S MA R 50
9                    0.992527944     -75.6465959
9.001                0.992510552     -75.7585019
9.002                0.992493108     -75.8706767
9.003                0.992475613      -75.983121
9.004                0.992458065     -76.0958356
9.005                0.992440465     -76.2088213
9.006                0.992422813     -76.3220789
9.007                0.992405109     -76.4356091
9.008                0.992387352     -76.5494127
9.009                0.992369542     -76.6634906
9.01                  0.99235168     -76.7778435
9.011                0.992333765     -76.8924722
9.012                0.992315797     -77.0073775
9.013                0.992297776     -77.1225602
9.014                0.992279702     -77.2380211
9.015                0.992261574     -77.3537611
9.016                0.992243394     -77.4697808
9.017                0.992225159     -77.5860812
9.018                0.992206872      -77.702663
9.019                 0.99218853      -77.819527
9.02                 0.992170135     -77.9366741
9.021                0.992151686      -78.054105
9.022                0.992133183     -78.1718205
9.023                0.992114626     -78.2898216
9.024                0.992096014     -78.4081089
9.025                0.992077349     -78.5266833
9.026                0.992058628     -78.6455457
9.027                0.992039854     -78.7646968
9.028                0.992021025     -78.8841375
9.029                0.992002141     -79.0038686
9.03                 0.991983202     -79.1238909
9.031                0.991964209     -79.2442053
9.032                 0.99194516     -79.3648125
9.033                0.991926057     -79.4857134
9.034                0.991906898     -79.6069089
9.035                0.991887684     -79.7283998
9.036                0.991868414     -79.8501868
9.037                 0.99184909      -79.972271
9.038                0.991829709     -80.0946529
9.039                0.991810273     -80.2173337
9.04                 0.991790781      -80.340314
9.041                0.991771234     -80.4635947
9.042                 0.99175163     -80.5871766
9.043                0.991731971     -80.7110606
9.044                0.991712255     -80.8352476
9.045                0.991692483     -80.9597384
9.046                0.991672655     -81.0845339
9.047                 0.99165277     -81.2096348
9.048                 0.99163283     -81.3350421
9.049                0.991612832     -81.4607565
9.05                 0.991592778     -81.5867791
9.051                0.991572667     -81.7131105
9.052                  0.9915525     -81.8397518
9.053                0.991532276     -81.9667036
9.054                0.991511994      -82.093967
9.055                0.991491656     -82.2215427
9.056                0.991471261     -82.3494316
9.057                0.991450808     -82.4776346
9.058                0.991430299     -82.6061526
9.059                0.991409732     -82.7349864
9.06                 0.991389108     -82.8641369
9.061                0.991368426     -82.9936049
9.062                0.991347686     -83.1233914
9.063                 0.99132689     -83.2534971
9.064                0.991306035     -83.3839231
9.065                0.991285123     -83.5146701
9.066                0.991264153      -83.645739
9.067                0.991243125     -83.7771307
9.068                0.991222039     -83.9088461
9.069                0.991200896      -84.040886
9.07                 0.991179694     -84.1732514
9.071                0.991158434     -84.3059431
9.072                0.991137116      -84.438962
9.073                 0.99111574      -84.572309
9.074                0.991094306     -84.7059849
9.075                0.991072813     -84.8399907
9.076                0.991051262     -84.9743272
9.077                0.991029653     -85.1089954
9.078                0.991007985      -85.243996
9.079                0.990986259     -85.3793301
9.08                 0.990964474     -85.5149985
9.081                0.990942631      -85.651002
9.082                0.990920729     -85.7873416
9.083                0.990898768     -85.9240181
9.084                0.990876749     -86.0610325
9.085                0.990854671     -86.1983857
9.086                0.990832534     -86.3360785
9.087                0.990810338     -86.4741118
9.088                0.990788084     -86.6124865
9.089                 0.99076577     -86.7512036
9.09                 0.990743398     -86.8902639
9.091                0.990720967     -87.0296682
9.092                0.990698477     -87.1694177
9.093                0.990675928      -87.309513
9.094                 0.99065332     -87.4499551
9.095                0.990630653     -87.5907449
9.096                0.990607926     -87.7318833
9.097                0.990585141     -87.8733713
9.098                0.990562297     -88.0152096
9.099                0.990539394     -88.1573993
9.1                  0.990516432     -88.2999411
9.101                 0.99049341     -88.4428361
9.102                 0.99047033      -88.586085
9.103                 0.99044719     -88.7296889
9.104                0.990423992     -88.8736485
9.105                0.990400734     -89.0179649
9.106                0.990377417     -89.1626389
9.107                0.990354041     -89.3076714
9.108                0.990330606     -89.4530633
9.109                0.990307112     -89.5988155
9.11                 0.990283559      -89.744929
9.111                0.990259947     -89.8914045
9.112                0.990236276     -90.0382431
9.113                0.990212546     -90.1854456
9.114                0.990188757     -90.3330129
9.115                0.990164908     -90.4809459
9.116                0.990141002     -90.6292456
9.117                0.990117036     -90.7779128
9.118                0.990093011     -90.9269484
9.119                0.990068927     -91.0763533
9.12                 0.990044785     -91.2261284
9.121                0.990020584     -91.3762747
9.122                0.989996324      -91.526793
9.123                0.989972006     -91.6776842
9.124                0.989947629     -91.8289492
9.125                0.989923193     -91.9805889
9.126                0.989898699     -92.1326043
9.127                0.989874146     -92.2849961
9.128                0.989849535     -92.4377654
9.129                0.989824866     -92.5909129
9.13                 0.989800138     -92.7444396
9.131                0.989775352     -92.8983464
9.132                0.989750508     -93.0526341
9.133                0.989725606     -93.2073038
9.134                0.989700646     -93.3623561
9.135                0.989675628     -93.5177921
9.136                0.989650552     -93.6736127
9.137                0.989625419     -93.8298186
9.138                0.989600228     -93.9864109
9.139                0.989574979     -94.1433903
9.14                 0.989549673     -94.3007578
9.141                0.989524309     -94.4585142
9.142                0.989498888     -94.6166604
9.143                 0.98947341     -94.7751974
9.144                0.989447875     -94.9341259
9.145                0.989422283     -95.0934469
9.146                0.989396634     -95.2531613
9.147                0.989370929     -95.4132698
9.148                0.989345166     -95.5737734
9.149                0.989319348     -95.7346729
9.15                 0.989293473     -95.8959693
9.151                0.989267542     -96.0576633
9.152                0.989241554     -96.2197559
9.153                0.989215511     -96.3822479
9.154                0.989189412     -96.5451401
9.155                0.989163258     -96.7084335
9.156                0.989137048     -96.8721288
9.157                0.989110782      -97.036227
9.158                0.989084462     -97.2007288
9.159                0.989058086     -97.3656352
9.16                 0.989031655     -97.5309469
9.161                 0.98900517     -97.6966649
9.162                0.988978631     -97.8627899
9.163                0.988952037     -98.0293229
9.164                0.988925389     -98.1962645
9.165                0.988898687     -98.3636158
9.166                0.988871931     -98.5313774
9.167                0.988845121     -98.6995503
9.168                0.988818259     -98.8681352
9.169                0.988791343     -99.0371331
9.17                 0.988764374     -99.2065446
9.171                0.988737352     -99.3763706
9.172                0.988710278      -99.546612
9.173                0.988683151     -99.7172695
9.174                0.988655973     -99.8883439
9.175                0.988628742     -100.059836
9.176                 0.98860146     -100.231747
9.177                0.988574127     -100.404077
9.178                0.988546742     -100.576827
9.179                0.988519307     -100.749998
9.18                  0.98849182     -100.923591
9.181                0.988464284     -101.097607
9.182                0.988436697     -101.272046
9.183                0.988409061     -101.446908
9.184                0.988381375     -101.622196
9.185                0.988353639     -101.797909
9.186                0.988325855     -101.974049
9.187                0.988298022     -102.150615
9.188                 0.98827014      -102.32761
9.189                 0.98824221     -102.505033
9.19                 0.988214232     -102.682886
9.191                0.988186207     -102.861168
9.192                0.988158135     -103.039882
9.193                0.988130015     -103.219027
9.194                0.988101849     -103.398604
9.195                0.988073637     -103.578615
9.196                0.988045379     -103.759059
9.197                0.988017075     -103.939938
9.198                0.987988726     -104.121252
9.199                0.987960332     -104.303001
9.2                  0.987931894     -104.485188
9.201                0.987903411     -104.667811
9.202                0.987874884     -104.850873
9.203                0.987846314     -105.034373
9.204                0.987817701     -105.218312
9.205                0.987789045     -105.402692
9.206                0.987760347     -105.587512
9.207                0.987731607     -105.772773
9.208                0.987702826     -105.958477
9.209                0.987674003     -106.144623
9.21                  0.98764514     -106.331212
9.211                0.987616236     -106.518245
9.212                0.987587292     -106.705723
9.213                0.987558309     -106.893646
9.214                0.987529287     -107.082014
9.215                0.987500227     -107.270829
9.216                0.987471128     -107.460091
9.217                0.987441991     -107.649801
9.218                0.987412818     -107.839958
9.219                0.987383607     -108.030564
9.22                 0.987354361      -108.22162
9.221                0.987325078     -108.413126
9.222                0.987295761     -108.605082
9.223                0.987266408     -108.797489
9.224                0.987237021     -108.990347
9.225                  0.9872076     -109.183658
9.226                0.987178146     -109.377421
9.227                0.987148659     -109.571637
9.228                 0.98711914     -109.766308
9.229                0.987089589     -109.961432
9.23                 0.987060007     -110.157011
9.231                0.987030394     -110.353045
9.232                0.987000751     -110.549534
9.233                0.986971078      -110.74648
9.234                0.986941377     -110.943883
9.235                0.986911646     -111.141742
9.236                0.986881888     -111.340059
9.237                0.986852103     -111.538834
9.238                0.986822291     -111.738067
9.239                0.986792453     -111.937759
9.24                 0.986762589      -112.13791
9.241                0.986732701     -112.338521
9.242                0.986702788     -112.539592
9.243                0.986672851     -112.741124
9.244                0.986642892     -112.943116
9.245                 0.98661291     -113.145569
9.246                0.986582906     -113.348484
9.247                0.986552881     -113.551861
9.248                0.986522836     -113.755699
9.249                 0.98649277     -113.960001
9.25                 0.986462686     -114.164765
9.251                0.986432583     -114.369993
9.252                0.986402463     -114.575683
9.253                0.986372325     -114.781838
9.254                0.986342171     -114.988457
9.255                0.986312001      -115.19554
9.256                0.986281817     -115.403087
9.257                0.986251618       -115.6111
9.258                0.986221406     -115.819577
9.259                 0.98619118      -116.02852
9.26                 0.986160943     -116.237928
9.261                0.986130695     -116.447802
9.262                0.986100436     -116.658142
9.263                0.986070167     -116.868947
9.264                0.986039889     -117.080219
9.265                0.986009603     -117.291958
9.266                 0.98597931     -117.504163
9.267                 0.98594901     -117.716834
9.268                0.985918704     -117.929972
9.269                0.985888393     -118.143578
9.27                 0.985858078      -118.35765
9.271                0.985827759     -118.572189
9.272                0.985797438     -118.787195
9.273                0.985767115     -119.002669
9.274                0.985736791      -119.21861
9.275                0.985706467     -119.435018
9.276                0.985676145     -119.651893
9.277                0.985645823     -119.869236
9.278                0.985615505     -120.087046
9.279                0.985585189     -120.305323
9.28                 0.985554878     -120.524067
9.281                0.985524573     -120.743279
9.282                0.985494273     -120.962958
9.283                0.985463981     -121.183104
9.284                0.985433696     -121.403716
9.285                0.985403421     -121.624796
9.286                0.985373155     -121.846342
9.287                  0.9853429     -122.068355
9.288                0.985312657     -122.290835
9.289                0.985282426      -122.51378
9.29                 0.985252209     -122.737192
9.291                0.985222006      -122.96107
9.292                0.985191819     -123.185414
9.293                0.985161649     -123.410223
9.294                0.985131496     -123.635497
9.295                0.985101362     -123.861236
9.296                0.985071247     -124.087441
9.297                0.985041153     -124.314109
9.298                0.985011081     -124.541242
9.299                0.984981031     -124.768839
9.3                  0.984951004     -124.996899
9.301                0.984921003     -125.225423
9.302                0.984891027     -125.454409
9.303                0.984861078     -125.683858
9.304                0.984831156     -125.913769
9.305                0.984801264     -126.144142
9.306                0.984771401     -126.374976
9.307                 0.98474157     -126.606271
9.308                0.984711771     -126.838026
9.309                0.984682005     -127.070241
9.31                 0.984652273     -127.302915
9.311                0.984622577     -127.536049
9.312                0.984592917     -127.769641
9.313                0.984563295      -128.00369
9.314                0.984533712     -128.238197
9.315                0.984504169     -128.473161
9.316                0.984474667     -128.708581
9.317                0.984445207     -128.944456
9.318                 0.98441579     -129.180786
9.319                0.984386419      -129.41757
9.32                 0.984357092     -129.654808
9.321                0.984327813     -129.892499
9.322                0.984298582     -130.130642
9.323                  0.9842694     -130.369237
9.324                0.984240268     -130.608282
9.325                0.984211188     -130.847777
9.326                0.984182161     -131.087722
9.327                0.984153188     -131.328115
9.328                 0.98412427     -131.568955
9.329                0.984095408     -131.810243
9.33                 0.984066605     -132.051976
9.331                 0.98403786     -132.294155
9.332                0.984009175     -132.536777
9.333                0.983980552     -132.779843
9.334                0.983951991     -133.023351
9.335                0.983923494     -133.267301
9.336                0.983895063     -133.511691
9.337                0.983866698     -133.756521
9.338                  0.9838384     -134.001789
9.339                0.983810171     -134.247495
9.34                 0.983782013     -134.493637
9.341                0.983753926     -134.740214
9.342                0.983725912     -134.987226
9.343                0.983697972     -135.234671
9.344                0.983670107     -135.482548
9.345                0.983642319     -135.730856
9.346                0.983614608     -135.979594
9.347                0.983586977     -136.228761
9.348                0.983559427     -136.478355
9.349                0.983531958     -136.728375
9.35                 0.983504573      -136.97882
9.351                0.983477272     -137.229689
9.352                0.983450057      -137.48098
9.353                0.983422929     -137.732693
9.354                0.983395889     -137.984825
9.355                 0.98336894     -138.237376
9.356                0.983342081     -138.490344
9.357                0.983315315     -138.743728
9.358                0.983288642     -138.997526
9.359                0.983262065     -139.251737
9.36                 0.983235585     -139.506359
9.361                0.983209202     -139.761391
9.362                0.983182918     -140.016832
9.363                0.983156735     -140.272681
9.364                0.983130653     -140.528934
9.365                0.983104675     -140.785592
9.366                0.983078802     -141.042652
9.367                0.983053034     -141.300112
9.368                0.983027374     -141.557972
9.369                0.983001823      -141.81623
9.37                 0.982976381     -142.074883
9.371                0.982951051     -142.333931
9.372                0.982925834     -142.593371
9.373                0.982900731     -142.853202
9.374                0.982875743     -143.113423
9.375                0.982850872      -143.37403
9.376                0.982826119     -143.635023
9.377                0.982801486       -143.8964
9.378                0.982776974     -144.158159
9.379                0.982752584     -144.420298
9.38                 0.982728318     -144.682816
9.381                0.982704177     -144.945709
9.382                0.982680162     -145.208978
9.383                0.982656275     -145.472618
9.384                0.982632517      -145.73663
9.385                 0.98260889      -146.00101
9.386                0.982585394     -146.265756
9.387                0.982562032     -146.530867
9.388                0.982538804     -146.796341
9.389                0.982515712     -147.062176
9.39                 0.982492758     -147.328369
9.391                0.982469942     -147.594918
9.392                0.982447266     -147.861822
9.393                0.982424731     -148.129077
9.394                0.982402339     -148.396683
9.395                 0.98238009     -148.664637
9.396                0.982357987     -148.932936
