! TOUCHSTONE file generated by CST DESIGN STUDIO
! Date and time: Tue Feb  4 15:55:17 2025
! Project name: C:\Work\MatlabApps\UnitCellOptimizationMatlab\CST\unitcell.cst
! Tree item: Tasks\Sweep1\SPara1\S-Parameters
! Header version: 2024
! Port assignment regex: !\s*Touchstone port\s*([0-9]+)\s*=\s*(CST MWS port|CST DES external port|CST DES block port)\s*(.+)\s* \(\"(.*)\"\)(\s*mode\s*([0-9]+))?.*
! Touchstone port assignment:
! Touchstone port 1 = CST DES external port 1 ("")
# GHz S MA R 50
9                    0.993393207      -72.513064
9.001                0.993378593     -72.6181574
9.002                0.993363937     -72.7235007
9.003                0.993349238     -72.8290945
9.004                0.993334496     -72.9349395
9.005                 0.99331971     -73.0410366
9.006                0.993304881     -73.1473864
9.007                0.993290008     -73.2539897
9.008                0.993275092     -73.3608473
9.009                0.993260133     -73.4679598
9.01                 0.993245129     -73.5753282
9.011                0.993230081      -73.682953
9.012                 0.99321499      -73.790835
9.013                0.993199854     -73.8989751
9.014                0.993184674      -74.007374
9.015                 0.99316945     -74.1160324
9.016                0.993154182      -74.224951
9.017                0.993138869     -74.3341308
9.018                0.993123511     -74.4435723
9.019                0.993108109     -74.5532765
9.02                 0.993092662      -74.663244
9.021                 0.99307717     -74.7734756
9.022                0.993061632     -74.8839722
9.023                 0.99304605     -74.9947344
9.024                0.993030423     -75.1057631
9.025                 0.99301475     -75.2170591
9.026                0.992999032      -75.328623
9.027                0.992983268     -75.4404558
9.028                0.992967459     -75.5525582
9.029                0.992951604     -75.6649309
9.03                 0.992935703     -75.7775748
9.031                0.992919757     -75.8904907
9.032                0.992903764     -76.0036793
9.033                0.992887726     -76.1171414
9.034                0.992871641     -76.2308779
9.035                0.992855509     -76.3448895
9.036                0.992839332     -76.4591771
9.037                0.992823108     -76.5737414
9.038                0.992806837     -76.6885832
9.039                 0.99279052     -76.8037034
9.04                 0.992774156     -76.9191027
9.041                0.992757745      -77.034782
9.042                0.992741288     -77.1507421
9.043                0.992724783     -77.2669837
9.044                0.992708231     -77.3835077
9.045                0.992691632      -77.500315
9.046                0.992674985     -77.6174063
9.047                0.992658292     -77.7347824
9.048                 0.99264155     -77.8524442
9.049                0.992624762     -77.9703925
9.05                 0.992607925     -78.0886281
9.051                0.992591041     -78.2071519
9.052                0.992574109     -78.3259646
9.053                0.992557129     -78.4450671
9.054                0.992540101     -78.5644603
9.055                0.992523025     -78.6841449
9.056                0.992505901     -78.8041218
9.057                0.992488728     -78.9243919
9.058                0.992471507     -79.0449559
9.059                0.992454238     -79.1658147
9.06                  0.99243692     -79.2869692
9.061                0.992419554     -79.4084202
9.062                0.992402139     -79.5301685
9.063                0.992384676      -79.652215
9.064                0.992367163     -79.7745605
9.065                0.992349602      -79.897206
9.066                0.992331991     -80.0201521
9.067                0.992314332     -80.1433998
9.068                0.992296623       -80.26695
9.069                0.992278865     -80.3908035
9.07                 0.992261058     -80.5149611
9.071                0.992243202     -80.6394237
9.072                0.992225296     -80.7641922
9.073                0.992207341     -80.8892674
9.074                0.992189336     -81.0146502
9.075                0.992171281     -81.1403414
9.076                0.992153177      -81.266342
9.077                0.992135023     -81.3926528
9.078                0.992116819     -81.5192746
9.079                0.992098565     -81.6462083
9.08                 0.992080262     -81.7734548
9.081                0.992061908      -81.901015
9.082                0.992043504     -82.0288898
9.083                 0.99202505     -82.1570799
9.084                0.992006546     -82.2855864
9.085                0.991987991       -82.41441
9.086                0.991969386     -82.5435516
9.087                0.991950731     -82.6730122
9.088                0.991932025     -82.8027926
9.089                0.991913269     -82.9328937
9.09                 0.991894462     -83.0633164
9.091                0.991875605     -83.1940615
9.092                0.991856697       -83.32513
9.093                0.991837738     -83.4565227
9.094                0.991818728     -83.5882405
9.095                0.991799668     -83.7202844
9.096                0.991780556     -83.8526551
9.097                0.991761394     -83.9853537
9.098                0.991742181     -84.1183809
9.099                0.991722917     -84.2517377
9.1                  0.991703601      -84.385425
9.101                0.991684235     -84.5194437
9.102                0.991664817     -84.6537946
9.103                0.991645349     -84.7884787
9.104                0.991625829     -84.9234969
9.105                0.991606258       -85.05885
9.106                0.991586635      -85.194539
9.107                0.991566962     -85.3305647
9.108                0.991547237     -85.4669282
9.109                 0.99152746     -85.6036302
9.11                 0.991507632     -85.7406717
9.111                0.991487753     -85.8780535
9.112                0.991467822     -86.0157767
9.113                 0.99144784      -86.153842
9.114                0.991427806     -86.2922504
9.115                0.991407721     -86.4310029
9.116                0.991387584     -86.5701002
9.117                0.991367396     -86.7095434
9.118                0.991347156     -86.8493333
9.119                0.991326865     -86.9894709
9.12                 0.991306522      -87.129957
9.121                0.991286127     -87.2707926
9.122                0.991265681     -87.4119785
9.123                0.991245183     -87.5535157
9.124                0.991224633     -87.6954052
9.125                0.991204032     -87.8376477
9.126                0.991183379     -87.9802443
9.127                0.991162675     -88.1231958
9.128                0.991141919     -88.2665031
9.129                0.991121111     -88.4101672
9.13                 0.991100252      -88.554189
9.131                0.991079341     -88.6985694
9.132                0.991058378     -88.8433093
9.133                0.991037364     -88.9884096
9.134                0.991016298     -89.1338713
9.135                0.990995181     -89.2796952
9.136                0.990974012     -89.4258823
9.137                0.990952792     -89.5724334
9.138                 0.99093152     -89.7193496
9.139                0.990910197     -89.8666316
9.14                 0.990888822     -90.0142805
9.141                0.990867396     -90.1622971
9.142                0.990845918     -90.3106824
9.143                0.990824389     -90.4594373
9.144                0.990802809     -90.6085626
9.145                0.990781178     -90.7580593
9.146                0.990759495     -90.9079283
9.147                0.990737761     -91.0581706
9.148                0.990715976      -91.208787
9.149                 0.99069414     -91.3597784
9.15                 0.990672253     -91.5111458
9.151                0.990650314     -91.6628901
9.152                0.990628325     -91.8150121
9.153                0.990606285     -91.9675128
9.154                0.990584194     -92.1203932
9.155                0.990562053      -92.273654
9.156                0.990539861     -92.4272962
9.157                0.990517618     -92.5813208
9.158                0.990495324     -92.7357286
9.159                 0.99047298     -92.8905205
9.16                 0.990450586     -93.0456974
9.161                0.990428141     -93.2012603
9.162                0.990405646     -93.3572101
9.163                0.990383101     -93.5135476
9.164                0.990360506     -93.6702737
9.165                0.990337861     -93.8273893
9.166                0.990315166     -93.9848954
9.167                0.990292421     -94.1427929
9.168                0.990269627     -94.3010826
9.169                0.990246783     -94.4597654
9.17                 0.990223889     -94.6188422
9.171                0.990200947     -94.7783139
9.172                0.990177955     -94.9381814
9.173                0.990154913     -95.0984456
9.174                0.990131823     -95.2591074
9.175                0.990108684     -95.4201676
9.176                0.990085496     -95.5816272
9.177                0.990062259      -95.743487
9.178                0.990038974     -95.9057479
9.179                0.990015641     -96.0684108
9.18                 0.989992259     -96.2314765
9.181                 0.98996883      -96.394946
9.182                0.989945352       -96.55882
9.183                0.989921826     -96.7230995
9.184                0.989898253     -96.8877854
9.185                0.989874633     -97.0528785
9.186                0.989850965     -97.2183796
9.187                0.989827249     -97.3842896
9.188                0.989803487     -97.5506094
9.189                0.989779678     -97.7173399
9.19                 0.989755823     -97.8844819
9.191                 0.98973192     -98.0520361
9.192                0.989707972     -98.2200036
9.193                0.989683977     -98.3883851
9.194                0.989659937     -98.5571815
9.195                0.989635851     -98.7263936
9.196                0.989611719     -98.8960223
9.197                0.989587542     -99.0660683
9.198                 0.98956332     -99.2365325
9.199                0.989539053     -99.4074158
9.2                  0.989514741      -99.578719
9.201                0.989490385     -99.7504428
9.202                0.989465984     -99.9225881
9.203                0.989441539     -100.095156
9.204                0.989417051     -100.268147
9.205                0.989392519     -100.441561
9.206                0.989367944     -100.615401
9.207                0.989343325     -100.789666
9.208                0.989318664     -100.964357
9.209                 0.98929396     -101.139476
9.21                 0.989269214     -101.315022
9.211                0.989244425     -101.490997
9.212                0.989219595     -101.667401
9.213                0.989194724     -101.844236
9.214                0.989169811     -102.021502
9.215                0.989144857       -102.1992
9.216                0.989119862      -102.37733
9.217                0.989094827     -102.555893
9.218                0.989069751     -102.734891
9.219                0.989044636     -102.914323
9.22                 0.989019482     -103.094191
9.221                0.988994288     -103.274495
9.222                0.988969055     -103.455237
9.223                0.988943783     -103.636416
9.224                0.988918474     -103.818033
9.225                0.988893126      -104.00009
9.226                0.988867741     -104.182587
9.227                0.988842318     -104.365524
9.228                0.988816859     -104.548903
9.229                0.988791362     -104.732724
9.23                  0.98876583     -104.916987
9.231                0.988740262     -105.101694
9.232                0.988714658     -105.286845
9.233                0.988689019     -105.472441
9.234                0.988663345     -105.658482
9.235                0.988637637     -105.844969
9.236                0.988611894     -106.031904
9.237                0.988586118     -106.219285
9.238                0.988560309     -106.407115
9.239                0.988534467     -106.595393
9.24                 0.988508592     -106.784121
9.241                0.988482686     -106.973299
9.242                0.988456747     -107.162927
9.243                0.988430778     -107.353007
9.244                0.988404777     -107.543538
9.245                0.988378747     -107.734522
9.246                0.988352686     -107.925958
9.247                0.988326596     -108.117849
9.248                0.988300477     -108.310193
9.249                0.988274329     -108.502993
9.25                 0.988248153     -108.696247
9.251                 0.98822195     -108.889958
9.252                0.988195719     -109.084125
9.253                0.988169462     -109.278748
9.254                0.988143178      -109.47383
9.255                0.988116869     -109.669369
9.256                0.988090534     -109.865367
9.257                0.988064175     -110.061824
9.258                0.988037791     -110.258741
9.259                0.988011384     -110.456117
9.26                 0.987984953     -110.653954
9.261                  0.9879585     -110.852252
9.262                0.987932024     -111.051012
9.263                0.987905527     -111.250233
9.264                0.987879009     -111.449917
9.265                0.987852471     -111.650064
9.266                0.987825912     -111.850674
9.267                0.987799334     -112.051747
9.268                0.987772737     -112.253285
9.269                0.987746122     -112.455287
9.27                 0.987719489     -112.657754
9.271                0.987692839     -112.860686
9.272                0.987666173     -113.064084
9.273                0.987639491     -113.267948
9.274                0.987612793     -113.472278
9.275                0.987586081     -113.677076
9.276                0.987559354      -113.88234
9.277                0.987532614     -114.088071
9.278                0.987505862      -114.29427
9.279                0.987479097     -114.500937
9.28                  0.98745232     -114.708073
9.281                0.987425533     -114.915677
9.282                0.987398736      -115.12375
9.283                0.987371928     -115.332292
9.284                0.987345112     -115.541303
9.285                0.987318288     -115.750784
9.286                0.987291456     -115.960735
9.287                0.987264618     -116.171155
9.288                0.987237773     -116.382046
9.289                0.987210923     -116.593408
9.29                 0.987184067      -116.80524
9.291                0.987157208     -117.017543
9.292                0.987130346     -117.230317
9.293                0.987103481     -117.443562
9.294                0.987076614     -117.657278
9.295                0.987049746     -117.871465
9.296                0.987022878     -118.086124
9.297                 0.98699601     -118.301255
9.298                0.986969144     -118.516857
9.299                0.986942279     -118.732931
9.3                  0.986915417     -118.949476
9.301                0.986888558     -119.166494
9.302                0.986861704     -119.383983
9.303                0.986834855     -119.601944
9.304                0.986808011     -119.820378
9.305                0.986781174     -120.039282
9.306                0.986754345     -120.258659
9.307                0.986727524     -120.478508
9.308                0.986700713     -120.698828
9.309                0.986673911      -120.91962
9.31                  0.98664712     -121.140884
9.311                 0.98662034     -121.362619
9.312                0.986593574     -121.584826
9.313                 0.98656682     -121.807504
9.314                0.986540081     -122.030653
9.315                0.986513357     -122.254273
9.316                0.986486649     -122.478364
9.317                0.986459958     -122.702925
9.318                0.986433284     -122.927958
9.319                 0.98640663      -123.15346
9.32                 0.986379995     -123.379432
9.321                 0.98635338     -123.605875
9.322                0.986326787     -123.832787
9.323                0.986300216     -124.060168
9.324                0.986273668     -124.288018
9.325                0.986247145     -124.516337
9.326                0.986220647     -124.745124
9.327                0.986194175     -124.974379
9.328                 0.98616773     -125.204102
9.329                0.986141313     -125.434292
9.33                 0.986114925     -125.664949
9.331                0.986088567     -125.896073
9.332                 0.98606224     -126.127663
9.333                0.986035945     -126.359719
9.334                0.986009682      -126.59224
9.335                0.985983454     -126.825225
9.336                0.985957261     -127.058675
9.337                0.985931103     -127.292589
9.338                0.985904983     -127.526966
9.339                0.985878901     -127.761806
9.34                 0.985852857     -127.997108
9.341                0.985826854     -128.232871
9.342                0.985800892     -128.469096
9.343                0.985774972     -128.705781
9.344                0.985749095     -128.942926
9.345                0.985723262      -129.18053
9.346                0.985697475     -129.418593
9.347                0.985671734     -129.657113
9.348                 0.98564604     -129.896091
9.349                0.985620395     -130.135525
9.35                   0.9855948     -130.375414
9.351                0.985569255     -130.615759
9.352                0.985543762     -130.856558
9.353                0.985518322      -131.09781
9.354                0.985492936     -131.339515
9.355                0.985467605     -131.581671
9.356                0.985442331     -131.824278
9.357                0.985417113     -132.067336
9.358                0.985391954     -132.310843
9.359                0.985366855     -132.554797
9.36                 0.985341817       -132.7992
9.361                 0.98531684     -133.044048
9.362                0.985291926     -133.289342
9.363                0.985267077     -133.535081
9.364                0.985242292     -133.781262
9.365                0.985217574     -134.027887
9.366                0.985192924     -134.274953
9.367                0.985168343     -134.522459
9.368                0.985143831     -134.770404
9.369                0.985119391     -135.018787
9.37                 0.985095022     -135.267608
9.371                0.985070728     -135.516864
9.372                0.985046508     -135.766555
9.373                0.985022363      -136.01668
9.374                0.984998296     -136.267237
9.375                0.984974307     -136.518225
9.376                0.984950397     -136.769643
9.377                0.984926568     -137.021489
9.378                 0.98490282     -137.273763
9.379                0.984879156     -137.526463
9.38                 0.984855575     -137.779588
9.381                 0.98483208     -138.033136
9.382                0.984808672     -138.287106
9.383                0.984785352     -138.541496
9.384                 0.98476212     -138.796306
9.385                0.984738979     -139.051533
9.386                0.984715929     -139.307177
9.387                0.984692972     -139.563236
9.388                0.984670108     -139.819708
9.389                 0.98464734     -140.076591
9.39                 0.984624668     -140.333885
9.391                0.984602094     -140.591588
9.392                0.984579618     -140.849698
9.393                0.984557242     -141.108214
9.394                0.984534968     -141.367133
9.395                0.984512796     -141.626455
9.396                0.984490728     -141.886177
