! TOUCHSTONE file generated by CST DESIGN STUDIO
! Date and time: Tue Feb  4 18:08:09 2025
! Project name: C:\Work\MatlabApps\UnitCellOptimizationMatlab\CST\unitcell.cst
! Tree item: Tasks\Sweep1\SPara1\S-Parameters
! Header version: 2024
! Port assignment regex: !\s*Touchstone port\s*([0-9]+)\s*=\s*(CST MWS port|CST DES external port|CST DES block port)\s*(.+)\s* \(\"(.*)\"\)(\s*mode\s*([0-9]+))?.*
! Touchstone port assignment:
! Touchstone port 1 = CST DES external port 1 ("")
# GHz S MA R 50
9                    0.529207166      133.367177
9.001                0.530007078      132.850637
9.002                 0.53081728      132.335883
9.003                0.531637618      131.822928
9.004                0.532467935      131.311784
9.005                0.533308077      130.802463
9.006                0.534157886      130.294978
9.007                0.535017206      129.789339
9.008                 0.53588588      129.285558
9.009                0.536763752      128.783644
9.01                 0.537650664      128.283607
9.011                0.538546461      127.785456
9.012                0.539450984      127.289201
9.013                0.540364078      126.794849
9.014                0.541285585      126.302408
9.015                 0.54221535      125.811886
9.016                0.543153216       125.32329
9.017                0.544099028      124.836626
9.018                 0.54505263        124.3519
9.019                0.546013866      123.869118
9.02                 0.546982584      123.388285
9.021                0.547958627      122.909407
9.022                0.548941844      122.432487
9.023                0.549932081      121.957529
9.024                0.550929185      121.484538
9.025                0.551933005      121.013517
9.026                 0.55294339      120.544467
9.027                 0.55396019      120.077393
9.028                0.554983255      119.612296
9.029                0.556012437      119.149178
9.03                 0.557047587       118.68804
9.031                 0.55808856      118.228884
9.032                0.559135207       117.77171
9.033                0.560187386      117.316519
9.034                 0.56124495      116.863312
9.035                0.562307758      116.412087
9.036                0.563375667      115.962844
9.037                0.564448536      115.515584
9.038                0.565526225      115.070304
9.039                0.566608594      114.627004
9.04                 0.567695506      114.185681
9.041                0.568786825      113.746335
9.042                0.569882413      113.308962
9.043                0.570982139      112.873562
9.044                0.572085867       112.44013
9.045                0.573193465      112.008665
9.046                0.574304804      111.579163
9.047                0.575419753       111.15162
9.048                0.576538185      110.726034
9.049                0.577659971      110.302401
9.05                 0.578784987      109.880717
9.051                0.579913107      109.460977
9.052                0.581044208      109.043178
9.053                 0.58217817      108.627315
9.054                 0.58331487      108.213383
9.055                 0.58445419      107.801377
9.056                0.585596011      107.391293
9.057                0.586740218      106.983125
9.058                0.587886695      106.576867
9.059                0.589035327      106.172515
9.06                 0.590186003      105.770063
9.061                0.591338612      105.369504
9.062                0.592493042      104.970834
9.063                0.593649187      104.574046
9.064                0.594806938      104.179133
9.065                 0.59596619       103.78609
9.066                0.597126839      103.394909
9.067                0.598288782      103.005586
9.068                0.599451917      102.618112
9.069                0.600616143      102.232481
9.07                 0.601781362      101.848687
9.071                0.602947477      101.466721
9.072                0.604114391      101.086579
9.073                0.605282009      100.708251
9.074                0.606450237      100.331732
9.075                0.607618985      99.9570127
9.076                 0.60878816      99.5840872
9.077                0.609957674      99.2129477
9.078                0.611127438      98.8435866
9.079                0.612297366      98.4759964
9.08                 0.613467372      98.1101696
9.081                0.614637372      97.7460983
9.082                0.615807284       97.383775
9.083                0.616977025      97.0231918
9.084                0.618146515      96.6643408
9.085                0.619315676      96.3072144
9.086                 0.62048443      95.9518044
9.087                  0.6216527       95.598103
9.088                0.622820412      95.2461022
9.089                0.623987492       94.895794
9.09                 0.625153867      94.5471703
9.091                0.626319465       94.200223
9.092                0.627484217      93.8549442
9.093                0.628648054      93.5113255
9.094                0.629810908      93.1693589
9.095                0.630972712      92.8290362
9.096                0.632133402      92.4903493
9.097                0.633292913        92.15329
9.098                0.634451182      91.8178499
9.099                0.635608148       91.484021
9.1                  0.636763749       91.151795
9.101                0.637917928      90.8211637
9.102                0.639070624      90.4921188
9.103                0.640221781      90.1646522
9.104                0.641371343      89.8387555
9.105                0.642519255      89.5144206
9.106                0.643665463      89.1916391
9.107                0.644809914       88.870403
9.108                0.645952556      88.5507039
9.109                0.647093339      88.2325336
9.11                 0.648232213       87.915884
9.111                0.649369129      87.6007468
9.112                 0.65050404      87.2871139
9.113                  0.6516369       86.974977
9.114                0.652767661      86.6643281
9.115                0.653896281       86.355159
9.116                0.655022715      86.0474615
9.117                0.656146921      85.7412275
9.118                0.657268856       85.436449
9.119                0.658388481      85.1331179
9.12                 0.659505755       84.831226
9.121                 0.66062064      84.5307655
9.122                0.661733097      84.2317282
9.123                0.662843089      83.9341062
9.124                 0.66395058      83.6378916
9.125                0.665055535      83.3430763
9.126                0.666157919      83.0496525
9.127                0.667257698      82.7576122
9.128                0.668354841      82.4669477
9.129                0.669449314      82.1776511
9.13                 0.670541087      81.8897145
9.131                0.671630129      81.6031302
9.132                 0.67271641      81.3178905
9.133                0.673799903      81.0339876
9.134                0.674880579      80.7514138
9.135                 0.67595841      80.4701616
9.136                0.677033371      80.1902231
9.137                0.678105435       79.911591
9.138                0.679174578      79.6342575
9.139                0.680240775      79.3582151
9.14                 0.681304003      79.0834565
9.141                0.682364239       78.809974
9.142                0.683421461      78.5377603
9.143                0.684475646       78.266808
9.144                0.685526775      77.9971097
9.145                0.686574828      77.7286581
9.146                0.687619784      77.4614458
9.147                0.688661624      77.1954657
9.148                0.689700332      76.9307105
9.149                0.690735888       76.667173
9.15                 0.691768277       76.404846
9.151                0.692797481      76.1437225
9.152                0.693823484      75.8837954
9.153                0.694846272      75.6250576
9.154                 0.69586583      75.3675021
9.155                0.696882144      75.1111219
9.156                  0.6978952      74.8559101
9.157                0.698904984      74.6018599
9.158                0.699911486      74.3489643
9.159                0.700914692      74.0972165
9.16                 0.701914592      73.8466098
9.161                0.702911174      73.5971373
9.162                0.703904429      73.3487925
9.163                0.704894345      73.1015685
9.164                0.705880914      72.8554588
9.165                0.706864126      72.6104567
9.166                0.707843974      72.3665557
9.167                0.708820449      72.1237493
9.168                0.709793544       71.882031
9.169                0.710763251      71.6413943
9.17                 0.711729564      71.4018328
9.171                0.712692476      71.1633401
9.172                0.713651982      70.9259099
9.173                0.714608076      70.6895359
9.174                0.715560753      70.4542119
9.175                0.716510009      70.2199314
9.176                0.717455839      69.9866885
9.177                0.718398239      69.7544769
9.178                0.719337207      69.5232906
9.179                0.720272738      69.2931233
9.18                  0.72120483      69.0639692
9.181                0.722133481      68.8358221
9.182                0.723058689      68.6086761
9.183                0.723980451      68.3825252
9.184                0.724898767      68.1573637
9.185                0.725813635      67.9331855
9.186                0.726725055      67.7099848
9.187                0.727633026       67.487756
9.188                0.728537548      67.2664931
9.189                0.729438622      67.0461905
9.19                 0.730336247      66.8268425
9.191                0.731230426      66.6084435
9.192                0.732121158      66.3909878
9.193                0.733008445      66.1744698
9.194                0.733892288       65.958884
9.195                0.734772691      65.7442249
9.196                0.735649654      65.5304871
9.197                 0.73652318      65.3176649
9.198                0.737393272      65.1057532
9.199                0.738259933      64.8947464
9.2                  0.739123166      64.6846392
9.201                0.739982973      64.4754264
9.202                 0.74083936      64.2671026
9.203                 0.74169233      64.0596627
9.204                0.742541886      63.8531013
9.205                0.743388033      63.6474134
9.206                0.744230776      63.4425938
9.207                0.745070119      63.2386373
9.208                0.745906067       63.035539
9.209                0.746738625      62.8332937
9.21                 0.747567798      62.6318965
9.211                0.748393593      62.4313424
9.212                0.749216014      62.2316264
9.213                0.750035067      62.0327436
9.214                0.750850759      61.8346892
9.215                0.751663095      61.6374582
9.216                0.752472083      61.4410459
9.217                0.753277727      61.2454475
9.218                0.754080036      61.0506581
9.219                0.754879015      60.8566732
9.22                 0.755674672       60.663488
9.221                0.756467015      60.4710978
9.222                0.757256049      60.2794979
9.223                0.758041783      60.0886839
9.224                0.758824224      59.8986511
9.225                0.759603379      59.7093949
9.226                0.760379257      59.5209108
9.227                0.761151866      59.3331945
9.228                0.761921213      59.1462413
9.229                0.762687306      58.9600468
9.23                 0.763450155      58.7746068
9.231                0.764209766      58.5899167
9.232                0.764966149      58.4059723
9.233                0.765719313      58.2227692
9.234                0.766469265      58.0403032
9.235                0.767216015      57.8585699
9.236                0.767959571      57.6775652
9.237                0.768699944      57.4972849
9.238                0.769437141      57.3177247
9.239                0.770171171      57.1388805
9.24                 0.770902045      56.9607483
9.241                0.771629771      56.7833239
9.242                0.772354358      56.6066031
9.243                0.773075817      56.4305821
9.244                0.773794157      56.2552568
9.245                0.774509387      56.0806232
9.246                0.775221517      55.9066772
9.247                0.775930557      55.7334151
9.248                0.776636516      55.5608328
9.249                0.777339405      55.3889266
9.25                 0.778039233      55.2176924
9.251                0.778736011      55.0471265
9.252                0.779429748      54.8772252
9.253                0.780120455      54.7079845
9.254                0.780808142      54.5394007
9.255                0.781492818      54.3714701
9.256                0.782174495       54.204189
9.257                0.782853182      54.0375537
9.258                0.783528891      53.8715605
9.259                 0.78420163      53.7062058
9.26                 0.784871411      53.5414859
9.261                0.785538244      53.3773974
9.262                 0.78620214      53.2139365
9.263                0.786863108      53.0510998
9.264                0.787521161      52.8888837
9.265                0.788176307      52.7272847
9.266                0.788828559      52.5662993
9.267                0.789477926      52.4059242
9.268                0.790124419      52.2461558
9.269                0.790768049      52.0869908
9.27                 0.791408826      51.9284257
9.271                0.792046762      51.7704572
9.272                0.792681867      51.6130819
9.273                0.793314152      51.4562966
9.274                0.793943627      51.3000978
9.275                0.794570303      51.1444824
9.276                0.795194192      50.9894471
9.277                0.795815304      50.8349886
9.278                0.796433649      50.6811037
9.279                 0.79704924      50.5277892
9.28                 0.797662086      50.3750419
9.281                0.798272198      50.2228588
9.282                0.798879587      50.0712366
9.283                0.799484265      49.9201722
9.284                0.800086241      49.7696625
9.285                0.800685528      49.6197045
9.286                0.801282135      49.4702951
9.287                0.801876073      49.3214313
9.288                0.802467354        49.17311
9.289                0.803055989      49.0253282
9.29                 0.803641987      48.8780831
9.291                0.804225361      48.7313715
9.292                 0.80480612      48.5851906
9.293                0.805384276      48.4395375
9.294                 0.80595984      48.2944091
9.295                0.806532822      48.1498028
9.296                0.807103233      48.0057155
9.297                0.807671085      47.8621445
9.298                0.808236387      47.7190869
9.299                0.808799151      47.5765399
9.3                  0.809359387      47.4345007
9.301                0.809917106      47.2929665
9.302                0.810472319      47.1519347
9.303                0.811025037      47.0114023
9.304                 0.81157527      46.8713667
9.305                 0.81212303      46.7318253
9.306                0.812668325      46.5927752
9.307                0.813211169      46.4542139
9.308                 0.81375157      46.3161387
9.309                 0.81428954      46.1785469
9.31                  0.81482509      46.0414359
9.311                0.815358229      45.9048032
9.312                0.815888968      45.7686461
9.313                0.816417319       45.632962
9.314                0.816943291      45.4977484
9.315                0.817466895      45.3630028
9.316                0.817988142      45.2287226
9.317                0.818507042      45.0949054
9.318                0.819023605      44.9615485
9.319                0.819537842      44.8286497
9.32                 0.820049763      44.6962063
9.321                0.820559378      44.5642159
9.322                0.821066698      44.4326762
9.323                0.821571734      44.3015847
9.324                0.822074495      44.1709389
9.325                0.822574992      44.0407366
9.326                0.823073234      43.9109753
9.327                0.823569233      43.7816527
9.328                0.824062998      43.6527664
9.329                 0.82455454      43.5243142
9.33                 0.825043868      43.3962936
9.331                0.825530992      43.2687024
9.332                0.826015924      43.1415384
9.333                0.826498672      43.0147992
9.334                0.826979246      42.8884826
9.335                0.827457658      42.7625864
9.336                0.827933916      42.6371082
9.337                 0.82840803       42.512046
9.338                 0.82888001      42.3873975
9.339                0.829349867      42.2631605
9.34                  0.82981761      42.1393329
9.341                0.830283248      42.0159124
9.342                0.830746792       41.892897
9.343                0.831208251      41.7702844
9.344                0.831667635      41.6480727
9.345                0.832124953      41.5262596
9.346                0.832580216      41.4048431
9.347                0.833033432      41.2838211
9.348                0.833484611      41.1631916
9.349                0.833933762      41.0429524
9.35                 0.834380896      40.9231015
9.351                0.834826022      40.8036369
9.352                0.835269148      40.6845566
9.353                0.835710285      40.5658586
9.354                0.836149441      40.4475408
9.355                0.836586626      40.3296013
9.356                 0.83702185      40.2120382
9.357                 0.83745512      40.0948494
9.358                0.837886448       39.978033
9.359                0.838315841      39.8615871
9.36                 0.838743309      39.7455097
9.361                0.839168861       39.629799
9.362                0.839592506       39.514453
9.363                0.840014253      39.3994698
9.364                 0.84043411      39.2848477
9.365                0.840852088      39.1705846
9.366                0.841268195      39.0566788
9.367                0.841682439      38.9431284
9.368                0.842094829      38.8299315
9.369                0.842505375      38.7170864
9.37                 0.842914085      38.6045913
9.371                0.843320968      38.4924442
9.372                0.843726032      38.3806436
9.373                0.844129286      38.2691874
9.374                0.844530739      38.1580741
9.375                0.844930399      38.0473018
9.376                0.845328275      37.9368689
9.377                0.845724375      37.8267734
9.378                0.846118708      37.7170138
9.379                0.846511281      37.6075883
9.38                 0.846902105      37.4984952
9.381                0.847291186      37.3897328
9.382                0.847678534      37.2812994
9.383                0.848064156      37.1731934
9.384                0.848448061      37.0654131
9.385                0.848830257      36.9579567
9.386                0.849210752      36.8508227
9.387                0.849589554      36.7440095
9.388                0.849966671      36.6375154
9.389                0.850342112      36.5313387
9.39                 0.850715884      36.4254779
9.391                0.851087996      36.3199314
9.392                0.851458455      36.2146976
9.393                0.851827269      36.1097749
9.394                0.852194447      36.0051617
9.395                0.852559995      35.9008565
9.396                0.852923922      35.7968577
