! TOUCHSTONE file generated by CST DESIGN STUDIO
! Date and time: Tue Feb  4 18:08:20 2025
! Project name: C:\Work\MatlabApps\UnitCellOptimizationMatlab\CST\unitcell.cst
! Tree item: Tasks\Sweep1\SPara1\S-Parameters
! Header version: 2024
! Port assignment regex: !\s*Touchstone port\s*([0-9]+)\s*=\s*(CST MWS port|CST DES external port|CST DES block port)\s*(.+)\s* \(\"(.*)\"\)(\s*mode\s*([0-9]+))?.*
! Touchstone port assignment:
! Touchstone port 1 = CST DES external port 1 ("")
# GHz S MA R 50
9                    0.943988341       -51.71027
9.001                0.943847866     -51.7795243
9.002                0.943706873     -51.8489421
9.003                 0.94356536     -51.9185238
9.004                0.943423325     -51.9882701
9.005                0.943280765     -52.0581815
9.006                0.943137679     -52.1282586
9.007                0.942994064      -52.198502
9.008                0.942849918     -52.2689122
9.009                0.942705239     -52.3394898
9.01                 0.942560024     -52.4102354
9.011                0.942414271     -52.4811496
9.012                0.942267978     -52.5522329
9.013                0.942121142      -52.623486
9.014                0.941973761     -52.6949094
9.015                0.941825834     -52.7665037
9.016                0.941677356     -52.8382695
9.017                0.941528327     -52.9102074
9.018                0.941378744      -52.982318
9.019                0.941228604     -53.0546019
9.02                 0.941077905     -53.1270597
9.021                0.940926644      -53.199692
9.022                 0.94077482     -53.2724994
9.023                 0.94062243     -53.3454825
9.024                0.940469471      -53.418642
9.025                0.940315941     -53.4919784
9.026                0.940161838     -53.5654924
9.027                0.940007158     -53.6391845
9.028                0.939851901     -53.7130555
9.029                0.939696062     -53.7871059
9.03                  0.93953964     -53.8613364
9.031                0.939382632     -53.9357476
9.032                0.939225036     -54.0103401
9.033                0.939066849     -54.0851146
9.034                0.938908068     -54.1600717
9.035                0.938748692      -54.235212
9.036                0.938588717     -54.3105362
9.037                0.938428141      -54.386045
9.038                0.938266961     -54.4617389
9.039                0.938105175     -54.5376187
9.04                  0.93794278      -54.613685
9.041                0.937779774     -54.6899384
9.042                0.937616154     -54.7663797
9.043                0.937451916     -54.8430094
9.044                 0.93728706     -54.9198283
9.045                0.937121581      -54.996837
9.046                0.936955478     -55.0740362
9.047                0.936788747     -55.1514266
9.048                0.936621387     -55.2290088
9.049                0.936453393     -55.3067835
9.05                 0.936284764     -55.3847515
9.051                0.936115497     -55.4629133
9.052                0.935945589     -55.5412697
9.053                0.935775037     -55.6198214
9.054                0.935603839     -55.6985691
9.055                0.935431991     -55.7775135
9.056                0.935259491     -55.8566552
9.057                0.935086337      -55.935995
9.058                0.934912524     -56.0155336
9.059                0.934738052     -56.0952717
9.06                 0.934562916       -56.17521
9.061                0.934387114     -56.2553493
9.062                0.934210642     -56.3356902
9.063                0.934033499     -56.4162335
9.064                0.933855681     -56.4969798
9.065                0.933677186     -56.5779301
9.066                 0.93349801     -56.6590848
9.067                 0.93331815     -56.7404449
9.068                0.933137604      -56.822011
9.069                0.932956368     -56.9037839
9.07                 0.932774441     -56.9857643
9.071                0.932591817      -57.067953
9.072                0.932408496     -57.1503507
9.073                0.932224473     -57.2329582
9.074                0.932039746     -57.3157762
9.075                0.931854311     -57.3988056
9.076                0.931668166      -57.482047
9.077                0.931481308     -57.5655012
9.078                0.931293733      -57.649169
9.079                0.931105439     -57.7330512
9.08                 0.930916421     -57.8171486
9.081                0.930726679     -57.9014619
9.082                0.930536207      -57.985992
9.083                0.930345003     -58.0707395
9.084                0.930153064     -58.1557054
9.085                0.929960387     -58.2408903
9.086                0.929766969     -58.3262952
9.087                0.929572806     -58.4119207
9.088                0.929377895     -58.4977678
9.089                0.929182233     -58.5838371
9.09                 0.928985816     -58.6701296
9.091                0.928788643      -58.756646
9.092                0.928590708     -58.8433872
9.093                 0.92839201      -58.930354
9.094                0.928192544     -59.0175472
9.095                0.927992308     -59.1049676
9.096                0.927791298     -59.1926161
9.097                0.927589511     -59.2804935
9.098                0.927386944     -59.3686006
9.099                0.927183592     -59.4569384
9.1                  0.926979454     -59.5455076
9.101                0.926774525     -59.6343091
9.102                0.926568802     -59.7233437
9.103                0.926362282     -59.8126123
9.104                0.926154962     -59.9021158
9.105                0.925946837     -59.9918551
9.106                0.925737905      -60.081831
9.107                0.925528162     -60.1720443
9.108                0.925317604      -60.262496
9.109                0.925106229     -60.3531869
9.11                 0.924894032      -60.444118
9.111                0.924681011     -60.5352901
9.112                0.924467161     -60.6267041
9.113                0.924252479     -60.7183609
9.114                0.924036962     -60.8102614
9.115                0.923820606     -60.9024066
9.116                0.923603407     -60.9947972
9.117                0.923385362     -61.0874343
9.118                0.923166468     -61.1803187
9.119                 0.92294672     -61.2734514
9.12                 0.922726116     -61.3668333
9.121                 0.92250465     -61.4604653
9.122                0.922282321     -61.5543484
9.123                0.922059124     -61.6484835
9.124                0.921835055     -61.7428715
9.125                0.921610111     -61.8375134
9.126                0.921384288     -61.9324101
9.127                0.921157583     -62.0275626
9.128                0.920929991     -62.1229718
9.129                0.920701509     -62.2186387
9.13                 0.920472134     -62.3145643
9.131                0.920241861     -62.4107495
9.132                0.920010686     -62.5071953
9.133                0.919778606     -62.6039027
9.134                0.919545617     -62.7008727
9.135                0.919311716     -62.7981062
9.136                0.919076898     -62.8956043
9.137                0.918841159     -62.9933679
9.138                0.918604496      -63.091398
9.139                0.918366905     -63.1896957
9.14                 0.918128381     -63.2882619
9.141                0.917888922     -63.3870977
9.142                0.917648523     -63.4862041
9.143                 0.91740718      -63.585582
9.144                0.917164889     -63.6852326
9.145                0.916921646     -63.7851569
9.146                0.916677448     -63.8853558
9.147                 0.91643229     -63.9858304
9.148                0.916186169     -64.0865818
9.149                0.915939079      -64.187611
9.15                 0.915691018     -64.2889191
9.151                0.915441981     -64.3905071
9.152                0.915191965     -64.4923761
9.153                0.914940964     -64.5945272
9.154                0.914688976     -64.6969613
9.155                0.914435996     -64.7996797
9.156                0.914182019     -64.9026833
9.157                0.913927043     -65.0059733
9.158                0.913671062     -65.1095508
9.159                0.913414072     -65.2134168
9.16                  0.91315607     -65.3175724
9.161                0.912897051     -65.4220187
9.162                0.912637011     -65.5267569
9.163                0.912375946     -65.6317881
9.164                0.912113852     -65.7371134
9.165                0.911850724     -65.8427338
9.166                0.911586558     -65.9486506
9.167                 0.91132135     -66.0548648
9.168                0.911055096     -66.1613776
9.169                0.910787792     -66.2681902
9.17                 0.910519432     -66.3753036
9.171                0.910250014     -66.4827191
9.172                0.909979532     -66.5904378
9.173                0.909707983     -66.6984608
9.174                0.909435361     -66.8067893
9.175                0.909161663     -66.9154245
9.176                0.908886884     -67.0243676
9.177                0.908611021     -67.1336197
9.178                0.908334068     -67.2431821
9.179                0.908056021     -67.3530558
9.18                 0.907776876     -67.4632422
9.181                0.907496628     -67.5737424
9.182                0.907215273     -67.6845576
9.183                0.906932807      -67.795689
9.184                0.906649225     -67.9071379
9.185                0.906364523     -68.0189055
9.186                0.906078695     -68.1309929
9.187                0.905791739     -68.2434015
9.188                0.905503649     -68.3561325
9.189                0.905214421      -68.469187
9.19                  0.90492405     -68.5825664
9.191                0.904632531     -68.6962719
9.192                0.904339861     -68.8103048
9.193                0.904046035     -68.9246663
9.194                0.903751048     -69.0393577
9.195                0.903454896     -69.1543802
9.196                0.903157574     -69.2697352
9.197                0.902859077      -69.385424
9.198                0.902559401     -69.5014477
9.199                0.902258542     -69.6178078
9.2                  0.901956494     -69.7345055
9.201                0.901653254     -69.8515421
9.202                0.901348816      -69.968919
9.203                0.901043176     -70.0866374
9.204                 0.90073633     -70.2046986
9.205                0.900428272     -70.3231041
9.206                0.900118998     -70.4418551
9.207                0.899808504      -70.560953
9.208                0.899496784     -70.6803991
9.209                0.899183835     -70.8001948
9.21                 0.898869651     -70.9203414
9.211                0.898554227     -71.0408403
9.212                 0.89823756     -71.1616929
9.213                0.897919644     -71.2829004
9.214                0.897600475     -71.4044644
9.215                0.897280047     -71.5263862
9.216                0.896958357     -71.6486671
9.217                  0.8966354     -71.7713087
9.218                 0.89631117     -71.8943121
9.219                0.895985663      -72.017679
9.22                 0.895658875     -72.1414107
9.221                  0.8953308     -72.2655086
9.222                0.895001434     -72.3899741
9.223                0.894670773     -72.5148087
9.224                 0.89433881     -72.6400137
9.225                0.894005543     -72.7655908
9.226                0.893670965     -72.8915412
9.227                0.893335072     -73.0178664
9.228                 0.89299786      -73.144568
9.229                0.892659323     -73.2716473
9.23                 0.892319457     -73.3991059
9.231                0.891978257     -73.5269451
9.232                0.891635719     -73.6551666
9.233                0.891291836     -73.7837718
9.234                0.890946606     -73.9127621
9.235                0.890600023     -74.0421391
9.236                0.890252081     -74.1719043
9.237                0.889902777     -74.3020592
9.238                0.889552106     -74.4326053
9.239                0.889200063     -74.5635442
9.24                 0.888846643     -74.6948773
9.241                0.888491841     -74.8266062
9.242                0.888135652     -74.9587325
9.243                0.887778073     -75.0912577
9.244                0.887419097     -75.2241833
9.245                 0.88705872      -75.357511
9.246                0.886696938     -75.4912422
9.247                0.886333746     -75.6253786
9.248                0.885969139     -75.7599218
9.249                0.885603112     -75.8948732
9.25                  0.88523566     -76.0302345
9.251                0.884866779     -76.1660074
9.252                0.884496464     -76.3021934
9.253                 0.88412471     -76.4387941
9.254                0.883751513     -76.5758111
9.255                0.883376868     -76.7132461
9.256                0.883000769     -76.8511007
9.257                0.882623213     -76.9893765
9.258                0.882244195     -77.1280752
9.259                 0.88186371     -77.2671983
9.26                 0.881481753     -77.4067477
9.261                0.881098319     -77.5467248
9.262                0.880713405     -77.6871315
9.263                0.880327005     -77.8279693
9.264                0.879939114     -77.9692399
9.265                0.879549729     -78.1109451
9.266                0.879158844     -78.2530865
9.267                0.878766455     -78.3956658
9.268                0.878372557     -78.5386847
9.269                0.877977145      -78.682145
9.27                 0.877580216     -78.8260482
9.271                0.877181765     -78.9703963
9.272                0.876781786     -79.1151908
9.273                0.876380276     -79.2604335
9.274                0.875977229     -79.4061263
9.275                0.875572643     -79.5522707
9.276                0.875166511     -79.6988686
9.277                 0.87475883     -79.8459217
9.278                0.874349595     -79.9934318
9.279                0.873938801     -80.1414007
9.28                 0.873526445     -80.2898301
9.281                0.873112522     -80.4387219
9.282                0.872697027     -80.5880777
9.283                0.872279957     -80.7378995
9.284                0.871861306      -80.888189
9.285                0.871441072     -81.0389481
9.286                0.871019248     -81.1901784
9.287                0.870595832      -81.341882
9.288                0.870170818     -81.4940605
9.289                0.869744203     -81.6467159
9.29                 0.869315983       -81.79985
9.291                0.868886153     -81.9534645
9.292                 0.86845471     -82.1075615
9.293                0.868021649     -82.2621427
9.294                0.867586966       -82.41721
9.295                0.867150657     -82.5727652
9.296                0.866712718     -82.7288103
9.297                0.866273145     -82.8853472
9.298                0.865831935     -83.0423777
9.299                0.865389083     -83.1999037
9.3                  0.864944586     -83.3579271
9.301                0.864498439     -83.5164499
9.302                0.864050639     -83.6754739
9.303                0.863601183     -83.8350011
9.304                0.863150066     -83.9950334
9.305                0.862697284     -84.1555727
9.306                0.862242835     -84.3166211
9.307                0.861786714     -84.4781803
9.308                0.861328919     -84.6402524
9.309                0.860869445     -84.8028394
9.31                 0.860408289     -84.9659431
9.311                0.859945447     -85.1295656
9.312                0.859480917     -85.2937088
9.313                0.859014694     -85.4583748
9.314                0.858546777     -85.6235655
9.315                 0.85807716     -85.7892829
9.316                0.857605842     -85.9555289
9.317                0.857132819     -86.1223057
9.318                0.856658088     -86.2896152
9.319                0.856181645     -86.4574595
9.32                 0.855703489     -86.6258405
9.321                0.855223615     -86.7947603
9.322                0.854742022     -86.9642209
9.323                0.854258706     -87.1342243
9.324                0.853773665     -87.3047727
9.325                0.853286895      -87.475868
9.326                0.852798395     -87.6475123
9.327                0.852308161     -87.8197077
9.328                0.851816192     -87.9924562
9.329                0.851322484     -88.1657599
9.33                 0.850827035     -88.3396209
9.331                0.850329844     -88.5140413
9.332                0.849830907     -88.6890232
9.333                0.849330222     -88.8645685
9.334                0.848827788     -89.0406796
9.335                0.848323602     -89.2173583
9.336                0.847817663      -89.394607
9.337                0.847309968     -89.5724276
9.338                0.846800515     -89.7508223
9.339                0.846289304     -89.9297932
9.34                 0.845776332     -90.1093425
9.341                0.845261597     -90.2894722
9.342                0.844745098     -90.4701845
9.343                0.844226834     -90.6514816
9.344                0.843706803     -90.8333656
9.345                0.843185005     -91.0158387
9.346                0.842661437      -91.198903
9.347                0.842136098     -91.3825606
9.348                0.841608989     -91.5668138
9.349                0.841080107     -91.7516646
9.35                 0.840549452     -91.9371154
9.351                0.840017023     -92.1231682
9.352                 0.83948282     -92.3098253
9.353                0.838946842     -92.4970888
9.354                0.838409088     -92.6849609
9.355                0.837869558     -92.8734438
9.356                0.837328253     -93.0625397
9.357                0.836785171     -93.2522508
9.358                0.836240313     -93.4425793
9.359                0.835693678     -93.6335275
9.36                 0.835145268     -93.8250975
9.361                0.834595082     -94.0172915
9.362                 0.83404312     -94.2101118
9.363                0.833489383     -94.4035606
9.364                0.832933872     -94.5976401
9.365                0.832376587     -94.7923525
9.366                 0.83181753     -94.9877002
9.367                  0.8312567     -95.1836852
9.368                  0.8306941     -95.3803098
9.369                 0.83012973     -95.5775764
9.37                 0.829563592      -95.775487
9.371                0.828995687     -95.9740441
9.372                0.828426017     -96.1732497
9.373                0.827854583     -96.3731062
9.374                0.827281387     -96.5736158
9.375                0.826706431     -96.7747808
9.376                0.826129718     -96.9766033
9.377                0.825551249     -97.1790858
9.378                0.824971026     -97.3822304
9.379                0.824389053     -97.5860393
9.38                 0.823805332     -97.7905149
9.381                0.823219866     -97.9956594
9.382                0.822632657     -98.2014751
9.383                0.822043709     -98.4079642
9.384                0.821453025      -98.615129
9.385                0.820860608     -98.8229717
9.386                0.820266462     -99.0314947
9.387                 0.81967059     -99.2407001
9.388                0.819072997     -99.4505903
9.389                0.818473685     -99.6611675
9.39                 0.817872661      -99.872434
9.391                0.817269926     -100.084392
9.392                0.816665488     -100.297044
9.393                0.816059348     -100.510392
9.394                0.815451514     -100.724438
9.395                0.814841989     -100.939185
9.396                0.814230779     -101.154635
