! TOUCHSTONE file generated by CST DESIGN STUDIO
! Date and time: Tue Feb  4 18:08:19 2025
! Project name: C:\Work\MatlabApps\UnitCellOptimizationMatlab\CST\unitcell.cst
! Tree item: Tasks\Sweep1\SPara1\S-Parameters
! Header version: 2024
! Port assignment regex: !\s*Touchstone port\s*([0-9]+)\s*=\s*(CST MWS port|CST DES external port|CST DES block port)\s*(.+)\s* \(\"(.*)\"\)(\s*mode\s*([0-9]+))?.*
! Touchstone port assignment:
! Touchstone port 1 = CST DES external port 1 ("")
# GHz S MA R 50
9                    0.922756601     -58.2249138
9.001                0.922536957     -58.3116337
9.002                0.922316443     -58.3985833
9.003                0.922095057     -58.4857635
9.004                0.921872794     -58.5731752
9.005                 0.92164965     -58.6608193
9.006                0.921425622     -58.7486966
9.007                0.921200706      -58.836808
9.008                0.920974898     -58.9251545
9.009                0.920748193     -59.0137368
9.01                 0.920520589     -59.1025559
9.011                0.920292081     -59.1916128
9.012                0.920062664     -59.2809081
9.013                0.919832336      -59.370443
9.014                0.919601092     -59.4602183
9.015                0.919368928     -59.5502349
9.016                0.919135839     -59.6404937
9.017                0.918901823     -59.7309957
9.018                0.918666875     -59.8217418
9.019                0.918430991     -59.9127329
9.02                 0.918194166     -60.0039699
9.021                0.917956397     -60.0954538
9.022                0.917717679     -60.1871855
9.023                0.917478009     -60.2791659
9.024                0.917237382     -60.3713962
9.025                0.916995794      -60.463877
9.026                0.916753241     -60.5566096
9.027                0.916509718     -60.6495947
9.028                0.916265221     -60.7428334
9.029                0.916019747     -60.8363266
9.03                  0.91577329     -60.9300753
9.031                0.915525847     -61.0240806
9.032                0.915277414     -61.1183433
9.033                0.915027985     -61.2128645
9.034                0.914777556     -61.3076452
9.035                0.914526124     -61.4026863
9.036                0.914273684     -61.4979889
9.037                0.914020231      -61.593554
9.038                0.913765761     -61.6893826
9.039                 0.91351027     -61.7854757
9.04                 0.913253753     -61.8818344
9.041                0.912996206     -61.9784596
9.042                0.912737624     -62.0753524
9.043                0.912478003     -62.1725138
9.044                0.912217339     -62.2699449
9.045                0.911955626     -62.3676467
9.046                 0.91169286     -62.4656203
9.047                0.911429037     -62.5638667
9.048                0.911164152      -62.662387
9.049                  0.9108982     -62.7611822
9.05                 0.910631178     -62.8602534
9.051                 0.91036308     -62.9596017
9.052                0.910093901     -63.0592282
9.053                0.909823637      -63.159134
9.054                0.909552284     -63.2593201
9.055                0.909279837     -63.3597876
9.056                 0.90900629     -63.4605376
9.057                0.908731639     -63.5615713
9.058                 0.90845588     -63.6628897
9.059                0.908179008      -63.764494
9.06                 0.907901018     -63.8663853
9.061                0.907621905     -63.9685646
9.062                0.907341664     -64.0710332
9.063                0.907060291     -64.1737921
9.064                 0.90677778     -64.2768426
9.065                0.906494127     -64.3801857
9.066                0.906209327     -64.4838226
9.067                0.905923376     -64.5877544
9.068                0.905636267     -64.6919823
9.069                0.905347997     -64.7965075
9.07                  0.90505856     -64.9013312
9.071                0.904767951     -65.0064545
9.072                0.904476166     -65.1118786
9.073                0.904183199     -65.2176046
9.074                0.903889046     -65.3236339
9.075                0.903593701     -65.4299675
9.076                0.903297159     -65.5366067
9.077                0.902999415     -65.6435526
9.078                0.902700465     -65.7508066
9.079                0.902400303     -65.8583698
9.08                 0.902098924     -65.9662434
9.081                0.901796323     -66.0744287
9.082                0.901492495     -66.1829269
9.083                0.901187435     -66.2917392
9.084                0.900881137     -66.4008669
9.085                0.900573596     -66.5103113
9.086                0.900264808     -66.6200735
9.087                0.899954766      -66.730155
9.088                0.899643467     -66.8405568
9.089                0.899330904     -66.9512804
9.09                 0.899017072     -67.0623269
9.091                0.898701966     -67.1736977
9.092                0.898385581     -67.2853941
9.093                0.898067911     -67.3974173
9.094                0.897748951     -67.5097687
9.095                0.897428697     -67.6224496
9.096                0.897107141     -67.7354612
9.097                 0.89678428      -67.848805
9.098                0.896460108     -67.9624822
9.099                0.896134619     -68.0764942
9.1                  0.895807808     -68.1908422
9.101                 0.89547967     -68.3055277
9.102                0.895150199      -68.420552
9.103                0.894819389     -68.5359165
9.104                0.894487236     -68.6516225
9.105                0.894153734     -68.7676714
9.106                0.893818877     -68.8840645
9.107                0.893482661     -69.0008033
9.108                0.893145078     -69.1178891
9.109                0.892806125     -69.2353234
9.11                 0.892465795     -69.3531074
9.111                0.892124083     -69.4712427
9.112                0.891780983     -69.5897307
9.113                0.891436491     -69.7085726
9.114                0.891090599     -69.8277701
9.115                0.890743303     -69.9473245
9.116                0.890394597     -70.0672372
9.117                0.890044476     -70.1875098
9.118                0.889692934     -70.3081436
9.119                0.889339964       -70.42914
9.12                 0.888985563     -70.5505007
9.121                0.888629724     -70.6722269
9.122                0.888272441     -70.7943203
9.123                0.887913709     -70.9167823
9.124                0.887553521     -71.0396143
9.125                0.887191874      -71.162818
9.126                 0.88682876     -71.2863947
9.127                0.886464174     -71.4103459
9.128                 0.88609811     -71.5346733
9.129                0.885730563     -71.6593783
9.13                 0.885361527     -71.7844625
9.131                0.884990997     -71.9099273
9.132                0.884618965     -72.0357743
9.133                0.884245428     -72.1620052
9.134                0.883870379     -72.2886213
9.135                0.883493811     -72.4156244
9.136                0.883115721     -72.5430159
9.137                0.882736101     -72.6707974
9.138                0.882354946     -72.7989705
9.139                0.881972251     -72.9275369
9.14                 0.881588009      -73.056498
9.141                0.881202215     -73.1858556
9.142                0.880814863     -73.3156112
9.143                0.880425947     -73.4457664
9.144                0.880035461     -73.5763228
9.145                  0.8796434     -73.7072822
9.146                0.879249758      -73.838646
9.147                0.878854529      -73.970416
9.148                0.878457707     -74.1025939
9.149                0.878059286     -74.2351812
9.15                 0.877659262     -74.3681797
9.151                0.877257627      -74.501591
9.152                0.876854376     -74.6354167
9.153                0.876449504     -74.7696587
9.154                0.876043004     -74.9043185
9.155                 0.87563487      -75.039398
9.156                0.875225098     -75.1748987
9.157                0.874813681     -75.3108224
9.158                0.874400613     -75.4471708
9.159                0.873985889     -75.5839457
9.16                 0.873569502     -75.7211488
9.161                0.873151448     -75.8587819
9.162                 0.87273172     -75.9968466
9.163                0.872310312     -76.1353448
9.164                0.871887219     -76.2742782
9.165                0.871462435     -76.4136486
9.166                0.871035955     -76.5534578
9.167                0.870607771     -76.6937076
9.168                 0.87017788     -76.8343997
9.169                0.869746275      -76.975536
9.17                  0.86931295     -77.1171183
9.171                  0.8688779     -77.2591484
9.172                0.868441119     -77.4016281
9.173                0.868002601     -77.5445593
9.174                 0.86756234     -77.6879437
9.175                0.867120332     -77.8317834
9.176                 0.86667657       -77.97608
9.177                0.866231049     -78.1208355
9.178                0.865783762     -78.2660518
9.179                0.865334706     -78.4117307
9.18                 0.864883873     -78.5578741
9.181                0.864431258     -78.7044839
9.182                0.863976856      -78.851562
9.183                0.863520662     -78.9991103
9.184                0.863062669     -79.1471308
9.185                0.862602872     -79.2956254
9.186                0.862141266     -79.4445959
9.187                0.861677845     -79.5940444
9.188                0.861212604     -79.7439728
9.189                0.860745538      -79.894383
9.19                  0.86027664      -80.045277
9.191                0.859805907     -80.1966569
9.192                0.859333331     -80.3485244
9.193                0.858858908     -80.5008817
9.194                0.858382633     -80.6537308
9.195                0.857904501     -80.8070736
9.196                0.857424505     -80.9609122
9.197                0.856942642     -81.1152485
9.198                0.856458905     -81.2700846
9.199                0.855973289     -81.4254226
9.2                   0.85548579     -81.5812644
9.201                0.854996403     -81.7376122
9.202                0.854505122     -81.8944679
9.203                0.854011942     -82.0518337
9.204                0.853516858     -82.2097116
9.205                0.853019865     -82.3681037
9.206                0.852520959     -82.5270121
9.207                0.852020135     -82.6864389
9.208                0.851517387     -82.8463862
9.209                0.851012711      -83.006856
9.21                 0.850506101     -83.1678506
9.211                0.849997555      -83.329372
9.212                0.849487066     -83.4914225
9.213                0.848974629      -83.654004
9.214                0.848460242     -83.8171188
9.215                0.847943898     -83.9807691
9.216                0.847425593     -84.1449569
9.217                0.846905324     -84.3096845
9.218                0.846383085     -84.4749541
9.219                0.845858872     -84.6407678
9.22                 0.845332681     -84.8071279
9.221                0.844804507     -84.9740365
9.222                0.844274347     -85.1414958
9.223                0.843742196     -85.3095082
9.224                 0.84320805     -85.4780757
9.225                0.842671906     -85.6472007
9.226                0.842133758     -85.8168854
9.227                0.841593604      -85.987132
9.228                 0.84105144     -86.1579428
9.229                0.840507261     -86.3293201
9.23                 0.839961063     -86.5012661
9.231                0.839412844     -86.6737831
9.232                  0.8388626     -86.8468735
9.233                0.838310327     -87.0205394
9.234                0.837756022     -87.1947832
9.235                0.837199681     -87.3696073
9.236                0.836641301     -87.5450139
9.237                0.836080878     -87.7210053
9.238                0.835518411     -87.8975839
9.239                0.834953895     -88.0747521
9.24                 0.834387327     -88.2525121
9.241                0.833818705     -88.4308664
9.242                0.833248026     -88.6098173
9.243                0.832675287     -88.7893671
9.244                0.832100486     -88.9695183
9.245                0.831523619     -89.1502733
9.246                0.830944684     -89.3316343
9.247                0.830363679     -89.5136039
9.248                0.829780602     -89.6961844
9.249                0.829195451     -89.8793782
9.25                 0.828608222     -90.0631878
9.251                0.828018915     -90.2476155
9.252                0.827427526     -90.4326639
9.253                0.826834056     -90.6183353
9.254                0.826238501     -90.8046323
9.255                 0.82564086     -90.9915571
9.256                0.825041131     -91.1791124
9.257                0.824439314     -91.3673006
9.258                0.823835406     -91.5561241
9.259                0.823229407     -91.7455855
9.26                 0.822621315     -91.9356872
9.261                 0.82201113     -92.1264316
9.262                0.821398851     -92.3178214
9.263                0.820784476      -92.509859
9.264                0.820168006     -92.7025469
9.265                 0.81954944     -92.8958877
9.266                0.818928777     -93.0898838
9.267                0.818306017     -93.2845378
9.268                 0.81768116     -93.4798522
9.269                0.817054207     -93.6758296
9.27                 0.816425156     -93.8724725
9.271                0.815794009     -94.0697834
9.272                0.815160766      -94.267765
9.273                0.814525428     -94.4664198
9.274                0.813887994     -94.6657503
9.275                0.813248466     -94.8657591
9.276                0.812606846     -95.0664488
9.277                0.811963133      -95.267822
9.278                 0.81131733     -95.4698812
9.279                0.810669437     -95.6726291
9.28                 0.810019457     -95.8760683
9.281                0.809367391     -96.0802013
9.282                0.808713241     -96.2850308
9.283                0.808057008     -96.4905594
9.284                0.807398696     -96.6967896
9.285                0.806738307     -96.9037242
9.286                0.806075842     -97.1113657
9.287                0.805411306     -97.3197167
9.288                  0.8047447       -97.52878
9.289                0.804076028     -97.7385581
9.29                 0.803405293     -97.9490536
9.291                0.802732498     -98.1602693
9.292                0.802057648     -98.3722077
9.293                0.801380745     -98.5848715
9.294                0.800701793     -98.7982633
9.295                0.800020798     -99.0123859
9.296                0.799337763     -99.2272418
9.297                0.798652693     -99.4428337
9.298                0.797965592     -99.6591643
9.299                0.797276466     -99.8762363
9.3                  0.796585319     -100.094052
9.301                0.795892157     -100.312615
9.302                0.795196986     -100.531927
9.303                0.794499811     -100.751991
9.304                0.793800638      -100.97281
9.305                0.793099474     -101.194386
9.306                0.792396324     -101.416722
9.307                0.791691195     -101.639821
9.308                0.790984095     -101.863685
9.309                 0.79027503     -102.088317
9.31                 0.789564007      -102.31372
9.311                0.788851035     -102.539897
9.312                0.788136121     -102.766849
9.313                0.787419272      -102.99458
9.314                0.786700497     -103.223093
9.315                0.785979805      -103.45239
9.316                0.785257204     -103.682474
9.317                0.784532703     -103.913347
9.318                0.783806312     -104.145012
9.319                0.783078039     -104.377472
9.32                 0.782347895     -104.610729
9.321                0.781615889     -104.844787
9.322                0.780882033     -105.079647
9.323                0.780146335     -105.315313
9.324                0.779408807     -105.551787
9.325                0.778669461     -105.789072
9.326                0.777928307      -106.02717
9.327                0.777185356     -106.266084
9.328                0.776440622     -106.505817
9.329                0.775694115     -106.746371
9.33                 0.774945848     -106.987749
9.331                0.774195835     -107.229953
9.332                0.773444087     -107.472987
9.333                0.772690619     -107.716853
9.334                0.771935443     -107.961553
9.335                0.771178574      -108.20709
9.336                0.770420026     -108.453467
9.337                0.769659813     -108.700685
9.338                 0.76889795     -108.948749
9.339                0.768134452      -109.19766
9.34                 0.767369335     -109.447421
9.341                0.766602614     -109.698034
9.342                0.765834305     -109.949503
9.343                0.765064425     -110.201828
9.344                 0.76429299     -110.455014
9.345                0.763520017     -110.709063
9.346                0.762745523     -110.963977
9.347                0.761969526     -111.219758
9.348                0.761192045     -111.476409
9.349                0.760413097     -111.733933
9.35                   0.7596327     -111.992332
9.351                0.758850875     -112.251609
9.352                 0.75806764     -112.511765
9.353                0.757283014     -112.772804
9.354                0.756497019     -113.034727
9.355                0.755709673     -113.297538
9.356                0.754920999     -113.561238
9.357                0.754131016      -113.82583
9.358                0.753339747     -114.091316
9.359                0.752547213     -114.357699
9.36                 0.751753436     -114.624981
9.361                0.750958439     -114.893164
9.362                0.750162244      -115.16225
9.363                0.749364875     -115.432242
9.364                0.748566355     -115.703142
9.365                0.747766709     -115.974953
9.366                 0.74696596     -116.247676
9.367                0.746164134     -116.521313
9.368                0.745361255     -116.795867
9.369                0.744557349      -117.07134
9.37                 0.743752442     -117.347734
9.371                 0.74294656     -117.625051
9.372                0.742139729     -117.903294
9.373                0.741331977     -118.182464
9.374                0.740523331     -118.462563
9.375                0.739713818     -118.743593
9.376                0.738903467     -119.025557
9.377                0.738092307     -119.308456
9.378                0.737280367     -119.592292
9.379                0.736467675     -119.877067
9.38                 0.735654261     -120.162783
9.381                0.734840156     -120.449442
9.382                0.734025391     -120.737045
9.383                0.733209996     -121.025595
9.384                0.732394002     -121.315093
9.385                0.731577441     -121.605541
9.386                0.730760346      -121.89694
9.387                0.729942749     -122.189293
9.388                0.729124683       -122.4826
9.389                0.728306181     -122.776864
9.39                 0.727487278     -123.072086
9.391                0.726668006     -123.368267
9.392                0.725848402      -123.66541
9.393                  0.7250285     -123.963514
9.394                0.724208335     -124.262583
9.395                0.723387943     -124.562616
9.396                 0.72256736     -124.863617
