! TOUCHSTONE file generated by CST DESIGN STUDIO
! Date and time: Tue Feb  4 18:08:10 2025
! Project name: C:\Work\MatlabApps\UnitCellOptimizationMatlab\CST\unitcell.cst
! Tree item: Tasks\Sweep1\SPara1\S-Parameters
! Header version: 2024
! Port assignment regex: !\s*Touchstone port\s*([0-9]+)\s*=\s*(CST MWS port|CST DES external port|CST DES block port)\s*(.+)\s* \(\"(.*)\"\)(\s*mode\s*([0-9]+))?.*
! Touchstone port assignment:
! Touchstone port 1 = CST DES external port 1 ("")
# GHz S MA R 50
9                    0.520902065     -175.439452
9.001                0.520378603     -175.983417
9.002                0.519868697     -176.528287
9.003                0.519372435     -177.074036
9.004                0.518889901     -177.620635
9.005                0.518421178     -178.168057
9.006                0.517966347     -178.716273
9.007                0.517525484     -179.265254
9.008                0.517098666     -179.814972
9.009                0.516685964      179.634603
9.01                 0.516287447        179.0835
9.011                0.515903181      178.531749
9.012                0.515533232       177.97938
9.013                0.515177658      177.426425
9.014                0.514836519      176.872913
9.015                0.514509868      176.318875
9.016                0.514197759      175.764343
9.017                0.513900239      175.209348
9.018                0.513617354      174.653921
9.019                0.513349149      174.098095
9.02                 0.513095661      173.541901
9.021                0.512856927      172.985371
9.022                0.512632982      172.428538
9.023                0.512423855      171.871434
9.024                0.512229573      171.314092
9.025                 0.51205016      170.756545
9.026                0.511885637      170.198824
9.027                 0.51173602      169.640964
9.028                0.511601326      169.082997
9.029                0.511481563      168.524955
9.03                  0.51137674      167.966873
9.031                0.511286861      167.408783
9.032                0.511211928      166.850718
9.033                0.511151938      166.292712
9.034                0.511106886      165.734797
9.035                0.511076764      165.177006
9.036                0.511061559      164.619373
9.037                0.511061257       164.06193
9.038                 0.51107584       163.50471
9.039                0.511105285      162.947747
9.04                 0.511149569      162.391072
9.041                0.511208663      161.834719
9.042                0.511282537       161.27872
9.043                0.511371156      160.723107
9.044                0.511474483      160.167912
9.045                0.511592478      159.613167
9.046                0.511725098      159.058905
9.047                0.511872296      158.505156
9.048                0.512034022      157.951953
9.049                0.512210225      157.399326
9.05                 0.512400849      156.847306
9.051                0.512605836      156.295924
9.052                0.512825124      155.745211
9.053                 0.51305865      155.195197
9.054                0.513306347      154.645911
9.055                0.513568146      154.097383
9.056                0.513843975      153.549643
9.057                0.514133758      153.002719
9.058                0.514437418      152.456641
9.059                0.514754875      151.911436
9.06                 0.515086048      151.367133
9.061                0.515430849       150.82376
9.062                0.515789194      150.281343
9.063                 0.51616099      149.739909
9.064                0.516546147      149.199486
9.065                 0.51694457      148.660099
9.066                0.517356162      148.121774
9.067                0.517780824      147.584536
9.068                0.518218456      147.048411
9.069                0.518668955      146.513423
9.07                 0.519132216      145.979597
9.071                0.519608131      145.446956
9.072                0.520096593      144.915523
9.073                 0.52059749      144.385321
9.074                0.521110711      143.856373
9.075                 0.52163614      143.328701
9.076                0.522173663      142.802326
9.077                0.522723162       142.27727
9.078                0.523284519      141.753553
9.079                0.523857613      141.231196
9.08                 0.524442322      140.710218
9.081                0.525038523      140.190638
9.082                0.525646093      139.672476
9.083                0.526264905      139.155751
9.084                0.526894832      138.640479
9.085                0.527535747      138.126679
9.086                0.528187521      137.614367
9.087                0.528850024       137.10356
9.088                0.529523126      136.594275
9.089                0.530206693      136.086527
9.09                 0.530900594      135.580332
9.091                0.531604695      135.075703
9.092                0.532318863      134.572656
9.093                0.533042962      134.071205
9.094                0.533776858      133.571362
9.095                0.534520413      133.073142
9.096                0.535273493      132.576555
9.097                0.536035959      132.081615
9.098                0.536807676      131.588334
9.099                0.537588504      131.096722
9.1                  0.538378307      130.606791
9.101                0.539176947       130.11855
9.102                0.539984284       129.63201
9.103                0.540800181      129.147181
9.104                0.541624499      128.664071
9.105                0.542457099      128.182689
9.106                0.543297844      127.703044
9.107                0.544146593      127.225144
9.108                 0.54500321      126.748996
9.109                0.545867555      126.274607
9.11                 0.546739491      125.801984
9.111                0.547618879      125.331134
9.112                0.548505582      124.862063
9.113                0.549399462      124.394776
9.114                0.550300383      123.929278
9.115                0.551208208      123.465575
9.116                  0.5521228      123.003672
9.117                0.553044024      122.543571
9.118                0.553971744      122.085278
9.119                0.554905825      121.628796
9.12                 0.555846134      121.174128
9.121                0.556792537      120.721277
9.122                0.557744899      120.270246
9.123                 0.55870309      119.821037
9.124                0.559666977      119.373652
9.125                0.560636429      118.928092
9.126                0.561611315       118.48436
9.127                0.562591506      118.042456
9.128                0.563576874      117.602381
9.129                 0.56456729      117.164136
9.13                 0.565562626      116.727721
9.131                0.566562757      116.293135
9.132                0.567567557       115.86038
9.133                0.568576901      115.429454
9.134                0.569590666      115.000356
9.135                0.570608728      114.573086
9.136                0.571630967      114.147643
9.137                 0.57265726      113.724024
9.138                0.573687488      113.302229
9.139                0.574721533      112.882256
9.14                 0.575759275      112.464101
9.141                0.576800599      112.047764
9.142                0.577845389      111.633242
9.143                0.578893529      111.220531
9.144                0.579944905       110.80963
9.145                0.580999406      110.400535
9.146                 0.58205692      109.993242
9.147                0.583117336      109.587749
9.148                0.584180544      109.184051
9.149                0.585246437      108.782146
9.15                 0.586314907      108.382029
9.151                0.587385848      107.983696
9.152                0.588459156      107.587143
9.153                0.589534726      107.192365
9.154                0.590612455      106.799358
9.155                0.591692244      106.408118
9.156                 0.59277399      106.018639
9.157                0.593857596      105.630917
9.158                0.594942962      105.244947
9.159                0.596029992      104.860723
9.16                 0.597118591       104.47824
9.161                0.598208663      104.097494
9.162                0.599300116      103.718478
9.163                0.600392858      103.341186
9.164                0.601486796      102.965614
9.165                0.602581842      102.591756
9.166                0.603677907      102.219604
9.167                0.604774904      101.849155
9.168                0.605872745      101.480401
9.169                0.606971345      101.113336
9.17                 0.608070622      100.747955
9.171                0.609170491      100.384251
9.172                0.610270872      100.022217
9.173                0.611371683      99.6618475
9.174                0.612472845      99.3031357
9.175                 0.61357428      98.9460751
9.176                 0.61467591      98.5906592
9.177                0.615777661      98.2368812
9.178                0.616879456      97.8847345
9.179                0.617981222      97.5342122
9.18                 0.619082886      97.1853076
9.181                0.620184378      96.8380139
9.182                0.621285626      96.4923242
9.183                0.622386561      96.1482314
9.184                0.623487115      95.8057287
9.185                0.624587221       95.464809
9.186                0.625686813      95.1254654
9.187                0.626785825      94.7876907
9.188                0.627884194      94.4514778
9.189                0.628981858      94.1168197
9.19                 0.630078753      93.7837091
9.191                 0.63117482       93.452139
9.192                0.632269999       93.122102
9.193                 0.63336423      92.7935911
9.194                0.634457458       92.466599
9.195                0.635549623      92.1411184
9.196                0.636640672      91.8171421
9.197                 0.63773055      91.4946628
9.198                0.638819202      91.1736734
9.199                0.639906576      90.8541664
9.2                   0.64099262      90.5361346
9.201                0.642077284      90.2195707
9.202                0.643160517      89.9044675
9.203                0.644242272      89.5908176
9.204                0.645322499      89.2786137
9.205                0.646401152      88.9678485
9.206                0.647478185      88.6585148
9.207                0.648553553      88.3506053
9.208                0.649627211      88.0441126
9.209                0.650699115      87.7390295
9.21                 0.651769224      87.4353487
9.211                0.652837496       87.133063
9.212                 0.65390389      86.8321652
9.213                0.654968365      86.5326478
9.214                0.656030884      86.2345038
9.215                0.657091407      85.9377259
9.216                0.658149897      85.6423069
9.217                0.659206317      85.3482397
9.218                0.660260632      85.0555169
9.219                0.661312807      84.7641315
9.22                 0.662362807      84.4740764
9.221                0.663410598      84.1853443
9.222                0.664456149      83.8979282
9.223                0.665499427       83.611821
9.224                  0.6665404      83.3270156
9.225                0.667579039       83.043505
9.226                0.668615314      82.7612821
9.227                0.669649195        82.48034
9.228                0.670680655      82.2006716
9.229                0.671709665      81.9222699
9.23                 0.672736199      81.6451281
9.231                0.673760231      81.3692392
9.232                0.674781734      81.0945962
9.233                0.675800684      80.8211925
9.234                0.676817057       80.549021
9.235                0.677830829       80.278075
9.236                0.678841977      80.0083476
9.237                0.679850479      79.7398322
9.238                0.680856313       79.472522
9.239                0.681859458      79.2064102
9.24                 0.682859894      78.9414901
9.241                  0.6838576      78.6777552
9.242                0.684852557      78.4151987
9.243                0.685844746      78.1538141
9.244                 0.68683415      77.8935948
9.245                0.687820751      77.6345343
9.246                0.688804531       77.376626
9.247                0.689785474      77.1198634
9.248                0.690763564      76.8642401
9.249                0.691738785      76.6097497
9.25                 0.692711124      76.3563857
9.251                0.693680564      76.1041418
9.252                0.694647093      75.8530117
9.253                0.695610697       75.602989
9.254                0.696571362      75.3540674
9.255                0.697529077      75.1062408
9.256                 0.69848383      74.8595028
9.257                0.699435608      74.6138474
9.258                0.700384401      74.3692684
9.259                0.701330199      74.1257595
9.26                 0.702272991      73.8833148
9.261                0.703212767      73.6419282
9.262                0.704149518      73.4015937
9.263                0.705083235      73.1623051
9.264                 0.70601391      72.9240567
9.265                0.706941534      72.6868424
9.266                0.707866101      72.4506564
9.267                0.708787602      72.2154927
9.268                0.709706031      71.9813456
9.269                0.710621382      71.7482092
9.27                 0.711533648      71.5160777
9.271                0.712442823      71.2849454
9.272                0.713348903      71.0548066
9.273                0.714251881      70.8256555
9.274                0.715151754      70.5974867
9.275                0.716048517      70.3702943
9.276                0.716942166      70.1440729
9.277                0.717832698      69.9188168
9.278                0.718720108      69.6945206
9.279                0.719604395      69.4711787
9.28                 0.720485555      69.2487857
9.281                0.721363586      69.0273362
9.282                0.722238485      68.8068247
9.283                0.723110252      68.5872459
9.284                0.723978884      68.3685944
9.285                 0.72484438       68.150865
9.286                 0.72570674      67.9340523
9.287                0.726565962      67.7181511
9.288                0.727422047      67.5031562
9.289                0.728274994      67.2890623
9.29                 0.729124802      67.0758645
9.291                0.729971474      66.8635574
9.292                0.730815008       66.652136
9.293                0.731655407      66.4415953
9.294                0.732492671      66.2319302
9.295                0.733326801      66.0231357
9.296                0.734157799      65.8152068
9.297                0.734985668      65.6081387
9.298                0.735810408      65.4019263
9.299                0.736632022      65.1965647
9.3                  0.737450512      64.9920492
9.301                0.738265882      64.7883749
9.302                0.739078134       64.585537
9.303                0.739887271      64.3835307
9.304                0.740693296      64.1823513
9.305                0.741496213       63.981994
9.306                0.742296026      63.7824543
9.307                0.743092737      63.5837273
9.308                0.743886352      63.3858086
9.309                0.744676874      63.1886935
9.31                 0.745464307      62.9923774
9.311                0.746248657      62.7968558
9.312                0.747029927      62.6021241
9.313                0.747808123       62.408178
9.314                0.748583249      62.2150128
9.315                0.749355311      62.0226243
9.316                0.750124314      61.8310079
9.317                0.750890264      61.6401594
9.318                0.751653165      61.4500743
9.319                0.752413023      61.2607483
9.32                 0.753169845      61.0721771
9.321                0.753923637      60.8843566
9.322                0.754674404      60.6972823
9.323                0.755422152      60.5109501
9.324                0.756166888      60.3253559
9.325                0.756908619      60.1404953
9.326                0.757647351      59.9563644
9.327                 0.75838309       59.772959
9.328                0.759115844      59.5902749
9.329                0.759845619      59.4083082
9.33                 0.760572422      59.2270548
9.331                0.761296261      59.0465106
9.332                0.762017142      58.8666718
9.333                0.762735074      58.6875343
9.334                0.763450062      58.5090941
9.335                0.764162115      58.3313474
9.336                0.764871241      58.1542903
9.337                0.765577447       57.977919
9.338                 0.76628074      57.8022295
9.339                0.766981129       57.627218
9.34                 0.767678621      57.4528809
9.341                0.768373225      57.2792142
9.342                0.769064948      57.1062143
9.343                0.769753799      56.9338774
9.344                0.770439785      56.7621998
9.345                0.771122916      56.5911779
9.346                0.771803198      56.4208079
9.347                0.772480642      56.2510864
9.348                0.773155254      56.0820096
9.349                0.773827045      55.9135739
9.35                 0.774496021      55.7457759
9.351                0.775162192      55.5786119
9.352                0.775825567      55.4120785
9.353                0.776486154      55.2461722
9.354                0.777143961      55.0808894
9.355                0.777798999      54.9162268
9.356                0.778451275      54.7521808
9.357                0.779100799      54.5887481
9.358                0.779747579      54.4259254
9.359                0.780391624      54.2637091
9.36                 0.781032944       54.102096
9.361                0.781671547      53.9410828
9.362                0.782307444      53.7806662
9.363                0.782940641      53.6208428
9.364                 0.78357115      53.4616094
9.365                0.784198979      53.3029628
9.366                0.784824136      53.1448997
9.367                0.785446633       52.987417
9.368                0.786066477      52.8305114
9.369                0.786683679      52.6741798
9.37                 0.787298246       52.518419
9.371                 0.78791019       52.363226
9.372                0.788519518      52.2085976
9.373                0.789126242      52.0545307
9.374                0.789730369      51.9010223
9.375                0.790331909      51.7480693
9.376                0.790930872      51.5956687
9.377                0.791527267      51.4438175
9.378                0.792121104      51.2925127
9.379                0.792712392      51.1417513
9.38                 0.793301141      50.9915304
9.381                0.793887359       50.841847
9.382                0.794471058      50.6926983
9.383                0.795052245      50.5440813
9.384                0.795630931      50.3959931
9.385                0.796207125      50.2484309
9.386                0.796780837      50.1013918
9.387                0.797352076      49.9548731
9.388                0.797920852      49.8088718
9.389                0.798487174      49.6633852
9.39                 0.799051051      49.5184106
9.391                0.799612494      49.3739452
9.392                0.800171512      49.2299861
9.393                0.800728114      49.0865308
9.394                0.801282311      48.9435765
9.395                 0.80183411      48.8011205
9.396                0.802383523      48.6591602
