! TOUCHSTONE file generated by CST DESIGN STUDIO
! Date and time: Tue Feb  4 18:08:12 2025
! Project name: C:\Work\MatlabApps\UnitCellOptimizationMatlab\CST\unitcell.cst
! Tree item: Tasks\Sweep1\SPara1\S-Parameters
! Header version: 2024
! Port assignment regex: !\s*Touchstone port\s*([0-9]+)\s*=\s*(CST MWS port|CST DES external port|CST DES block port)\s*(.+)\s* \(\"(.*)\"\)(\s*mode\s*([0-9]+))?.*
! Touchstone port assignment:
! Touchstone port 1 = CST DES external port 1 ("")
# GHz S MA R 50
9                    0.626542539     -129.781717
9.001                0.625382328     -130.160662
9.002                0.624223227     -130.541183
9.003                0.623065325     -130.923284
9.004                0.621908715     -131.306967
9.005                0.620753487     -131.692237
9.006                0.619599736     -132.079095
9.007                0.618447556     -132.467546
9.008                0.617297043     -132.857592
9.009                0.616148292     -133.249235
9.01                 0.615001401     -133.642479
9.011                0.613856468     -134.037326
9.012                0.612713592     -134.433777
9.013                0.611572874     -134.831836
9.014                0.610434414     -135.231504
9.015                0.609298315     -135.632783
9.016                0.608164679     -136.035675
9.017                0.607033611     -136.440182
9.018                0.605905214     -136.846305
9.019                0.604779596     -137.254045
9.02                 0.603656861     -137.663403
9.021                0.602537118     -138.074381
9.022                0.601420475     -138.486978
9.023                0.600307041     -138.901197
9.024                0.599196926     -139.317036
9.025                 0.59809024     -139.734497
9.026                0.596987095     -140.153579
9.027                0.595887603     -140.574282
9.028                0.594791877     -140.996606
9.029                0.593700031      -141.42055
9.03                 0.592612179     -141.846114
9.031                0.591528437     -142.273296
9.032                 0.59044892     -142.702095
9.033                0.589373745     -143.132511
9.034                0.588303029      -143.56454
9.035                 0.58723689     -143.998182
9.036                0.586175446     -144.433435
9.037                0.585118816     -144.870295
9.038                0.584067119      -145.30876
9.039                0.583020476     -145.748828
9.04                 0.581979006     -146.190496
9.041                0.580942832     -146.633759
9.042                0.579912073     -147.078616
9.043                0.578886853      -147.52506
9.044                0.577867293      -147.97309
9.045                0.576853515     -148.422699
9.046                0.575845644     -148.873884
9.047                0.574843801      -149.32664
9.048                 0.57384811     -149.780961
9.049                0.572858696     -150.236841
9.05                 0.571875681     -150.694276
9.051                 0.57089919     -151.153259
9.052                0.569929347     -151.613783
9.053                0.568966277     -152.075842
9.054                0.568010103     -152.539428
9.055                 0.56706095     -153.004535
9.056                0.566118942     -153.471155
9.057                0.565184205      -153.93928
9.058                0.564256861     -154.408901
9.059                0.563337036      -154.88001
9.06                 0.562424852     -155.352599
9.061                0.561520435     -155.826657
9.062                0.560623907     -156.302175
9.063                0.559735391     -156.779143
9.064                0.558855012     -157.257552
9.065                 0.55798289      -157.73739
9.066                0.557119149     -158.218646
9.067                 0.55626391     -158.701309
9.068                0.555417294     -159.185368
9.069                0.554579422      -159.67081
9.07                 0.553750414     -160.157624
9.071                 0.55293039     -160.645795
9.072                0.552119469     -161.135312
9.073                0.551317768     -161.626161
9.074                0.550525405     -162.118328
9.075                0.549742497     -162.611799
9.076                0.548969159      -163.10656
9.077                0.548205506     -163.602595
9.078                0.547451652      -164.09989
9.079                0.546707711     -164.598428
9.08                 0.545973793     -165.098195
9.081                 0.54525001     -165.599173
9.082                0.544536471     -166.101346
9.083                0.543833286     -166.604697
9.084                 0.54314056     -167.109209
9.085                0.542458401     -167.614864
9.086                0.541786913     -168.121643
9.087                0.541126199     -168.629529
9.088                0.540476361     -169.138503
9.089                0.539837501     -169.648545
9.09                 0.539209716     -170.159636
9.091                0.538593104     -170.671757
9.092                0.537987762     -171.184886
9.093                0.537393784     -171.699005
9.094                0.536811262     -172.214091
9.095                0.536240287     -172.730123
9.096                0.535680948     -173.247081
9.097                0.535133332     -173.764943
9.098                0.534597526     -174.283685
9.099                0.534073613     -174.803287
9.1                  0.533561673     -175.323725
9.101                0.533061788     -175.844976
9.102                0.532574035     -176.367017
9.103                0.532098489     -176.889825
9.104                0.531635224     -177.413375
9.105                0.531184312     -177.937643
9.106                0.530745821     -178.462605
9.107                0.530319819     -178.988237
9.108                0.529906371     -179.514513
9.109                 0.52950554      179.958592
9.11                 0.529117385      179.431103
9.111                0.528741965      178.903046
9.112                0.528379335      178.374447
9.113                0.528029549      177.845331
9.114                0.527692658      177.315725
9.115                 0.52736871      176.785656
9.116                 0.52705775       176.25515
9.117                0.526759824      175.724233
9.118                0.526474971      175.192934
9.119                0.526203229      174.661279
9.12                 0.525944636      174.129295
9.121                0.525699224      173.597009
9.122                0.525467024       173.06445
9.123                0.525248064      172.531645
9.124                0.525042369      171.998622
9.125                0.524849964      171.465409
9.126                0.524670867      170.932033
9.127                0.524505097      170.398523
9.128                0.524352669      169.864906
9.129                0.524213594      169.331212
9.13                 0.524087883      168.797467
9.131                0.523975543      168.263701
9.132                0.523876578      167.729942
9.133                0.523790989      167.196218
9.134                0.523718775      166.662556
9.135                0.523659933      166.128987
9.136                0.523614457      165.595536
9.137                0.523582337      165.062234
9.138                0.523563562      164.529108
9.139                0.523558116      163.996186
9.14                 0.523565985      163.463496
9.141                0.523587147      162.931066
9.142                 0.52362158      162.398924
9.143                 0.52366926      161.867098
9.144                0.523730159      161.335616
9.145                0.523804248      160.804504
9.146                0.523891493      160.273791
9.147                 0.52399186      159.743503
9.148                0.524105311      159.213669
9.149                0.524231807      158.684314
9.15                 0.524371304      158.155465
9.151                0.524523757       157.62715
9.152                 0.52468912      157.099395
9.153                0.524867342      156.572225
9.154                0.525058372      156.045667
9.155                0.525262155      155.519747
9.156                0.525478634       154.99449
9.157                0.525707751      154.469922
9.158                0.525949444      153.946068
9.159                0.526203649      153.422953
9.16                 0.526470302        152.9006
9.161                0.526749335      152.379035
9.162                0.527040677      151.858282
9.163                0.527344258      151.338365
9.164                0.527660003      150.819306
9.165                0.527987837       150.30113
9.166                0.528327681      149.783859
9.167                0.528679457      149.267516
9.168                0.529043083      148.752123
9.169                0.529418475      148.237702
9.17                 0.529805549      147.724275
9.171                0.530204218      147.211863
9.172                0.530614393      146.700487
9.173                0.531035985      146.190169
9.174                0.531468903      145.680927
9.175                0.531913052      145.172783
9.176                0.532368338      144.665756
9.177                0.532834665      144.159865
9.178                0.533311937      143.655129
9.179                0.533800053      143.151568
9.18                 0.534298914      142.649198
9.181                0.534808418      142.148039
9.182                0.535328463      141.648107
9.183                0.535858945       141.14942
9.184                0.536399759      140.651994
9.185                0.536950799      140.155847
9.186                0.537511958      139.660994
9.187                0.538083128       139.16745
9.188                  0.5386642      138.675232
9.189                0.539255064      138.184354
9.19                  0.53985561      137.694831
9.191                0.540465725      137.206678
9.192                0.541085299      136.719907
9.193                0.541714217      136.234532
9.194                0.542352367      135.750567
9.195                0.542999633      135.268025
9.196                0.543655902      134.786917
9.197                0.544321057      134.307257
9.198                0.544994983      133.829054
9.199                0.545677564      133.352322
9.2                  0.546368682      132.877071
9.201                0.547068221      132.403311
9.202                0.547776064      131.931053
9.203                0.548492092      131.460307
9.204                0.549216187      130.991083
9.205                0.549948233      130.523388
9.206                0.550688109      130.057233
9.207                0.551435698      129.592627
9.208                0.552190881      129.129576
9.209                 0.55295354      128.668089
9.21                 0.553723556      128.208174
9.211                 0.55450081      127.749838
9.212                0.555285184      127.293088
9.213                0.556076559       126.83793
9.214                0.556874818      126.384371
9.215                0.557679841      125.932416
9.216                0.558491512      125.482071
9.217                0.559309711      125.033342
9.218                0.560134323      124.586234
9.219                0.560965228      124.140751
9.22                 0.561802312      123.696898
9.221                0.562645456      123.254679
9.222                0.563494545      122.814098
9.223                0.564349462      122.375158
9.224                0.565210094      121.937863
9.225                0.566076324      121.502216
9.226                0.566948037       121.06822
9.227                0.567825121      120.635877
9.228                0.568707462       120.20519
9.229                0.569594946       119.77616
9.23                 0.570487462       119.34879
9.231                0.571384897      118.923081
9.232                 0.57228714      118.499034
9.233                0.573194082       118.07665
9.234                0.574105611      117.655931
9.235                0.575021619      117.236876
9.236                0.575941998      116.819487
9.237                0.576866639      116.403762
9.238                0.577795435      115.989704
9.239                 0.57872828       115.57731
9.24                 0.579665068      115.166582
9.241                0.580605696      114.757517
9.242                0.581550057      114.350115
9.243                 0.58249805      113.944376
9.244                0.583449571      113.540298
9.245                0.584404519       113.13788
9.246                0.585362794      112.737119
9.247                0.586324295      112.338016
9.248                0.587288923      111.940566
9.249                0.588256579      111.544769
9.25                 0.589227168      111.150622
9.251                0.590200591      110.758124
9.252                0.591176754       110.36727
9.253                0.592155562      109.978059
9.254                 0.59313692      109.590488
9.255                0.594120736      109.204554
9.256                0.595106919      108.820254
9.257                0.596095376      108.437584
9.258                0.597086019      108.056542
9.259                0.598078756      107.677123
9.26                 0.599073502      107.299325
9.261                0.600070167      106.923143
9.262                0.601068667      106.548573
9.263                0.602068914      106.175613
9.264                0.603070826      105.804257
9.265                0.604074318      105.434501
9.266                0.605079308      105.066342
9.267                0.606085714      104.699775
9.268                0.607093456      104.334795
9.269                0.608102453      103.971398
9.27                 0.609112628       103.60958
9.271                0.610123903      103.249335
9.272                  0.6111362      102.890659
9.273                0.612149444      102.533547
9.274                 0.61316356      102.177995
9.275                0.614178474      101.823996
9.276                0.615194113      101.471547
9.277                0.616210406      101.120641
9.278                 0.61722728      100.771274
9.279                0.618244666      100.423441
9.28                 0.619262494      100.077135
9.281                0.620280697      99.7323529
9.282                0.621299207      99.3890877
9.283                0.622317957      99.0473343
9.284                0.623336883      98.7070873
9.285                0.624355919       98.368341
9.286                0.625375002      98.0310898
9.287                0.626394069      97.6953281
9.288                0.627413059      97.3610501
9.289                 0.62843191      97.0282502
9.29                 0.629450563      96.6969225
9.291                0.630468958      96.3670613
9.292                0.631487037      96.0386607
9.293                0.632504743      95.7117148
9.294                 0.63352202      95.3862178
9.295                 0.63453881      95.0621637
9.296                0.635555061      94.7395466
9.297                0.636570718      94.4183605
9.298                0.637585727      94.0985996
9.299                0.638600037      93.7802576
9.3                  0.639613596      93.4633287
9.301                0.640626353      93.1478068
9.302                 0.64163826      92.8336859
9.303                0.642649266      92.5209599
9.304                0.643659323      92.2096227
9.305                0.644668385      91.8996684
9.306                0.645676404      91.5910907
9.307                0.646683334      91.2838837
9.308                0.647689131      90.9780411
9.309                 0.64869375      90.6735571
9.31                 0.649697148      90.3704253
9.311                0.650699281      90.0686399
9.312                0.651700107      89.7681946
9.313                0.652699585      89.4690834
9.314                0.653697674      89.1713003
9.315                0.654694333       88.874839
9.316                0.655689525      88.5796937
9.317                0.656683208      88.2858581
9.318                0.657675347      87.9933263
9.319                0.658665902      87.7020922
9.32                 0.659654837      87.4121498
9.321                0.660642116      87.1234931
9.322                0.661627704       86.836116
9.323                0.662611564      86.5500126
9.324                0.663593663      86.2651769
9.325                0.664573966      85.9816029
9.326                0.665552441      85.6992846
9.327                0.666529053      85.4182163
9.328                0.667503772      85.1383919
9.329                0.668476565      84.8598055
9.33                   0.6694474      84.5824513
9.331                0.670416247      84.3063235
9.332                0.671383074      84.0314162
9.333                0.672347853      83.7577236
9.334                0.673310554      83.4852399
9.335                0.674271146      83.2139593
9.336                0.675229602      82.9438762
9.337                0.676185892      82.6749848
9.338                0.677139988      82.4072794
9.339                0.678091863      82.1407543
9.34                 0.679041489       81.875404
9.341                0.679988839      81.6112227
9.342                0.680933885       81.348205
9.343                  0.6818766      81.0863452
9.344                0.682816958      80.8256378
9.345                0.683754932      80.5660772
9.346                0.684690496      80.3076581
9.347                0.685623624      80.0503749
9.348                0.686554289      79.7942222
9.349                0.687482465      79.5391946
9.35                 0.688408126      79.2852867
9.351                0.689331245      79.0324931
9.352                0.690251797      78.7808084
9.353                0.691169756      78.5302274
9.354                0.692085095      78.2807447
9.355                0.692997787       78.032355
9.356                0.693907805      77.7850531
9.357                0.694815124      77.5388338
9.358                0.695719715      77.2936916
9.359                0.696621551      77.0496215
9.36                 0.697520605      76.8066182
9.361                0.698416848      76.5646764
9.362                0.699310251       76.323791
9.363                0.700200787      76.0839567
9.364                0.701088424      75.8451683
9.365                0.701973134      75.6074205
9.366                0.702854886      75.3707082
9.367                0.703733648      75.1350259
9.368                0.704609389      74.9003685
9.369                0.705482077      74.6667305
9.37                 0.706351677      74.4341067
9.371                0.707218158      74.2024917
9.372                0.708081483      73.9718798
9.373                0.708941619      73.7422658
9.374                0.709798528      73.5136438
9.375                0.710652174      73.2860084
9.376                 0.71150252      73.0593537
9.377                0.712349528       72.833674
9.378                0.713193157      72.6089631
9.379                 0.71403337      72.3852152
9.38                 0.714870125       72.162424
9.381                0.715703382      71.9405831
9.382                0.716533099      71.7196861
9.383                0.717359235      71.4997263
9.384                0.718181748      71.2806969
9.385                0.719000595      71.0625908
9.386                0.719815735      70.8454008
9.387                0.720627125      70.6291195
9.388                0.721434723      70.4137393
9.389                 0.72223849      70.1992521
9.39                 0.723038385      69.9856498
9.391                0.723834369       69.772924
9.392                0.724626404       69.561066
9.393                0.725414456      69.3500668
9.394                 0.72619849      69.1399171
9.395                0.726978477      68.9306075
9.396                0.727754388      68.7221281
