! TOUCHSTONE file generated by CST DESIGN STUDIO
! Date and time: Tue Feb  4 18:08:22 2025
! Project name: C:\Work\MatlabApps\UnitCellOptimizationMatlab\CST\unitcell.cst
! Tree item: Tasks\Sweep1\SPara1\S-Parameters
! Header version: 2024
! Port assignment regex: !\s*Touchstone port\s*([0-9]+)\s*=\s*(CST MWS port|CST DES external port|CST DES block port)\s*(.+)\s* \(\"(.*)\"\)(\s*mode\s*([0-9]+))?.*
! Touchstone port assignment:
! Touchstone port 1 = CST DES external port 1 ("")
# GHz S MA R 50
9                      0.9579539     -46.8175162
9.001                0.957860206     -46.8754364
9.002                0.957766188     -46.9334796
9.003                0.957671844     -46.9916464
9.004                0.957577173     -47.0499371
9.005                0.957482173     -47.1083521
9.006                0.957386844     -47.1668918
9.007                0.957291184     -47.2255565
9.008                0.957195191     -47.2843468
9.009                0.957098865     -47.3432629
9.01                 0.957002203     -47.4023054
9.011                0.956905205     -47.4614745
9.012                 0.95680787     -47.5207707
9.013                0.956710195     -47.5801943
9.014                 0.95661218     -47.6397459
9.015                0.956513823     -47.6994258
9.016                0.956415123     -47.7592344
9.017                0.956316079     -47.8191722
9.018                0.956216688     -47.8792395
9.019                 0.95611695     -47.9394367
9.02                 0.956016864     -47.9997644
9.021                0.955916427     -48.0602228
9.022                0.955815639     -48.1208124
9.023                0.955714498     -48.1815337
9.024                0.955613003      -48.242387
9.025                0.955511151     -48.3033728
9.026                0.955408943     -48.3644915
9.027                0.955306376     -48.4257436
9.028                0.955203449     -48.4871294
9.029                 0.95510016     -48.5486494
9.03                 0.954996509     -48.6103041
9.031                0.954892492     -48.6720938
9.032                 0.95478811      -48.734019
9.033                0.954683361     -48.7960802
9.034                0.954578243     -48.8582777
9.035                0.954472754     -48.9206121
9.036                0.954366893     -48.9830838
9.037                0.954260659     -49.0456931
9.038                0.954154051     -49.1084406
9.039                0.954047065     -49.1713268
9.04                 0.953939702      -49.234352
9.041                0.953831959     -49.2975167
9.042                0.953723836     -49.3608214
9.043                0.953615329     -49.4242665
9.044                0.953506439     -49.4878525
9.045                0.953397163     -49.5515798
9.046                  0.9532875     -49.6154489
9.047                0.953177447     -49.6794603
9.048                0.953067005     -49.7436145
9.049                0.952956171     -49.8079118
9.05                 0.952844943     -49.8723529
9.051                0.952733319      -49.936938
9.052                0.952621299     -50.0016678
9.053                0.952508881     -50.0665427
9.054                0.952396063     -50.1315631
9.055                0.952282843     -50.1967296
9.056                0.952169219     -50.2620427
9.057                0.952055191     -50.3275027
9.058                0.951940756     -50.3931102
9.059                0.951825913     -50.4588657
9.06                  0.95171066     -50.5247697
9.061                0.951594996     -50.5908227
9.062                0.951478918     -50.6570251
9.063                0.951362425     -50.7233774
9.064                0.951245516     -50.7898802
9.065                0.951128188      -50.856534
9.066                 0.95101044     -50.9233392
9.067                 0.95089227     -50.9902963
9.068                0.950773677     -51.0574059
9.069                0.950654659     -51.1246685
9.07                 0.950535214     -51.1920845
9.071                0.950415339     -51.2596545
9.072                0.950295035      -51.327379
9.073                0.950174298     -51.3952585
9.074                0.950053127     -51.4632935
9.075                 0.94993152     -51.5314846
9.076                0.949809476     -51.5998322
9.077                0.949686992      -51.668337
9.078                0.949564067     -51.7369993
9.079                0.949440699     -51.8058198
9.08                 0.949316887     -51.8747989
9.081                0.949192627     -51.9439373
9.082                0.949067919     -52.0132354
9.083                0.948942761     -52.0826938
9.084                 0.94881715      -52.152313
9.085                0.948691086     -52.2220935
9.086                0.948564565      -52.292036
9.087                0.948437587     -52.3621409
9.088                0.948310149     -52.4324088
9.089                0.948182249     -52.5028402
9.09                 0.948053886     -52.5734357
9.091                0.947925057     -52.6441958
9.092                0.947795761     -52.7151212
9.093                0.947665996     -52.7862123
9.094                 0.94753576     -52.8574698
9.095                 0.94740505     -52.9288941
9.096                0.947273866     -53.0004859
9.097                0.947142204     -53.0722457
9.098                0.947010063     -53.1441741
9.099                0.946877442     -53.2162717
9.1                  0.946744337      -53.288539
9.101                0.946610747     -53.3609766
9.102                0.946476671     -53.4335851
9.103                0.946342105     -53.5063651
9.104                0.946207048     -53.5793171
9.105                0.946071499     -53.6524418
9.106                0.945935454     -53.7257398
9.107                0.945798912     -53.7992115
9.108                0.945661871     -53.8728577
9.109                0.945524328     -53.9466789
9.11                 0.945386283     -54.0206758
9.111                0.945247732     -54.0948488
9.112                0.945108673     -54.1691987
9.113                0.944969105      -54.243726
9.114                0.944829025     -54.3184313
9.115                0.944688431     -54.3933153
9.116                0.944547321     -54.4683786
9.117                0.944405693     -54.5436218
9.118                0.944263545     -54.6190454
9.119                0.944120874     -54.6946502
9.12                 0.943977679     -54.7704367
9.121                0.943833957     -54.8464056
9.122                0.943689706     -54.9225576
9.123                0.943544923     -54.9988931
9.124                0.943399608     -55.0754129
9.125                0.943253757     -55.1521177
9.126                0.943107368     -55.2290079
9.127                0.942960439     -55.3060844
9.128                0.942812968     -55.3833477
9.129                0.942664953     -55.4607985
9.13                 0.942516391     -55.5384374
9.131                0.942367279     -55.6162651
9.132                0.942217617     -55.6942823
9.133                  0.9420674     -55.7724896
9.134                0.941916628     -55.8508876
9.135                0.941765298     -55.9294771
9.136                0.941613407     -56.0082586
9.137                0.941460954     -56.0872329
9.138                0.941307935     -56.1664007
9.139                0.941154348     -56.2457626
9.14                 0.941000192     -56.3253192
9.141                0.940845464     -56.4050714
9.142                0.940690161     -56.4850197
9.143                0.940534281     -56.5651648
9.144                0.940377821     -56.6455075
9.145                 0.94022078     -56.7260484
9.146                0.940063154     -56.8067882
9.147                0.939904942     -56.8877276
9.148                0.939746141     -56.9688674
9.149                0.939586748     -57.0502081
9.15                 0.939426762     -57.1317506
9.151                0.939266178     -57.2134956
9.152                0.939104996     -57.2954437
9.153                0.938943213     -57.3775956
9.154                0.938780826     -57.4599522
9.155                0.938617832      -57.542514
9.156                0.938454229     -57.6252819
9.157                0.938290015     -57.7082566
9.158                0.938125187     -57.7914387
9.159                0.937959742     -57.8748291
9.16                 0.937793679     -57.9584284
9.161                0.937626993     -58.0422374
9.162                0.937459684     -58.1262569
9.163                0.937291748     -58.2104876
9.164                0.937123182     -58.2949302
9.165                0.936953984     -58.3795855
9.166                0.936784152     -58.4644542
9.167                0.936613682     -58.5495371
9.168                0.936442573      -58.634835
9.169                0.936270821     -58.7203487
9.17                 0.936098423     -58.8060788
9.171                0.935925378     -58.8920262
9.172                0.935751683     -58.9781917
9.173                0.935577334      -59.064576
9.174                0.935402329     -59.1511799
9.175                0.935226665     -59.2380041
9.176                0.935050341     -59.3250496
9.177                0.934873352      -59.412317
9.178                0.934695696     -59.4998072
9.179                 0.93451737     -59.5875209
9.18                 0.934338373      -59.675459
9.181                  0.9341587     -59.7636222
9.182                0.933978349     -59.8520115
9.183                0.933797317     -59.9406275
9.184                0.933615602     -60.0294711
9.185                0.933433201     -60.1185431
9.186                 0.93325011     -60.2078443
9.187                0.933066327     -60.2973756
9.188                 0.93288185     -60.3871378
9.189                0.932696675     -60.4771317
9.19                 0.932510799     -60.5673581
9.191                 0.93232422     -60.6578179
9.192                0.932136934      -60.748512
9.193                0.931948939     -60.8394411
9.194                0.931760232     -60.9306062
9.195                 0.93157081      -61.022008
9.196                 0.93138067     -61.1136475
9.197                0.931189809     -61.2055254
9.198                0.930998224     -61.2976427
9.199                0.930805912     -61.3900003
9.2                   0.93061287     -61.4825989
9.201                0.930419095     -61.5754394
9.202                0.930224584     -61.6685229
9.203                0.930029335       -61.76185
9.204                0.929833344     -61.8554217
9.205                0.929636607      -61.949239
9.206                0.929439123     -62.0433026
9.207                0.929240888     -62.1376135
9.208                0.929041899     -62.2321725
9.209                0.928842152     -62.3269807
9.21                 0.928641645     -62.4220389
9.211                0.928440375     -62.5173479
9.212                0.928238339     -62.6129088
9.213                0.928035533     -62.7087224
9.214                0.927831954     -62.8047896
9.215                  0.9276276     -62.9011114
9.216                0.927422466     -62.9976888
9.217                0.927216551     -63.0945225
9.218                 0.92700985     -63.1916137
9.219                0.926802361     -63.2889632
9.22                  0.92659408     -63.3865719
9.221                0.926385004     -63.4844409
9.222                 0.92617513      -63.582571
9.223                0.925964455     -63.6809632
9.224                0.925752976     -63.7796186
9.225                0.925540688      -63.878538
9.226                 0.92532759     -63.9777224
9.227                0.925113677     -64.0771728
9.228                0.924898947     -64.1768901
9.229                0.924683396     -64.2768754
9.23                 0.924467021     -64.3771297
9.231                0.924249819     -64.4776538
9.232                0.924031786     -64.5784489
9.233                0.923812919     -64.6795159
9.234                0.923593214     -64.7808558
9.235                0.923372669     -64.8824696
9.236                0.923151279     -64.9843584
9.237                0.922929042      -65.086523
9.238                0.922705955     -65.1889647
9.239                0.922482013     -65.2916843
9.24                 0.922257214     -65.3946829
9.241                0.922031553     -65.4979616
9.242                0.921805028     -65.6015213
9.243                0.921577636     -65.7053631
9.244                0.921349372     -65.8094881
9.245                0.921120233     -65.9138973
9.246                0.920890217     -66.0185917
9.247                0.920659318     -66.1235725
9.248                0.920427535     -66.2288406
9.249                0.920194863     -66.3343971
9.25                 0.919961299     -66.4402431
9.251                0.919726839     -66.5463797
9.252                0.919491481      -66.652808
9.253                0.919255219     -66.7595289
9.254                0.919018052     -66.8665437
9.255                0.918779975     -66.9738534
9.256                0.918540985     -67.0814591
9.257                0.918301078     -67.1893619
9.258                0.918060251     -67.2975629
9.259                  0.9178185     -67.4060632
9.26                 0.917575822     -67.5148639
9.261                0.917332212     -67.6239662
9.262                0.917087668     -67.7333711
9.263                0.916842186     -67.8430798
9.264                0.916595762     -67.9530935
9.265                0.916348393     -68.0634132
9.266                0.916100074       -68.17404
9.267                0.915850803     -68.2849753
9.268                0.915600575       -68.39622
9.269                0.915349387     -68.5077753
9.27                 0.915097236     -68.6196425
9.271                0.914844117     -68.7318226
9.272                0.914590027     -68.8443168
9.273                0.914334963     -68.9571264
9.274                 0.91407892     -69.0702524
9.275                0.913821895      -69.183696
9.276                0.913563885     -69.2974586
9.277                0.913304884     -69.4115411
9.278                0.913044891     -69.5259449
9.279                0.912783901     -69.6406711
9.28                 0.912521909      -69.755721
9.281                0.912258914     -69.8710957
9.282                 0.91199491     -69.9867964
9.283                0.911729895     -70.1028245
9.284                0.911463864      -70.219181
9.285                0.911196813     -70.3358673
9.286                0.910928739     -70.4528846
9.287                0.910659639      -70.570234
9.288                0.910389507     -70.6879169
9.289                0.910118341     -70.8059345
9.29                 0.909846137     -70.9242881
9.291                 0.90957289     -71.0429788
9.292                0.909298598      -71.162008
9.293                0.909023256      -71.281377
9.294                 0.90874686      -71.401087
9.295                0.908469407     -71.5211392
9.296                0.908190893     -71.6415351
9.297                0.907911314     -71.7622758
9.298                0.907630666     -71.8833626
9.299                0.907348945     -72.0047969
9.3                  0.907066148     -72.1265799
9.301                0.906782271      -72.248713
9.302                0.906497309     -72.3711975
9.303                 0.90621126     -72.4940347
9.304                0.905924119     -72.6172259
9.305                0.905635882     -72.7407724
9.306                0.905346545     -72.8646755
9.307                0.905056105     -72.9889367
9.308                0.904764558     -73.1135573
9.309                  0.9044719     -73.2385385
9.31                 0.904178127     -73.3638818
9.311                0.903883235     -73.4895885
9.312                0.903587221       -73.61566
9.313                 0.90329008     -73.7420976
9.314                0.902991808     -73.8689027
9.315                0.902692403     -73.9960768
9.316                0.902391859      -74.123621
9.317                0.902090173      -74.251537
9.318                0.901787342      -74.379826
9.319                0.901483361     -74.5084895
9.32                 0.901178226     -74.6375288
9.321                0.900871934     -74.7669454
9.322                0.900564481     -74.8967407
9.323                0.900255862     -75.0269161
9.324                0.899946075      -75.157473
9.325                0.899635115     -75.2884129
9.326                0.899322978     -75.4197372
9.327                0.899009661     -75.5514473
9.328                 0.89869516     -75.6835447
9.329                 0.89837947     -75.8160308
9.33                 0.898062589     -75.9489071
9.331                0.897744511      -76.082175
9.332                0.897425235     -76.2158361
9.333                0.897104754     -76.3498917
9.334                0.896783066     -76.4843434
9.335                0.896460168     -76.6191926
9.336                0.896136054     -76.7544409
9.337                0.895810722     -76.8900897
9.338                0.895484168     -77.0261405
9.339                0.895156387     -77.1625949
9.34                 0.894827376     -77.2994542
9.341                0.894497131     -77.4367202
9.342                0.894165649     -77.5743941
9.343                0.893832926     -77.7124777
9.344                0.893498958     -77.8509724
9.345                0.893163741     -77.9898797
9.346                0.892827271     -78.1292013
9.347                0.892489546     -78.2689385
9.348                 0.89215056     -78.4090931
9.349                0.891810311     -78.5496665
9.35                 0.891468795     -78.6906603
9.351                0.891126008      -78.832076
9.352                0.890781946     -78.9739153
9.353                0.890436607     -79.1161797
9.354                0.890089985     -79.2588708
9.355                0.889742078     -79.4019902
9.356                0.889392882     -79.5455395
9.357                0.889042393     -79.6895202
9.358                0.888690608      -79.833934
9.359                0.888337524     -79.9787825
9.36                 0.887983136     -80.1240673
9.361                0.887627441       -80.26979
9.362                0.887270437     -80.4159522
9.363                0.886912118     -80.5625556
9.364                0.886552482     -80.7096018
9.365                0.886191525     -80.8570924
9.366                0.885829244     -81.0050291
9.367                0.885465636     -81.1534135
9.368                0.885100697     -81.3022473
9.369                0.884734423     -81.4515322
9.37                 0.884366812     -81.6012697
9.371                0.883997859     -81.7514616
9.372                0.883627563     -81.9021096
9.373                0.883255918     -82.0532153
9.374                0.882882923     -82.2047804
9.375                0.882508574     -82.3568066
9.376                0.882132868     -82.5092956
9.377                0.881755801      -82.662249
9.378                 0.88137737     -82.8156687
9.379                0.880997573     -82.9695563
9.38                 0.880616405     -83.1239135
9.381                0.880233865      -83.278742
9.382                0.879849949     -83.4340436
9.383                0.879464654       -83.58982
9.384                0.879077976     -83.7460729
9.385                0.878689914     -83.9028041
9.386                0.878300463     -84.0600152
9.387                0.877909622     -84.2177082
9.388                0.877517388     -84.3758846
9.389                0.877123756     -84.5345463
9.39                 0.876728726      -84.693695
9.391                0.876332293     -84.8533325
9.392                0.875934455     -85.0134606
9.393                 0.87553521      -85.174081
9.394                0.875134555     -85.3351955
9.395                0.874732487     -85.4968059
9.396                0.874329004      -85.658914
