! TOUCHSTONE file generated by CST DESIGN STUDIO
! Date and time: Tue Feb  4 17:28:46 2025
! Project name: C:\Work\MatlabApps\UnitCellOptimizationMatlab\CST\unitcell.cst
! Tree item: Tasks\Sweep1\SPara1\S-Parameters
! Header version: 2024
! Port assignment regex: !\s*Touchstone port\s*([0-9]+)\s*=\s*(CST MWS port|CST DES external port|CST DES block port)\s*(.+)\s* \(\"(.*)\"\)(\s*mode\s*([0-9]+))?.*
! Touchstone port assignment:
! Touchstone port 1 = CST DES external port 1 ("")
# GHz S MA R 50
9                    0.992532234     -74.9890693
9.001                 0.99251499      -75.099558
9.002                0.992497694     -75.2103117
9.003                0.992480346     -75.3213311
9.004                0.992462948      -75.432617
9.005                0.992445498     -75.5441702
9.006                0.992427996     -75.6559915
9.007                0.992410442     -75.7680816
9.008                0.992392837     -75.8804414
9.009                 0.99237518     -75.9930715
9.01                  0.99235747     -76.1059729
9.011                0.992339709     -76.2191462
9.012                0.992321895     -76.3325922
9.013                0.992304029     -76.4463119
9.014                 0.99228611     -76.5603059
9.015                0.992268139      -76.674575
9.016                0.992250115       -76.78912
9.017                0.992232038     -76.9039418
9.018                0.992213908     -77.0190412
9.019                0.992195726     -77.1344188
9.02                  0.99217749     -77.2500756
9.021                  0.9921592     -77.3660124
9.022                0.992140858     -77.4822299
9.023                0.992122462     -77.5987289
9.024                0.992104012     -77.7155103
9.025                0.992085509     -77.8325749
9.026                0.992066951     -77.9499235
9.027                 0.99204834     -78.0675569
9.028                0.992029675     -78.1854759
9.029                0.992010956     -78.3036813
9.03                 0.991992183      -78.422174
9.031                0.991973355     -78.5409548
9.032                0.991954473     -78.6600245
9.033                0.991935536     -78.7793839
9.034                0.991916545     -78.8990338
9.035                0.991897499     -79.0189752
9.036                0.991878398     -79.1392087
9.037                0.991859242     -79.2597353
9.038                0.991840031     -79.3805558
9.039                0.991820766      -79.501671
9.04                 0.991801445     -79.6230817
9.041                0.991782068     -79.7447888
9.042                0.991762637     -79.8667932
9.043                0.991743149     -79.9890956
9.044                0.991723607     -80.1116969
9.045                0.991704008     -80.2345979
9.046                0.991684354     -80.3577996
9.047                0.991664644     -80.4813027
9.048                0.991644878     -80.6051081
9.049                0.991625056     -80.7292166
9.05                 0.991605178     -80.8536291
9.051                0.991585243     -80.9783464
9.052                0.991565253     -81.1033695
9.053                0.991545206     -81.2286991
9.054                0.991525102     -81.3543361
9.055                0.991504942     -81.4802814
9.056                0.991484726     -81.6065358
9.057                0.991464452     -81.7331002
9.058                0.991444122     -81.8599754
9.059                0.991423735     -81.9871624
9.06                 0.991403291     -82.1146619
9.061                 0.99138279     -82.2424749
9.062                0.991362232     -82.3706022
9.063                0.991341617     -82.4990447
9.064                0.991320945     -82.6278032
9.065                0.991300215     -82.7568786
9.066                0.991279428     -82.8862719
9.067                0.991258583     -83.0159838
9.068                0.991237681     -83.1460153
9.069                0.991216721     -83.2763671
9.07                 0.991195704     -83.4070403
9.071                0.991174629     -83.5380357
9.072                0.991153496     -83.6693541
9.073                0.991132306     -83.8009964
9.074                0.991111057     -83.9329636
9.075                 0.99108975     -84.0652565
9.076                0.991068386     -84.1978759
9.077                0.991046963     -84.3308228
9.078                0.991025482     -84.4640981
9.079                0.991003943     -84.5977026
9.08                 0.990982346     -84.7316373
9.081                 0.99096069     -84.8659029
9.082                0.990938977     -85.0005005
9.083                0.990917204     -85.1354309
9.084                0.990895373     -85.2706949
9.085                0.990873484     -85.4062936
9.086                0.990851536     -85.5422277
9.087                 0.99082953     -85.6784982
9.088                0.990807465     -85.8151059
9.089                0.990785342     -85.9520518
9.09                 0.990763159     -86.0893368
9.091                0.990740918     -86.2269617
9.092                0.990718618     -86.3649275
9.093                 0.99069626      -86.503235
9.094                0.990673842     -86.6418852
9.095                0.990651366     -86.7808789
9.096                0.990628831     -86.9202171
9.097                0.990606237     -87.0599006
9.098                0.990583584     -87.1999303
9.099                0.990560872     -87.3403072
9.1                  0.990538101     -87.4810322
9.101                0.990515271     -87.6221061
9.102                0.990492383     -87.7635299
9.103                0.990469435     -87.9053044
9.104                0.990446428     -88.0474306
9.105                0.990423362     -88.1899094
9.106                0.990400237     -88.3327416
9.107                0.990377053     -88.4759282
9.108                 0.99035381     -88.6194701
9.109                0.990330508     -88.7633682
9.11                 0.990307146     -88.9076233
9.111                0.990283726     -89.0522365
9.112                0.990260247     -89.1972086
9.113                0.990236709     -89.3425404
9.114                0.990213111      -89.488233
9.115                0.990189455     -89.6342872
9.116                 0.99016574      -89.780704
9.117                0.990141965     -89.9274841
9.118                0.990118132     -90.0746286
9.119                 0.99009424     -90.2221384
9.12                 0.990070289     -90.3700142
9.121                0.990046279     -90.5182572
9.122                 0.99002221      -90.666868
9.123                0.989998082     -90.8158478
9.124                0.989973895     -90.9651973
9.125                 0.98994965     -91.1149174
9.126                0.989925346     -91.2650092
9.127                0.989900983     -91.4154734
9.128                0.989876562     -91.5663109
9.129                0.989852082     -91.7175228
9.13                 0.989827544     -91.8691098
9.131                0.989802947     -92.0210729
9.132                0.989778291      -92.173413
9.133                0.989753578     -92.3261309
9.134                0.989728806     -92.4792277
9.135                0.989703976     -92.6327041
9.136                0.989679087      -92.786561
9.137                0.989654141     -92.9407995
9.138                0.989629136     -93.0954203
9.139                0.989604073     -93.2504243
9.14                 0.989578953     -93.4058125
9.141                0.989553775     -93.5615857
9.142                0.989528539     -93.7177449
9.143                0.989503245     -93.8742908
9.144                0.989477894     -94.0312245
9.145                0.989452486     -94.1885468
9.146                 0.98942702     -94.3462586
9.147                0.989401497     -94.5043607
9.148                0.989375917     -94.6628541
9.149                 0.98935028     -94.8217396
9.15                 0.989324585     -94.9810181
9.151                0.989298835     -95.1406905
9.152                0.989273027     -95.3007577
9.153                0.989247163     -95.4612205
9.154                0.989221242     -95.6220799
9.155                0.989195265     -95.7833366
9.156                0.989169232     -95.9449916
9.157                0.989143143     -96.1070457
9.158                0.989116998     -96.2694999
9.159                0.989090798     -96.4323548
9.16                 0.989064541     -96.5956116
9.161                 0.98903823     -96.7592709
9.162                0.989011863     -96.9233336
9.163                0.988985441     -97.0878006
9.164                0.988958963     -97.2526728
9.165                0.988932431     -97.4179511
9.166                0.988905845     -97.5836361
9.167                0.988879204     -97.7497289
9.168                0.988852509     -97.9162302
9.169                0.988825759     -98.0831409
9.17                 0.988798956     -98.2504618
9.171                0.988772099     -98.4181938
9.172                0.988745188     -98.5863377
9.173                0.988718225     -98.7548944
9.174                0.988691208     -98.9238646
9.175                0.988664138     -99.0932491
9.176                0.988637015     -99.2630489
9.177                 0.98860984     -99.4332647
9.178                0.988582613     -99.6038974
9.179                0.988555333     -99.7749477
9.18                 0.988528002     -99.9464165
9.181                 0.98850062     -100.118305
9.182                0.988473186     -100.290613
9.183                  0.9884457     -100.463342
9.184                0.988418165     -100.636492
9.185                0.988390578     -100.810065
9.186                0.988362941     -100.984062
9.187                0.988335254     -101.158482
9.188                0.988307518     -101.333328
9.189                0.988279731     -101.508598
9.19                 0.988251896     -101.684296
9.191                0.988224011      -101.86042
9.192                0.988196078     -102.036972
9.193                0.988168097     -102.213953
9.194                0.988140067     -102.391363
9.195                 0.98811199     -102.569204
9.196                0.988083865     -102.747475
9.197                0.988055693     -102.926178
9.198                0.988027475     -103.105314
9.199                0.987999209     -103.284882
9.2                  0.987970898     -103.464885
9.201                0.987942541     -103.645322
9.202                0.987914138     -103.826194
9.203                 0.98788569     -104.007503
9.204                0.987857197     -104.189248
9.205                 0.98782866      -104.37143
9.206                0.987800078     -104.554051
9.207                0.987771453     -104.737111
9.208                0.987742785      -104.92061
9.209                0.987714073     -105.104549
9.21                 0.987685319     -105.288929
9.211                0.987656523     -105.473751
9.212                0.987627685     -105.659015
9.213                0.987598805     -105.844721
9.214                0.987569885     -106.030872
9.215                0.987540924     -106.217466
9.216                0.987511922     -106.404505
9.217                0.987482881      -106.59199
9.218                0.987453801     -106.779921
9.219                0.987424682     -106.968298
9.22                 0.987395524     -107.157123
9.221                0.987366328     -107.346396
9.222                0.987337095     -107.536117
9.223                0.987307825     -107.726287
9.224                0.987278518     -107.916908
9.225                0.987249175     -108.107978
9.226                0.987219796     -108.299499
9.227                0.987190382     -108.491472
9.228                0.987160934     -108.683897
9.229                0.987131451     -108.876774
9.23                 0.987101934     -109.070104
9.231                0.987072385     -109.263888
9.232                0.987042803     -109.458127
9.233                0.987013188      -109.65282
9.234                0.986983542     -109.847968
9.235                0.986953865     -110.043572
9.236                0.986924158     -110.239632
9.237                 0.98689442     -110.436148
9.238                0.986864653     -110.633122
9.239                0.986834858     -110.830554
9.24                 0.986805034     -111.028444
9.241                0.986775182     -111.226792
9.242                0.986745303       -111.4256
9.243                0.986715398     -111.624866
9.244                0.986685466     -111.824593
9.245                 0.98665551      -112.02478
9.246                0.986625529     -112.225428
9.247                0.986595523     -112.426537
9.248                0.986565494     -112.628108
9.249                0.986535443      -112.83014
9.25                 0.986505369     -113.032635
9.251                0.986475273     -113.235593
9.252                0.986445157     -113.439013
9.253                0.986415021     -113.642897
9.254                0.986384865     -113.847245
9.255                 0.98635469     -114.052056
9.256                0.986324496     -114.257332
9.257                0.986294286     -114.463073
9.258                0.986264058     -114.669279
9.259                0.986233815     -114.875949
9.26                 0.986203556     -115.083086
9.261                0.986173282     -115.290688
9.262                0.986142994     -115.498756
9.263                0.986112693     -115.707291
9.264                 0.98608238     -115.916292
9.265                0.986052054      -116.12576
9.266                0.986021718     -116.335694
9.267                0.985991372     -116.546096
9.268                0.985961016     -116.756965
9.269                0.985930651     -116.968302
9.27                 0.985900279     -117.180106
9.271                0.985869899     -117.392378
9.272                0.985839513     -117.605118
9.273                0.985809122     -117.818326
9.274                0.985778726     -118.032003
9.275                0.985748326     -118.246147
9.276                0.985717923      -118.46076
9.277                0.985687517     -118.675842
9.278                0.985657111     -118.891392
9.279                0.985626704      -119.10741
9.28                 0.985596297     -119.323898
9.281                0.985565891     -119.540854
9.282                0.985535488     -119.758278
9.283                0.985505087     -119.976171
9.284                 0.98547469     -120.194533
9.285                0.985444298     -120.413363
9.286                0.985413912     -120.632662
9.287                0.985383532      -120.85243
9.288                0.985353159     -121.072666
9.289                0.985322795      -121.29337
9.29                  0.98529244     -121.514543
9.291                0.985262096     -121.736183
9.292                0.985231763     -121.958292
9.293                0.985201441     -122.180869
9.294                0.985171133     -122.403913
9.295                0.985140839     -122.627425
9.296                 0.98511056     -122.851405
9.297                0.985080298     -123.075851
9.298                0.985050052     -123.300765
9.299                0.985019824     -123.526145
9.3                  0.984989615     -123.751992
9.301                0.984959426     -123.978305
9.302                0.984929259     -124.205084
9.303                0.984899113     -124.432329
9.304                 0.98486899     -124.660039
9.305                0.984838892     -124.888214
9.306                0.984808819     -125.116854
9.307                0.984778772     -125.345959
9.308                0.984748752     -125.575527
9.309                0.984718761     -125.805559
9.31                 0.984688799     -126.036054
9.311                0.984658868     -126.267012
9.312                0.984628968     -126.498433
9.313                0.984599101     -126.730315
9.314                0.984569268     -126.962659
9.315                 0.98453947     -127.195463
9.316                0.984509708     -127.428728
9.317                0.984479983     -127.662454
9.318                0.984450297     -127.896638
9.319                0.984420649     -128.131282
9.32                 0.984391043     -128.366383
9.321                0.984361478     -128.601943
9.322                0.984331956     -128.837959
9.323                0.984302478     -129.074432
9.324                0.984273045     -129.311361
9.325                0.984243659     -129.548745
9.326                 0.98421432     -129.786584
9.327                 0.98418503     -130.024876
9.328                 0.98415579     -130.263622
9.329                0.984126601     -130.502819
9.33                 0.984097464     -130.742469
9.331                0.984068381     -130.982569
9.332                0.984039353     -131.223119
9.333                 0.98401038     -131.464119
9.334                0.983981465     -131.705567
9.335                0.983952608     -131.947463
9.336                0.983923811     -132.189805
9.337                0.983895075     -132.432594
9.338                0.983866401     -132.675827
9.339                0.983837791     -132.919504
9.34                 0.983809245     -133.163625
9.341                0.983780765     -133.408187
9.342                0.983752352     -133.653191
9.343                0.983724008     -133.898635
9.344                0.983695733     -134.144518
9.345                 0.98366753     -134.390839
9.346                0.983639399     -134.637597
9.347                0.983611341     -134.884792
9.348                0.983583358     -135.132421
9.349                0.983555452     -135.380484
9.35                 0.983527623     -135.628979
9.351                0.983499873     -135.877906
9.352                0.983472203     -136.127264
9.353                0.983444615     -136.377051
9.354                0.983417109     -136.627265
9.355                0.983389688     -136.877906
9.356                0.983362351     -137.128973
9.357                0.983335102     -137.380464
9.358                0.983307941     -137.632378
9.359                0.983280869     -137.884713
9.36                 0.983253888     -138.137468
9.361                0.983226999     -138.390643
9.362                0.983200203     -138.644235
9.363                0.983173503     -138.898242
9.364                0.983146898     -139.152665
9.365                0.983120391     -139.407501
9.366                0.983093983     -139.662748
9.367                0.983067675     -139.918406
9.368                0.983041468     -140.174473
9.369                0.983015365     -140.430947
9.37                 0.982989366     -140.687826
9.371                0.982963472      -140.94511
9.372                0.982937686     -141.202796
9.373                0.982912008     -141.460883
9.374                 0.98288644      -141.71937
9.375                0.982860983     -141.978254
9.376                0.982835638     -142.237534
9.377                0.982810407     -142.497209
9.378                0.982785292     -142.757276
9.379                0.982760293     -143.017734
9.38                 0.982735413     -143.278581
9.381                0.982710651     -143.539815
9.382                0.982686011     -143.801435
9.383                0.982661492     -144.063438
9.384                0.982637097     -144.325824
9.385                0.982612827     -144.588589
9.386                0.982588684     -144.851733
9.387                0.982564667     -145.115252
9.388                 0.98254078     -145.379146
9.389                0.982517023     -145.643413
9.39                 0.982493398     -145.908049
9.391                0.982469906     -146.173054
9.392                0.982446549     -146.438426
9.393                0.982423327     -146.704162
9.394                0.982400243      -146.97026
9.395                0.982377297     -147.236718
9.396                0.982354491     -147.503534
