! TOUCHSTONE file generated by CST DESIGN STUDIO
! Date and time: Tue Feb  4 17:28:51 2025
! Project name: C:\Work\MatlabApps\UnitCellOptimizationMatlab\CST\unitcell.cst
! Tree item: Tasks\Sweep1\SPara1\S-Parameters
! Header version: 2024
! Port assignment regex: !\s*Touchstone port\s*([0-9]+)\s*=\s*(CST MWS port|CST DES external port|CST DES block port)\s*(.+)\s* \(\"(.*)\"\)(\s*mode\s*([0-9]+))?.*
! Touchstone port assignment:
! Touchstone port 1 = CST DES external port 1 ("")
# GHz S MA R 50
9                    0.993059331     -73.0507538
9.001                 0.99304379     -73.1570323
9.002                0.993028202     -73.2635641
9.003                0.993012569     -73.3703498
9.004                 0.99299689     -73.4773902
9.005                0.992981166     -73.5846861
9.006                0.992965394     -73.6922382
9.007                0.992949577     -73.8000474
9.008                0.992933714     -73.9081142
9.009                0.992917804     -74.0164395
9.01                 0.992901847     -74.1250241
9.011                0.992885844     -74.2338687
9.012                0.992869794     -74.3429741
9.013                0.992853697      -74.452341
9.014                0.992837553     -74.5619703
9.015                0.992821362     -74.6718626
9.016                0.992805124     -74.7820187
9.017                0.992788839     -74.8924395
9.018                0.992772506     -75.0031257
9.019                0.992756126      -75.114078
9.02                 0.992739698     -75.2252973
9.021                0.992723223     -75.3367843
9.022                0.992706699     -75.4485399
9.023                0.992690128     -75.5605647
9.024                0.992673509     -75.6728596
9.025                0.992656841     -75.7854254
9.026                0.992640125     -75.8982628
9.027                0.992623361     -76.0113727
9.028                0.992606549     -76.1247558
9.029                0.992589688      -76.238413
9.03                 0.992572778      -76.352345
9.031                 0.99255582     -76.4665526
9.032                0.992538812     -76.5810366
9.033                0.992521756     -76.6957979
9.034                0.992504651     -76.8108372
9.035                0.992487497     -76.9261554
9.036                0.992470293     -77.0417532
9.037                 0.99245304     -77.1576315
9.038                0.992435738      -77.273791
9.039                0.992418386     -77.3902327
9.04                 0.992400984     -77.5069572
9.041                0.992383533     -77.6239654
9.042                0.992366031     -77.7412582
9.043                 0.99234848     -77.8588363
9.044                0.992330879     -77.9767006
9.045                0.992313228     -78.0948519
9.046                0.992295527      -78.213291
9.047                0.992277775     -78.3320187
9.048                0.992259973     -78.4510359
9.049                 0.99224212     -78.5703434
9.05                 0.992224217     -78.6899421
9.051                0.992206263     -78.8098327
9.052                0.992188258     -78.9300162
9.053                0.992170203     -79.0504932
9.054                0.992152097     -79.1712648
9.055                0.992133939     -79.2923316
9.056                0.992115731     -79.4136947
9.057                0.992097471     -79.5353547
9.058                 0.99207916     -79.6573126
9.059                0.992060797     -79.7795691
9.06                 0.992042384     -79.9021252
9.061                0.992023918     -80.0249817
9.062                0.992005401     -80.1481395
9.063                0.991986833     -80.2715993
9.064                0.991968212     -80.3953621
9.065                 0.99194954     -80.5194286
9.066                0.991930815     -80.6437998
9.067                0.991912039     -80.7684766
9.068                0.991893211     -80.8934597
9.069                 0.99187433     -81.0187501
9.07                 0.991855397     -81.1443485
9.071                0.991836412     -81.2702559
9.072                0.991817375     -81.3964732
9.073                0.991798285     -81.5230011
9.074                0.991779142     -81.6498406
9.075                0.991759947     -81.7769926
9.076                0.991740699     -81.9044578
9.077                0.991721398     -82.0322373
9.078                0.991702045     -82.1603317
9.079                0.991682639     -82.2887421
9.08                 0.991663179     -82.4174694
9.081                0.991643667     -82.5465142
9.082                0.991624102     -82.6758777
9.083                0.991604483     -82.8055606
9.084                0.991584812     -82.9355638
9.085                0.991565087     -83.0658882
9.086                0.991545308     -83.1965347
9.087                0.991525477     -83.3275041
9.088                0.991505591     -83.4587974
9.089                0.991485653     -83.5904155
9.09                 0.991465661     -83.7223592
9.091                0.991445615     -83.8546294
9.092                0.991425515      -83.987227
9.093                0.991405362      -84.120153
9.094                0.991385155     -84.2534081
9.095                0.991364895     -84.3869933
9.096                 0.99134458     -84.5209095
9.097                0.991324212     -84.6551576
9.098                 0.99130379     -84.7897385
9.099                0.991283313      -84.924653
9.1                  0.991262783     -85.0599021
9.101                0.991242199     -85.1954867
9.102                 0.99122156     -85.3314076
9.103                0.991200867     -85.4676658
9.104                0.991180121     -85.6042622
9.105                 0.99115932     -85.7411977
9.106                0.991138465     -85.8784732
9.107                0.991117555     -86.0160895
9.108                0.991096592     -86.1540476
9.109                0.991075574     -86.2923484
9.11                 0.991054501     -86.4309929
9.111                0.991033374     -86.5699818
9.112                0.991012193     -86.7093161
9.113                0.990990958     -86.8489968
9.114                0.990969668     -86.9890247
9.115                0.990948324     -87.1294007
9.116                0.990926925     -87.2701258
9.117                0.990905472     -87.4112008
9.118                0.990883964     -87.5526267
9.119                0.990862402     -87.6944044
9.12                 0.990840785     -87.8365348
9.121                0.990819114     -87.9790188
9.122                0.990797389     -88.1218573
9.123                0.990775609     -88.2650512
9.124                0.990753774     -88.4086015
9.125                0.990731885     -88.5525091
9.126                0.990709941     -88.6967747
9.127                0.990687943     -88.8413995
9.128                0.990665891     -88.9863843
9.129                0.990643784       -89.13173
9.13                 0.990621623     -89.2774375
9.131                0.990599407     -89.4235077
9.132                0.990577137     -89.5699416
9.133                0.990554812       -89.71674
9.134                0.990532433     -89.8639039
9.135                    0.99051     -90.0114342
9.136                0.990487512     -90.1593318
9.137                 0.99046497     -90.3075977
9.138                0.990442374     -90.4562326
9.139                0.990419724     -90.6052376
9.14                 0.990397019     -90.7546135
9.141                0.990374261     -90.9043613
9.142                0.990351448     -91.0544819
9.143                0.990328581     -91.2049762
9.144                 0.99030566      -91.355845
9.145                0.990282686     -91.5070894
9.146                0.990259657     -91.6587102
9.147                0.990236575     -91.8107083
9.148                0.990213438     -91.9630847
9.149                0.990190248     -92.1158402
9.15                 0.990167005     -92.2689757
9.151                0.990143707     -92.4224923
9.152                0.990120357     -92.5763906
9.153                0.990096952     -92.7306718
9.154                0.990073495     -92.8853366
9.155                0.990049984      -93.040386
9.156                0.990026419     -93.1958209
9.157                0.990002802     -93.3516421
9.158                0.989979132     -93.5078507
9.159                0.989955408     -93.6644474
9.16                 0.989931632     -93.8214332
9.161                0.989907803     -93.9788089
9.162                0.989883921     -94.1365756
9.163                0.989859987      -94.294734
9.164                   0.989836      -94.453285
9.165                0.989811961     -94.6122296
9.166                0.989787869     -94.7715686
9.167                0.989763726      -94.931303
9.168                 0.98973953     -95.0914336
9.169                0.989715283     -95.2519613
9.17                 0.989690983     -95.4128869
9.171                0.989666632     -95.5742115
9.172                 0.98964223     -95.7359357
9.173                0.989617776     -95.8980606
9.174                 0.98959327      -96.060587
9.175                0.989568714     -96.2235158
9.176                0.989544107     -96.3868478
9.177                0.989519448      -96.550584
9.178                 0.98949474     -96.7147251
9.179                 0.98946998     -96.8792721
9.18                  0.98944517     -97.0442258
9.181                 0.98942031     -97.2095871
9.182                  0.9893954     -97.3753568
9.183                0.989370441     -97.5415358
9.184                0.989345431     -97.7081249
9.185                0.989320372     -97.8751251
9.186                0.989295264     -98.0425371
9.187                0.989270106     -98.2103618
9.188                  0.9892449     -98.3786001
9.189                0.989219644     -98.5472528
9.19                  0.98919434     -98.7163206
9.191                0.989168988     -98.8858046
9.192                0.989143588     -99.0557054
9.193                 0.98911814     -99.2260239
9.194                0.989092644      -99.396761
9.195                  0.9890671     -99.5679175
9.196                0.989041509     -99.7394941
9.197                0.989015871     -99.9114918
9.198                0.988990187     -100.083911
9.199                0.988964455     -100.256753
9.2                  0.988938678     -100.430019
9.201                0.988912854     -100.603709
9.202                0.988886984     -100.777824
9.203                0.988861069     -100.952364
9.204                0.988835109     -101.127332
9.205                0.988809103     -101.302726
9.206                0.988783052     -101.478549
9.207                0.988756957     -101.654801
9.208                0.988730818     -101.831483
9.209                0.988704635     -102.008595
9.21                 0.988678408     -102.186139
9.211                0.988652138     -102.364114
9.212                0.988625824     -102.542522
9.213                0.988599468     -102.721364
9.214                0.988573069     -102.900641
9.215                0.988546628     -103.080352
9.216                0.988520145     -103.260499
9.217                0.988493621     -103.441083
9.218                0.988467055     -103.622104
9.219                0.988440449     -103.803563
9.22                 0.988413801      -103.98546
9.221                0.988387114     -104.167797
9.222                0.988360387     -104.350575
9.223                 0.98833362     -104.533793
9.224                0.988306814     -104.717452
9.225                 0.98827997     -104.901554
9.226                0.988253087     -105.086099
9.227                0.988226165     -105.271087
9.228                0.988199206      -105.45652
9.229                 0.98817221     -105.642398
9.23                 0.988145177     -105.828721
9.231                0.988118108      -106.01549
9.232                0.988091002     -106.202707
9.233                0.988063861     -106.390371
9.234                0.988036684     -106.578483
9.235                0.988009472     -106.767044
9.236                0.987982226     -106.956055
9.237                0.987954946     -107.145516
9.238                0.987927633     -107.335427
9.239                0.987900286      -107.52579
9.24                 0.987872906     -107.716604
9.241                0.987845495     -107.907872
9.242                0.987818051     -108.099592
9.243                0.987790576     -108.291766
9.244                0.987763071     -108.484394
9.245                0.987735535     -108.677477
9.246                0.987707969     -108.871016
9.247                0.987680373      -109.06501
9.248                0.987652749     -109.259461
9.249                0.987625096     -109.454368
9.25                 0.987597416     -109.649734
9.251                0.987569708     -109.845557
9.252                0.987541973     -110.041839
9.253                0.987514212      -110.23858
9.254                0.987486425     -110.435781
9.255                0.987458613     -110.633441
9.256                0.987430776     -110.831562
9.257                0.987402914     -111.030145
9.258                 0.98737503     -111.229188
9.259                0.987347122     -111.428694
9.26                 0.987319191     -111.628661
9.261                0.987291239     -111.829092
9.262                0.987263266     -112.029986
9.263                0.987235271     -112.231343
9.264                0.987207257     -112.433164
9.265                0.987179223      -112.63545
9.266                 0.98715117     -112.838201
9.267                0.987123098     -113.041416
9.268                0.987095009     -113.245098
9.269                0.987066903     -113.449245
9.27                 0.987038781     -113.653858
9.271                0.987010643     -113.858938
9.272                0.986982489     -114.064485
9.273                0.986954321       -114.2705
9.274                 0.98692614     -114.476981
9.275                0.986897945     -114.683931
9.276                0.986869738     -114.891348
9.277                0.986841518     -115.099234
9.278                0.986813288     -115.307589
9.279                0.986785048     -115.516413
9.28                 0.986756797     -115.725706
9.281                0.986728538     -115.935468
9.282                 0.98670027     -116.145699
9.283                0.986671995     -116.356401
9.284                0.986643713     -116.567572
9.285                0.986615425     -116.779214
9.286                0.986587132     -116.991326
9.287                0.986558834     -117.203909
9.288                0.986530532     -117.416962
9.289                0.986502228     -117.630486
9.29                  0.98647392     -117.844481
9.291                0.986445612     -118.058947
9.292                0.986417303     -118.273884
9.293                0.986388993     -118.489293
9.294                0.986360685     -118.705172
9.295                0.986332378     -118.921523
9.296                0.986304074     -119.138346
9.297                0.986275773      -119.35564
9.298                0.986247477     -119.573405
9.299                0.986219185     -119.791642
9.3                  0.986190899      -120.01035
9.301                 0.98616262      -120.22953
9.302                0.986134348     -120.449181
9.303                0.986106085     -120.669303
9.304                0.986077831     -120.889897
9.305                0.986049587     -121.110962
9.306                0.986021354     -121.332498
9.307                0.985993133     -121.554505
9.308                0.985964925     -121.776984
9.309                 0.98593673     -121.999933
9.31                 0.985908551     -122.223352
9.311                0.985880386     -122.447242
9.312                0.985852239     -122.671603
9.313                0.985824108     -122.896433
9.314                0.985795996     -123.121734
9.315                0.985767904     -123.347504
9.316                0.985739831     -123.573743
9.317                 0.98571178     -123.800452
9.318                0.985683751      -124.02763
9.319                0.985655745     -124.255276
9.32                 0.985627763     -124.483391
9.321                0.985599806     -124.711974
9.322                0.985571876     -124.941025
9.323                0.985543972     -125.170543
9.324                0.985516097     -125.400528
9.325                0.985488251     -125.630979
9.326                0.985460435     -125.861897
9.327                 0.98543265     -126.093281
9.328                0.985404897      -126.32513
9.329                0.985377177     -126.557444
9.33                 0.985349492     -126.790222
9.331                0.985321842     -127.023465
9.332                0.985294228     -127.257171
9.333                0.985266652      -127.49134
9.334                0.985239115     -127.725971
9.335                0.985211617     -127.961065
9.336                0.985184159      -128.19662
9.337                0.985156744     -128.432635
9.338                0.985129371     -128.669111
9.339                0.985102042     -128.906046
9.34                 0.985074758     -129.143441
9.341                0.985047521     -129.381293
9.342                 0.98502033     -129.619603
9.343                0.984993189      -129.85837
9.344                0.984966096     -130.097594
9.345                0.984939054     -130.337272
9.346                0.984912065     -130.577406
9.347                0.984885128     -130.817993
9.348                0.984858245     -131.059034
9.349                0.984831417     -131.300527
9.35                 0.984804646     -131.542471
9.351                0.984777932     -131.784866
9.352                0.984751277     -132.027711
9.353                0.984724683     -132.271006
9.354                0.984698149     -132.514748
9.355                0.984671677     -132.758937
9.356                0.984645269     -133.003573
9.357                0.984618926     -133.248653
9.358                0.984592648     -133.494178
9.359                0.984566438     -133.740147
9.36                 0.984540295     -133.986558
9.361                0.984514223      -134.23341
9.362                0.984488221     -134.480702
9.363                0.984462291     -134.728433
9.364                0.984436434     -134.976602
9.365                0.984410651     -135.225209
9.366                0.984384944     -135.474251
9.367                0.984359314     -135.723727
9.368                0.984333762     -135.973637
9.369                0.984308289      -136.22398
9.37                 0.984282897     -136.474753
9.371                0.984257587     -136.725956
9.372                 0.98423236     -136.977588
9.373                0.984207217     -137.229647
9.374                 0.98418216     -137.482132
9.375                0.984157189     -137.735042
9.376                0.984132307     -137.988375
9.377                0.984107514      -138.24213
9.378                0.984082812     -138.496305
9.379                0.984058202       -138.7509
9.38                 0.984033684     -139.005913
9.381                0.984009262     -139.261341
9.382                0.983984935     -139.517185
9.383                0.983960705     -139.773442
9.384                0.983936573     -140.030111
9.385                0.983912541      -140.28719
9.386                 0.98388861     -140.544678
9.387                0.983864782     -140.802573
9.388                0.983841056     -141.060873
9.389                0.983817435     -141.319578
9.39                 0.983793921     -141.578685
9.391                0.983770514     -141.838193
9.392                0.983747215     -142.098099
9.393                0.983724026     -142.358403
9.394                0.983700949     -142.619103
9.395                0.983677984     -142.880197
9.396                0.983655132     -143.141682
