! TOUCHSTONE file generated by CST DESIGN STUDIO
! Date and time: Tue Feb  4 17:28:50 2025
! Project name: C:\Work\MatlabApps\UnitCellOptimizationMatlab\CST\unitcell.cst
! Tree item: Tasks\Sweep1\SPara1\S-Parameters
! Header version: 2024
! Port assignment regex: !\s*Touchstone port\s*([0-9]+)\s*=\s*(CST MWS port|CST DES external port|CST DES block port)\s*(.+)\s* \(\"(.*)\"\)(\s*mode\s*([0-9]+))?.*
! Touchstone port assignment:
! Touchstone port 1 = CST DES external port 1 ("")
# GHz S MA R 50
9                    0.992888062      -73.693655
9.001                0.992871997     -73.8013164
9.002                0.992855883     -73.9092349
9.003                0.992839722     -74.0174111
9.004                0.992823513     -74.1258459
9.005                0.992807256       -74.23454
9.006                 0.99279095     -74.3434942
9.007                0.992774597     -74.4527093
9.008                0.992758195     -74.5621859
9.009                0.992741745     -74.6719249
9.01                 0.992725246     -74.7819271
9.011                0.992708699     -74.8921931
9.012                0.992692103     -75.0027239
9.013                0.992675457     -75.1135201
9.014                0.992658763     -75.2245825
9.015                 0.99264202     -75.3359119
9.016                0.992625228     -75.4475091
9.017                0.992608386     -75.5593749
9.018                0.992591495     -75.6715101
9.019                0.992574555     -75.7839153
9.02                 0.992557564     -75.8965915
9.021                0.992540524     -76.0095394
9.022                0.992523435     -76.1227598
9.023                0.992506295     -76.2362534
9.024                0.992489105     -76.3500212
9.025                0.992471865     -76.4640638
9.026                0.992454575     -76.5783822
9.027                0.992437235     -76.6929769
9.028                0.992419844      -76.807849
9.029                0.992402402     -76.9229992
9.03                  0.99238491     -77.0384282
9.031                0.992367367     -77.1541369
9.032                0.992349773     -77.2701261
9.033                0.992332128     -77.3863966
9.034                0.992314432     -77.5029492
9.035                0.992296685     -77.6197848
9.036                0.992278887     -77.7369041
9.037                0.992261037      -77.854308
9.038                0.992243136     -77.9719972
9.039                0.992225183     -78.0899727
9.04                 0.992207179     -78.2082352
9.041                0.992189123     -78.3267855
9.042                0.992171015     -78.4456245
9.043                0.992152855      -78.564753
9.044                0.992134643     -78.6841718
9.045                0.992116379     -78.8038817
9.046                0.992098062     -78.9238837
9.047                0.992079694     -79.0441785
9.048                0.992061273     -79.1647669
9.049                0.992042799     -79.2856498
9.05                 0.992024273     -79.4068281
9.051                0.992005694     -79.5283025
9.052                0.991987063     -79.6500739
9.053                0.991968378     -79.7721432
9.054                0.991949641     -79.8945112
9.055                 0.99193085     -80.0171788
9.056                0.991912007     -80.1401467
9.057                 0.99189311     -80.2634159
9.058                 0.99187416     -80.3869871
9.059                0.991855157     -80.5108613
9.06                   0.9918361     -80.6350393
9.061                0.991816989      -80.759522
9.062                0.991797825     -80.8843102
9.063                0.991778608     -81.0094047
9.064                0.991759336     -81.1348064
9.065                0.991740011     -81.2605163
9.066                0.991720632     -81.3865351
9.067                0.991701199     -81.5128637
9.068                0.991681711      -81.639503
9.069                 0.99166217     -81.7664539
9.07                 0.991642574     -81.8937171
9.071                0.991622924     -82.0212937
9.072                 0.99160322     -82.1491843
9.073                0.991583461     -82.2773901
9.074                0.991563648     -82.4059117
9.075                 0.99154378     -82.5347501
9.076                0.991523858     -82.6639061
9.077                0.991503881     -82.7933807
9.078                0.991483849     -82.9231746
9.079                0.991463762     -83.0532889
9.08                  0.99144362     -83.1837243
9.081                0.991423424     -83.3144817
9.082                0.991403172     -83.4455621
9.083                0.991382866     -83.5769663
9.084                0.991362504     -83.7086952
9.085                0.991342087     -83.8407497
9.086                0.991321615     -83.9731306
9.087                0.991301087     -84.1058389
9.088                0.991280504     -84.2388755
9.089                0.991259866     -84.3722412
9.09                 0.991239173     -84.5059369
9.091                0.991218424     -84.6399635
9.092                0.991197619      -84.774322
9.093                0.991176759     -84.9090131
9.094                0.991155843     -85.0440379
9.095                0.991134871     -85.1793972
9.096                0.991113844     -85.3150918
9.097                0.991092761     -85.4511228
9.098                0.991071623     -85.5874909
9.099                0.991050428     -85.7241972
9.1                  0.991029178     -85.8612424
9.101                0.991007872     -85.9986275
9.102                 0.99098651     -86.1363534
9.103                0.990965091     -86.2744211
9.104                0.990943617     -86.4128313
9.105                0.990922087      -86.551585
9.106                0.990900501     -86.6906831
9.107                0.990878859     -86.8301266
9.108                0.990857161     -86.9699162
9.109                0.990835407      -87.110053
9.11                 0.990813597     -87.2505379
9.111                0.990791731     -87.3913716
9.112                0.990769808     -87.5325552
9.113                 0.99074783     -87.6740896
9.114                0.990725795     -87.8159756
9.115                0.990703704     -87.9582142
9.116                0.990681557     -88.1008062
9.117                0.990659354     -88.2437527
9.118                0.990637095     -88.3870544
9.119                0.990614779     -88.5307124
9.12                 0.990592408     -88.6747274
9.121                 0.99056998     -88.8191005
9.122                0.990547496     -88.9638326
9.123                0.990524956     -89.1089244
9.124                 0.99050236     -89.2543771
9.125                0.990479708     -89.4001914
9.126                   0.990457     -89.5463683
9.127                0.990434235     -89.6929087
9.128                0.990411415     -89.8398134
9.129                0.990388538     -89.9870835
9.13                 0.990365606     -90.1347198
9.131                0.990342618     -90.2827233
9.132                0.990319573     -90.4310947
9.133                0.990296473     -90.5798352
9.134                0.990273317     -90.7289455
9.135                0.990250105     -90.8784265
9.136                0.990226838     -91.0282793
9.137                0.990203514     -91.1785046
9.138                0.990180135     -91.3291034
9.139                  0.9901567     -91.4800766
9.14                  0.99013321     -91.6314251
9.141                0.990109664     -91.7831499
9.142                0.990086062     -91.9352518
9.143                0.990062405     -92.0877316
9.144                0.990038693     -92.2405905
9.145                0.990014926     -92.3938291
9.146                0.989991103     -92.5474485
9.147                0.989967225     -92.7014495
9.148                0.989943291     -92.8558331
9.149                0.989919303     -93.0106001
9.15                  0.98989526     -93.1657515
9.151                0.989871162     -93.3212881
9.152                0.989847009     -93.4772108
9.153                0.989822802     -93.6335205
9.154                 0.98979854     -93.7902182
9.155                0.989774223     -93.9473047
9.156                0.989749852      -94.104781
9.157                0.989725427     -94.2626478
9.158                0.989700947     -94.4209061
9.159                0.989676414     -94.5795569
9.16                 0.989651826     -94.7386009
9.161                0.989627184      -94.898039
9.162                0.989602489     -95.0578722
9.163                 0.98957774     -95.2181013
9.164                0.989552938     -95.3787273
9.165                0.989528082     -95.5397509
9.166                0.989503172     -95.7011731
9.167                 0.98947821     -95.8629947
9.168                0.989453195     -96.0252167
9.169                0.989428127     -96.1878398
9.17                 0.989403006      -96.350865
9.171                0.989377832     -96.5142932
9.172                0.989352606     -96.6781251
9.173                0.989327328     -96.8423617
9.174                0.989301998     -97.0070038
9.175                0.989276615     -97.1720523
9.176                0.989251181      -97.337508
9.177                0.989225696     -97.5033718
9.178                0.989200159     -97.6696446
9.179                 0.98917457     -97.8363271
9.18                 0.989148931     -98.0034203
9.181                0.989123241      -98.170925
9.182                  0.9890975      -98.338842
9.183                0.989071708     -98.5071722
9.184                0.989045866     -98.6759164
9.185                0.989019974     -98.8450755
9.186                0.988994032     -99.0146502
9.187                0.988968041     -99.1846414
9.188                   0.988942       -99.35505
9.189                 0.98891591     -99.5258766
9.19                  0.98888977     -99.6971223
9.191                0.988863582     -99.8687877
9.192                0.988837346     -100.040874
9.193                0.988811061     -100.213381
9.194                0.988784727     -100.386311
9.195                0.988758346     -100.559663
9.196                0.988731918      -100.73344
9.197                0.988705442     -100.907641
9.198                0.988678919     -101.082267
9.199                0.988652349      -101.25732
9.2                  0.988625733       -101.4328
9.201                 0.98859907     -101.608707
9.202                0.988572362     -101.785043
9.203                0.988545607     -101.961808
9.204                0.988518807     -102.139003
9.205                0.988491963     -102.316629
9.206                0.988465073     -102.494687
9.207                0.988438138     -102.673176
9.208                 0.98841116     -102.852099
9.209                0.988384137     -103.031456
9.21                 0.988357071     -103.211247
9.211                0.988329962     -103.391474
9.212                 0.98830281     -103.572137
9.213                0.988275615     -103.753236
9.214                0.988248378     -103.934773
9.215                0.988221099     -104.116748
9.216                0.988193778     -104.299162
9.217                0.988166416     -104.482015
9.218                0.988139013     -104.665309
9.219                 0.98811157     -104.849044
9.22                 0.988084087      -105.03322
9.221                0.988056563     -105.217839
9.222                0.988029001     -105.402901
9.223                0.988001399     -105.588406
9.224                0.987973759     -105.774356
9.225                0.987946081     -105.960751
9.226                0.987918365     -106.147592
9.227                0.987890611     -106.334879
9.228                0.987862821     -106.522613
9.229                0.987834993     -106.710794
9.23                  0.98780713     -106.899424
9.231                0.987779231     -107.088502
9.232                0.987751297      -107.27803
9.233                0.987723328     -107.468009
9.234                0.987695325     -107.658437
9.235                0.987667288     -107.849317
9.236                0.987639217     -108.040649
9.237                0.987611114     -108.232434
9.238                0.987582978     -108.424671
9.239                0.987554809     -108.617362
9.24                  0.98752661     -108.810507
9.241                0.987498379     -109.004107
9.242                0.987470118     -109.198162
9.243                0.987441827     -109.392672
9.244                0.987413506     -109.587639
9.245                0.987385156     -109.783063
9.246                0.987356778     -109.978944
9.247                0.987328372     -110.175283
9.248                0.987299938     -110.372081
9.249                0.987271478     -110.569337
9.25                 0.987242991     -110.767052
9.251                0.987214478     -110.965227
9.252                0.987185941     -111.163862
9.253                0.987157378     -111.362959
9.254                0.987128792     -111.562516
9.255                0.987100182     -111.762534
9.256                0.987071549     -111.963015
9.257                0.987042894     -112.163958
9.258                0.987014217     -112.365364
9.259                 0.98698552     -112.567233
9.26                 0.986956801     -112.769566
9.261                0.986928063     -112.972362
9.262                0.986899306     -113.175623
9.263                 0.98687053     -113.379349
9.264                0.986841736      -113.58354
9.265                0.986812925     -113.788196
9.266                0.986784098     -113.993318
9.267                0.986755254     -114.198906
9.268                0.986726395      -114.40496
9.269                0.986697521     -114.611481
9.27                 0.986668634     -114.818469
9.271                0.986639733     -115.025924
9.272                 0.98661082     -115.233846
9.273                0.986581895     -115.442237
9.274                0.986552959     -115.651095
9.275                0.986524012     -115.860421
9.276                0.986495056     -116.070216
9.277                0.986466091      -116.28048
9.278                0.986437117     -116.491213
9.279                0.986408136     -116.702414
9.28                 0.986379149     -116.914085
9.281                0.986350155     -117.126225
9.282                0.986321156     -117.338835
9.283                0.986292153     -117.551914
9.284                0.986263147     -117.765463
9.285                0.986234137     -117.979482
9.286                0.986205125     -118.193971
9.287                0.986176113     -118.408931
9.288                0.986147099      -118.62436
9.289                0.986118087      -118.84026
9.29                 0.986089075      -119.05663
9.291                0.986060065      -119.27347
9.292                0.986031059     -119.490781
9.293                0.986002056     -119.708563
9.294                0.985973058     -119.926814
9.295                0.985944065     -120.145536
9.296                0.985915078     -120.364729
9.297                0.985886099     -120.584391
9.298                0.985857128     -120.804525
9.299                0.985828166     -121.025128
9.3                  0.985799213     -121.246201
9.301                0.985770272     -121.467745
9.302                0.985741342     -121.689758
9.303                0.985712424     -121.912241
9.304                0.985683521     -122.135194
9.305                0.985654631     -122.358616
9.306                0.985625757     -122.582508
9.307                  0.9855969     -122.806869
9.308                0.985568059     -123.031698
9.309                0.985539237     -123.256997
9.31                 0.985510434     -123.482764
9.311                0.985481652     -123.708999
9.312                 0.98545289     -123.935703
9.313                0.985424151     -124.162874
9.314                0.985395435     -124.390512
9.315                0.985366743     -124.618618
9.316                0.985338076     -124.847191
9.317                0.985309435      -125.07623
9.318                0.985280822     -125.305735
9.319                0.985252236     -125.535706
9.32                  0.98522368     -125.766142
9.321                0.985195155     -125.997044
9.322                 0.98516666      -126.22841
9.323                0.985138198      -126.46024
9.324                 0.98510977     -126.692533
9.325                0.985081376      -126.92529
9.326                0.985053017      -127.15851
9.327                0.985024695     -127.392192
9.328                0.984996411     -127.626335
9.329                0.984968166      -127.86094
9.33                 0.984939961     -128.096005
9.331                0.984911797     -128.331531
9.332                0.984883675     -128.567516
9.333                0.984855596     -128.803959
9.334                0.984827562     -129.040861
9.335                0.984799573     -129.278221
9.336                0.984771631     -129.516037
9.337                0.984743737      -129.75431
9.338                0.984715891     -129.993038
9.339                0.984688096     -130.232221
9.34                 0.984660352     -130.471858
9.341                0.984632661     -130.711948
9.342                0.984605023     -130.952491
9.343                 0.98457744     -131.193486
9.344                0.984549912     -131.434931
9.345                0.984522442     -131.676827
9.346                 0.98449503     -131.919172
9.347                0.984467678     -132.161966
9.348                0.984440387     -132.405207
9.349                0.984413157     -132.648895
9.35                  0.98438599     -132.893028
9.351                0.984358888     -133.137606
9.352                0.984331852     -133.382628
9.353                0.984304882     -133.628093
9.354                 0.98427798        -133.874
9.355                0.984251148     -134.120348
9.356                0.984224385     -134.367135
9.357                0.984197695     -134.614361
9.358                0.984171078     -134.862024
9.359                0.984144535     -135.110125
9.36                 0.984118067      -135.35866
9.361                0.984091676      -135.60763
9.362                0.984065363     -135.857033
9.363                 0.98403913     -136.106868
9.364                0.984012977     -136.357133
9.365                0.983986905     -136.607828
9.366                0.983960917     -136.858952
9.367                0.983935013     -137.110502
9.368                0.983909195     -137.362478
9.369                0.983883464     -137.614879
9.37                 0.983857821     -137.867702
9.371                0.983832268     -138.120948
9.372                0.983806805     -138.374614
9.373                0.983781434     -138.628698
9.374                0.983756157     -138.883201
9.375                0.983730975     -139.138119
9.376                0.983705888     -139.393452
9.377                0.983680899     -139.649199
9.378                0.983656009     -139.905357
9.379                0.983631218     -140.161925
9.38                 0.983606529     -140.418903
9.381                0.983581942     -140.676287
9.382                0.983557459     -140.934077
9.383                0.983533081     -141.192271
9.384                 0.98350881     -141.450867
9.385                0.983484647     -141.709864
9.386                0.983460593      -141.96926
9.387                0.983436649     -142.229053
9.388                0.983412817     -142.489242
9.389                0.983389098     -142.749825
9.39                 0.983365493       -143.0108
9.391                0.983342005     -143.272166
9.392                0.983318633      -143.53392
9.393                 0.98329538     -143.796062
9.394                0.983272246     -144.058588
9.395                0.983249234     -144.321497
9.396                0.983226343     -144.584788
