! TOUCHSTONE file generated by CST DESIGN STUDIO
! Date and time: Tue Feb  4 17:28:42 2025
! Project name: C:\Work\MatlabApps\UnitCellOptimizationMatlab\CST\unitcell.cst
! Tree item: Tasks\Sweep1\SPara1\S-Parameters
! Header version: 2024
! Port assignment regex: !\s*Touchstone port\s*([0-9]+)\s*=\s*(CST MWS port|CST DES external port|CST DES block port)\s*(.+)\s* \(\"(.*)\"\)(\s*mode\s*([0-9]+))?.*
! Touchstone port assignment:
! Touchstone port 1 = CST DES external port 1 ("")
# GHz S MA R 50
9                    0.992164051     -76.2782264
9.001                0.992145593     -76.3916126
9.002                0.992127079     -76.5052718
9.003                 0.99210851     -76.6192048
9.004                0.992089887     -76.7334123
9.005                0.992071208     -76.8478953
9.006                0.992052473     -76.9626545
9.007                0.992033683     -77.0776906
9.008                0.992014837     -77.1930045
9.009                0.991995935     -77.3085969
9.01                 0.991976977     -77.4244687
9.011                0.991957963     -77.5406208
9.012                0.991938894     -77.6570537
9.013                0.991919767     -77.7737685
9.014                0.991900585     -77.8907659
9.015                0.991881346     -78.0080467
9.016                 0.99186205     -78.1256116
9.017                0.991842698     -78.2434617
9.018                0.991823289     -78.3615975
9.019                0.991803822     -78.4800201
9.02                 0.991784299     -78.5987301
9.021                0.991764719     -78.7177284
9.022                0.991745081     -78.8370158
9.023                0.991725386     -78.9565932
9.024                0.991705634     -79.0764613
9.025                0.991685824      -79.196621
9.026                0.991665956     -79.3170732
9.027                0.991646031     -79.4378186
9.028                0.991626047     -79.5588581
9.029                0.991606006     -79.6801925
9.03                 0.991585906     -79.8018226
9.031                0.991565749     -79.9237494
9.032                0.991545533     -80.0459736
9.033                0.991525258      -80.168496
9.034                0.991504925     -80.2913175
9.035                0.991484534      -80.414439
9.036                0.991464084     -80.5378613
9.037                0.991443575     -80.6615851
9.038                0.991423007     -80.7856115
9.039                 0.99140238     -80.9099412
9.04                 0.991381694     -81.0345751
9.041                0.991360949      -81.159514
9.042                0.991340145     -81.2847588
9.043                0.991319281     -81.4103103
9.044                0.991298358     -81.5361694
9.045                0.991277376     -81.6623369
9.046                0.991256334     -81.7888137
9.047                0.991235232     -81.9156007
9.048                 0.99121407     -82.0426987
9.049                0.991192849     -82.1701086
9.05                 0.991171567     -82.2978313
9.051                0.991150226     -82.4258675
9.052                0.991128824     -82.5542182
9.053                0.991107362     -82.6828843
9.054                 0.99108584     -82.8118665
9.055                0.991064258     -82.9411659
9.056                0.991042615     -83.0707831
9.057                0.991020912     -83.2007192
9.058                0.990999148      -83.330975
9.059                0.990977323     -83.4615513
9.06                 0.990955438     -83.5924491
9.061                0.990933492     -83.7236692
9.062                0.990911485     -83.8552125
9.063                0.990889417     -83.9870798
9.064                0.990867288     -84.1192721
9.065                0.990845098     -84.2517902
9.066                0.990822848      -84.384635
9.067                0.990800535     -84.5178075
9.068                0.990778162     -84.6513083
9.069                0.990755727     -84.7851386
9.07                 0.990733231     -84.9192991
9.071                0.990710674     -85.0537907
9.072                0.990688055     -85.1886143
9.073                0.990665375     -85.3237708
9.074                0.990642633     -85.4592611
9.075                0.990619829     -85.5950861
9.076                0.990596964     -85.7312467
9.077                0.990574037     -85.8677437
9.078                0.990551048     -86.0045781
9.079                0.990527998     -86.1417507
9.08                 0.990504885     -86.2792625
9.081                0.990481711     -86.4171142
9.082                0.990458475     -86.5553069
9.083                0.990435177     -86.6938415
9.084                0.990411817     -86.8327187
9.085                0.990388395     -86.9719395
9.086                0.990364911     -87.1115049
9.087                0.990341365     -87.2514157
9.088                0.990317756     -87.3916727
9.089                0.990294086      -87.532277
9.09                 0.990270353     -87.6732293
9.091                0.990246558     -87.8145307
9.092                0.990222702     -87.9561819
9.093                0.990198782     -88.0981839
9.094                0.990174801     -88.2405377
9.095                0.990150758      -88.383244
9.096                0.990126652     -88.5263038
9.097                0.990102484     -88.6697181
9.098                0.990078253     -88.8134876
9.099                0.990053961     -88.9576133
9.1                  0.990029606     -89.1020961
9.101                0.990005189     -89.2469369
9.102                 0.98998071     -89.3921366
9.103                0.989956168     -89.5376961
9.104                0.989931564     -89.6836164
9.105                0.989906898     -89.8298982
9.106                 0.98988217     -89.9765425
9.107                0.989857379     -90.1235503
9.108                0.989832527     -90.2709223
9.109                0.989807612     -90.4186595
9.11                 0.989782635     -90.5667629
9.111                0.989757596     -90.7152333
9.112                0.989732494     -90.8640716
9.113                0.989707331     -91.0132786
9.114                0.989682106     -91.1628554
9.115                0.989656819     -91.3128028
9.116                0.989631469     -91.4631218
9.117                0.989606058     -91.6138131
9.118                0.989580585     -91.7648777
9.119                0.989555051     -91.9163165
9.12                 0.989529454     -92.0681304
9.121                0.989503796     -92.2203203
9.122                0.989478076     -92.3728871
9.123                0.989452294     -92.5258316
9.124                0.989426451     -92.6791548
9.125                0.989400546     -92.8328576
9.126                 0.98937458     -92.9869409
9.127                0.989348553     -93.1414054
9.128                0.989322465     -93.2962523
9.129                0.989296315     -93.4514822
9.13                 0.989270104     -93.6070962
9.131                0.989243832      -93.763095
9.132                0.989217499     -93.9194797
9.133                0.989191105      -94.076251
9.134                0.989164651     -94.2334099
9.135                0.989138136     -94.3909572
9.136                 0.98911156     -94.5488938
9.137                0.989084924     -94.7072206
9.138                0.989058227     -94.8659385
9.139                0.989031471     -95.0250483
9.14                 0.989004654      -95.184551
9.141                0.988977777     -95.3444473
9.142                 0.98895084     -95.5047382
9.143                0.988923844     -95.6654246
9.144                0.988896787     -95.8265072
9.145                0.988869672      -95.987987
9.146                0.988842497     -96.1498649
9.147                0.988815262     -96.3121417
9.148                0.988787969     -96.4748182
9.149                0.988760617     -96.6378953
9.15                 0.988733206     -96.8013739
9.151                0.988705736     -96.9652549
9.152                0.988678208      -97.129539
9.153                0.988650621     -97.2942271
9.154                0.988622977     -97.4593201
9.155                0.988595274     -97.6248189
9.156                0.988567514     -97.7907242
9.157                0.988539696     -97.9570369
9.158                 0.98851182     -98.1237578
9.159                0.988483888     -98.2908879
9.16                 0.988455898     -98.4584278
9.161                0.988427851     -98.6263785
9.162                0.988399748     -98.7947408
9.163                0.988371588     -98.9635154
9.164                0.988343372     -99.1327033
9.165                  0.9883151     -99.3023051
9.166                0.988286773     -99.4723219
9.167                0.988258389     -99.6427543
9.168                0.988229951     -99.8136031
9.169                0.988201457     -99.9848692
9.17                 0.988172908     -100.156553
9.171                0.988144305     -100.328657
9.172                0.988115647     -100.501179
9.173                0.988086935     -100.674122
9.174                0.988058169     -100.847487
9.175                 0.98802935     -101.021273
9.176                0.988000477     -101.195483
9.177                0.987971551     -101.370116
9.178                0.987942572     -101.545173
9.179                0.987913541     -101.720655
9.18                 0.987884458     -101.896564
9.181                0.987855322     -102.072899
9.182                0.987826135     -102.249661
9.183                0.987796897     -102.426851
9.184                0.987767608     -102.604471
9.185                0.987738267      -102.78252
9.186                0.987708877     -102.960999
9.187                0.987679436      -103.13991
9.188                0.987649946     -103.319253
9.189                0.987620406     -103.499028
9.19                 0.987590817     -103.679236
9.191                0.987561179     -103.859879
9.192                0.987531493     -104.040956
9.193                0.987501759     -104.222468
9.194                0.987471977     -104.404417
9.195                0.987442148     -104.586803
9.196                0.987412272     -104.769626
9.197                0.987382349     -104.952887
9.198                 0.98735238     -105.136587
9.199                0.987322366     -105.320727
9.2                  0.987292306     -105.505307
9.201                0.987262201     -105.690328
9.202                0.987232052     -105.875791
9.203                0.987201858     -106.061695
9.204                0.987171621     -106.248043
9.205                 0.98714134     -106.434834
9.206                0.987111016     -106.622069
9.207                 0.98708065     -106.809749
9.208                0.987050242     -106.997874
9.209                0.987019793     -107.186445
9.21                 0.986989302     -107.375463
9.211                0.986958771     -107.564928
9.212                  0.9869282     -107.754841
9.213                0.986897589     -107.945202
9.214                0.986866939     -108.136012
9.215                 0.98683625     -108.327271
9.216                0.986805523     -108.518981
9.217                0.986774758     -108.711141
9.218                0.986743956     -108.903752
9.219                0.986713117     -109.096816
9.22                 0.986682243     -109.290331
9.221                0.986651332     -109.484299
9.222                0.986620387     -109.678721
9.223                0.986589407     -109.873596
9.224                0.986558393     -110.068926
9.225                0.986527346      -110.26471
9.226                0.986496266      -110.46095
9.227                0.986465153     -110.657646
9.228                0.986434009     -110.854797
9.229                0.986402834     -111.052406
9.23                 0.986371628     -111.250472
9.231                0.986340392     -111.448995
9.232                0.986309127     -111.647977
9.233                0.986277833     -111.847417
9.234                0.986246511     -112.047316
9.235                0.986215162     -112.247674
9.236                0.986183785     -112.448492
9.237                0.986152383      -112.64977
9.238                0.986120955     -112.851508
9.239                0.986089502     -113.053708
9.24                 0.986058025     -113.256369
9.241                0.986026524     -113.459491
9.242                0.985995001     -113.663075
9.243                0.985963455     -113.867122
9.244                0.985931888     -114.071631
9.245                  0.9859003     -114.276603
9.246                0.985868691     -114.482038
9.247                0.985837064     -114.687937
9.248                0.985805418       -114.8943
9.249                0.985773754     -115.101126
9.25                 0.985742072     -115.308418
9.251                0.985710375     -115.516173
9.252                0.985678661     -115.724394
9.253                0.985646933     -115.933079
9.254                 0.98561519      -116.14223
9.255                0.985583435     -116.351846
9.256                0.985551666     -116.561928
9.257                0.985519886     -116.772476
9.258                0.985488094      -116.98349
9.259                0.985456293      -117.19497
9.26                 0.985424482     -117.406917
9.261                0.985392662      -117.61933
9.262                0.985360835     -117.832209
9.263                0.985329001     -118.045556
9.264                0.985297161     -118.259369
9.265                0.985265315     -118.473649
9.266                0.985233465     -118.688396
9.267                0.985201612      -118.90361
9.268                0.985169756     -119.119292
9.269                0.985137898      -119.33544
9.27                  0.98510604     -119.552056
9.271                0.985074182     -119.769139
9.272                0.985042324     -119.986689
9.273                0.985010468     -120.204706
9.274                0.984978616      -120.42319
9.275                0.984946766     -120.642142
9.276                0.984914922     -120.861561
9.277                0.984883083     -121.081446
9.278                0.984851251     -121.301799
9.279                0.984819426     -121.522618
9.28                  0.98478761     -121.743904
9.281                0.984755803     -121.965657
9.282                0.984724007     -122.187876
9.283                0.984692222     -122.410561
9.284                0.984660449     -122.633713
9.285                 0.98462869      -122.85733
9.286                0.984596946     -123.081414
9.287                0.984565217     -123.305962
9.288                0.984533504     -123.530976
9.289                0.984501809     -123.756456
9.29                 0.984470132       -123.9824
9.291                0.984438476     -124.208808
9.292                0.984406839     -124.435681
9.293                0.984375225     -124.663018
9.294                0.984343633     -124.890818
9.295                0.984312066     -125.119082
9.296                0.984280523     -125.347809
9.297                0.984249006     -125.576998
9.298                0.984217517     -125.806649
9.299                0.984186056     -126.036763
9.3                  0.984154624     -126.267338
9.301                0.984123223     -126.498373
9.302                0.984091854     -126.729869
9.303                0.984060517     -126.961826
9.304                0.984029214     -127.194242
9.305                0.983997947     -127.427116
9.306                0.983966716      -127.66045
9.307                0.983935522     -127.894242
9.308                0.983904367     -128.128491
9.309                0.983873251     -128.363196
9.31                 0.983842177     -128.598359
9.311                0.983811145     -128.833977
9.312                0.983780156      -129.07005
9.313                0.983749211     -129.306578
9.314                0.983718313     -129.543559
9.315                0.983687461     -129.780994
9.316                0.983656658     -130.018881
9.317                0.983625904      -130.25722
9.318                0.983595201     -130.496009
9.319                 0.98356455      -130.73525
9.32                 0.983533952     -130.974939
9.321                0.983503409     -131.215078
9.322                0.983472921     -131.455664
9.323                0.983442491     -131.696698
9.324                0.983412118     -131.938178
9.325                0.983381805     -132.180103
9.326                0.983351553     -132.422473
9.327                0.983321364     -132.665287
9.328                0.983291237     -132.908543
9.329                0.983261175     -133.152241
9.33                  0.98323118      -133.39638
9.331                0.983201252     -133.640959
9.332                0.983171392     -133.885977
9.333                0.983141602     -134.131433
9.334                0.983111884     -134.377326
9.335                0.983082238     -134.623654
9.336                0.983052667     -134.870418
9.337                0.983023171     -135.117615
9.338                0.982993751     -135.365245
9.339                 0.98296441     -135.613306
9.34                 0.982935147     -135.861797
9.341                0.982905966     -136.110718
9.342                0.982876867     -136.360066
9.343                0.982847851     -136.609842
9.344                 0.98281892     -136.860043
9.345                0.982790076     -137.110668
9.346                0.982761319     -137.361716
9.347                0.982732651     -137.613186
9.348                0.982704073     -137.865076
9.349                0.982675588     -138.117386
9.35                 0.982647195     -138.370113
9.351                0.982618897     -138.623257
9.352                0.982590695     -138.876816
9.353                 0.98256259     -139.130788
9.354                0.982534585     -139.385172
9.355                0.982506679     -139.639967
9.356                0.982478875     -139.895172
9.357                0.982451174     -140.150784
9.358                0.982423578     -140.406802
9.359                0.982396087     -140.663225
9.36                 0.982368703     -140.920051
9.361                0.982341429     -141.177279
9.362                0.982314264     -141.434907
9.363                0.982287211     -141.692933
9.364                0.982260271     -141.951355
9.365                0.982233445     -142.210173
9.366                0.982206736     -142.469384
9.367                0.982180143     -142.728987
9.368                0.982153669      -142.98898
9.369                0.982127315     -143.249361
9.37                 0.982101083     -143.510128
9.371                0.982074974      -143.77128
9.372                0.982048989     -144.032815
9.373                 0.98202313     -144.294731
9.374                0.981997398     -144.557026
9.375                0.981971795     -144.819698
9.376                0.981946322     -145.082746
9.377                0.981920981     -145.346167
9.378                0.981895773      -145.60996
9.379                0.981870699     -145.874122
9.38                  0.98184576     -146.138652
9.381                0.981820959     -146.403548
9.382                0.981796297     -146.668807
9.383                0.981771775     -146.934428
9.384                0.981747395     -147.200408
9.385                0.981723157     -147.466746
9.386                0.981699063     -147.733439
9.387                0.981675116     -148.000485
9.388                0.981651315     -148.267882
9.389                0.981627664     -148.535628
9.39                 0.981604162     -148.803721
9.391                0.981580811     -149.072159
9.392                0.981557614     -149.340938
9.393                 0.98153457     -149.610058
9.394                0.981511682     -149.879515
9.395                0.981488951     -150.149308
9.396                0.981466378     -150.419434
