! TOUCHSTONE file generated by CST DESIGN STUDIO
! Date and time: Tue Feb  4 14:21:47 2025
! Project name: C:\Work\MatlabApps\UnitCellOptimizationMatlab\CST\unitcell.cst
! Tree item: Tasks\Sweep1\SPara1\S-Parameters
! Header version: 2024
! Port assignment regex: !\s*Touchstone port\s*([0-9]+)\s*=\s*(CST MWS port|CST DES external port|CST DES block port)\s*(.+)\s* \(\"(.*)\"\)(\s*mode\s*([0-9]+))?.*
! Touchstone port assignment:
! Touchstone port 1 = CST DES external port 1 ("")
# GHz S MA R 50
9                    0.953229093     -47.5410789
9.001                0.953136208     -47.5996652
9.002                0.953043001     -47.6583756
9.003                0.952949471     -47.7172104
9.004                0.952855616     -47.7761702
9.005                0.952761435     -47.8352552
9.006                0.952666928     -47.8944658
9.007                0.952572091     -47.9538025
9.008                0.952476925     -48.0132656
9.009                0.952381428     -48.0728555
9.01                 0.952285599     -48.1325727
9.011                0.952189437     -48.1924174
9.012                0.952092939     -48.2523902
9.013                0.951996106     -48.3124913
9.014                0.951898935     -48.3727213
9.015                0.951801426     -48.4330804
9.016                0.951703577     -48.4935692
9.017                0.951605387      -48.554188
9.018                0.951506854     -48.6149372
9.019                0.951407978     -48.6758172
9.02                 0.951308756     -48.7368285
9.021                0.951209188     -48.7979715
9.022                0.951109272     -48.8592464
9.023                0.951009008     -48.9206539
9.024                0.950908392     -48.9821943
9.025                0.950807425     -49.0438679
9.026                0.950706105     -49.1056753
9.027                 0.95060443     -49.1676169
9.028                0.950502399      -49.229693
9.029                0.950400011     -49.2919041
9.03                 0.950297265     -49.3542507
9.031                0.950194158     -49.4167331
9.032                 0.95009069     -49.4793517
9.033                 0.94998686     -49.5421071
9.034                0.949882665     -49.6049996
9.035                0.949778105     -49.6680297
9.036                0.949673177     -49.7311978
9.037                0.949567882     -49.7945044
9.038                0.949462216     -49.8579498
9.039                0.949356179     -49.9215346
9.04                  0.94924977     -49.9852592
9.041                0.949142986     -50.0491239
9.042                0.949035827     -50.1131293
9.043                0.948928291     -50.1772759
9.044                0.948820377     -50.2415639
9.045                0.948712082      -50.305994
9.046                0.948603406     -50.3705666
9.047                0.948494348     -50.4352821
9.048                0.948384905     -50.5001409
9.049                0.948275076     -50.5651436
9.05                  0.94816486     -50.6302905
9.051                0.948054255     -50.6955822
9.052                0.947943259     -50.7610192
9.053                0.947831872     -50.8266018
9.054                0.947720091     -50.8923306
9.055                0.947607916     -50.9582059
9.056                0.947495344     -51.0242284
9.057                0.947382374     -51.0903984
9.058                0.947269005     -51.1567165
9.059                0.947155235     -51.2231831
9.06                 0.947041062     -51.2897986
9.061                0.946926485     -51.3565636
9.062                0.946811502     -51.4234786
9.063                0.946696112     -51.4905441
9.064                0.946580313     -51.5577604
9.065                0.946464104     -51.6251281
9.066                0.946347482     -51.6926478
9.067                0.946230447     -51.7603198
9.068                0.946112997     -51.8281448
9.069                0.945995129     -51.8961231
9.07                 0.945876844     -51.9642552
9.071                0.945758138     -52.0325418
9.072                 0.94563901     -52.1009832
9.073                0.945519459       -52.16958
9.074                0.945399483     -52.2383327
9.075                 0.94527908     -52.3072418
9.076                0.945158249     -52.3763078
9.077                0.945036987     -52.4455312
9.078                0.944915294     -52.5149125
9.079                0.944793168     -52.5844523
9.08                 0.944670607      -52.654151
9.081                0.944547609     -52.7240092
9.082                0.944424172     -52.7940274
9.083                0.944300295     -52.8642061
9.084                0.944175976     -52.9345459
9.085                0.944051214     -53.0050473
9.086                0.943926006     -53.0757107
9.087                0.943800352     -53.1465368
9.088                0.943674248      -53.217526
9.089                0.943547694      -53.288679
9.09                 0.943420688     -53.3599962
9.091                0.943293227     -53.4314782
9.092                0.943165311     -53.5031255
9.093                0.943036937     -53.5749387
9.094                0.942908103     -53.6469183
9.095                0.942778809     -53.7190648
9.096                0.942649051     -53.7913789
9.097                0.942518829      -53.863861
9.098                 0.94238814     -53.9365118
9.099                0.942256982     -54.0093318
9.1                  0.942125354     -54.0823215
9.101                0.941993255     -54.1554814
9.102                0.941860681     -54.2288123
9.103                0.941727631     -54.3023146
9.104                0.941594104     -54.3759889
9.105                0.941460097     -54.4498358
9.106                0.941325609     -54.5238558
9.107                0.941190638     -54.5980495
9.108                0.941055181     -54.6724175
9.109                0.940919237     -54.7469604
9.11                 0.940782805     -54.8216788
9.111                0.940645882     -54.8965732
9.112                0.940508465     -54.9716442
9.113                0.940370555     -55.0468925
9.114                0.940232147     -55.1223186
9.115                0.940093241      -55.197923
9.116                0.939953835     -55.2737065
9.117                0.939813926     -55.3496696
9.118                0.939673512     -55.4258129
9.119                0.939532593      -55.502137
9.12                 0.939391164     -55.5786425
9.121                0.939249226       -55.65533
9.122                0.939106775     -55.7322001
9.123                 0.93896381     -55.8092535
9.124                0.938820329     -55.8864907
9.125                0.938676329     -55.9639124
9.126                0.938531809     -56.0415192
9.127                0.938386767     -56.1193118
9.128                  0.9382412     -56.1972906
9.129                0.938095106     -56.2754565
9.13                 0.937948484     -56.3538099
9.131                0.937801332     -56.4323516
9.132                0.937653647     -56.5110821
9.133                0.937505427     -56.5900022
9.134                0.937356671     -56.6691124
9.135                0.937207375     -56.7484133
9.136                0.937057539     -56.8279057
9.137                0.936907159     -56.9075902
9.138                0.936756234     -56.9874675
9.139                0.936604762     -57.0675381
9.14                 0.936452741     -57.1478027
9.141                0.936300168     -57.2282621
9.142                0.936147041     -57.3089168
9.143                0.935993358     -57.3897675
9.144                0.935839117      -57.470815
9.145                0.935684316     -57.5520598
9.146                0.935528953     -57.6335026
9.147                0.935373025     -57.7151441
9.148                 0.93521653      -57.796985
9.149                0.935059467      -57.879026
9.15                 0.934901832     -57.9612677
9.151                0.934743624     -58.0437108
9.152                 0.93458484     -58.1263561
9.153                0.934425478     -58.2092041
9.154                0.934265536     -58.2922557
9.155                0.934105012     -58.3755114
9.156                0.933943904     -58.4589721
9.157                0.933782208     -58.5426383
9.158                0.933619924     -58.6265109
9.159                0.933457048     -58.7105904
9.16                 0.933293578     -58.7948777
9.161                0.933129512     -58.8793734
9.162                0.932964848     -58.9640783
9.163                0.932799584      -59.048993
9.164                0.932633716     -59.1341183
9.165                0.932467244     -59.2194549
9.166                0.932300163     -59.3050035
9.167                0.932132473     -59.3907649
9.168                0.931964171     -59.4767398
9.169                0.931795254     -59.5629289
9.17                  0.93162572      -59.649333
9.171                0.931455566     -59.7359529
9.172                0.931284791     -59.8227891
9.173                0.931113392     -59.9098426
9.174                0.930941366     -59.9971141
9.175                0.930768711     -60.0846042
9.176                0.930595425     -60.1723138
9.177                0.930421505     -60.2602437
9.178                0.930246948     -60.3483945
9.179                0.930071754     -60.4367671
9.18                 0.929895918     -60.5253622
9.181                0.929719438     -60.6141806
9.182                0.929542312     -60.7032231
9.183                0.929364538     -60.7924904
9.184                0.929186113     -60.8819834
9.185                0.929007035     -60.9717027
9.186                  0.9288273     -61.0616493
9.187                0.928646908     -61.1518238
9.188                0.928465854     -61.2422271
9.189                0.928284136       -61.33286
9.19                 0.928101753     -61.4237233
9.191                0.927918701     -61.5148177
9.192                0.927734978     -61.6061442
9.193                0.927550581     -61.6977034
9.194                0.927365509     -61.7894962
9.195                0.927179757     -61.8815235
9.196                0.926993324      -61.973786
9.197                0.926806207     -62.0662845
9.198                0.926618404       -62.15902
9.199                0.926429911     -62.2519931
9.2                  0.926240727     -62.3452048
9.201                0.926050849     -62.4386559
9.202                0.925860273     -62.5323472
9.203                0.925668998     -62.6262796
9.204                0.925477021     -62.7204538
9.205                0.925284339     -62.8148708
9.206                 0.92509095     -62.9095315
9.207                 0.92489685     -63.0044365
9.208                0.924702037     -63.0995869
9.209                0.924506509     -63.1949835
9.21                 0.924310263     -63.2906272
9.211                0.924113296     -63.3865187
9.212                0.923915606      -63.482659
9.213                0.923717189      -63.579049
9.214                0.923518043     -63.6756895
9.215                0.923318166     -63.7725814
9.216                0.923117554     -63.8697257
9.217                0.922916205     -63.9671231
9.218                0.922714116     -64.0647746
9.219                0.922511284     -64.1626811
9.22                 0.922307707     -64.2608435
9.221                0.922103382     -64.3592627
9.222                0.921898306     -64.4579396
9.223                0.921692477      -64.556875
9.224                0.921485891       -64.65607
9.225                0.921278545     -64.7555254
9.226                0.921070438     -64.8552421
9.227                0.920861566     -64.9552212
9.228                0.920651926     -65.0554634
9.229                0.920441516     -65.1559698
9.23                 0.920230332     -65.2567412
9.231                0.920018372     -65.3577786
9.232                0.919805634      -65.459083
9.233                0.919592113     -65.5606553
9.234                0.919377808     -65.6624964
9.235                0.919162715     -65.7646074
9.236                0.918946832     -65.8669891
9.237                0.918730156     -65.9696425
9.238                0.918512684     -66.0725685
9.239                0.918294413     -66.1757683
9.24                  0.91807534     -66.2792426
9.241                0.917855462     -66.3829925
9.242                0.917634776     -66.4870191
9.243                 0.91741328     -66.5913231
9.244                0.917190971     -66.6959057
9.245                0.916967845     -66.8007679
9.246                0.916743899     -66.9059105
9.247                0.916519132     -67.0113347
9.248                0.916293539     -67.1170415
9.249                0.916067119     -67.2230317
9.25                 0.915839867     -67.3293065
9.251                0.915611781     -67.4358669
9.252                0.915382859     -67.5427138
9.253                0.915153096     -67.6498483
9.254                0.914922491     -67.7572714
9.255                0.914691039     -67.8649842
9.256                0.914458739     -67.9729877
9.257                0.914225588     -68.0812829
9.258                0.913991581     -68.1898708
9.259                0.913756717     -68.2987525
9.26                 0.913520992     -68.4079291
9.261                0.913284403     -68.5174016
9.262                0.913046948     -68.6271711
9.263                0.912808623     -68.7372385
9.264                0.912569425     -68.8476051
9.265                0.912329351     -68.9582718
9.266                0.912088399     -69.0692397
9.267                0.911846565     -69.1805099
9.268                0.911603846     -69.2920835
9.269                0.911360239     -69.4039615
9.27                 0.911115741     -69.5161451
9.271                 0.91087035     -69.6286354
9.272                0.910624061     -69.7414334
9.273                0.910376873     -69.8545402
9.274                0.910128781     -69.9679569
9.275                0.909879784     -70.0816848
9.276                0.909629877     -70.1957247
9.277                0.909379059      -70.310078
9.278                0.909127325     -70.4247457
9.279                0.908874673     -70.5397289
9.28                 0.908621099     -70.6550287
9.281                0.908366601     -70.7706463
9.282                0.908111176     -70.8865829
9.283                0.907854821     -71.0028395
9.284                0.907597531     -71.1194173
9.285                0.907339306     -71.2363175
9.286                 0.90708014     -71.3535413
9.287                0.906820032     -71.4710896
9.288                0.906558978     -71.5889639
9.289                0.906296976     -71.7071651
9.29                 0.906034021     -71.8256945
9.291                0.905770111     -71.9445532
9.292                0.905505243     -72.0637425
9.293                0.905239415     -72.1832634
9.294                0.904972622     -72.3031173
9.295                0.904704861     -72.4233053
9.296                0.904436131     -72.5438285
9.297                0.904166427     -72.6646882
9.298                0.903895746     -72.7858856
9.299                0.903624087     -72.9074219
9.3                  0.903351444     -73.0292983
9.301                0.903077816      -73.151516
9.302                0.902803199     -73.2740763
9.303                0.902527591     -73.3969804
9.304                0.902250988     -73.5202294
9.305                0.901973387     -73.6438247
9.306                0.901694785     -73.7677674
9.307                0.901415179     -73.8920589
9.308                0.901134566     -74.0167003
9.309                0.900852943      -74.141693
9.31                 0.900570307     -74.2670381
9.311                0.900286656     -74.3927369
9.312                0.900001985     -74.5187907
9.313                0.899716292     -74.6452008
9.314                0.899429573     -74.7719685
9.315                0.899141827     -74.8990949
9.316                 0.89885305     -75.0265814
9.317                0.898563238     -75.1544293
9.318                0.898272389     -75.2826399
9.319                  0.8979805     -75.4112144
9.32                 0.897687568     -75.5401542
9.321                 0.89739359     -75.6694605
9.322                0.897098563     -75.7991347
9.323                0.896802484     -75.9291781
9.324                 0.89650535      -76.059592
9.325                0.896207158     -76.1903777
9.326                0.895907905     -76.3215365
9.327                0.895607588     -76.4530698
9.328                0.895306205     -76.5849789
9.329                0.895003752     -76.7172651
9.33                 0.894700226     -76.8499298
9.331                0.894395625     -76.9829744
9.332                0.894089946     -77.1164001
9.333                0.893783185     -77.2502083
9.334                0.893475341     -77.3844004
9.335                0.893166409     -77.5189778
9.336                0.892856388     -77.6539418
9.337                0.892545274     -77.7892938
9.338                0.892233065     -77.9250351
9.339                0.891919758     -78.0611672
9.34                 0.891605349     -78.1976914
9.341                0.891289837     -78.3346091
9.342                0.890973218     -78.4719218
9.343                 0.89065549     -78.6096307
9.344                0.890336649     -78.7477374
9.345                0.890016694     -78.8862431
9.346                0.889695622     -79.0251494
9.347                0.889373429     -79.1644576
9.348                0.889050113     -79.3041692
9.349                0.888725672     -79.4442856
9.35                 0.888400103     -79.5848081
9.351                0.888073402     -79.7257383
9.352                0.887745569     -79.8670776
9.353                0.887416599     -80.0088273
9.354                 0.88708649     -80.1509891
9.355                0.886755241     -80.2935642
9.356                0.886422847     -80.4365541
9.357                0.886089307     -80.5799604
9.358                0.885754619     -80.7237844
9.359                0.885418779     -80.8680277
9.36                 0.885081786     -81.0126916
9.361                0.884743636     -81.1577778
9.362                0.884404328     -81.3032875
9.363                0.884063858     -81.4492224
9.364                0.883722226     -81.5955839
9.365                0.883379427     -81.7423735
9.366                0.883035461     -81.8895927
9.367                0.882690324      -82.037243
9.368                0.882344015     -82.1853258
9.369                0.881996531     -82.3338427
9.37                 0.881647869     -82.4827953
9.371                0.881298028     -82.6321849
9.372                0.880947006     -82.7820132
9.373                  0.8805948     -82.9322815
9.374                0.880241408     -83.0829916
9.375                0.879886829     -83.2341449
9.376                0.879531059     -83.3857428
9.377                0.879174098      -83.537787
9.378                0.878815942     -83.6902791
9.379                 0.87845659     -83.8432204
9.38                 0.878096041     -83.9966126
9.381                0.877734292     -84.1504573
9.382                0.877371341     -84.3047559
9.383                0.877007186     -84.4595101
9.384                0.876641826     -84.6147214
9.385                0.876275259     -84.7703913
9.386                0.875907483     -84.9265215
9.387                0.875538497     -85.0831135
9.388                0.875168298     -85.2401688
9.389                0.874796885     -85.3976891
9.39                 0.874424256     -85.5556759
9.391                0.874050411     -85.7141308
9.392                0.873675347     -85.8730555
9.393                0.873299063     -86.0324514
9.394                0.872921557     -86.1923202
9.395                0.872542828     -86.3526635
9.396                0.872162875     -86.5134829
