! TOUCHSTONE file generated by CST DESIGN STUDIO
! Date and time: Tue Feb  4 14:21:48 2025
! Project name: C:\Work\MatlabApps\UnitCellOptimizationMatlab\CST\unitcell.cst
! Tree item: Tasks\Sweep1\SPara1\S-Parameters
! Header version: 2024
! Port assignment regex: !\s*Touchstone port\s*([0-9]+)\s*=\s*(CST MWS port|CST DES external port|CST DES block port)\s*(.+)\s* \(\"(.*)\"\)(\s*mode\s*([0-9]+))?.*
! Touchstone port assignment:
! Touchstone port 1 = CST DES external port 1 ("")
# GHz S MA R 50
9                    0.963059746     -43.3761681
9.001                0.962994904     -43.4266622
9.002                0.962929839     -43.4772546
9.003                0.962864552     -43.5279456
9.004                 0.96279904     -43.5787355
9.005                0.962733304     -43.6296246
9.006                0.962667343     -43.6806132
9.007                0.962601155     -43.7317015
9.008                 0.96253474     -43.7828898
9.009                0.962468097     -43.8341784
9.01                 0.962401226     -43.8855677
9.011                0.962334125     -43.9370579
9.012                0.962266793     -43.9886494
9.013                0.962199231     -44.0403423
9.014                0.962131436      -44.092137
9.015                0.962063408     -44.1440338
9.016                0.961995147     -44.1960331
9.017                0.961926651      -44.248135
9.018                 0.96185792       -44.30034
9.019                0.961788953     -44.3526482
9.02                 0.961719749     -44.4050601
9.021                0.961650306     -44.4575758
9.022                0.961580625     -44.5101958
9.023                0.961510704     -44.5629203
9.024                0.961440543     -44.6157497
9.025                 0.96137014     -44.6686841
9.026                0.961299495     -44.7217241
9.027                0.961228607     -44.7748698
9.028                0.961157475     -44.8281215
9.029                0.961086098     -44.8814797
9.03                 0.961014475     -44.9349446
9.031                0.960942606     -44.9885165
9.032                0.960870489     -45.0421957
9.033                0.960798124     -45.0959826
9.034                0.960725509     -45.1498774
9.035                0.960652644     -45.2038806
9.036                0.960579527     -45.2579923
9.037                0.960506159      -45.312213
9.038                0.960432538      -45.366543
9.039                0.960358663     -45.4209826
9.04                 0.960284533      -45.475532
9.041                0.960210147     -45.5301918
9.042                0.960135504      -45.584962
9.043                0.960060604     -45.6398432
9.044                0.959985445     -45.6948357
9.045                0.959910027     -45.7499396
9.046                0.959834348     -45.8051555
9.047                0.959758408     -45.8604837
9.048                0.959682205     -45.9159243
9.049                0.959605739      -45.971478
9.05                 0.959529009     -46.0271448
9.051                0.959452013     -46.0829252
9.052                0.959374752     -46.1388196
9.053                0.959297223     -46.1948283
9.054                0.959219425     -46.2509515
9.055                0.959141359     -46.3071897
9.056                0.959063023     -46.3635433
9.057                0.958984415     -46.4200124
9.058                0.958905535     -46.4765976
9.059                0.958826382     -46.5332992
9.06                 0.958746955     -46.5901174
9.061                0.958667253     -46.6470527
9.062                0.958587274     -46.7041054
9.063                0.958507018     -46.7612759
9.064                0.958426484     -46.8185645
9.065                0.958345671     -46.8759716
9.066                0.958264578     -46.9334976
9.067                0.958183203     -46.9911427
9.068                0.958101546     -47.0489075
9.069                0.958019606     -47.1067921
9.07                 0.957937381     -47.1647971
9.071                 0.95785487     -47.2229227
9.072                0.957772074     -47.2811693
9.073                0.957688989     -47.3395374
9.074                0.957605616     -47.3980272
9.075                0.957521953     -47.4566391
9.076                0.957437999     -47.5153736
9.077                0.957353754      -47.574231
9.078                0.957269215     -47.6332116
9.079                0.957184383     -47.6923159
9.08                 0.957099255     -47.7515442
9.081                0.957013831     -47.8108969
9.082                 0.95692811     -47.8703744
9.083                 0.95684209      -47.929977
9.084                0.956755771     -47.9897052
9.085                0.956669151     -48.0495594
9.086                0.956582229     -48.1095399
9.087                0.956495005     -48.1696471
9.088                0.956407476     -48.2298814
9.089                0.956319642     -48.2902432
9.09                 0.956231502     -48.3507329
9.091                0.956143055     -48.4113509
9.092                0.956054299     -48.4720976
9.093                0.955965233     -48.5329734
9.094                0.955875857     -48.5939786
9.095                0.955786168     -48.6551137
9.096                0.955696166     -48.7163792
9.097                 0.95560585     -48.7777753
9.098                0.955515218     -48.8393025
9.099                0.955424269     -48.9009612
9.1                  0.955333003     -48.9627519
9.101                0.955241417     -49.0246748
9.102                0.955149511     -49.0867305
9.103                0.955057284     -49.1489194
9.104                0.954964734     -49.2112418
9.105                 0.95487186     -49.2736982
9.106                0.954778661      -49.336289
9.107                0.954685135     -49.3990146
9.108                0.954591282     -49.4618754
9.109                  0.9544971      -49.524872
9.11                 0.954402588     -49.5880046
9.111                0.954307745     -49.6512737
9.112                 0.95421257     -49.7146798
9.113                 0.95411706     -49.7782232
9.114                0.954021216     -49.8419045
9.115                0.953925035      -49.905724
9.116                0.953828517     -49.9696821
9.117                 0.95373166     -50.0337794
9.118                0.953634463     -50.0980162
9.119                0.953536925      -50.162393
9.12                 0.953439043     -50.2269103
9.121                0.953340818     -50.2915684
9.122                0.953242248     -50.3563678
9.123                0.953143331      -50.421309
9.124                0.953044067     -50.4863923
9.125                0.952944453     -50.5516184
9.126                0.952844489     -50.6169876
9.127                0.952744173     -50.6825003
9.128                0.952643504      -50.748157
9.129                 0.95254248     -50.8139582
9.13                 0.952441101     -50.8799044
9.131                0.952339365     -50.9459959
9.132                 0.95223727     -51.0122333
9.133                0.952134815     -51.0786171
9.134                0.952031999     -51.1451476
9.135                0.951928821     -51.2118253
9.136                0.951825278     -51.2786508
9.137                 0.95172137     -51.3456245
9.138                0.951617096     -51.4127468
9.139                0.951512454     -51.4800183
9.14                 0.951407442     -51.5474394
9.141                0.951302059     -51.6150106
9.142                0.951196304     -51.6827324
9.143                0.951090175     -51.7506052
9.144                0.950983672     -51.8186296
9.145                0.950876791      -51.886806
9.146                0.950769533     -51.9551349
9.147                0.950661896     -52.0236169
9.148                0.950553877     -52.0922523
9.149                0.950445477     -52.1610417
9.15                 0.950336693     -52.2299856
9.151                0.950227523     -52.2990845
9.152                0.950117967     -52.3683388
9.153                0.950008023     -52.4377492
9.154                0.949897689      -52.507316
9.155                0.949786965     -52.5770398
9.156                0.949675848     -52.6469211
9.157                0.949564336     -52.7169605
9.158                 0.94945243     -52.7871583
9.159                0.949340126     -52.8575152
9.16                 0.949227424     -52.9280316
9.161                0.949114322      -52.998708
9.162                0.949000818     -53.0695451
9.163                0.948886911     -53.1405432
9.164                  0.9487726      -53.211703
9.165                0.948657882     -53.2830249
9.166                0.948542757     -53.3545095
9.167                0.948427223     -53.4261573
9.168                0.948311277     -53.4979689
9.169                 0.94819492     -53.5699447
9.17                 0.948078148     -53.6420853
9.171                0.947960962     -53.7143912
9.172                0.947843358      -53.786863
9.173                0.947725335     -53.8595013
9.174                0.947606892     -53.9323065
9.175                0.947488027     -54.0052792
9.176                0.947368739       -54.07842
9.177                0.947249026     -54.1517293
9.178                0.947128886     -54.2252079
9.179                0.947008318     -54.2988561
9.18                  0.94688732     -54.3726747
9.181                 0.94676589      -54.446664
9.182                0.946644027     -54.5208247
9.183                 0.94652173     -54.5951574
9.184                0.946398995     -54.6696626
9.185                0.946275823     -54.7443409
9.186                0.946152211     -54.8191929
9.187                0.946028157      -54.894219
9.188                 0.94590366       -54.96942
9.189                0.945778719     -55.0447963
9.19                  0.94565333     -55.1203486
9.191                0.945527494     -55.1960774
9.192                0.945401207     -55.2719834
9.193                0.945274469      -55.348067
9.194                0.945147277      -55.424329
9.195                0.945019631     -55.5007698
9.196                0.944891527       -55.57739
9.197                0.944762965     -55.6541904
9.198                0.944633942     -55.7311714
9.199                0.944504458     -55.8083337
9.2                  0.944374509     -55.8856778
9.201                0.944244095     -55.9632044
9.202                0.944113214      -56.040914
9.203                0.943981863     -56.1188074
9.204                0.943850042      -56.196885
9.205                0.943717748     -56.2751476
9.206                0.943584979     -56.3535956
9.207                0.943451734     -56.4322298
9.208                0.943318011     -56.5110508
9.209                0.943183808     -56.5900591
9.21                 0.943049123     -56.6692554
9.211                0.942913954     -56.7486404
9.212                  0.9427783     -56.8282146
9.213                0.942642159     -56.9079788
9.214                0.942505529     -56.9879334
9.215                0.942368408     -57.0680793
9.216                0.942230793     -57.1484169
9.217                0.942092684      -57.228947
9.218                0.941954079     -57.3096702
9.219                0.941814975     -57.3905871
9.22                 0.941675371     -57.4716984
9.221                0.941535264     -57.5530048
9.222                0.941394654     -57.6345068
9.223                0.941253537     -57.7162053
9.224                0.941111912     -57.7981007
9.225                0.940969777     -57.8801938
9.226                0.940827131     -57.9624853
9.227                0.940683971     -58.0449758
9.228                0.940540295      -58.127666
9.229                0.940396101     -58.2105565
9.23                 0.940251388     -58.2936481
9.231                0.940106153     -58.3769413
9.232                0.939960394      -58.460437
9.233                 0.93981411     -58.5441358
9.234                0.939667299     -58.6280383
9.235                0.939519958     -58.7121452
9.236                0.939372085     -58.7964574
9.237                0.939223679     -58.8809753
9.238                0.939074738     -58.9656998
9.239                0.938925259     -59.0506315
9.24                  0.93877524     -59.1357712
9.241                 0.93862468     -59.2211195
9.242                0.938473576     -59.3066772
9.243                0.938321927     -59.3924449
9.244                0.938169729     -59.4784234
9.245                0.938016982     -59.5646134
9.246                0.937863683     -59.6510157
9.247                0.937709831     -59.7376308
9.248                0.937555422     -59.8244596
9.249                0.937400455     -59.9115028
9.25                 0.937244928     -59.9987612
9.251                0.937088838     -60.0862353
9.252                0.936932185     -60.1739261
9.253                0.936774964     -60.2618342
9.254                0.936617176     -60.3499603
9.255                0.936458816     -60.4383053
9.256                0.936299884     -60.5268699
9.257                0.936140376     -60.6156547
9.258                0.935980291     -60.7046606
9.259                0.935819628     -60.7938883
9.26                 0.935658382     -60.8833387
9.261                0.935496553     -60.9730123
9.262                0.935334138     -61.0629101
9.263                0.935171135     -61.1530327
9.264                0.935007542      -61.243381
9.265                0.934843357     -61.3339557
9.266                0.934678577     -61.4247577
9.267                0.934513201     -61.5157876
9.268                0.934347225     -61.6070462
9.269                0.934180648     -61.6985344
9.27                 0.934013468      -61.790253
9.271                0.933845682     -61.8822026
9.272                0.933677288     -61.9743842
9.273                0.933508284     -62.0667986
9.274                0.933338668     -62.1594464
9.275                0.933168436     -62.2523286
9.276                0.932997589     -62.3454459
9.277                0.932826121     -62.4387992
9.278                0.932654033     -62.5323892
9.279                 0.93248132     -62.6262168
9.28                 0.932307982     -62.7202828
9.281                0.932134015      -62.814588
9.282                0.931959418     -62.9091333
9.283                0.931784188     -63.0039195
9.284                0.931608322     -63.0989473
9.285                0.931431819     -63.1942178
9.286                0.931254676     -63.2897316
9.287                0.931076891     -63.3854896
9.288                0.930898461     -63.4814927
9.289                0.930719384     -63.5777417
9.29                 0.930539658     -63.6742375
9.291                 0.93035928      -63.770981
9.292                0.930178249     -63.8679729
9.293                0.929996561     -63.9652142
9.294                0.929814214     -64.0627057
9.295                0.929631206     -64.1604482
9.296                0.929447534     -64.2584428
9.297                0.929263197     -64.3566901
9.298                0.929078191     -64.4551912
9.299                0.928892515     -64.5539469
9.3                  0.928706165      -64.652958
9.301                 0.92851914     -64.7522255
9.302                0.928331437     -64.8517503
9.303                0.928143054     -64.9515332
9.304                0.927953987     -65.0515752
9.305                0.927764236     -65.1518771
9.306                0.927573797     -65.2524399
9.307                0.927382667     -65.3532644
9.308                0.927190845     -65.4543516
9.309                0.926998328     -65.5557025
9.31                 0.926805113     -65.6573178
9.311                0.926611198     -65.7591986
9.312                0.926416581     -65.8613457
9.313                0.926221259     -65.9637601
9.314                0.926025229     -66.0664427
9.315                 0.92582849     -66.1693945
9.316                0.925631038     -66.2726164
9.317                0.925432871     -66.3761094
9.318                0.925233986     -66.4798743
9.319                0.925034382     -66.5839122
9.32                 0.924834055      -66.688224
9.321                0.924633003     -66.7928106
9.322                0.924431224      -66.897673
9.323                0.924228714     -67.0028122
9.324                0.924025472     -67.1082292
9.325                0.923821495     -67.2139248
9.326                 0.92361678     -67.3199002
9.327                0.923411325     -67.4261562
9.328                0.923205127     -67.5326939
9.329                0.922998184     -67.6395143
9.33                 0.922790493     -67.7466182
9.331                0.922582052     -67.8540068
9.332                0.922372857      -67.961681
9.333                0.922162907     -68.0696418
9.334                0.921952199     -68.1778903
9.335                 0.92174073     -68.2864274
9.336                0.921528498     -68.3952541
9.337                  0.9213155     -68.5043715
9.338                0.921101734     -68.6137805
9.339                0.920887196     -68.7234823
9.34                 0.920671885     -68.8334778
9.341                0.920455797     -68.9437681
9.342                0.920238931     -69.0543541
9.343                0.920021283      -69.165237
9.344                0.919802851     -69.2764178
9.345                0.919583633     -69.3878974
9.346                0.919363625     -69.4996771
9.347                0.919142825     -69.6117577
9.348                0.918921231     -69.7241405
9.349                 0.91869884     -69.8368263
9.35                 0.918475649     -69.9498164
9.351                0.918251656     -70.0631117
9.352                0.918026857     -70.1767134
9.353                0.917801251     -70.2906225
9.354                0.917574835       -70.40484
9.355                0.917347606     -70.5193672
9.356                0.917119562      -70.634205
9.357                  0.9168907     -70.7493546
9.358                0.916661016      -70.864817
9.359                 0.91643051     -70.9805933
9.36                 0.916199177     -71.0966847
9.361                0.915967016     -71.2130923
9.362                0.915734024     -71.3298171
9.363                0.915500197     -71.4468603
9.364                0.915265535      -71.564223
9.365                0.915030033     -71.6819063
9.366                0.914793689     -71.7999114
9.367                0.914556501     -71.9182393
9.368                0.914318466     -72.0368912
9.369                0.914079581     -72.1558683
9.37                 0.913839844     -72.2751716
9.371                0.913599252     -72.3948024
9.372                0.913357803     -72.5147617
9.373                0.913115493     -72.6350508
9.374                 0.91287232     -72.7556708
9.375                0.912628282     -72.8766228
9.376                0.912383376      -72.997908
9.377                  0.9121376     -73.1195275
9.378                 0.91189095     -73.2414827
9.379                0.911643424     -73.3637745
9.38                 0.911395019     -73.4864043
9.381                0.911145734     -73.6093731
9.382                0.910895565     -73.7326822
9.383                0.910644509     -73.8563328
9.384                0.910392565      -73.980326
9.385                0.910139729     -74.1046631
9.386                0.909885999     -74.2293453
9.387                0.909631372     -74.3543737
9.388                0.909375845     -74.4797497
9.389                0.909119417     -74.6054743
9.39                 0.908862085     -74.7315488
9.391                0.908603845     -74.8579745
9.392                0.908344696     -74.9847525
9.393                0.908084635     -75.1118842
9.394                0.907823659     -75.2393707
9.395                0.907561766     -75.3672132
9.396                0.907298953     -75.4954131
