! TOUCHSTONE file generated by CST DESIGN STUDIO
! Date and time: Tue Feb  4 14:21:44 2025
! Project name: C:\Work\MatlabApps\UnitCellOptimizationMatlab\CST\unitcell.cst
! Tree item: Tasks\Sweep1\SPara1\S-Parameters
! Header version: 2024
! Port assignment regex: !\s*Touchstone port\s*([0-9]+)\s*=\s*(CST MWS port|CST DES external port|CST DES block port)\s*(.+)\s* \(\"(.*)\"\)(\s*mode\s*([0-9]+))?.*
! Touchstone port assignment:
! Touchstone port 1 = CST DES external port 1 ("")
# GHz S MA R 50
9                     0.92027713     -59.4123523
9.001                0.920072823     -59.4987317
9.002                0.919867774     -59.5853342
9.003                0.919661981     -59.6721605
9.004                0.919455441     -59.7592114
9.005                 0.91924815     -59.8464879
9.006                0.919040106     -59.9339906
9.007                0.918831305     -60.0217204
9.008                0.918621745     -60.1096781
9.009                0.918411422     -60.1978646
9.01                 0.918200333     -60.2862806
9.011                0.917988474      -60.374927
9.012                0.917775844     -60.4638046
9.013                0.917562438     -60.5529143
9.014                0.917348254     -60.6422568
9.015                0.917133288     -60.7318331
9.016                0.916917537      -60.821644
9.017                0.916700997     -60.9116902
9.018                0.916483667     -61.0019728
9.019                0.916265541     -61.0924925
9.02                 0.916046618     -61.1832501
9.021                0.915826894     -61.2742466
9.022                0.915606365     -61.3654829
9.023                0.915385029     -61.4569597
9.024                0.915162882      -61.548678
9.025                 0.91493992     -61.6406386
9.026                0.914716141     -61.7328424
9.027                0.914491541     -61.8252904
9.028                0.914266117     -61.9179833
9.029                0.914039865     -62.0109221
9.03                 0.913812782     -62.1041077
9.031                0.913584866     -62.1975409
9.032                0.913356111     -62.2912228
9.033                0.913126515     -62.3851541
9.034                0.912896075     -62.4793359
9.035                0.912664787     -62.5737689
9.036                0.912432648     -62.6684542
9.037                0.912199654     -62.7633926
9.038                0.911965802     -62.8585851
9.039                0.911731089     -62.9540326
9.04                  0.91149551     -63.0497361
9.041                0.911259063     -63.1456964
9.042                0.911021744     -63.2419146
9.043                0.910783549     -63.3383915
9.044                0.910544475     -63.4351282
9.045                0.910304519     -63.5321255
9.046                0.910063677     -63.6293844
9.047                0.909821945      -63.726906
9.048                 0.90957932     -63.8246911
9.049                0.909335798     -63.9227407
9.05                 0.909091377     -64.0210558
9.051                0.908846051     -64.1196374
9.052                0.908599818     -64.2184864
9.053                0.908352673     -64.3176039
9.054                0.908104615     -64.4169908
9.055                0.907855637     -64.5166481
9.056                0.907605738     -64.6165769
9.057                0.907354914      -64.716778
9.058                 0.90710316     -64.8172526
9.059                0.906850474     -64.9180017
9.06                 0.906596851     -65.0190262
9.061                0.906342287     -65.1203271
9.062                 0.90608678     -65.2219056
9.063                0.905830326     -65.3237626
9.064                 0.90557292     -65.4258991
9.065                0.905314559     -65.5283162
9.066                0.905055239      -65.631015
9.067                0.904794957     -65.7339964
9.068                0.904533709     -65.8372616
9.069                 0.90427149     -65.9408115
9.07                 0.904008298     -66.0446473
9.071                0.903744129     -66.1487699
9.072                0.903478978     -66.2531805
9.073                0.903212842     -66.3578801
9.074                0.902945717     -66.4628699
9.075                  0.9026776     -66.5681508
9.076                0.902408486      -66.673724
9.077                0.902138371     -66.7795905
9.078                0.901867253     -66.8857515
9.079                0.901595126      -66.992208
9.08                 0.901321988     -67.0989612
9.081                0.901047834     -67.2060121
9.082                 0.90077266     -67.3133619
9.083                0.900496463     -67.4210116
9.084                0.900219238     -67.5289625
9.085                0.899940982     -67.6372155
9.086                0.899661691     -67.7457719
9.087                0.899381361     -67.8546328
9.088                0.899099988     -67.9637993
9.089                0.898817568     -68.0732726
9.09                 0.898534097     -68.1830537
9.091                0.898249571      -68.293144
9.092                0.897963987     -68.4035444
9.093                 0.89767734     -68.5142562
9.094                0.897389626     -68.6252806
9.095                0.897100842     -68.7366186
9.096                0.896810983     -68.8482716
9.097                0.896520046     -68.9602406
9.098                0.896228026     -69.0725269
9.099                0.895934919     -69.1851316
9.1                  0.895640722     -69.2980559
9.101                 0.89534543     -69.4113011
9.102                 0.89504904     -69.5248683
9.103                0.894751548     -69.6387588
9.104                0.894452948     -69.7529737
9.105                0.894153238     -69.8675143
9.106                0.893852414     -69.9823818
9.107                0.893550471     -70.0975775
9.108                0.893247405     -70.2131025
9.109                0.892943212     -70.3289581
9.11                 0.892637889     -70.4451455
9.111                 0.89233143      -70.561666
9.112                0.892023833     -70.6785209
9.113                0.891715093     -70.7957114
9.114                0.891405206     -70.9132387
9.115                0.891094167     -71.0311042
9.116                0.890781974     -71.1493091
9.117                0.890468621     -71.2678546
9.118                0.890154105     -71.3867422
9.119                0.889838422      -71.505973
9.12                 0.889521567     -71.6255483
9.121                0.889203536     -71.7454695
9.122                0.888884326     -71.8657378
9.123                0.888563932     -71.9863546
9.124                 0.88824235     -72.1073211
9.125                0.887919577     -72.2286388
9.126                0.887595607     -72.3503088
9.127                0.887270437     -72.4723326
9.128                0.886944063     -72.5947115
9.129                0.886616481     -72.7174467
9.13                 0.886287686     -72.8405398
9.131                0.885957675     -72.9639919
9.132                0.885626444     -73.0878045
9.133                0.885293987      -73.211979
9.134                0.884960302     -73.3365166
9.135                0.884625385     -73.4614188
9.136                 0.88428923     -73.5866869
9.137                0.883951834     -73.7123223
9.138                0.883613193     -73.8383264
9.139                0.883273303     -73.9647006
9.14                  0.88293216     -74.0914463
9.141                0.882589759     -74.2185649
9.142                0.882246098     -74.3460578
9.143                 0.88190117     -74.4739264
9.144                0.881554973     -74.6021721
9.145                0.881207503     -74.7307964
9.146                0.880858755     -74.8598007
9.147                0.880508725     -74.9891864
9.148                0.880157409     -75.1189549
9.149                0.879804804     -75.2491078
9.15                 0.879450905     -75.3796463
9.151                0.879095708     -75.5105721
9.152                0.878739209     -75.6418866
9.153                0.878381405     -75.7735912
9.154                 0.87802229     -75.9056874
9.155                0.877661862     -76.0381767
9.156                0.877300116     -76.1710605
9.157                0.876937048     -76.3043404
9.158                0.876572654     -76.4380178
9.159                 0.87620693     -76.5720943
9.16                 0.875839873     -76.7065714
9.161                0.875471478     -76.8414505
9.162                0.875101742     -76.9767331
9.163                 0.87473066     -77.1124209
9.164                0.874358228     -77.2485153
9.165                0.873984443     -77.3850178
9.166                0.873609302     -77.5219301
9.167                0.873232799     -77.6592536
9.168                0.872854931     -77.7969898
9.169                0.872475694     -77.9351404
9.17                 0.872095085     -78.0737069
9.171                0.871713099     -78.2126908
9.172                0.871329733     -78.3520938
9.173                0.870944984     -78.4919174
9.174                0.870558846     -78.6321631
9.175                0.870171317     -78.7728327
9.176                0.869782392     -78.9139276
9.177                0.869392069     -79.0554494
9.178                0.869000343     -79.1973999
9.179                0.868607211     -79.3397805
9.18                 0.868212669     -79.4825929
9.181                0.867816713     -79.6258387
9.182                0.867419339     -79.7695195
9.183                0.867020545      -79.913637
9.184                0.866620327     -80.0581928
9.185                 0.86621868     -80.2031885
9.186                0.865815602     -80.3486258
9.187                0.865411089     -80.4945064
9.188                0.865005138     -80.6408318
9.189                0.864597744     -80.7876039
9.19                 0.864188905     -80.9348241
9.191                0.863778617     -81.0824943
9.192                0.863366877      -81.230616
9.193                0.862953682      -81.379191
9.194                0.862539027      -81.528221
9.195                0.862122911     -81.6777076
9.196                0.861705329     -81.8276525
9.197                0.861286278     -81.9780576
9.198                0.860865755     -82.1289244
9.199                0.860443757     -82.2802547
9.2                  0.860020281     -82.4320502
9.201                0.859595324     -82.5843126
9.202                0.859168882     -82.7370438
9.203                0.858740952     -82.8902453
9.204                0.858311532      -83.043919
9.205                0.857880619     -83.1980666
9.206                0.857448209     -83.3526899
9.207                  0.8570143     -83.5077906
9.208                0.856578888     -83.6633704
9.209                0.856141972     -83.8194313
9.21                 0.855703548     -83.9759748
9.211                0.855263613     -84.1330029
9.212                0.854822165     -84.2905173
9.213                  0.8543792     -84.4485197
9.214                0.853934718     -84.6070121
9.215                0.853488714     -84.7659961
9.216                0.853041186     -84.9254736
9.217                0.852592132     -85.0854465
9.218                 0.85214155     -85.2459164
9.219                0.851689436     -85.4068853
9.22                 0.851235789     -85.5683549
9.221                0.850780606     -85.7303272
9.222                0.850323885     -85.8928038
9.223                0.849865624     -86.0557868
9.224                0.849405821     -86.2192779
9.225                0.848944473     -86.3832789
9.226                0.848481579     -86.5477918
9.227                0.848017136     -86.7128183
9.228                0.847551143     -86.8783604
9.229                0.847083598     -87.0444199
9.23                 0.846614498     -87.2109988
9.231                0.846143842     -87.3780987
9.232                0.845671629     -87.5457218
9.233                0.845197857     -87.7138698
9.234                0.844722523     -87.8825446
9.235                0.844245627     -88.0517482
9.236                0.843767168     -88.2214824
9.237                0.843287143     -88.3917491
9.238                0.842805551     -88.5625503
9.239                0.842322392     -88.7338878
9.24                 0.841837663     -88.9057637
9.241                0.841351364     -89.0781797
9.242                0.840863494     -89.2511379
9.243                0.840374052     -89.4246401
9.244                0.839883036     -89.5986883
9.245                0.839390446     -89.7732845
9.246                0.838896282     -89.9484306
9.247                0.838400542     -90.1241285
9.248                0.837903225     -90.3003801
9.249                0.837404332     -90.4771875
9.25                 0.836903862     -90.6545526
9.251                0.836401815     -90.8324773
9.252                0.835898189     -91.0109637
9.253                0.835392985     -91.1900136
9.254                0.834886203     -91.3696292
9.255                0.834377843     -91.5498122
9.256                0.833867904     -91.7305648
9.257                0.833356388     -91.9118888
9.258                0.832843293     -92.0937864
9.259                0.832328621     -92.2762594
9.26                 0.831812371     -92.4593099
9.261                0.831294545     -92.6429398
9.262                0.830775142     -92.8271512
9.263                0.830254164      -93.011946
9.264                0.829731611     -93.1973263
9.265                0.829207484     -93.3832941
9.266                0.828681784     -93.5698514
9.267                0.828154512     -93.7570001
9.268                0.827625669     -93.9447424
9.269                0.827095257     -94.1330801
9.27                 0.826563277     -94.3220154
9.271                 0.82602973     -94.5115503
9.272                0.825494618     -94.7016867
9.273                0.824957943     -94.8924267
9.274                0.824419706     -95.0837724
9.275                 0.82387991     -95.2757257
9.276                0.823338556     -95.4682887
9.277                0.822795646     -95.6614634
9.278                0.822251183     -95.8552518
9.279                 0.82170517      -96.049656
9.28                 0.821157608     -96.2446781
9.281                  0.8206085       -96.44032
9.282                 0.82005785     -96.6365838
9.283                0.819505659     -96.8334715
9.284                0.818951931     -97.0309852
9.285                 0.81839667     -97.2291269
9.286                0.817839877     -97.4278986
9.287                0.817281557     -97.6273024
9.288                0.816721713     -97.8273404
9.289                0.816160349     -98.0280145
9.29                 0.815597469     -98.2293269
9.291                0.815033076     -98.4312794
9.292                0.814467174     -98.6338743
9.293                0.813899768     -98.8371135
9.294                0.813330862     -99.0409991
9.295                0.812760461     -99.2455331
9.296                0.812188569     -99.4507175
9.297                 0.81161519     -99.6565544
9.298                0.811040331     -99.8630459
9.299                0.810463995     -100.070194
9.3                  0.809886189        -100.278
9.301                0.809306916     -100.486468
9.302                0.808726184     -100.695598
9.303                0.808143997     -100.905392
9.304                0.807560362     -101.115853
9.305                0.806975284     -101.326983
9.306                 0.80638877     -101.538784
9.307                0.805800825     -101.751258
9.308                0.805211457     -101.964406
9.309                0.804620672     -102.178231
9.31                 0.804028477     -102.392735
9.311                0.803434879      -102.60792
9.312                0.802839884     -102.823787
9.313                0.802243501      -103.04034
9.314                0.801645737     -103.257579
9.315                0.801046599     -103.475507
9.316                0.800446096     -103.694126
9.317                0.799844234     -103.913438
9.318                0.799241024     -104.133444
9.319                0.798636472     -104.354147
9.32                 0.798030588     -104.575549
9.321                 0.79742338     -104.797652
9.322                0.796814858     -105.020457
9.323                0.796205029     -105.243967
9.324                0.795593905     -105.468183
9.325                0.794981494     -105.693108
9.326                0.794367806     -105.918743
9.327                0.793752851      -106.14509
9.328                0.793136639     -106.372152
9.329                 0.79251918      -106.59993
9.33                 0.791900486     -106.828426
9.331                0.791280566     -107.057642
9.332                0.790659431     -107.287579
9.333                0.790037093     -107.518241
9.334                0.789413564     -107.749628
9.335                0.788788854     -107.981743
9.336                0.788162975     -108.214587
9.337                 0.78753594     -108.448162
9.338                 0.78690776      -108.68247
9.339                0.786278449     -108.917513
9.34                 0.785648018     -109.153293
9.341                 0.78501648     -109.389811
9.342                0.784383849     -109.627069
9.343                0.783750138      -109.86507
9.344                 0.78311536     -110.103814
9.345                 0.78247953     -110.343304
9.346                 0.78184266     -110.583541
9.347                0.781204766     -110.824527
9.348                0.780565862     -111.066264
9.349                0.779925962     -111.308754
9.35                 0.779285081     -111.551998
9.351                0.778643235     -111.795998
9.352                0.778000439     -112.040755
9.353                0.777356708     -112.286271
9.354                0.776712059     -112.532549
9.355                0.776066507     -112.779589
9.356                0.775420069     -113.027393
9.357                0.774772761     -113.275963
9.358                  0.7741246       -113.5253
9.359                0.773475603     -113.775406
9.36                 0.772825788     -114.026282
9.361                0.772175172     -114.277931
9.362                0.771523773     -114.530353
9.363                0.770871609     -114.783549
9.364                0.770218699     -115.037523
9.365                 0.76956506     -115.292274
9.366                0.768910712     -115.547805
9.367                0.768255673     -115.804116
9.368                0.767599964      -116.06121
9.369                0.766943604     -116.319087
9.37                 0.766286612     -116.577749
9.371                0.765629009     -116.837197
9.372                0.764970815     -117.097433
9.373                0.764312051     -117.358458
9.374                0.763652737     -117.620273
9.375                0.762992896      -117.88288
9.376                0.762332547     -118.146279
9.377                0.761671713     -118.410472
9.378                0.761010417      -118.67546
9.379                0.760348679     -118.941245
9.38                 0.759686523     -119.207827
9.381                0.759023971     -119.475207
9.382                0.758361047     -119.743387
9.383                0.757697773     -120.012367
9.384                0.757034174     -120.282149
9.385                0.756370272     -120.552734
9.386                0.755706093     -120.824122
9.387                0.755041661     -121.096315
9.388                0.754376999     -121.369314
9.389                0.753712134     -121.643119
9.39                  0.75304709     -121.917731
9.391                0.752381893     -122.193152
9.392                0.751716568     -122.469381
9.393                0.751051141      -122.74642
9.394                 0.75038564     -123.024269
9.395                0.749720089      -123.30293
9.396                0.749054517     -123.582402
