! TOUCHSTONE file generated by CST DESIGN STUDIO
! Date and time: Tue Feb  4 14:21:42 2025
! Project name: C:\Work\MatlabApps\UnitCellOptimizationMatlab\CST\unitcell.cst
! Tree item: Tasks\Sweep1\SPara1\S-Parameters
! Header version: 2024
! Port assignment regex: !\s*Touchstone port\s*([0-9]+)\s*=\s*(CST MWS port|CST DES external port|CST DES block port)\s*(.+)\s* \(\"(.*)\"\)(\s*mode\s*([0-9]+))?.*
! Touchstone port assignment:
! Touchstone port 1 = CST DES external port 1 ("")
# GHz S MA R 50
9                    0.892495744     -68.0906632
9.001                 0.89218544     -68.2013875
9.002                0.891873985     -68.3124302
9.003                0.891561377     -68.4237926
9.004                 0.89124761     -68.5354761
9.005                 0.89093268     -68.6474817
9.006                0.890616582     -68.7598108
9.007                0.890299313     -68.8724646
9.008                0.889980867     -68.9854444
9.009                 0.88966124     -69.0987514
9.01                 0.889340428     -69.2123869
9.011                0.889018425     -69.3263522
9.012                0.888695229     -69.4406485
9.013                0.888370833     -69.5552771
9.014                0.888045234     -69.6702394
9.015                0.887718427     -69.7855365
9.016                0.887390408     -69.9011698
9.017                0.887061172     -70.0171407
9.018                0.886730714     -70.1334504
9.019                 0.88639903     -70.2501002
9.02                 0.886066115     -70.3670915
9.021                0.885731965     -70.4844255
9.022                0.885396575     -70.6021037
9.023                0.885059941     -70.7201273
9.024                0.884722058     -70.8384977
9.025                0.884382922     -70.9572163
9.026                0.884042527     -71.0762843
9.027                 0.88370087     -71.1957032
9.028                0.883357945     -71.3154744
9.029                0.883013749     -71.4355991
9.03                 0.882668276     -71.5560788
9.031                0.882321522     -71.6769148
9.032                0.881973482     -71.7981086
9.033                0.881624152     -71.9196615
9.034                0.881273527      -72.041575
9.035                0.880921602     -72.1638503
9.036                0.880568374     -72.2864891
9.037                0.880213836     -72.4094926
9.038                0.879857985     -72.5328622
9.039                0.879500816     -72.6565995
9.04                 0.879142325     -72.7807059
9.041                0.878782506     -72.9051827
9.042                0.878421355     -73.0300315
9.043                0.878058868     -73.1552536
9.044                 0.87769504     -73.2808506
9.045                0.877329865     -73.4068239
9.046                0.876963341      -73.533175
9.047                0.876595461     -73.6599053
9.048                0.876226222     -73.7870164
9.049                0.875855618     -73.9145097
9.05                 0.875483645     -74.0423867
9.051                0.875110299     -74.1706489
9.052                0.874735575     -74.2992978
9.053                0.874359468      -74.428335
9.054                0.873981974     -74.5577618
9.055                0.873603088       -74.68758
9.056                0.873222805      -74.817791
9.057                0.872841121     -74.9483963
9.058                0.872458031     -75.0793974
9.059                0.872073531      -75.210796
9.06                 0.871687616     -75.3425936
9.061                0.871300282     -75.4747917
9.062                0.870911523     -75.6073919
9.063                0.870521336     -75.7403958
9.064                0.870129716     -75.8738049
9.065                0.869736658     -76.0076208
9.066                0.869342158     -76.1418452
9.067                0.868946211     -76.2764796
9.068                0.868548813     -76.4115256
9.069                0.868149959     -76.5469849
9.07                 0.867749645      -76.682859
9.071                0.867347865     -76.8191496
9.072                0.866944617     -76.9558582
9.073                0.866539895     -77.0929866
9.074                0.866133695     -77.2305364
9.075                0.865726012     -77.3685092
9.076                0.865316842     -77.5069067
9.077                0.864906181     -77.6457305
9.078                0.864494023     -77.7849823
9.079                0.864080366     -77.9246637
9.08                 0.863665204     -78.0647765
9.081                0.863248533     -78.2053223
9.082                0.862830348     -78.3463029
9.083                0.862410646     -78.4877198
9.084                0.861989422     -78.6295749
9.085                0.861566672     -78.7718698
9.086                0.861142392     -78.9146063
9.087                0.860716576      -79.057786
9.088                0.860289222     -79.2014107
9.089                0.859860324     -79.3454822
9.09                 0.859429879     -79.4900021
9.091                0.858997883     -79.6349722
9.092                0.858564331     -79.7803943
9.093                0.858129219     -79.9262702
9.094                0.857692543     -80.0726015
9.095                0.857254299     -80.2193901
9.096                0.856814484     -80.3666378
9.097                0.856373092     -80.5143463
9.098                 0.85593012     -80.6625174
9.099                0.855485564      -80.811153
9.1                   0.85503942     -80.9602547
9.101                0.854591685     -81.1098246
9.102                0.854142353     -81.2598643
9.103                0.853691422     -81.4103756
9.104                0.853238888     -81.5613605
9.105                0.852784746     -81.7128208
9.106                0.852328993     -81.8647582
9.107                0.851871626     -82.0171747
9.108                 0.85141264     -82.1700721
9.109                0.850952032     -82.3234523
9.11                 0.850489799      -82.477317
9.111                0.850025936     -82.6316683
9.112                0.849560441      -82.786508
9.113                0.849093309     -82.9418379
9.114                0.848624537       -83.09766
9.115                0.848154122     -83.2539762
9.116                 0.84768206     -83.4107884
9.117                0.847208349     -83.5680984
9.118                0.846732984     -83.7259082
9.119                0.846255963     -83.8842198
9.12                 0.845777281      -84.043035
9.121                0.845296937     -84.2023558
9.122                0.844814927     -84.3621841
9.123                0.844331247      -84.522522
9.124                0.843845896     -84.6833713
9.125                0.843358869     -84.8447339
9.126                0.842870164      -85.006612
9.127                0.842379778     -85.1690074
9.128                0.841887708     -85.3319221
9.129                0.841393951     -85.4953582
9.13                 0.840898505     -85.6593175
9.131                0.840401367     -85.8238022
9.132                0.839902534     -85.9888141
9.133                0.839402004     -86.1543554
9.134                0.838899774      -86.320428
9.135                0.838395842     -86.4870339
9.136                0.837890206     -86.6541753
9.137                0.837382862      -86.821854
9.138                 0.83687381     -86.9900722
9.139                0.836363046     -87.1588319
9.14                 0.835850568     -87.3281352
9.141                0.835336375     -87.4979841
9.142                0.834820465     -87.6683806
9.143                0.834302835     -87.8393269
9.144                0.833783483      -88.010825
9.145                0.833262409     -88.1828769
9.146                0.832739609     -88.3554849
9.147                0.832215084     -88.5286509
9.148                 0.83168883     -88.7023771
9.149                0.831160846     -88.8766655
9.15                 0.830631132     -89.0515183
9.151                0.830099685     -89.2269376
9.152                0.829566505     -89.4029255
9.153                0.829031589     -89.5794841
9.154                0.828494938     -89.7566156
9.155                0.827956551      -89.934322
9.156                0.827416425     -90.1126055
9.157                0.826874561     -90.2914684
9.158                0.826330957     -90.4709126
9.159                0.825785614     -90.6509403
9.16                 0.825238529     -90.8315538
9.161                0.824689704     -91.0127552
9.162                0.824139137     -91.1945466
9.163                0.823586829     -91.3769303
9.164                0.823032778     -91.5599083
9.165                0.822476986     -91.7434829
9.166                0.821919451     -91.9276563
9.167                0.821360174     -92.1124307
9.168                0.820799156     -92.2978081
9.169                0.820236396      -92.483791
9.17                 0.819671895     -92.6703813
9.171                0.819105654     -92.8575814
9.172                0.818537673     -93.0453935
9.173                0.817967952     -93.2338198
9.174                0.817396494     -93.4228625
9.175                0.816823298     -93.6125238
9.176                0.816248365     -93.8028059
9.177                0.815671698     -93.9937111
9.178                0.815093297     -94.1852416
9.179                0.814513164     -94.3773997
9.18                   0.8139313     -94.5701876
9.181                0.813347707     -94.7636075
9.182                0.812762386     -94.9576617
9.183                0.812175341     -95.1523524
9.184                0.811586572     -95.3476819
9.185                0.810996082     -95.5436524
9.186                0.810403873     -95.7402662
9.187                0.809809948     -95.9375256
9.188                0.809214309     -96.1354328
9.189                 0.80861696     -96.3339901
9.19                 0.808017902     -96.5331997
9.191                0.807417139      -96.733064
9.192                0.806814674     -96.9335852
9.193                0.806210511     -97.1347655
9.194                0.805604652     -97.3366073
9.195                0.804997102     -97.5391128
9.196                0.804387864     -97.7422844
9.197                0.803776942     -97.9461242
9.198                 0.80316434     -98.1506346
9.199                0.802550062     -98.3558179
9.2                  0.801934113     -98.5616763
9.201                0.801316497     -98.7682121
9.202                0.800697219     -98.9754277
9.203                0.800076283     -99.1833253
9.204                0.799453695     -99.3919071
9.205                 0.79882946     -99.6011756
9.206                0.798203584     -99.8111329
9.207                 0.79757607     -100.021781
9.208                0.796946927     -100.233123
9.209                0.796316158     -100.445161
9.21                 0.795683771     -100.657897
9.211                0.795049772     -100.871333
9.212                0.794414166     -101.085471
9.213                0.793776961     -101.300315
9.214                0.793138163     -101.515865
9.215                 0.79249778     -101.732125
9.216                0.791855817     -101.949097
9.217                0.791212284     -102.166783
9.218                0.790567187     -102.385185
9.219                0.789920533     -102.604306
9.22                 0.789272332     -102.824147
9.221                 0.78862259     -103.044712
9.222                0.787971317     -103.266002
9.223                0.787318521     -103.488019
9.224                 0.78666421     -103.710767
9.225                0.786008394     -103.934246
9.226                0.785351082      -104.15846
9.227                0.784692282     -104.383411
9.228                0.784032005     -104.609101
9.229                0.783370261     -104.835531
9.23                 0.782707059     -105.062706
9.231                 0.78204241     -105.290625
9.232                0.781376323     -105.519293
9.233                0.780708811     -105.748711
9.234                0.780039883     -105.978881
9.235                0.779369551     -106.209805
9.236                0.778697825     -106.441486
9.237                0.778024719     -106.673926
9.238                0.777350243     -106.907127
9.239                 0.77667441     -107.141092
9.24                 0.775997232     -107.375822
9.241                0.775318721     -107.611319
9.242                 0.77463889     -107.847586
9.243                0.773957753     -108.084626
9.244                0.773275322     -108.322439
9.245                0.772591611     -108.561028
9.246                0.771906634     -108.800396
9.247                0.771220405     -109.040545
9.248                0.770532937     -109.281476
9.249                0.769844247     -109.523191
9.25                 0.769154348     -109.765694
9.251                0.768463255     -110.008985
9.252                0.767770984     -110.253067
9.253                 0.76707755     -110.497942
9.254                 0.76638297     -110.743612
9.255                0.765687259     -110.990079
9.256                0.764990434     -111.237346
9.257                0.764292511     -111.485413
9.258                0.763593507     -111.734284
9.259                 0.76289344     -111.983959
9.26                 0.762192326     -112.234442
9.261                0.761490184     -112.485733
9.262                0.760787033     -112.737836
9.263                0.760082889     -112.990751
9.264                0.759377771     -113.244481
9.265                  0.7586717     -113.499028
9.266                0.757964692     -113.754393
9.267                 0.75725677     -114.010579
9.268                0.756547951     -114.267587
9.269                0.755838255     -114.525419
9.27                 0.755127705     -114.784077
9.271                0.754416319     -115.043562
9.272                0.753704119     -115.303878
9.273                0.752991126     -115.565024
9.274                0.752277361     -115.827003
9.275                0.751562847     -116.089817
9.276                0.750847606     -116.353467
9.277                0.750131659     -116.617955
9.278                 0.74941503     -116.883283
9.279                0.748697742     -117.149452
9.28                 0.747979818     -117.416464
9.281                0.747261282      -117.68432
9.282                0.746542157     -117.953022
9.283                0.745822468     -118.222572
9.284                 0.74510224     -118.492972
9.285                0.744381497     -118.764221
9.286                0.743660265     -119.036323
9.287                0.742938569     -119.309278
9.288                0.742216435     -119.583088
9.289                0.741493889     -119.857754
9.29                 0.740770957     -120.133278
9.291                0.740047667     -120.409661
9.292                0.739324045     -120.686904
9.293                0.738600119     -120.965009
9.294                0.737875916     -121.243976
9.295                0.737151465     -121.523807
9.296                0.736426794     -121.804504
9.297                0.735701932     -122.086066
9.298                0.734976907     -122.368496
9.299                 0.73425175     -122.651795
9.3                  0.733526488     -122.935963
9.301                0.732801154     -123.221001
9.302                0.732075776     -123.506911
9.303                0.731350385     -123.793694
9.304                0.730625013      -124.08135
9.305                0.729899691      -124.36988
9.306                0.729174449     -124.659285
9.307                0.728449321     -124.949565
9.308                0.727724337     -125.240723
9.309                0.726999531     -125.532758
9.31                 0.726274936     -125.825671
9.311                0.725550584     -126.119462
9.312                 0.72482651     -126.414133
9.313                0.724102746     -126.709683
9.314                0.723379327     -127.006114
9.315                0.722656287     -127.303426
9.316                0.721933661     -127.601618
9.317                0.721211484     -127.900693
9.318                0.720489791     -128.200649
9.319                0.719768618     -128.501488
9.32                 0.719048001     -128.803209
9.321                0.718327975     -129.105812
9.322                0.717608578     -129.409299
9.323                0.716889847     -129.713668
9.324                0.716171818     -130.018921
9.325                0.715454529     -130.325056
9.326                0.714738017     -130.632074
9.327                0.714022321     -130.939975
9.328                0.713307479     -131.248759
9.329                0.712593529     -131.558425
9.33                  0.71188051     -131.868974
9.331                0.711168462     -132.180404
9.332                0.710457424     -132.492716
9.333                0.709747435     -132.805909
9.334                0.709038536     -133.119983
9.335                0.708330766     -133.434937
9.336                0.707624167      -133.75077
9.337                0.706918778     -134.067482
9.338                0.706214642     -134.385072
9.339                0.705511799      -134.70354
9.34                 0.704810291     -135.022884
9.341                0.704110159     -135.343104
9.342                0.703411446     -135.664199
9.343                0.702714195     -135.986167
9.344                0.702018446     -136.309008
9.345                0.701324244     -136.632721
9.346                0.700631631     -136.957303
9.347                 0.69994065     -137.282755
9.348                0.699251345     -137.609074
9.349                0.698563759      -137.93626
9.35                 0.697877937      -138.26431
9.351                0.697193922     -138.593223
9.352                0.696511758     -138.922998
9.353                0.695831491     -139.253633
9.354                0.695153164     -139.585126
9.355                0.694476823     -139.917476
9.356                0.693802512     -140.250679
9.357                0.693130277     -140.584736
9.358                0.692460163     -140.919642
9.359                0.691792215     -141.255397
9.36                  0.69112648     -141.591998
9.361                0.690463002     -141.929442
9.362                0.689801829     -142.267729
9.363                0.689143005     -142.606854
9.364                0.688486578     -142.946815
9.365                0.687832593     -143.287611
9.366                0.687181098     -143.629238
9.367                0.686532138     -143.971693
9.368                0.685885761     -144.314975
9.369                0.685242012     -144.659079
9.37                  0.68460094     -145.004002
9.371                0.683962591     -145.349743
9.372                0.683327012     -145.696297
9.373                 0.68269425     -146.043662
9.374                0.682064352     -146.391834
9.375                0.681437366     -146.740809
9.376                0.680813339     -147.090585
9.377                0.680192318     -147.441158
9.378                 0.67957435     -147.792523
9.379                0.678959483     -148.144678
9.38                 0.678347764     -148.497618
9.381                0.677739241      -148.85134
9.382                0.677133961      -149.20584
9.383                0.676531971     -149.561113
9.384                0.675933318     -149.917155
9.385                0.675338051     -150.273962
9.386                0.674746216     -150.631531
9.387                 0.67415786     -150.989855
9.388                0.673573031     -151.348931
9.389                0.672991776     -151.708755
9.39                 0.672414141     -152.069321
9.391                0.671840174     -152.430625
9.392                0.671269921     -152.792661
9.393                 0.67070343     -153.155426
9.394                0.670140747     -153.518913
9.395                0.669581919     -153.883118
9.396                0.669026991     -154.248035
