! TOUCHSTONE file generated by CST DESIGN STUDIO
! Date and time: Tue Feb  4 16:20:49 2025
! Project name: C:\Work\MatlabApps\UnitCellOptimizationMatlab\CST\unitcell.cst
! Tree item: Tasks\Sweep1\SPara1\S-Parameters
! Header version: 2024
! Port assignment regex: !\s*Touchstone port\s*([0-9]+)\s*=\s*(CST MWS port|CST DES external port|CST DES block port)\s*(.+)\s* \(\"(.*)\"\)(\s*mode\s*([0-9]+))?.*
! Touchstone port assignment:
! Touchstone port 1 = CST DES external port 1 ("")
# GHz S MA R 50
9                    0.965472884     -61.5338763
9.001                 0.96533551     -61.6240095
9.002                0.965197705     -61.7143503
9.003                0.965059469     -61.8048993
9.004                0.964920802     -61.8956573
9.005                0.964781704      -61.986625
9.006                0.964642176      -62.077803
9.007                0.964502216     -62.1691921
9.008                0.964361825      -62.260793
9.009                0.964221004     -62.3526064
9.01                 0.964079752      -62.444633
9.011                 0.96393807     -62.5368735
9.012                0.963795958     -62.6293287
9.013                0.963653415     -62.7219992
9.014                0.963510442     -62.8148859
9.015                0.963367039     -62.9079893
9.016                0.963223207     -63.0013104
9.017                0.963078944     -63.0948497
9.018                0.962934252     -63.1886081
9.019                0.962789131     -63.2825863
9.02                  0.96264358      -63.376785
9.021                0.962497601     -63.4712049
9.022                0.962351192      -63.565847
9.023                0.962204354     -63.6607118
9.024                0.962057088     -63.7558002
9.025                0.961909393     -63.8511129
9.026                 0.96176127     -63.9466507
9.027                0.961612719     -64.0424143
9.028                0.961463739     -64.1384046
9.029                0.961314332     -64.2346223
9.03                 0.961164498     -64.3310682
9.031                0.961014236     -64.4277431
9.032                0.960863547     -64.5246478
9.033                0.960712431      -64.621783
9.034                0.960560888     -64.7191496
9.035                0.960408919     -64.8167483
9.036                0.960256523       -64.91458
9.037                0.960103702     -65.0126455
9.038                0.959950454     -65.1109455
9.039                0.959796781     -65.2094809
9.04                 0.959642682     -65.3082526
9.041                0.959488159     -65.4072612
9.042                 0.95933321     -65.5065077
9.043                0.959177837     -65.6059929
9.044                0.959022039     -65.7057177
9.045                0.958865818     -65.8056827
9.046                0.958709172      -65.905889
9.047                0.958552103     -66.0063373
9.048                 0.95839461     -66.1070284
9.049                0.958236695     -66.2079633
9.05                 0.958078357     -66.3091428
9.051                0.957919596     -66.4105677
9.052                0.957760413     -66.5122389
9.053                0.957600808     -66.6141572
9.054                0.957440781     -66.7163237
9.055                0.957280334      -66.818739
9.056                0.957119465     -66.9214041
9.057                0.956958175     -67.0243198
9.058                0.956796466     -67.1274871
9.059                0.956634336     -67.2309069
9.06                 0.956471786       -67.33458
9.061                0.956308817     -67.4385073
9.062                0.956145429     -67.5426897
9.063                0.955981622     -67.6471281
9.064                0.955817397     -67.7518235
9.065                0.955652754     -67.8567768
9.066                0.955487693     -67.9619887
9.067                0.955322215     -68.0674604
9.068                 0.95515632     -68.1731927
9.069                0.954990008     -68.2791865
9.07                  0.95482328     -68.3854428
9.071                0.954656136     -68.4919624
9.072                0.954488576     -68.5987464
9.073                0.954320601     -68.7057957
9.074                0.954152212     -68.8131112
9.075                0.953983408     -68.9206939
9.076                 0.95381419     -69.0285447
9.077                0.953644558     -69.1366646
9.078                0.953474514     -69.2450545
9.079                0.953304056     -69.3537155
9.08                 0.953133186     -69.4626484
9.081                0.952961904     -69.5718543
9.082                 0.95279021     -69.6813342
9.083                0.952618105      -69.791089
9.084                 0.95244559     -69.9011197
9.085                0.952272664     -70.0114273
9.086                0.952099328     -70.1220127
9.087                0.951925582     -70.2328771
9.088                0.951751428     -70.3440214
9.089                0.951576865     -70.4554466
9.09                 0.951401893     -70.5671538
9.091                0.951226514     -70.6791438
9.092                0.951050728     -70.7914179
9.093                0.950874535     -70.9039769
9.094                0.950697935     -71.0168219
9.095                 0.95052093      -71.129954
9.096                0.950343519     -71.2433741
9.097                0.950165703     -71.3570834
9.098                0.949987483     -71.4710828
9.099                0.949808858     -71.5853734
9.1                   0.94962983     -71.6999563
9.101                0.949450399     -71.8148326
9.102                0.949270566     -71.9300032
9.103                 0.94909033     -72.0454693
9.104                0.948909693     -72.1612319
9.105                0.948728655     -72.2772921
9.106                0.948547216     -72.3936509
9.107                0.948365377     -72.5103096
9.108                0.948183138     -72.6272691
9.109                0.948000501     -72.7445305
9.11                 0.947817465     -72.8620949
9.111                 0.94763403     -72.9799635
9.112                0.947450199     -73.0981374
9.113                0.947265971     -73.2166175
9.114                0.947081346     -73.3354052
9.115                0.946896325     -73.4545014
9.116                0.946710909     -73.5739073
9.117                0.946525099      -73.693624
9.118                0.946338894     -73.8136527
9.119                0.946152296     -73.9339945
9.12                 0.945965304     -74.0546505
9.121                 0.94577792     -74.1756219
9.122                0.945590144     -74.2969098
9.123                0.945401977     -74.4185153
9.124                 0.94521342     -74.5404397
9.125                0.945024472     -74.6626841
9.126                0.944835134     -74.7852496
9.127                0.944645408     -74.9081374
9.128                0.944455293     -75.0313487
9.129                 0.94426479     -75.1548847
9.13                   0.9440739     -75.2787465
9.131                0.943882624     -75.4029353
9.132                0.943690962     -75.5274524
9.133                0.943498915     -75.6522989
9.134                0.943306483      -75.777476
9.135                0.943113667     -75.9029849
9.136                0.942920468     -76.0288268
9.137                0.942726886      -76.155003
9.138                0.942532922     -76.2815146
9.139                0.942338577     -76.4083629
9.14                  0.94214385     -76.5355491
9.141                0.941948744     -76.6630744
9.142                0.941753259     -76.7909401
9.143                0.941557395     -76.9191473
9.144                0.941361153     -77.0476974
9.145                0.941164533     -77.1765916
9.146                0.940967537     -77.3058311
9.147                0.940770165     -77.4354172
9.148                0.940572418     -77.5653511
9.149                0.940374297     -77.6956341
9.15                 0.940175802     -77.8262675
9.151                0.939976933     -77.9572525
9.152                0.939777693     -78.0885904
9.153                0.939578081     -78.2202826
9.154                0.939378098     -78.3523302
9.155                0.939177745     -78.4847345
9.156                0.938977023     -78.6174969
9.157                0.938775933     -78.7506187
9.158                0.938574474     -78.8841011
9.159                0.938372649     -79.0179455
9.16                 0.938170458     -79.1521532
9.161                0.937967901     -79.2867254
9.162                 0.93776498     -79.4216635
9.163                0.937561695     -79.5569688
9.164                0.937358047     -79.6926427
9.165                0.937154037     -79.8286864
9.166                0.936949666     -79.9651013
9.167                0.936744935     -80.1018888
9.168                0.936539844     -80.2390501
9.169                0.936334394     -80.3765867
9.17                 0.936128587     -80.5144998
9.171                0.935922422     -80.6527908
9.172                0.935715902     -80.7914611
9.173                0.935509026     -80.9305121
9.174                0.935301796     -81.0699451
9.175                0.935094213     -81.2097614
9.176                0.934886278     -81.3499625
9.177                0.934677991     -81.4905497
9.178                0.934469353     -81.6315244
9.179                0.934260366      -81.772888
9.18                  0.93405103     -81.9146419
9.181                0.933841347     -82.0567874
9.182                0.933631316      -82.199326
9.183                 0.93342094     -82.3422591
9.184                 0.93321022      -82.485588
9.185                0.932999156     -82.6293142
9.186                0.932787749     -82.7734391
9.187                   0.932576      -82.917964
9.188                0.932363911     -83.0628905
9.189                0.932151482     -83.2082199
9.19                 0.931938715     -83.3539537
9.191                 0.93172561     -83.5000932
9.192                0.931512169       -83.64664
9.193                0.931298392     -83.7935954
9.194                0.931084282     -83.9409609
9.195                0.930869839      -84.088738
9.196                0.930655063      -84.236928
9.197                0.930439957     -84.3855325
9.198                0.930224521     -84.5345528
9.199                0.930008757     -84.6839905
9.2                  0.929792666      -84.833847
9.201                0.929576249     -84.9841237
9.202                0.929359507     -85.1348222
9.203                0.929142441     -85.2859439
9.204                0.928925053     -85.4374902
9.205                0.928707343     -85.5894626
9.206                0.928489314     -85.7418627
9.207                0.928270967     -85.8946919
9.208                0.928052302     -86.0479517
9.209                0.927833321     -86.2016435
9.21                 0.927614025     -86.3557689
9.211                0.927394417     -86.5103294
9.212                0.927174496     -86.6653264
9.213                0.926954264     -86.8207614
9.214                0.926733724      -86.976636
9.215                0.926512875     -87.1329517
9.216                0.926291721     -87.2897099
9.217                0.926070261     -87.4469122
9.218                0.925848498       -87.60456
9.219                0.925626433      -87.762655
9.22                 0.925404067     -87.9211986
9.221                0.925181402     -88.0801923
9.222                 0.92495844     -88.2396376
9.223                0.924735182     -88.3995362
9.224                0.924511629     -88.5598894
9.225                0.924287784     -88.7206989
9.226                0.924063647     -88.8819661
9.227                0.923839221     -89.0436927
9.228                0.923614507     -89.2058801
9.229                0.923389506     -89.3685298
9.23                 0.923164221     -89.5316434
9.231                0.922938653     -89.6952225
9.232                0.922712803     -89.8592686
9.233                0.922486674     -90.0237832
9.234                0.922260268     -90.1887679
9.235                0.922033585     -90.3542243
9.236                0.921806628     -90.5201538
9.237                0.921579399      -90.686558
9.238                0.921351899     -90.8534385
9.239                0.921124131     -91.0207969
9.24                 0.920896096     -91.1886346
9.241                0.920667796     -91.3569533
9.242                0.920439233     -91.5257545
9.243                0.920210409     -91.6950397
9.244                0.919981326     -91.8648106
9.245                0.919751986     -92.0350686
9.246                0.919522391     -92.2058154
9.247                0.919292544     -92.3770525
9.248                0.919062445     -92.5487814
9.249                0.918832098     -92.7210038
9.25                 0.918601505     -92.8937212
9.251                0.918370667     -93.0669351
9.252                0.918139587     -93.2406472
9.253                0.917908266     -93.4148589
9.254                0.917676709     -93.5895719
9.255                0.917444915     -93.7647877
9.256                0.917212889     -93.9405079
9.257                0.916980631     -94.1167341
9.258                0.916748145     -94.2934677
9.259                0.916515433     -94.4707105
9.26                 0.916282498     -94.6484639
9.261                0.916049341     -94.8267295
9.262                0.915815965     -95.0055088
9.263                0.915582373     -95.1848035
9.264                0.915348567     -95.3646151
9.265                 0.91511455     -95.5449452
9.266                0.914880324     -95.7257953
9.267                0.914645893      -95.907167
9.268                0.914411258     -96.0890618
9.269                0.914176423     -96.2714813
9.27                 0.913941389     -96.4544271
9.271                0.913706161     -96.6379007
9.272                 0.91347074     -96.8219037
9.273                 0.91323513     -97.0064375
9.274                0.912999333     -97.1915039
9.275                0.912763352     -97.3771042
9.276                0.912527191     -97.5632402
9.277                0.912290851     -97.7499132
9.278                0.912054337     -97.9371249
9.279                0.911817651     -98.1248768
9.28                 0.911580796     -98.3131704
9.281                0.911343776     -98.5020072
9.282                0.911106593     -98.6913889
9.283                0.910869251     -98.8813169
9.284                0.910631753     -99.0717927
9.285                0.910394102     -99.2628179
9.286                0.910156301      -99.454394
9.287                0.909918355     -99.6465225
9.288                0.909680265      -99.839205
9.289                0.909442036     -100.032443
9.29                 0.909203672     -100.226238
9.291                0.908965175     -100.420591
9.292                0.908726549     -100.615504
9.293                0.908487798     -100.810979
9.294                0.908248925     -101.007016
9.295                0.908009935     -101.203618
9.296                 0.90777083     -101.400786
9.297                0.907531615     -101.598522
9.298                0.907292293     -101.796826
9.299                0.907052868       -101.9957
9.3                  0.906813344     -102.195146
9.301                0.906573725     -102.395166
9.302                0.906334016      -102.59576
9.303                0.906094219      -102.79693
9.304                 0.90585434     -102.998678
9.305                0.905614381     -103.201004
9.306                0.905374349     -103.403912
9.307                0.905134245     -103.607401
9.308                0.904894076     -103.811473
9.309                0.904653845      -104.01613
9.31                 0.904413556     -104.221373
9.311                0.904173214     -104.427203
9.312                0.903932824     -104.633622
9.313                0.903692389     -104.840632
9.314                0.903451915     -105.048233
9.315                0.903211407     -105.256427
9.316                0.902970867     -105.465216
9.317                0.902730303       -105.6746
9.318                0.902489717     -105.884581
9.319                0.902249116      -106.09516
9.32                 0.902008503     -106.306339
9.321                0.901767884     -106.518119
9.322                0.901527264     -106.730501
9.323                0.901286648     -106.943487
9.324                0.901046041     -107.157078
9.325                0.900805448     -107.371275
9.326                0.900564874     -107.586079
9.327                0.900324324     -107.801492
9.328                0.900083804     -108.017515
9.329                0.899843319     -108.234149
9.33                 0.899602875     -108.451395
9.331                0.899362476     -108.669255
9.332                0.899122129      -108.88773
9.333                 0.89888184      -109.10682
9.334                0.898641612     -109.326528
9.335                0.898401454     -109.546854
9.336                0.898161369       -109.7678
9.337                0.897921364     -109.989366
9.338                0.897681445     -110.211555
9.339                0.897441618     -110.434366
9.34                 0.897201889     -110.657801
9.341                0.896962263     -110.881861
9.342                0.896722747     -111.106547
9.343                0.896483348     -111.331861
9.344                 0.89624407     -111.557802
9.345                0.896004921     -111.784374
9.346                0.895765907     -112.011575
9.347                0.895527034     -112.239408
9.348                0.895288309     -112.467874
9.349                0.895049738     -112.696972
9.35                 0.894811328     -112.926705
9.351                0.894573086     -113.157074
9.352                0.894335017     -113.388078
9.353                 0.89409713      -113.61972
9.354                0.893859431        -113.852
9.355                0.893621926     -114.084919
9.356                0.893384623     -114.318478
9.357                0.893147529     -114.552677
9.358                 0.89291065     -114.787518
9.359                0.892673994     -115.023001
9.36                 0.892437569     -115.259127
9.361                0.892201381     -115.495897
9.362                0.891965438     -115.733312
9.363                0.891729747     -115.971373
9.364                0.891494315     -116.210079
9.365                0.891259151     -116.449433
9.366                0.891024262     -116.689434
9.367                0.890789655     -116.930083
9.368                0.890555338     -117.171381
9.369                0.890321319     -117.413329
9.37                 0.890087606     -117.655927
9.371                0.889854206     -117.899176
9.372                0.889621128     -118.143076
9.373                 0.88938838     -118.387628
9.374                 0.88915597     -118.632832
9.375                0.888923906      -118.87869
9.376                0.888692196     -119.125201
9.377                0.888460848     -119.372365
9.378                0.888229871     -119.620184
9.379                0.887999274     -119.868658
9.38                 0.887769064     -120.117787
9.381                0.887539251     -120.367571
9.382                0.887309843     -120.618011
9.383                0.887080848     -120.869108
9.384                0.886852276     -121.120861
9.385                0.886624135      -121.37327
9.386                0.886396434     -121.626337
9.387                0.886169182     -121.880061
9.388                0.885942388     -122.134443
9.389                0.885716061     -122.389482
9.39                  0.88549021     -122.645179
9.391                0.885264844     -122.901534
9.392                0.885039973     -123.158546
9.393                0.884815606     -123.416217
9.394                0.884591752     -123.674547
9.395                0.884368421     -123.933534
9.396                0.884145621     -124.193179
