! TOUCHSTONE file generated by CST DESIGN STUDIO
! Date and time: Tue Feb  4 16:20:47 2025
! Project name: C:\Work\MatlabApps\UnitCellOptimizationMatlab\CST\unitcell.cst
! Tree item: Tasks\Sweep1\SPara1\S-Parameters
! Header version: 2024
! Port assignment regex: !\s*Touchstone port\s*([0-9]+)\s*=\s*(CST MWS port|CST DES external port|CST DES block port)\s*(.+)\s* \(\"(.*)\"\)(\s*mode\s*([0-9]+))?.*
! Touchstone port assignment:
! Touchstone port 1 = CST DES external port 1 ("")
# GHz S MA R 50
9                    0.962541454     -65.5628119
9.001                0.962379801     -65.6627336
9.002                0.962217647     -65.7628923
9.003                0.962054994     -65.8632887
9.004                0.961891841     -65.9639237
9.005                0.961728189     -66.0647981
9.006                0.961564037     -66.1659128
9.007                0.961399387     -66.2672684
9.008                0.961234237      -66.368866
9.009                0.961068588     -66.4707062
9.01                 0.960902441       -66.57279
9.011                0.960735795     -66.6751182
9.012                0.960568651     -66.7776916
9.013                0.960401009     -66.8805111
9.014                0.960232869     -66.9835774
9.015                0.960064231     -67.0868916
9.016                0.959895095     -67.1904544
9.017                0.959725462     -67.2942668
9.018                0.959555332     -67.3983294
9.019                0.959384705     -67.5026434
9.02                 0.959213582     -67.6072094
9.021                0.959041962     -67.7120284
9.022                0.958869845     -67.8171013
9.023                0.958697233      -67.922429
9.024                0.958524124     -68.0280122
9.025                0.958350521     -68.1338521
9.026                0.958176422     -68.2399493
9.027                0.958001827     -68.3463049
9.028                0.957826739     -68.4529197
9.029                0.957651155     -68.5597946
9.03                 0.957475077     -68.6669306
9.031                0.957298506     -68.7743286
9.032                0.957121441     -68.8819895
9.033                0.956943882     -68.9899141
9.034                 0.95676583     -69.0981035
9.035                0.956587285     -69.2065585
9.036                0.956408248     -69.3152802
9.037                0.956228719     -69.4242694
9.038                0.956048698      -69.533527
9.039                0.955868185     -69.6430541
9.04                 0.955687181     -69.7528515
9.041                0.955505686     -69.8629203
9.042                  0.9553237     -69.9732614
9.043                0.955141224     -70.0838756
9.044                0.954958259     -70.1947642
9.045                0.954774804     -70.3059278
9.046                0.954590859     -70.4173677
9.047                0.954406426     -70.5290846
9.048                0.954221504     -70.6410797
9.049                0.954036094     -70.7533538
9.05                 0.953850197     -70.8659081
9.051                0.953663812     -70.9787434
9.052                0.953476941     -71.0918608
9.053                0.953289582     -71.2052612
9.054                0.953101738     -71.3189458
9.055                0.952913408     -71.4329154
9.056                0.952724593     -71.5471711
9.057                0.952535293     -71.6617139
9.058                0.952345508     -71.7765449
9.059                0.952155239      -71.891665
9.06                 0.951964487     -72.0070753
9.061                0.951773252     -72.1227769
9.062                0.951581534     -72.2387707
9.063                0.951389334     -72.3550578
9.064                0.951196652     -72.4716393
9.065                0.951003489     -72.5885161
9.066                0.950809845     -72.7056894
9.067                0.950615721     -72.8231603
9.068                0.950421116     -72.9409297
9.069                0.950226033     -73.0589987
9.07                 0.950030471     -73.1773684
9.071                 0.94983443     -73.2960399
9.072                0.949637912     -73.4150143
9.073                0.949440916     -73.5342926
9.074                0.949243444     -73.6538759
9.075                0.949045496     -73.7737654
9.076                0.948847072     -73.8939621
9.077                0.948648172      -74.014467
9.078                0.948448798     -74.1352814
9.079                0.948248951     -74.2564064
9.08                  0.94804863     -74.3778429
9.081                0.947847836     -74.4995922
9.082                0.947646569     -74.6216554
9.083                0.947444832     -74.7440335
9.084                0.947242623     -74.8667278
9.085                0.947039943     -74.9897393
9.086                0.946836794     -75.1130692
9.087                0.946633176     -75.2367187
9.088                0.946429089     -75.3606888
9.089                0.946224535     -75.4849807
9.09                 0.946019513     -75.6095956
9.091                0.945814024     -75.7345346
9.092                0.945608069      -75.859799
9.093                 0.94540165     -75.9853897
9.094                0.945194765     -76.1113081
9.095                0.944987417     -76.2375553
9.096                0.944779606     -76.3641325
9.097                0.944571332     -76.4910409
9.098                0.944362596     -76.6182816
9.099                0.944153399     -76.7458558
9.1                  0.943943742     -76.8737647
9.101                0.943733626     -77.0020096
9.102                 0.94352305     -77.1305916
9.103                0.943312017      -77.259512
9.104                0.943100526     -77.3887719
9.105                0.942888579     -77.5183726
9.106                0.942676176     -77.6483152
9.107                0.942463318     -77.7786011
9.108                0.942250006     -77.9092314
9.109                 0.94203624     -78.0402073
9.11                 0.941822022     -78.1715302
9.111                0.941607353     -78.3032012
9.112                0.941392232     -78.4352216
9.113                0.941176662     -78.5675926
9.114                0.940960643     -78.7003155
9.115                0.940744175     -78.8333915
9.116                 0.94052726      -78.966822
9.117                0.940309899     -79.1006081
9.118                0.940092092     -79.2347511
9.119                0.939873841     -79.3692524
9.12                 0.939655146     -79.5041131
9.121                0.939436008     -79.6393346
9.122                0.939216428     -79.7749182
9.123                0.938996408     -79.9108651
9.124                0.938775947     -80.0471766
9.125                0.938555048     -80.1838541
9.126                0.938333711     -80.3208987
9.127                0.938111938     -80.4583119
9.128                0.937889728      -80.596095
9.129                0.937667083     -80.7342492
9.13                 0.937444005     -80.8727758
9.131                0.937220494     -81.0116763
9.132                0.936996552     -81.1509519
9.133                0.936772179     -81.2906039
9.134                0.936547377     -81.4306336
9.135                0.936322146     -81.5710425
9.136                0.936096488     -81.7118319
9.137                0.935870404      -81.853003
9.138                0.935643895     -81.9945573
9.139                0.935416962      -82.136496
9.14                 0.935189607     -82.2788206
9.141                 0.93496183     -82.4215324
9.142                0.934733633     -82.5646328
9.143                0.934505018     -82.7081231
9.144                0.934275984     -82.8520047
9.145                0.934046534     -82.9962789
9.146                0.933816669     -83.1409473
9.147                 0.93358639      -83.286011
9.148                0.933355698     -83.4314716
9.149                0.933124595     -83.5773303
9.15                 0.932893082     -83.7235887
9.151                 0.93266116     -83.8702481
9.152                0.932428831     -84.0173098
9.153                0.932196096     -84.1647753
9.154                0.931962957     -84.3126461
9.155                0.931729414     -84.4609234
9.156                 0.93149547     -84.6096087
9.157                0.931261125     -84.7587035
9.158                0.931026382     -84.9082091
9.159                0.930791241      -85.058127
9.16                 0.930555705     -85.2084586
9.161                0.930319774     -85.3592053
9.162                 0.93008345     -85.5103686
9.163                0.929846736     -85.6619499
9.164                0.929609631     -85.8139506
9.165                0.929372138     -85.9663721
9.166                0.929134259      -86.119216
9.167                0.928895995     -86.2724836
9.168                0.928657348     -86.4261765
9.169                0.928418319      -86.580296
9.17                  0.92817891     -86.7348437
9.171                0.927939124     -86.8898209
9.172                 0.92769896     -87.0452292
9.173                0.927458422       -87.20107
9.174                0.927217511     -87.3573448
9.175                0.926976229      -87.514055
9.176                0.926734577     -87.6712021
9.177                0.926492558     -87.8287877
9.178                0.926250174     -87.9868131
9.179                0.926007425     -88.1452798
9.18                 0.925764315     -88.3041895
9.181                0.925520844     -88.4635434
9.182                0.925277016     -88.6233431
9.183                0.925032831     -88.7835902
9.184                0.924788292     -88.9442861
9.185                0.924543401     -89.1054322
9.186                 0.92429816     -89.2670302
9.187                0.924052572     -89.4290814
9.188                0.923806637     -89.5915874
9.189                0.923560358     -89.7545498
9.19                 0.923313738     -89.9179699
9.191                0.923066778     -90.0818494
9.192                0.922819481     -90.2461896
9.193                0.922571848     -90.4109922
9.194                0.922323883     -90.5762587
9.195                0.922075587     -90.7419905
9.196                0.921826963     -90.9081892
9.197                0.921578013     -91.0748563
9.198                0.921328739     -91.2419933
9.199                0.921079144     -91.4096018
9.2                   0.92082923     -91.5776832
9.201                0.920578999     -91.7462391
9.202                0.920328454     -91.9152711
9.203                0.920077598     -92.0847805
9.204                0.919826433     -92.2547691
9.205                0.919574961     -92.4252382
9.206                0.919323186     -92.5961895
9.207                0.919071109     -92.7676244
9.208                0.918818733     -92.9395445
9.209                0.918566062     -93.1119514
9.21                 0.918313097     -93.2848465
9.211                0.918059842     -93.4582314
9.212                0.917806298     -93.6321076
9.213                 0.91755247     -93.8064767
9.214                 0.91729836     -93.9813402
9.215                 0.91704397     -94.1566996
9.216                0.916789304     -94.3325565
9.217                0.916534364     -94.5089124
9.218                0.916279154     -94.6857688
9.219                0.916023676     -94.8631274
9.22                 0.915767934     -95.0409895
9.221                 0.91551193     -95.2193568
9.222                0.915255668     -95.3982308
9.223                0.914999151      -95.577613
9.224                0.914742382     -95.7575049
9.225                0.914485364     -95.9379082
9.226                  0.9142281     -96.1188242
9.227                0.913970594     -96.3002547
9.228                0.913712849      -96.482201
9.229                0.913454868     -96.6646647
9.23                 0.913196655     -96.8476474
9.231                0.912938213     -97.0311506
9.232                0.912679546     -97.2151758
9.233                0.912420657     -97.3997245
9.234                 0.91216155     -97.5847983
9.235                0.911902228     -97.7703986
9.236                0.911642695     -97.9565271
9.237                0.911382954     -98.1431851
9.238                 0.91112301     -98.3303744
9.239                0.910862867     -98.5180962
9.24                 0.910602526     -98.7063523
9.241                0.910341994      -98.895144
9.242                0.910081274     -99.0844729
9.243                0.909820368     -99.2743405
9.244                0.909559283     -99.4647483
9.245                0.909298021     -99.6556978
9.246                0.909036586     -99.8471905
9.247                0.908774983     -100.039228
9.248                0.908513216     -100.231811
9.249                0.908251289     -100.424943
9.25                 0.907989206     -100.618623
9.251                0.907726972     -100.812854
9.252                0.907464591     -101.007637
9.253                0.907202067     -101.202974
9.254                0.906939404     -101.398866
9.255                0.906676608     -101.595314
9.256                0.906413683      -101.79232
9.257                0.906150632     -101.989886
9.258                0.905887462     -102.188013
9.259                0.905624176     -102.386702
9.26                 0.905360779     -102.585955
9.261                0.905097276     -102.785773
9.262                0.904833672     -102.986157
9.263                0.904569972      -103.18711
9.264                 0.90430618     -103.388632
9.265                0.904042302     -103.590726
9.266                0.903778343     -103.793391
9.267                0.903514307     -103.996631
9.268                  0.9032502     -104.200445
9.269                0.902986027     -104.404836
9.27                 0.902721793     -104.609805
9.271                0.902457503     -104.815353
9.272                0.902193164     -105.021482
9.273                0.901928779     -105.228193
9.274                0.901664356     -105.435487
9.275                0.901399898     -105.643366
9.276                0.901135412     -105.851831
9.277                0.900870904     -106.060884
9.278                0.900606378     -106.270526
9.279                0.900341841     -106.480757
9.28                 0.900077299      -106.69158
9.281                0.899812757     -106.902995
9.282                0.899548221     -107.115005
9.283                0.899283698      -107.32761
9.284                0.899019192     -107.540811
9.285                0.898754711     -107.754611
9.286                0.898490261     -107.969009
9.287                0.898225847     -108.184008
9.288                0.897961476     -108.399608
9.289                0.897697154     -108.615811
9.29                 0.897432887     -108.832619
9.291                0.897168683     -109.050031
9.292                0.896904546      -109.26805
9.293                0.896640485     -109.486676
9.294                0.896376506     -109.705912
9.295                0.896112614     -109.925757
9.296                0.895848818     -110.146214
9.297                0.895585124     -110.367283
9.298                0.895321538     -110.588965
9.299                0.895058068     -110.811262
9.3                   0.89479472     -111.034174
9.301                0.894531502     -111.257703
9.302                 0.89426842      -111.48185
9.303                0.894005482     -111.706616
9.304                0.893742696     -111.932002
9.305                0.893480068     -112.158009
9.306                0.893217605     -112.384638
9.307                0.892955316      -112.61189
9.308                0.892693207     -112.839766
9.309                0.892431287     -113.068268
9.31                 0.892169562     -113.297395
9.311                0.891908041     -113.527149
9.312                0.891646732     -113.757531
9.313                0.891385641     -113.988542
9.314                0.891124777     -114.220183
9.315                0.890864148     -114.452455
9.316                0.890603762     -114.685358
9.317                0.890343627     -114.918893
9.318                0.890083751     -115.153062
9.319                0.889824142     -115.387865
9.32                 0.889564809     -115.623302
9.321                 0.88930576     -115.859376
9.322                0.889047003     -116.096086
9.323                0.888788547     -116.333433
9.324                  0.8885304     -116.571419
9.325                0.888272571     -116.810043
9.326                0.888015068     -117.049306
9.327                0.887757901      -117.28921
9.328                0.887501078     -117.529755
9.329                0.887244608     -117.770941
9.33                   0.8869885     -118.012769
9.331                0.886732762      -118.25524
9.332                0.886477405     -118.498354
9.333                0.886222436     -118.742112
9.334                0.885967866     -118.986515
9.335                0.885713703     -119.231562
9.336                0.885459957     -119.477255
9.337                0.885206637     -119.723594
9.338                0.884953753      -119.97058
9.339                0.884701314     -120.218212
9.34                  0.88444933     -120.466492
9.341                 0.88419781     -120.715419
9.342                0.883946764     -120.964995
9.343                0.883696202     -121.215219
9.344                0.883446133     -121.466092
9.345                0.883196568     -121.717613
9.346                0.882947517     -121.969785
9.347                0.882698989     -122.222606
9.348                0.882450995     -122.476076
9.349                0.882203544     -122.730197
9.35                 0.881956648     -122.984968
9.351                0.881710315      -123.24039
9.352                0.881464557     -123.496462
9.353                0.881219384     -123.753185
9.354                0.880974807     -124.010559
9.355                0.880730835     -124.268583
9.356                 0.88048748     -124.527258
9.357                0.880244752     -124.786585
9.358                0.880002662     -125.046562
9.359                 0.87976122     -125.307189
9.36                 0.879520438     -125.568468
9.361                0.879280326     -125.830397
9.362                0.879040894     -126.092977
9.363                0.878802155     -126.356207
9.364                0.878564119     -126.620087
9.365                0.878326797     -126.884616
9.366                0.878090201     -127.149796
9.367                 0.87785434     -127.415625
9.368                0.877619228     -127.682103
9.369                0.877384874     -127.949229
9.37                 0.877151291     -128.217004
9.371                0.876918489     -128.485427
9.372                0.876686481     -128.754498
9.373                0.876455277     -129.024215
9.374                0.876224889     -129.294579
9.375                0.875995329     -129.565589
9.376                0.875766608     -129.837244
9.377                0.875538738     -130.109544
9.378                0.875311731     -130.382489
9.379                0.875085598     -130.656077
9.38                 0.874860351     -130.930308
9.381                0.874636003      -131.20518
9.382                0.874412564     -131.480695
9.383                0.874190047      -131.75685
9.384                0.873968464     -132.033644
9.385                0.873747827     -132.311078
9.386                0.873528148     -132.589149
9.387                0.873309438     -132.867858
9.388                0.873091711     -133.147202
9.389                0.872874977     -133.427182
9.39                 0.872659249     -133.707796
9.391                 0.87244454     -133.989042
9.392                0.872230862     -134.270921
9.393                0.872018226      -134.55343
9.394                0.871806646     -134.836569
9.395                0.871596133     -135.120336
9.396                0.871386699      -135.40473
