! TOUCHSTONE file generated by CST DESIGN STUDIO
! Date and time: Tue Feb  4 16:20:41 2025
! Project name: C:\Work\MatlabApps\UnitCellOptimizationMatlab\CST\unitcell.cst
! Tree item: Tasks\Sweep1\SPara1\S-Parameters
! Header version: 2024
! Port assignment regex: !\s*Touchstone port\s*([0-9]+)\s*=\s*(CST MWS port|CST DES external port|CST DES block port)\s*(.+)\s* \(\"(.*)\"\)(\s*mode\s*([0-9]+))?.*
! Touchstone port assignment:
! Touchstone port 1 = CST DES external port 1 ("")
# GHz S MA R 50
9                    0.949793454     -85.0940679
9.001                0.949508576     -85.2486736
9.002                0.949222673     -85.4036835
9.003                0.948935746      -85.559099
9.004                0.948647797     -85.7149211
9.005                0.948358828     -85.8711511
9.006                 0.94806884     -86.0277902
9.007                0.947777836     -86.1848397
9.008                0.947485818     -86.3423008
9.009                0.947192786     -86.5001748
9.01                 0.946898743     -86.6584628
9.011                0.946603692     -86.8171661
9.012                0.946307634      -86.976286
9.013                0.946010571     -87.1358237
9.014                0.945712506     -87.2957804
9.015                0.945413441     -87.4561574
9.016                0.945113377     -87.6169559
9.017                0.944812318     -87.7781773
9.018                0.944510265     -87.9398227
9.019                0.944207221     -88.1018934
9.02                 0.943903189     -88.2643907
9.021                0.943598171     -88.4273159
9.022                 0.94329217     -88.5906702
9.023                0.942985187     -88.7544548
9.024                0.942677227     -88.9186711
9.025                0.942368291     -89.0833204
9.026                0.942058382     -89.2484038
9.027                0.941747504     -89.4139227
9.028                0.941435659     -89.5798784
9.029                0.941122849     -89.7462722
9.03                 0.940809079     -89.9131053
9.031                0.940494351      -90.080379
9.032                0.940178668     -90.2480946
9.033                0.939862033     -90.4162535
9.034                 0.93954445     -90.5848568
9.035                0.939225922     -90.7539059
9.036                0.938906451     -90.9234021
9.037                0.938586042     -91.0933467
9.038                0.938264699      -91.263741
9.039                0.937942423     -91.4345863
9.04                  0.93761922     -91.6058839
9.041                0.937295092     -91.7776351
9.042                0.936970044     -91.9498412
9.043                0.936644078     -92.1225036
9.044                  0.9363172     -92.2956234
9.045                0.935989412     -92.4692021
9.046                0.935660719      -92.643241
9.047                0.935331124     -92.8177413
9.048                0.935000632     -92.9927045
9.049                0.934669247     -93.1681317
9.05                 0.934336973     -93.3440243
9.051                0.934003813     -93.5203837
9.052                0.933669774     -93.6972112
9.053                0.933334858      -93.874508
9.054                 0.93299907     -94.0522756
9.055                0.932662415     -94.2305152
9.056                0.932324897     -94.4092281
9.057                0.931986521     -94.5884157
9.058                0.931647291     -94.7680793
9.059                0.931307213     -94.9482203
9.06                 0.930966291     -95.1288399
9.061                 0.93062453     -95.3099395
9.062                0.930281935     -95.4915204
9.063                 0.92993851      -95.673584
9.064                0.929594262     -95.8561315
9.065                0.929249195     -96.0391643
9.066                0.928903314     -96.2226837
9.067                0.928556625     -96.4066911
9.068                0.928209133     -96.5911878
9.069                0.927860843     -96.7761751
9.07                 0.927511761     -96.9616543
9.071                0.927161893     -97.1476268
9.072                0.926811244     -97.3340939
9.073                 0.92645982     -97.5210568
9.074                0.926107626     -97.7085171
9.075                0.925754669     -97.8964759
9.076                0.925400954     -98.0849346
9.077                0.925046488     -98.2738945
9.078                0.924691276      -98.463357
9.079                0.924335324     -98.6533234
9.08                  0.92397864     -98.8437949
9.081                0.923621229     -99.0347729
9.082                0.923263097     -99.2262588
9.083                0.922904251     -99.4182538
9.084                0.922544698     -99.6107592
9.085                0.922184444     -99.8037765
9.086                0.921823495     -99.9973068
9.087                0.921461859     -100.191351
9.088                0.921099543     -100.385912
9.089                0.920736552     -100.580989
9.09                 0.920372895     -100.776585
9.091                0.920008578       -100.9727
9.092                0.919643609     -101.169337
9.093                0.919277994     -101.366495
9.094                0.918911742     -101.564177
9.095                0.918544859     -101.762384
9.096                0.918177352     -101.961117
9.097                 0.91780923     -102.160377
9.098                  0.9174405     -102.360166
9.099                 0.91707117     -102.560485
9.1                  0.916701247     -102.761335
9.101                0.916330739     -102.962718
9.102                0.915959655     -103.164635
9.103                0.915588002     -103.367086
9.104                0.915215789     -103.570074
9.105                0.914843023     -103.773599
9.106                0.914469714     -103.977663
9.107                0.914095869     -104.182268
9.108                0.913721496     -104.387413
9.109                0.913346605     -104.593101
9.11                 0.912971204     -104.799333
9.111                0.912595302      -105.00611
9.112                0.912218907     -105.213433
9.113                0.911842029     -105.421304
9.114                0.911464676     -105.629723
9.115                0.911086857     -105.838693
9.116                0.910708582     -106.048213
9.117                 0.91032986     -106.258286
9.118                0.909950701     -106.468912
9.119                0.909571112     -106.680093
9.12                 0.909191105      -106.89183
9.121                0.908810689     -107.104124
9.122                0.908429873     -107.316976
9.123                0.908048667     -107.530388
9.124                0.907667081      -107.74436
9.125                0.907285125     -107.958894
9.126                0.906902809     -108.173991
9.127                0.906520143     -108.389652
9.128                0.906137138     -108.605878
9.129                0.905753803      -108.82267
9.13                 0.905370149     -109.040029
9.131                0.904986187     -109.257957
9.132                0.904601927     -109.476455
9.133                 0.90421738     -109.695523
9.134                0.903832557     -109.915164
9.135                0.903447468     -110.135377
9.136                0.903062125     -110.356163
9.137                0.902676538     -110.577525
9.138                0.902290719     -110.799463
9.139                0.901904678     -111.021978
9.14                 0.901518428     -111.245071
9.141                 0.90113198     -111.468743
9.142                0.900745345     -111.692995
9.143                0.900358534     -111.917828
9.144                 0.89997156     -112.143243
9.145                0.899584435     -112.369242
9.146                0.899197169     -112.595824
9.147                0.898809776     -112.822991
9.148                0.898422267     -113.050744
9.149                0.898034655     -113.279085
9.15                 0.897646951     -113.508013
9.151                0.897259168     -113.737529
9.152                0.896871319     -113.967635
9.153                0.896483416     -114.198332
9.154                0.896095472      -114.42962
9.155                0.895707499       -114.6615
9.156                0.895319511     -114.893974
9.157                0.894931519     -115.127041
9.158                0.894543538     -115.360703
9.159                0.894155581      -115.59496
9.16                  0.89376766     -115.829814
9.161                0.893379789     -116.065265
9.162                0.892991982     -116.301314
9.163                0.892604251     -116.537961
9.164                 0.89221661     -116.775208
9.165                0.891829074     -117.013055
9.166                0.891441656     -117.251502
9.167                0.891054369     -117.490552
9.168                0.890667228     -117.730203
9.169                0.890280247     -117.970457
9.17                  0.88989344     -118.211315
9.171                0.889506821     -118.452776
9.172                0.889120405     -118.694843
9.173                0.888734205     -118.937514
9.174                0.888348237     -119.180792
9.175                0.887962515     -119.424676
9.176                0.887577053     -119.669167
9.177                0.887191867     -119.914266
9.178                0.886806972     -120.159972
9.179                0.886422382     -120.406287
9.18                 0.886038112     -120.653212
9.181                0.885654178     -120.900745
9.182                0.885270595     -121.148888
9.183                0.884887378     -121.397642
9.184                0.884504542     -121.647007
9.185                0.884122104     -121.896982
9.186                0.883740078     -122.147569
9.187                0.883358481     -122.398767
9.188                0.882977328     -122.650578
9.189                0.882596634     -122.903001
9.19                 0.882216417     -123.156037
9.191                0.881836691     -123.409685
9.192                0.881457473     -123.663947
9.193                 0.88107878     -123.918822
9.194                0.880700627      -124.17431
9.195                 0.88032303     -124.430412
9.196                0.879946007     -124.687128
9.197                0.879569573     -124.944458
9.198                0.879193746     -125.202402
9.199                0.878818542     -125.460959
9.2                  0.878443977     -125.720131
9.201                0.878070069     -125.979917
9.202                0.877696834     -126.240318
9.203                0.877324289     -126.501332
9.204                0.876952452      -126.76296
9.205                0.876581339     -127.025203
9.206                0.876210968     -127.288059
9.207                0.875841355     -127.551529
9.208                0.875472519     -127.815613
9.209                0.875104477      -128.08031
9.21                 0.874737245      -128.34562
9.211                0.874370843     -128.611543
9.212                0.874005286     -128.878079
9.213                0.873640593     -129.145227
9.214                0.873276782     -129.412988
9.215                 0.87291387      -129.68136
9.216                0.872551875     -129.950344
9.217                0.872190815     -130.219938
9.218                0.871830709     -130.490144
9.219                0.871471573     -130.760959
9.22                 0.871113427     -131.032384
9.221                0.870756287     -131.304418
9.222                0.870400173      -131.57706
9.223                0.870045103     -131.850311
9.224                0.869691095     -132.124169
9.225                0.869338167     -132.398633
9.226                0.868986338     -132.673704
9.227                0.868635626      -132.94938
9.228                0.868286049     -133.225661
9.229                0.867937626     -133.502546
9.23                 0.867590376     -133.780033
9.231                0.867244317     -134.058123
9.232                0.866899468     -134.336815
9.233                0.866555848     -134.616107
9.234                0.866213474     -134.895998
9.235                0.865872367     -135.176488
9.236                0.865532544     -135.457576
9.237                0.865194024     -135.739261
9.238                0.864856827     -136.021541
9.239                0.864520971     -136.304415
9.24                 0.864186475     -136.587883
9.241                0.863853358     -136.871943
9.242                0.863521638     -137.156594
9.243                0.863191335     -137.441835
9.244                0.862862468     -137.727664
9.245                0.862535055     -138.014081
9.246                0.862209116     -138.301083
9.247                0.861884669      -138.58867
9.248                0.861561734      -138.87684
9.249                0.861240329     -139.165592
9.25                 0.860920474     -139.454923
9.251                0.860602187     -139.744834
9.252                0.860285487     -140.035322
9.253                0.859970394     -140.326385
9.254                0.859656926     -140.618022
9.255                0.859345102     -140.910231
9.256                0.859034942     -141.203011
9.257                0.858726463     -141.496359
9.258                0.858419686     -141.790275
9.259                0.858114629     -142.084756
9.26                 0.857811311       -142.3798
9.261                0.857509751     -142.675406
9.262                0.857209967     -142.971571
9.263                0.856911978     -143.268294
9.264                0.856615804     -143.565572
9.265                0.856321463     -143.863404
9.266                0.856028973     -144.161787
9.267                0.855738354     -144.460719
9.268                0.855449623     -144.760199
9.269                  0.8551628     -145.060224
9.27                 0.854877904     -145.360791
9.271                0.854594951     -145.661899
9.272                0.854313962     -145.963544
9.273                0.854034954     -146.265726
9.274                0.853757946     -146.568441
9.275                0.853482956     -146.871686
9.276                0.853210002      -147.17546
9.277                0.852939102      -147.47976
9.278                0.852670275     -147.784584
9.279                0.852403539     -148.089928
9.28                  0.85213891      -148.39579
9.281                0.851876408     -148.702167
9.282                 0.85161605     -149.009057
9.283                0.851357853     -149.316457
9.284                0.851101836     -149.624364
9.285                0.850848015     -149.932775
9.286                0.850596409     -150.241688
9.287                0.850347034     -150.551099
9.288                0.850099908     -150.861005
9.289                0.849855048     -151.171404
9.29                 0.849612472     -151.482293
9.291                0.849372194     -151.793667
9.292                0.849134234     -152.105525
9.293                0.848898607     -152.417863
9.294                 0.84866533     -152.730677
9.295                 0.84843442     -153.043965
9.296                0.848205892     -153.357724
9.297                0.847979764     -153.671949
9.298                0.847756051     -153.986638
9.299                0.847534769     -154.301786
9.3                  0.847315934     -154.617392
9.301                0.847099562     -154.933451
9.302                0.846885668     -155.249959
9.303                0.846674268     -155.566913
9.304                0.846465377      -155.88431
9.305                 0.84625901     -156.202146
9.306                0.846055182     -156.520416
9.307                0.845853908     -156.839119
9.308                0.845655203     -157.158248
9.309                0.845459082     -157.477802
9.31                 0.845265557     -157.797775
9.311                0.845074645     -158.118164
9.312                0.844886358     -158.438966
9.313                0.844700711     -158.760175
9.314                0.844517718     -159.081789
9.315                0.844337391     -159.403803
9.316                0.844159744     -159.726213
9.317                0.843984791     -160.049015
9.318                0.843812544     -160.372204
9.319                0.843643016     -160.695778
9.32                  0.84347622      -161.01973
9.321                0.843312167     -161.344057
9.322                0.843150871     -161.668756
9.323                0.842992343      -161.99382
9.324                0.842836595     -162.319247
9.325                0.842683639     -162.645032
9.326                0.842533486     -162.971169
9.327                0.842386147     -163.297655
9.328                0.842241633     -163.624486
9.329                0.842099955     -163.951656
9.33                 0.841961123     -164.279161
9.331                0.841825148     -164.606997
9.332                 0.84169204     -164.935158
9.333                0.841561808     -165.263641
9.334                0.841434463      -165.59244
9.335                0.841310014     -165.921551
9.336                0.841188469     -166.250968
9.337                0.841069838     -166.580688
9.338                 0.84095413     -166.910704
9.339                0.840841352     -167.241014
9.34                 0.840731514      -167.57161
9.341                0.840624623     -167.902489
9.342                0.840520688     -168.233646
9.343                0.840419714     -168.565075
9.344                 0.84032171     -168.896772
9.345                0.840226683     -169.228732
9.346                 0.84013464     -169.560948
9.347                0.840045586     -169.893417
9.348                0.839959529     -170.226134
9.349                0.839876473     -170.559092
9.35                 0.839796426     -170.892287
9.351                0.839719392     -171.225714
9.352                0.839645376     -171.559367
9.353                0.839574384     -171.893241
9.354                 0.83950642     -172.227332
9.355                0.839441488     -172.561632
9.356                0.839379593     -172.896138
9.357                0.839320738     -173.230844
9.358                0.839264927     -173.565745
9.359                0.839212164     -173.900834
9.36                 0.839162451     -174.236107
9.361                0.839115792     -174.571559
9.362                0.839072188     -174.907183
9.363                0.839031641     -175.242975
9.364                0.838994155     -175.578928
9.365                 0.83895973     -175.915038
9.366                0.838928367     -176.251299
9.367                0.838900069     -176.587705
9.368                0.838874835      -176.92425
9.369                0.838852667      -177.26093
9.37                 0.838833563     -177.597738
9.371                0.838817526      -177.93467
9.372                0.838804553     -178.271718
9.373                0.838794645     -178.608878
9.374                  0.8387878     -178.946144
9.375                0.838784018     -179.283511
9.376                0.838783297     -179.620972
9.377                0.838785635     -179.958523
9.378                 0.83879103      179.703844
9.379                 0.83879948      179.366133
9.38                 0.838810982      179.028349
9.381                0.838825533        178.6905
9.382                0.838843131       178.35259
9.383                0.838863772      178.014626
9.384                0.838887451      177.676612
9.385                0.838914165      177.338556
9.386                 0.83894391      177.000462
9.387                0.838976682      176.662336
9.388                0.839012474      176.324184
9.389                0.839051282      175.986012
9.39                 0.839093101      175.647826
9.391                0.839137925      175.309631
9.392                0.839185748      174.971433
9.393                0.839236563      174.633238
9.394                0.839290364      174.295051
9.395                0.839347145       173.95688
9.396                0.839406898      173.618728
