! TOUCHSTONE file generated by CST DESIGN STUDIO
! Date and time: Tue Feb  4 16:38:38 2025
! Project name: C:\Work\MatlabApps\UnitCellOptimizationMatlab\CST\unitcell.cst
! Tree item: Tasks\Sweep1\SPara1\S-Parameters
! Header version: 2024
! Port assignment regex: !\s*Touchstone port\s*([0-9]+)\s*=\s*(CST MWS port|CST DES external port|CST DES block port)\s*(.+)\s* \(\"(.*)\"\)(\s*mode\s*([0-9]+))?.*
! Touchstone port assignment:
! Touchstone port 1 = CST DES external port 1 ("")
# GHz S MA R 50
9                    0.933481262     -71.4037235
9.001                0.933342161     -71.5172838
9.002                0.933202544     -71.6311521
9.003                0.933062412     -71.7453293
9.004                0.932921762     -71.8598166
9.005                0.932780591      -71.974615
9.006                0.932638899     -72.0897256
9.007                0.932496684     -72.2051494
9.008                0.932353944     -72.3208876
9.009                0.932210677     -72.4369411
9.01                 0.932066882     -72.5533112
9.011                0.931922557     -72.6699988
9.012                  0.9317777     -72.7870051
9.013                 0.93163231     -72.9043312
9.014                0.931486384     -73.0219782
9.015                0.931339922     -73.1399471
9.016                 0.93119292     -73.2582391
9.017                0.931045379     -73.3768552
9.018                0.930897295     -73.4957967
9.019                0.930748668     -73.6150645
9.02                 0.930599496     -73.7346599
9.021                0.930449776      -73.854584
9.022                0.930299507     -73.9748378
9.023                0.930148688     -74.0954225
9.024                0.929997316     -74.2163393
9.025                0.929845391     -74.3375892
9.026                 0.92969291     -74.4591735
9.027                0.929539871     -74.5810932
9.028                0.929386274     -74.7033495
9.029                0.929232116     -74.8259436
9.03                 0.929077395     -74.9488766
9.031                 0.92892211     -75.0721497
9.032                0.928766259      -75.195764
9.033                0.928609841     -75.3197208
9.034                0.928452853      -75.444021
9.035                0.928295295     -75.5686661
9.036                0.928137164      -75.693657
9.037                0.927978459     -75.8189951
9.038                0.927819178     -75.9446814
9.039                0.927659319     -76.0707172
9.04                 0.927498881     -76.1971036
9.041                0.927337862     -76.3238419
9.042                 0.92717626     -76.4509333
9.043                0.927014074     -76.5783789
9.044                0.926851302     -76.7061799
9.045                0.926687943     -76.8343376
9.046                0.926523994     -76.9628532
9.047                0.926359455     -77.0917278
9.048                0.926194322     -77.2209628
9.049                0.926028596     -77.3505593
9.05                 0.925862274     -77.4805185
9.051                0.925695355     -77.6108417
9.052                0.925527836     -77.7415301
9.053                0.925359717     -77.8725849
9.054                0.925190996     -78.0040075
9.055                0.925021671     -78.1357989
9.056                 0.92485174     -78.2679605
9.057                0.924681202     -78.4004935
9.058                0.924510056     -78.5333992
9.059                0.924338299     -78.6666788
9.06                 0.924165931     -78.8003336
9.061                0.923992949     -78.9343648
9.062                0.923819352     -79.0687738
9.063                0.923645139     -79.2035617
9.064                0.923470307     -79.3387298
9.065                0.923294856     -79.4742795
9.066                0.923118784      -79.610212
9.067                 0.92294209     -79.7465285
9.068                0.922764771     -79.8832304
9.069                0.922586826      -80.020319
9.07                 0.922408255     -80.1577955
9.071                0.922229054     -80.2956612
9.072                0.922049224     -80.4339175
9.073                0.921868762     -80.5725656
9.074                0.921687667     -80.7116069
9.075                0.921505937     -80.8510426
9.076                0.921323571      -80.990874
9.077                0.921140568     -81.1311025
9.078                0.920956926     -81.2717294
9.079                0.920772644      -81.412756
9.08                  0.92058772     -81.5541837
9.081                0.920402153     -81.6960137
9.082                0.920215942     -81.8382473
9.083                0.920029085      -81.980886
9.084                 0.91984158      -82.123931
9.085                0.919653428     -82.2673837
9.086                0.919464625     -82.4112454
9.087                0.919275171     -82.5555175
9.088                0.919085065     -82.7002012
9.089                0.918894305     -82.8452981
9.09                  0.91870289     -82.9908093
9.091                0.918510818     -83.1367363
9.092                0.918318089     -83.2830804
9.093                0.918124701      -83.429843
9.094                0.917930654     -83.5770254
9.095                0.917735944      -83.724629
9.096                0.917540573     -83.8726552
9.097                0.917344538     -84.0211054
9.098                0.917147838     -84.1699808
9.099                0.916950472     -84.3192829
9.1                  0.916752439     -84.4690131
9.101                0.916553738     -84.6191727
9.102                0.916354367     -84.7697632
9.103                0.916154327     -84.9207859
9.104                0.915953614     -85.0722421
9.105                 0.91575223     -85.2241334
9.106                0.915550171      -85.376461
9.107                0.915347439     -85.5292264
9.108                0.915144031     -85.6824309
9.109                0.914939946      -85.836076
9.11                 0.914735184     -85.9901631
9.111                0.914529743     -86.1446936
9.112                0.914323623     -86.2996688
9.113                0.914116824     -86.4550902
9.114                0.913909343     -86.6109591
9.115                 0.91370118     -86.7672771
9.116                0.913492334     -86.9240455
9.117                0.913282805     -87.0812657
9.118                0.913072592     -87.2389392
9.119                0.912861693     -87.3970673
9.12                 0.912650109     -87.5556514
9.121                0.912437839     -87.7146931
9.122                0.912224881     -87.8741937
9.123                0.912011235     -88.0341546
9.124                0.911796901     -88.1945773
9.125                0.911581877     -88.3554632
9.126                0.911366164     -88.5168137
9.127                0.911149761     -88.6786303
9.128                0.910932667     -88.8409144
9.129                0.910714882     -89.0036673
9.13                 0.910496404     -89.1668907
9.131                0.910277235     -89.3305858
9.132                0.910057373     -89.4947541
9.133                0.909836818     -89.6593971
9.134                0.909615569     -89.8245162
9.135                0.909393627     -89.9901128
9.136                 0.90917099     -90.1561884
9.137                0.908947659     -90.3227445
9.138                0.908723634     -90.4897823
9.139                0.908498913     -90.6573035
9.14                 0.908273498     -90.8253094
9.141                0.908047388     -90.9938015
9.142                0.907820582     -91.1627813
9.143                0.907593081     -91.3322501
9.144                0.907364884     -91.5022094
9.145                0.907135992     -91.6726607
9.146                0.906906404     -91.8436053
9.147                0.906676121     -92.0150449
9.148                0.906445143     -92.1869807
9.149                0.906213469     -92.3594143
9.15                 0.905981101      -92.532347
9.151                0.905748037     -92.7057804
9.152                0.905514279     -92.8797158
9.153                0.905279827     -93.0541548
9.154                 0.90504468     -93.2290987
9.155                 0.90480884      -93.404549
9.156                0.904572307     -93.5805072
9.157                 0.90433508     -93.7569746
9.158                0.904097162     -93.9339528
9.159                0.903858551     -94.1114432
9.16                 0.903619249     -94.2894471
9.161                0.903379256     -94.4679661
9.162                0.903138573     -94.6470016
9.163                  0.9028972      -94.826555
9.164                0.902655139     -95.0066277
9.165                0.902412389     -95.1872212
9.166                0.902168953      -95.368337
9.167                 0.90192483     -95.5499763
9.168                0.901680022     -95.7321408
9.169                0.901434529     -95.9148317
9.17                 0.901188353     -96.0980506
9.171                0.900941494     -96.2817989
9.172                0.900693954     -96.4660779
9.173                0.900445733      -96.650889
9.174                0.900196834     -96.8362338
9.175                0.899947256     -97.0221136
9.176                0.899697003     -97.2085299
9.177                0.899446074     -97.3954839
9.178                0.899194471     -97.5829772
9.179                0.898942196     -97.7710112
9.18                  0.89868925     -97.9595872
9.181                0.898435635     -98.1487067
9.182                0.898181352      -98.338371
9.183                0.897926402     -98.5285815
9.184                0.897670789     -98.7193396
9.185                0.897414513     -98.9106467
9.186                0.897157576     -99.1025043
9.187                0.896899981     -99.2949135
9.188                0.896641728     -99.4878759
9.189                0.896382821     -99.6813928
9.19                 0.896123261     -99.8754656
9.191                 0.89586305     -100.070096
9.192                 0.89560219     -100.265284
9.193                0.895340684     -100.461033
9.194                0.895078534     -100.657342
9.195                0.894815743     -100.854215
9.196                0.894552312     -101.051651
9.197                0.894288244     -101.249653
9.198                0.894023543     -101.448221
9.199                0.893758209     -101.647357
9.2                  0.893492247     -101.847063
9.201                0.893225659     -102.047339
9.202                0.892958447     -102.248187
9.203                0.892690615     -102.449608
9.204                0.892422165     -102.651603
9.205                0.892153101     -102.854174
9.206                0.891883425     -103.057323
9.207                0.891613142     -103.261049
9.208                0.891342253     -103.465355
9.209                0.891070762     -103.670242
9.21                 0.890798674     -103.875711
9.211                 0.89052599     -104.081763
9.212                0.890252715       -104.2884
9.213                0.889978852     -104.495623
9.214                0.889704405     -104.703433
9.215                0.889429378     -104.911831
9.216                0.889153774     -105.120818
9.217                0.888877597     -105.330396
9.218                0.888600852     -105.540566
9.219                0.888323542     -105.751328
9.22                 0.888045672     -105.962685
9.221                0.887767245     -106.174638
9.222                0.887488266     -106.387186
9.223                 0.88720874     -106.600333
9.224                 0.88692867     -106.814078
9.225                0.886648062     -107.028423
9.226                 0.88636692     -107.243369
9.227                0.886085248     -107.458918
9.228                0.885803052     -107.675069
9.229                0.885520335     -107.891825
9.23                 0.885237104     -108.109186
9.231                0.884953364     -108.327154
9.232                0.884669118     -108.545729
9.233                0.884384373     -108.764913
9.234                0.884099134     -108.984706
9.235                0.883813406      -109.20511
9.236                0.883527195     -109.426125
9.237                0.883240506     -109.647754
9.238                0.882953345     -109.869995
9.239                0.882665717     -110.092852
9.24                 0.882377629     -110.316324
9.241                0.882089086     -110.540412
9.242                0.881800094     -110.765118
9.243                 0.88151066     -110.990442
9.244                0.881220789     -111.216385
9.245                0.880930488     -111.442949
9.246                0.880639764     -111.670133
9.247                0.880348622     -111.897939
9.248                0.880057069     -112.126368
9.249                0.879765113     -112.355421
9.25                 0.879472759     -112.585098
9.251                0.879180014     -112.815401
9.252                0.878886886     -113.046329
9.253                0.878593382     -113.277884
9.254                0.878299509     -113.510067
9.255                0.878005273     -113.742877
9.256                0.877710682     -113.976317
9.257                0.877415745     -114.210387
9.258                0.877120467     -114.445087
9.259                0.876824858     -114.680418
9.26                 0.876528924     -114.916381
9.261                0.876232674     -115.152976
9.262                0.875936115     -115.390205
9.263                0.875639255     -115.628067
9.264                0.875342103     -115.866563
9.265                0.875044667     -116.105694
9.266                0.874746955     -116.345461
9.267                0.874448976     -116.585863
9.268                0.874150738     -116.826902
9.269                 0.87385225     -117.068578
9.27                 0.873553521     -117.310891
9.271                0.873254559     -117.553842
9.272                0.872955374     -117.797432
9.273                0.872655974      -118.04166
9.274                0.872356369     -118.286527
9.275                0.872056568     -118.532034
9.276                0.871756581     -118.778181
9.277                0.871456417     -119.024968
9.278                0.871156085     -119.272395
9.279                0.870855595     -119.520463
9.28                 0.870554957     -119.769173
9.281                0.870254182     -120.018524
9.282                0.869953278     -120.268516
9.283                0.869652257      -120.51915
9.284                0.869351128     -120.770426
9.285                0.869049902     -121.022344
9.286                0.868748589     -121.274905
9.287                  0.8684472     -121.528107
9.288                0.868145746     -121.781953
9.289                0.867844237     -122.036441
9.29                 0.867542684     -122.291571
9.291                0.867241098     -122.547344
9.292                 0.86693949     -122.803759
9.293                0.866637872     -123.060817
9.294                0.866336254     -123.318518
9.295                0.866034649      -123.57686
9.296                0.865733067     -123.835845
9.297                0.865431521     -124.095473
9.298                0.865130021     -124.355742
9.299                0.864828581     -124.616652
9.3                  0.864527211     -124.878205
9.301                0.864225925     -125.140399
9.302                0.863924733     -125.403233
9.303                0.863623649     -125.666709
9.304                0.863322684     -125.930824
9.305                0.863021852      -126.19558
9.306                0.862721164     -126.460975
9.307                0.862420633      -126.72701
9.308                0.862120273     -126.993683
9.309                0.861820096     -127.260995
9.31                 0.861520115     -127.528944
9.311                0.861220343      -127.79753
9.312                0.860920793     -128.066753
9.313                0.860621478     -128.336613
9.314                0.860322413     -128.607107
9.315                 0.86002361     -128.878237
9.316                0.859725083         -129.15
9.317                0.859426845     -129.422397
9.318                0.859128911     -129.695426
9.319                0.858831295     -129.969087
9.32                 0.858534009     -130.243379
9.321                0.858237069     -130.518301
9.322                0.857940488     -130.793853
9.323                0.857644281     -131.070033
9.324                0.857348462      -131.34684
9.325                0.857053045     -131.624273
9.326                0.856758045     -131.902332
9.327                0.856463477     -132.181015
9.328                0.856169355     -132.460321
9.329                0.855875694      -132.74025
9.33                 0.855582508     -133.020799
9.331                0.855289814     -133.301968
9.332                0.854997625     -133.583756
9.333                0.854705957     -133.866161
9.334                0.854414826     -134.149182
9.335                0.854124245     -134.432817
9.336                0.853834232     -134.717066
9.337                  0.8535448     -135.001927
9.338                0.853255966     -135.287397
9.339                0.852967745     -135.573477
9.34                 0.852680154     -135.860165
9.341                0.852393206     -136.147458
9.342                 0.85210692     -136.435355
9.343                0.851821309     -136.723855
9.344                 0.85153639     -137.012956
9.345                 0.85125218     -137.302656
9.346                0.850968694     -137.592954
9.347                0.850685948     -137.883848
9.348                0.850403959     -138.175335
9.349                0.850122742     -138.467415
9.35                 0.849842315     -138.760084
9.351                0.849562692     -139.053342
9.352                0.849283892     -139.347187
9.353                 0.84900593     -139.641615
9.354                0.848728822     -139.936626
9.355                0.848452586     -140.232217
9.356                0.848177238     -140.528385
9.357                0.847902795      -140.82513
9.358                0.847629273     -141.122448
9.359                0.847356688     -141.420338
9.36                 0.847085059     -141.718796
9.361                0.846814401     -142.017822
9.362                0.846544732     -142.317412
9.363                0.846276068     -142.617563
9.364                0.846008426     -142.918275
9.365                0.845741823     -143.219543
9.366                0.845476277     -143.521366
9.367                0.845211803      -143.82374
9.368                 0.84494842     -144.126664
9.369                0.844686144     -144.430135
9.37                 0.844424992      -144.73415
9.371                0.844164981     -145.038706
9.372                0.843906129       -145.3438
9.373                0.843648452      -145.64943
9.374                0.843391968     -145.955593
9.375                0.843136693     -146.262285
9.376                0.842882646     -146.569505
9.377                0.842629842     -146.877248
9.378                0.842378299     -147.185513
9.379                0.842128034     -147.494295
9.38                 0.841879064     -147.803592
9.381                0.841631406     -148.113401
9.382                0.841385078     -148.423718
9.383                0.841140096      -148.73454
9.384                0.840896478     -149.045864
9.385                 0.84065424     -149.357687
9.386                0.840413399     -149.670005
9.387                0.840173973     -149.982815
9.388                0.839935978     -150.296114
9.389                0.839699431     -150.609897
9.39                  0.83946435     -150.924162
9.391                 0.83923075     -151.238905
9.392                0.838998649     -151.554122
9.393                0.838768064     -151.869809
9.394                0.838539011     -152.185964
9.395                0.838311507     -152.502582
9.396                0.838085569      -152.81966
