! TOUCHSTONE file generated by CST DESIGN STUDIO
! Date and time: Tue Feb  4 16:38:42 2025
! Project name: C:\Work\MatlabApps\UnitCellOptimizationMatlab\CST\unitcell.cst
! Tree item: Tasks\Sweep1\SPara1\S-Parameters
! Header version: 2024
! Port assignment regex: !\s*Touchstone port\s*([0-9]+)\s*=\s*(CST MWS port|CST DES external port|CST DES block port)\s*(.+)\s* \(\"(.*)\"\)(\s*mode\s*([0-9]+))?.*
! Touchstone port assignment:
! Touchstone port 1 = CST DES external port 1 ("")
# GHz S MA R 50
9                    0.948633667     -60.7954914
9.001                0.948539767     -60.8825871
9.002                0.948445506     -60.9699008
9.003                0.948350881     -61.0574334
9.004                0.948255892     -61.1451854
9.005                0.948160537     -61.2331578
9.006                0.948064814     -61.3213512
9.007                0.947968722     -61.4097663
9.008                0.947872259     -61.4984039
9.009                0.947775423     -61.5872648
9.01                 0.947678213     -61.6763497
9.011                0.947580627     -61.7656594
9.012                0.947482664     -61.8551946
9.013                0.947384322      -61.944956
9.014                0.947285599     -62.0349445
9.015                0.947186494     -62.1251609
9.016                0.947087005     -62.2156057
9.017                 0.94698713       -62.30628
9.018                0.946886869     -62.3971844
9.019                0.946786218     -62.4883196
9.02                 0.946685176     -62.5796866
9.021                0.946583743      -62.671286
9.022                0.946481915     -62.7631186
9.023                0.946379692     -62.8551853
9.024                0.946277072     -62.9474869
9.025                0.946174053      -63.040024
9.026                0.946070633     -63.1327976
9.027                 0.94596681     -63.2258084
9.028                0.945862584     -63.3190572
9.029                0.945757952     -63.4125448
9.03                 0.945652912     -63.5062721
9.031                0.945547463     -63.6002398
9.032                0.945441603     -63.6944488
9.033                 0.94533533     -63.7888999
9.034                0.945228643     -63.8835939
9.035                0.945121539     -63.9785316
9.036                0.945014018     -64.0737138
9.037                0.944906077     -64.1691415
9.038                0.944797714     -64.2648153
9.039                0.944688928     -64.3607362
9.04                 0.944579718      -64.456905
9.041                 0.94447008     -64.5533225
9.042                0.944360014     -64.6499896
9.043                0.944249517     -64.7469071
9.044                0.944138588     -64.8440759
9.045                0.944027225     -64.9414968
9.046                0.943915427     -65.0391707
9.047                 0.94380319     -65.1370985
9.048                0.943690515     -65.2352809
9.049                0.943577398     -65.3337189
9.05                 0.943463838     -65.4324134
9.051                0.943349833     -65.5313651
9.052                0.943235381     -65.6305751
9.053                0.943120481     -65.7300441
9.054                 0.94300513     -65.8297731
9.055                0.942889327     -65.9297628
9.056                 0.94277307     -66.0300144
9.057                0.942656357     -66.1305285
9.058                0.942539186     -66.2313061
9.059                0.942421555     -66.3323481
9.06                 0.942303462     -66.4336554
9.061                0.942184906     -66.5352289
9.062                0.942065885     -66.6370696
9.063                0.941946396     -66.7391782
9.064                0.941826438     -66.8415558
9.065                0.941706009     -66.9442032
9.066                0.941585107     -67.0471214
9.067                 0.94146373     -67.1503113
9.068                0.941341876     -67.2537738
9.069                0.941219544     -67.3575098
9.07                  0.94109673     -67.4615203
9.071                0.940973435     -67.5658062
9.072                0.940849654     -67.6703685
9.073                0.940725387      -67.775208
9.074                0.940600632     -67.8803258
9.075                0.940475386     -67.9857228
9.076                0.940349648     -68.0913999
9.077                0.940223416     -68.1973581
9.078                0.940096687     -68.3035983
9.079                 0.93996946     -68.4101215
9.08                 0.939841733     -68.5169287
9.081                0.939713504     -68.6240209
9.082                0.939584771     -68.7313989
9.083                0.939455532     -68.8390639
9.084                0.939325784     -68.9470167
9.085                0.939195527     -69.0552583
9.086                0.939064757     -69.1637898
9.087                0.938933473     -69.2726121
9.088                0.938801674     -69.3817262
9.089                0.938669356      -69.491133
9.09                 0.938536518     -69.6008337
9.091                0.938403158     -69.7108292
9.092                0.938269274     -69.8211204
9.093                0.938134864     -69.9317085
9.094                0.937999926     -70.0425944
9.095                0.937864458     -70.1537791
9.096                0.937728458     -70.2652637
9.097                0.937591923     -70.3770491
9.098                0.937454852     -70.4891365
9.099                0.937317243     -70.6015267
9.1                  0.937179094     -70.7142209
9.101                0.937040402     -70.8272201
9.102                0.936901166     -70.9405253
9.103                0.936761384     -71.0541376
9.104                0.936621053     -71.1680579
9.105                0.936480171     -71.2822875
9.106                0.936338737     -71.3968272
9.107                0.936196749     -71.5116782
9.108                0.936054204     -71.6268415
9.109                  0.9359111     -71.7423182
9.11                 0.935767435     -71.8581093
9.111                0.935623208     -71.9742159
9.112                0.935478415     -72.0906391
9.113                0.935333056       -72.20738
9.114                0.935187128     -72.3244396
9.115                0.935040628      -72.441819
9.116                0.934893556     -72.5595193
9.117                0.934745908     -72.6775415
9.118                0.934597683     -72.7958869
9.119                0.934448879     -72.9145564
9.12                 0.934299493     -73.0335512
9.121                0.934149524     -73.1528724
9.122                0.933998969      -73.272521
9.123                0.933847827     -73.3924982
9.124                0.933696094     -73.5128052
9.125                 0.93354377     -73.6334429
9.126                0.933390853     -73.7544125
9.127                0.933237339     -73.8757152
9.128                0.933083227     -73.9973521
9.129                0.932928515     -74.1193243
9.13                 0.932773201     -74.2416329
9.131                0.932617283      -74.364279
9.132                0.932460758     -74.4872639
9.133                0.932303625     -74.6105886
9.134                0.932145882     -74.7342544
9.135                0.931987526     -74.8582622
9.136                0.931828556     -74.9826134
9.137                0.931668969      -75.107309
9.138                0.931508763     -75.2323502
9.139                0.931347936     -75.3577381
9.14                 0.931186487      -75.483474
9.141                0.931024412      -75.609559
9.142                0.930861711     -75.7359943
9.143                0.930698381      -75.862781
9.144                0.930534419     -75.9899204
9.145                0.930369825     -76.1174135
9.146                0.930204595     -76.2452617
9.147                0.930038728      -76.373466
9.148                0.929872222     -76.5020277
9.149                0.929705075      -76.630948
9.15                 0.929537284      -76.760228
9.151                0.929368848      -76.889869
9.152                0.929199764     -77.0198722
9.153                0.929030031     -77.1502387
9.154                0.928859646     -77.2809698
9.155                0.928688608     -77.4120667
9.156                0.928516915     -77.5435307
9.157                0.928344564     -77.6753629
9.158                0.928171553     -77.8075645
9.159                0.927997881     -77.9401368
9.16                 0.927823546     -78.0730811
9.161                0.927648545     -78.2063985
9.162                0.927472876     -78.3400903
9.163                0.927296538     -78.4741577
9.164                0.927119529     -78.6086019
9.165                0.926941846     -78.7434243
9.166                0.926763488     -78.8786261
9.167                0.926584453     -79.0142085
9.168                0.926404738     -79.1501727
9.169                0.926224342     -79.2865201
9.17                 0.926043263     -79.4232518
9.171                0.925861499     -79.5603692
9.172                0.925679048     -79.6978736
9.173                0.925495908     -79.8357661
9.174                0.925312077     -79.9740481
9.175                0.925127554     -80.1127208
9.176                0.924942336     -80.2517855
9.177                0.924756421     -80.3912435
9.178                0.924569809     -80.5310961
9.179                0.924382496     -80.6713446
9.18                 0.924194481     -80.8119902
9.181                0.924005762     -80.9530342
9.182                0.923816338     -81.0944781
9.183                0.923626206     -81.2363229
9.184                0.923435364     -81.3785701
9.185                0.923243812      -81.521221
9.186                0.923051546     -81.6642768
9.187                0.922858566     -81.8077388
9.188                 0.92266487     -81.9516085
9.189                0.922470455      -82.095887
9.19                 0.922275321     -82.2405758
9.191                0.922079464      -82.385676
9.192                0.921882885     -82.5311892
9.193                 0.92168558     -82.6771165
9.194                0.921487549     -82.8234593
9.195                0.921288789     -82.9702189
9.196                0.921089299     -83.1173967
9.197                0.920889077      -83.264994
9.198                0.920688121     -83.4130121
9.199                0.920486431     -83.5614524
9.2                  0.920284004     -83.7103163
9.201                0.920080839      -83.859605
9.202                0.919876934     -84.0093199
9.203                0.919672288     -84.1594624
9.204                0.919466899     -84.3100338
9.205                0.919260766     -84.4610354
9.206                0.919053886     -84.6124687
9.207                 0.91884626     -84.7643349
9.208                0.918637884     -84.9166355
9.209                0.918428758     -85.0693718
9.21                  0.91821888     -85.2225451
9.211                0.918008249     -85.3761569
9.212                0.917796864     -85.5302085
9.213                0.917584722     -85.6847012
9.214                0.917371823     -85.8396365
9.215                0.917158166     -85.9950157
9.216                0.916943748     -86.1508402
9.217                0.916728569     -86.3071113
9.218                0.916512628     -86.4638305
9.219                0.916295923     -86.6209991
9.22                 0.916078453     -86.7786185
9.221                0.915860216     -86.9366901
9.222                0.915641212     -87.0952153
9.223                0.915421439     -87.2541954
9.224                0.915200897     -87.4136319
9.225                0.914979583     -87.5735261
9.226                0.914757498     -87.7338795
9.227                 0.91453464     -87.8946933
9.228                0.914311007     -88.0559691
9.229                0.914086599     -88.2177082
9.23                 0.913861415      -88.379912
9.231                0.913635454     -88.5425819
9.232                0.913408715     -88.7057193
9.233                0.913181197     -88.8693256
9.234                0.912952899     -89.0334022
9.235                0.912723821     -89.1979505
9.236                 0.91249396     -89.3629719
9.237                0.912263317     -89.5284678
9.238                0.912031892     -89.6944396
9.239                0.911799682     -89.8608888
9.24                 0.911566687     -90.0278166
9.241                0.911332907     -90.1952246
9.242                0.911098341     -90.3631141
9.243                0.910862989     -90.5314865
9.244                0.910626849     -90.7003432
9.245                0.910389922     -90.8696857
9.246                0.910152206     -91.0395154
9.247                0.909913701     -91.2098336
9.248                0.909674407     -91.3806418
9.249                0.909434323     -91.5519413
9.25                 0.909193449     -91.7237337
9.251                0.908951784     -91.8960202
9.252                0.908709329     -92.0688023
9.253                0.908466082     -92.2420814
9.254                0.908222044      -92.415859
9.255                0.907977214     -92.5901363
9.256                0.907731593     -92.7649149
9.257                0.907485179     -92.9401961
9.258                0.907237973     -93.1159813
9.259                0.906989975      -93.292272
9.26                 0.906741185     -93.4690695
9.261                0.906491602     -93.6463752
9.262                0.906241228     -93.8241906
9.263                0.905990061      -94.002517
9.264                0.905738102     -94.1813559
9.265                0.905485351     -94.3607086
9.266                0.905231808     -94.5405766
9.267                0.904977474     -94.7209612
9.268                0.904722349     -94.9018638
9.269                0.904466432     -95.0832859
9.27                 0.904209726     -95.2652287
9.271                0.903952229     -95.4476938
9.272                0.903693942     -95.6306825
9.273                0.903434867     -95.8141962
9.274                0.903175002     -95.9982362
9.275                 0.90291435      -96.182804
9.276                 0.90265291     -96.3679009
9.277                0.902390683     -96.5535283
9.278                 0.90212767     -96.7396876
9.279                0.901863872     -96.9263802
9.28                  0.90159929     -97.1136074
9.281                0.901333923     -97.3013707
9.282                0.901067774     -97.4896713
9.283                0.900800843     -97.6785106
9.284                0.900533131       -97.86789
9.285                 0.90026464     -98.0578109
9.286                0.899995369     -98.2482746
9.287                0.899725321     -98.4392825
9.288                0.899454497     -98.6308359
9.289                0.899182898     -98.8229362
9.29                 0.898910524     -99.0155846
9.291                0.898637378     -99.2087827
9.292                0.898363461     -99.4025316
9.293                0.898088774     -99.5968327
9.294                0.897813319     -99.7916873
9.295                0.897537097     -99.9870969
9.296                 0.89726011     -100.183063
9.297                0.896982359     -100.379586
9.298                0.896703847     -100.576668
9.299                0.896424574      -100.77431
9.3                  0.896144543     -100.972514
9.301                0.895863756      -101.17128
9.302                0.895582213     -101.370611
9.303                0.895299919     -101.570506
9.304                0.895016873     -101.770969
9.305                0.894733079     -101.971999
9.306                0.894448538     -102.173598
9.307                0.894163253     -102.375768
9.308                0.893877226      -102.57851
9.309                0.893590459     -102.781825
9.31                 0.893302954     -102.985713
9.311                0.893014713     -103.190178
9.312                 0.89272574     -103.395219
9.313                0.892436036     -103.600838
9.314                0.892145604     -103.807036
9.315                0.891854446     -104.013815
9.316                0.891562566     -104.221175
9.317                0.891269965     -104.429118
9.318                0.890976646     -104.637646
9.319                0.890682613     -104.846759
9.32                 0.890387867     -105.056458
9.321                0.890092413     -105.266745
9.322                0.889796251     -105.477621
9.323                0.889499386     -105.689086
9.324                0.889201821     -105.901144
9.325                0.888903557     -106.113793
9.326                0.888604599     -106.327037
9.327                 0.88830495     -106.540875
9.328                0.888004612     -106.755309
9.329                0.887703588      -106.97034
9.33                 0.887401883     -107.185969
9.331                0.887099498     -107.402198
9.332                0.886796437     -107.619027
9.333                0.886492704     -107.836458
9.334                0.886188302     -108.054491
9.335                0.885883233     -108.273128
9.336                0.885577502     -108.492371
9.337                0.885271111     -108.712219
9.338                0.884964064     -108.932675
9.339                0.884656365     -109.153739
9.34                 0.884348016     -109.375412
9.341                0.884039021     -109.597695
9.342                0.883729383     -109.820591
9.343                0.883419106     -110.044098
9.344                0.883108193      -110.26822
9.345                0.882796648     -110.492956
9.346                0.882484473     -110.718308
9.347                0.882171672     -110.944277
9.348                0.881858249     -111.170864
9.349                0.881544205      -111.39807
9.35                 0.881229546     -111.625895
9.351                0.880914273     -111.854342
9.352                 0.88059839     -112.083412
9.353                  0.8802819     -112.313104
9.354                0.879964806     -112.543421
9.355                0.879647111     -112.774363
9.356                0.879328816     -113.005932
9.357                0.879009927     -113.238128
9.358                0.878690443     -113.470953
9.359                 0.87837037     -113.704407
9.36                 0.878049707     -113.938492
9.361                0.877728458      -114.17321
9.362                0.877406625      -114.40856
9.363                 0.87708421     -114.644545
9.364                0.876761213     -114.881165
9.365                0.876437638     -115.118421
9.366                0.876113484     -115.356315
9.367                0.875788753     -115.594849
9.368                0.875463446     -115.834022
9.369                0.875137563     -116.073837
9.37                 0.874811105     -116.314295
9.371                0.874484071     -116.555398
9.372                 0.87415646     -116.797146
9.373                0.873828273     -117.039541
9.374                0.873499507     -117.282585
9.375                0.873170162      -117.52628
9.376                0.872840235     -117.770626
9.377                0.872509724     -118.015627
9.378                0.872178625     -118.261283
9.379                0.871846936     -118.507596
9.38                 0.871514652      -118.75457
9.381                0.871181768     -119.002205
9.382                0.870848281     -119.250505
9.383                0.870514183     -119.499471
9.384                0.870179469     -119.749107
9.385                0.869844131     -119.999416
9.386                0.869508162       -120.2504
9.387                0.869171555     -120.502063
9.388                0.868834299     -120.754409
9.389                0.868496386     -121.007442
9.39                 0.868157806     -121.261166
9.391                 0.86781855     -121.515585
9.392                0.867478606     -121.770706
9.393                0.867137964     -122.026534
9.394                0.866796613     -122.283076
9.395                0.866454545     -122.540337
9.396                0.866111751     -122.798327
