! TOUCHSTONE file generated by CST DESIGN STUDIO
! Date and time: Tue Feb  4 16:38:44 2025
! Project name: C:\Work\MatlabApps\UnitCellOptimizationMatlab\CST\unitcell.cst
! Tree item: Tasks\Sweep1\SPara1\S-Parameters
! Header version: 2024
! Port assignment regex: !\s*Touchstone port\s*([0-9]+)\s*=\s*(CST MWS port|CST DES external port|CST DES block port)\s*(.+)\s* \(\"(.*)\"\)(\s*mode\s*([0-9]+))?.*
! Touchstone port assignment:
! Touchstone port 1 = CST DES external port 1 ("")
# GHz S MA R 50
9                    0.954993907      -56.122699
9.001                0.954919273     -56.1999548
9.002                0.954844298     -56.2773913
9.003                0.954768981      -56.355009
9.004                 0.95469332     -56.4328086
9.005                0.954617314     -56.5107906
9.006                0.954540961     -56.5889557
9.007                0.954464261     -56.6673044
9.008                0.954387212     -56.7458373
9.009                0.954309812     -56.8245551
9.01                 0.954232061     -56.9034583
9.011                0.954153958     -56.9825475
9.012                  0.9540755     -57.0618234
9.013                0.953996686     -57.1412866
9.014                0.953917516     -57.2209376
9.015                0.953837987     -57.3007772
9.016                0.953758099     -57.3808058
9.017                0.953677851     -57.4610242
9.018                 0.95359724     -57.5414329
9.019                0.953516265     -57.6220326
9.02                 0.953434926     -57.7028239
9.021                 0.95335322     -57.7838074
9.022                0.953271147     -57.8649838
9.023                0.953188705     -57.9463537
9.024                0.953105892     -58.0279177
9.025                0.953022708     -58.1096765
9.026                 0.95293915     -58.1916307
9.027                0.952855218      -58.273781
9.028                 0.95277091      -58.356128
9.029                0.952686225     -58.4386723
9.03                 0.952601161     -58.5214147
9.031                0.952515717     -58.6043557
9.032                0.952429891      -58.687496
9.033                0.952343683     -58.7708362
9.034                 0.95225709     -58.8543771
9.035                0.952170111     -58.9381194
9.036                0.952082745     -59.0220635
9.037                0.951994991     -59.1062103
9.038                0.951906846     -59.1905604
9.039                 0.95181831     -59.2751145
9.04                  0.95172938     -59.3598733
9.041                0.951640056     -59.4448373
9.042                0.951550337     -59.5300074
9.043                 0.95146022     -59.6153842
9.044                0.951369704     -59.7009684
9.045                0.951278788     -59.7867606
9.046                 0.95118747     -59.8727616
9.047                0.951095748      -59.958972
9.048                0.951003622     -60.0453927
9.049                 0.95091109     -60.1320241
9.05                  0.95081815     -60.2188671
9.051                  0.9507248     -60.3059224
9.052                 0.95063104     -60.3931907
9.053                0.950536867     -60.4806726
9.054                0.950442281     -60.5683689
9.055                 0.95034728     -60.6562803
9.056                0.950251861     -60.7444076
9.057                0.950156024     -60.8327514
9.058                0.950059767     -60.9213124
9.059                0.949963089     -61.0100915
9.06                 0.949865988     -61.0990893
9.061                0.949768462     -61.1883065
9.062                 0.94967051     -61.2777439
9.063                0.949572131     -61.3674023
9.064                0.949473322     -61.4572823
9.065                0.949374082     -61.5473847
9.066                 0.94927441     -61.6377103
9.067                0.949174304     -61.7282597
9.068                0.949073763     -61.8190339
9.069                0.948972784     -61.9100334
9.07                 0.948871367     -62.0012591
9.071                0.948769509     -62.0927117
9.072                 0.94866721      -62.184392
9.073                0.948564467     -62.2763008
9.074                0.948461279     -62.3684387
9.075                0.948357644     -62.4608067
9.076                 0.94825356     -62.5534054
9.077                0.948149027     -62.6462357
9.078                0.948044043     -62.7392982
9.079                0.947938605     -62.8325939
9.08                 0.947832712     -62.9261234
9.081                0.947726362     -63.0198877
9.082                0.947619555     -63.1138873
9.083                0.947512287     -63.2081233
9.084                0.947404559     -63.3025963
9.085                0.947296367     -63.3973071
9.086                 0.94718771     -63.4922566
9.087                0.947078587     -63.5874456
9.088                0.946968996     -63.6828748
9.089                0.946858935     -63.7785451
9.09                 0.946748402     -63.8744573
9.091                0.946637397     -63.9706122
9.092                0.946525916     -64.0670106
9.093                0.946413959     -64.1636534
9.094                0.946301524     -64.2605414
9.095                0.946188609     -64.3576753
9.096                0.946075212     -64.4550562
9.097                0.945961332     -64.5526846
9.098                0.945846967     -64.6505617
9.099                0.945732115      -64.748688
9.1                  0.945616775     -64.8470646
9.101                0.945500944     -64.9456922
9.102                0.945384622     -65.0445717
9.103                0.945267806      -65.143704
9.104                0.945150494     -65.2430899
9.105                0.945032686     -65.3427302
9.106                0.944914378     -65.4426259
9.107                 0.94479557     -65.5427778
9.108                0.944676259     -65.6431868
9.109                0.944556444     -65.7438536
9.11                 0.944436124     -65.8447793
9.111                0.944315296     -65.9459647
9.112                0.944193958     -66.0474107
9.113                0.944072109     -66.1491182
9.114                0.943949747     -66.2510879
9.115                0.943826871      -66.353321
9.116                0.943703477     -66.4558181
9.117                0.943579566     -66.5585803
9.118                0.943455135     -66.6616084
9.119                0.943330181     -66.7649034
9.12                 0.943204704     -66.8684661
9.121                0.943078702     -66.9722975
9.122                0.942952172     -67.0763984
9.123                0.942825113     -67.1807698
9.124                0.942697524     -67.2854126
9.125                0.942569401     -67.3903277
9.126                0.942440745     -67.4955161
9.127                0.942311551     -67.6009787
9.128                 0.94218182     -67.7067164
9.129                0.942051549     -67.8127301
9.13                 0.941920736     -67.9190208
9.131                 0.94178938     -68.0255895
9.132                0.941657478      -68.132437
9.133                0.941525029     -68.2395644
9.134                 0.94139203     -68.3469726
9.135                0.941258481     -68.4546625
9.136                 0.94112438      -68.562635
9.137                0.940989723     -68.6708913
9.138                 0.94085451     -68.7794322
9.139                0.940718739     -68.8882586
9.14                 0.940582408     -68.9973717
9.141                0.940445515     -69.1067722
9.142                0.940308058     -69.2164613
9.143                0.940170035     -69.3264399
9.144                0.940031445      -69.436709
9.145                0.939892286     -69.5472696
9.146                0.939752555     -69.6581226
9.147                0.939612251     -69.7692691
9.148                0.939471373     -69.8807101
9.149                0.939329917     -69.9924465
9.15                 0.939187883     -70.1044794
9.151                0.939045268     -70.2168098
9.152                0.938902071     -70.3294387
9.153                 0.93875829     -70.4423671
9.154                0.938613922      -70.555596
9.155                0.938468967     -70.6691265
9.156                0.938323422     -70.7829596
9.157                0.938177284     -70.8970962
9.158                0.938030554     -71.0115375
9.159                0.937883228     -71.1262845
9.16                 0.937735304     -71.2413382
9.161                0.937586781     -71.3566997
9.162                0.937437658     -71.4723699
9.163                0.937287931       -71.58835
9.164                0.937137599     -71.7046411
9.165                0.936986661     -71.8212441
9.166                0.936835114     -71.9381601
9.167                0.936682957     -72.0553902
9.168                0.936530187     -72.1729355
9.169                0.936376803      -72.290797
9.17                 0.936222803     -72.4089757
9.171                0.936068186     -72.5274729
9.172                0.935912948     -72.6462895
9.173                0.935757089     -72.7654267
9.174                0.935600606     -72.8848855
9.175                0.935443497      -73.004667
9.176                0.935285762     -73.1247723
9.177                0.935127397     -73.2452026
9.178                0.934968402     -73.3659588
9.179                0.934808773     -73.4870422
9.18                  0.93464851     -73.6084538
9.181                 0.93448761     -73.7301947
9.182                0.934326072      -73.852266
9.183                0.934163893      -73.974669
9.184                0.934001072     -74.0974046
9.185                0.933837608      -74.220474
9.186                0.933673497     -74.3438784
9.187                0.933508739     -74.4676189
9.188                0.933343331     -74.5916965
9.189                0.933177272     -74.7161125
9.19                  0.93301056      -74.840868
9.191                0.932843193     -74.9659641
9.192                0.932675169      -75.091402
9.193                0.932506486     -75.2171829
9.194                0.932337143     -75.3433078
9.195                0.932167138     -75.4697779
9.196                0.931996468     -75.5965945
9.197                0.931825132     -75.7237587
9.198                0.931653129     -75.8512715
9.199                0.931480456     -75.9791343
9.2                  0.931307112     -76.1073482
9.201                0.931133095     -76.2359144
9.202                0.930958403      -76.364834
9.203                0.930783034     -76.4941082
9.204                0.930606987     -76.6237383
9.205                 0.93043026     -76.7537254
9.206                0.930252851     -76.8840706
9.207                0.930074758     -77.0147753
9.208                0.929895979     -77.1458406
9.209                0.929716513     -77.2772677
9.21                 0.929536359     -77.4090579
9.211                0.929355513     -77.5412122
9.212                0.929173975     -77.6737321
9.213                0.928991744     -77.8066185
9.214                0.928808816     -77.9398729
9.215                0.928625191     -78.0734964
9.216                0.928440866     -78.2074902
9.217                0.928255841     -78.3418556
9.218                0.928070113     -78.4765938
9.219                0.927883681      -78.611706
9.22                 0.927696543     -78.7471935
9.221                0.927508697     -78.8830575
9.222                0.927320142     -79.0192993
9.223                0.927130876     -79.1559201
9.224                0.926940898     -79.2929212
9.225                0.926750206     -79.4303038
9.226                0.926558798     -79.5680692
9.227                0.926366673     -79.7062186
9.228                0.926173829     -79.8447534
9.229                0.925980265     -79.9836747
9.23                 0.925785979     -80.1229839
9.231                0.925590969     -80.2626822
9.232                0.925395234     -80.4027709
9.233                0.925198773     -80.5432512
9.234                0.925001583     -80.6841246
9.235                0.924803664     -80.8253922
9.236                0.924605014     -80.9670553
9.237                0.924405631     -81.1091152
9.238                0.924205514     -81.2515732
9.239                0.924004662     -81.3944307
9.24                 0.923803073     -81.5376889
9.241                0.923600746     -81.6813491
9.242                0.923397679     -81.8254126
9.243                 0.92319387     -81.9698807
9.244                 0.92298932     -82.1147548
9.245                0.922784025     -82.2600361
9.246                0.922577985      -82.405726
9.247                0.922371199     -82.5518258
9.248                0.922163665     -82.6983368
9.249                0.921955382     -82.8452603
9.25                 0.921746348     -82.9925977
9.251                0.921536563     -83.1403503
9.252                0.921326025     -83.2885193
9.253                0.921114732     -83.4371062
9.254                0.920902685     -83.5861123
9.255                 0.92068988      -83.735539
9.256                0.920476319     -83.8853874
9.257                0.920261998     -84.0356591
9.258                0.920046917     -84.1863553
9.259                0.919831075     -84.3374775
9.26                 0.919614471     -84.4890268
9.261                0.919397103     -84.6410048
9.262                0.919178972     -84.7934127
9.263                0.918960074      -84.946252
9.264                0.918740411     -85.0995239
9.265                 0.91851998     -85.2532298
9.266                0.918298781     -85.4073711
9.267                0.918076812     -85.5619491
9.268                0.917854074     -85.7169653
9.269                0.917630564      -85.872421
9.27                 0.917406282     -86.0283175
9.271                0.917181228     -86.1846562
9.272                0.916955399     -86.3414386
9.273                0.916728797     -86.4986659
9.274                0.916501419     -86.6563395
9.275                0.916273265     -86.8144609
9.276                0.916044335     -86.9730314
9.277                0.915814627     -87.1320524
9.278                0.915584141     -87.2915253
9.279                0.915352877     -87.4514514
9.28                 0.915120833     -87.6118322
9.281                0.914888009      -87.772669
9.282                0.914654405     -87.9339632
9.283                 0.91442002     -88.0957163
9.284                0.914184854     -88.2579295
9.285                0.913948905     -88.4206043
9.286                0.913712174     -88.5837421
9.287                0.913474661     -88.7473443
9.288                0.913236364     -88.9114123
9.289                0.912997284     -89.0759474
9.29                  0.91275742     -89.2409512
9.291                0.912516773     -89.4064248
9.292                0.912275341     -89.5723699
9.293                0.912033124     -89.7387877
9.294                0.911790123     -89.9056796
9.295                0.911546337     -90.0730472
9.296                0.911301766     -90.2408917
9.297                 0.91105641     -90.4092145
9.298                0.910810269     -90.5780172
9.299                0.910563343      -90.747301
9.3                  0.910315632     -90.9170674
9.301                0.910067136     -91.0873177
9.302                0.909817856     -91.2580534
9.303                0.909567791     -91.4292759
9.304                0.909316942     -91.6009866
9.305                0.909065308     -91.7731869
9.306                0.908812891     -91.9458782
9.307                 0.90855969     -92.1190618
9.308                0.908305706     -92.2927393
9.309                0.908050939     -92.4669119
9.31                  0.90779539     -92.6415812
9.311                0.907539059     -92.8167484
9.312                0.907281946     -92.9924151
9.313                0.907024053     -93.1685825
9.314                 0.90676538     -93.3452521
9.315                0.906505927     -93.5224253
9.316                0.906245696     -93.7001035
9.317                0.905984687     -93.8782881
9.318                  0.9057229     -94.0569804
9.319                0.905460337     -94.2361819
9.32                 0.905196999      -94.415894
9.321                0.904932887      -94.596118
9.322                0.904668001     -94.7768554
9.323                0.904402342     -94.9581075
9.324                0.904135913     -95.1398757
9.325                0.903868713     -95.3221614
9.326                0.903600744      -95.504966
9.327                0.903332008     -95.6882908
9.328                0.903062505     -95.8721373
9.329                0.902792238     -96.0565068
9.33                 0.902521207     -96.2414006
9.331                0.902249413     -96.4268203
9.332                0.901976859      -96.612767
9.333                0.901703547     -96.7992422
9.334                0.901429477     -96.9862473
9.335                0.901154651     -97.1737836
9.336                0.900879071     -97.3618525
9.337                 0.90060274     -97.5504553
9.338                0.900325658     -97.7395934
9.339                0.900047828     -97.9292682
9.34                 0.899769252     -98.1194808
9.341                0.899489931     -98.3102328
9.342                0.899209869     -98.5015255
9.343                0.898929067     -98.6933601
9.344                0.898647527     -98.8857381
9.345                0.898365252     -99.0786607
9.346                0.898082244     -99.2721293
9.347                0.897798505     -99.4661451
9.348                0.897514039     -99.6607096
9.349                0.897228847      -99.855824
9.35                 0.896942933      -100.05149
9.351                0.896656298     -100.247708
9.352                0.896368946      -100.44448
9.353                 0.89608088     -100.641807
9.354                0.895792102      -100.83969
9.355                0.895502616     -101.038131
9.356                0.895212424     -101.237131
9.357                 0.89492153     -101.436691
9.358                0.894629937     -101.636813
9.359                0.894337648     -101.837497
9.36                 0.894044666     -102.038746
9.361                0.893750996     -102.240559
9.362                0.893456639     -102.442939
9.363                0.893161601     -102.645887
9.364                0.892865885     -102.849404
9.365                0.892569494     -103.053491
9.366                0.892272432     -103.258149
9.367                0.891974703      -103.46338
9.368                0.891676312     -103.669184
9.369                0.891377261     -103.875564
9.37                 0.891077556      -104.08252
9.371                  0.8907772     -104.290053
9.372                0.890476198     -104.498164
9.373                0.890174554     -104.706855
9.374                0.889872272     -104.916127
9.375                0.889569358     -105.125981
9.376                0.889265815     -105.336418
9.377                0.888961649      -105.54744
9.378                0.888656864     -105.759046
9.379                0.888351465     -105.971239
9.38                 0.888045458      -106.18402
9.381                0.887738846     -106.397389
9.382                0.887431636     -106.611348
9.383                0.887123832     -106.825898
9.384                 0.88681544     -107.041039
9.385                0.886506466     -107.256774
9.386                0.886196914     -107.473102
9.387                 0.88588679     -107.690026
9.388                0.885576101     -107.907545
9.389                0.885264852     -108.125662
9.39                 0.884953048     -108.344376
9.391                0.884640696      -108.56369
9.392                0.884327802     -108.783603
9.393                0.884014371     -109.004118
9.394                0.883700411     -109.225234
9.395                0.883385928     -109.446953
9.396                0.883070927     -109.669276
