! TOUCHSTONE file generated by CST DESIGN STUDIO
! Date and time: Tue Feb  4 15:49:46 2025
! Project name: C:\Work\MatlabApps\UnitCellOptimizationMatlab\CST\unitcell.cst
! Tree item: Tasks\Sweep1\SPara1\S-Parameters
! Header version: 2024
! Port assignment regex: !\s*Touchstone port\s*([0-9]+)\s*=\s*(CST MWS port|CST DES external port|CST DES block port)\s*(.+)\s* \(\"(.*)\"\)(\s*mode\s*([0-9]+))?.*
! Touchstone port assignment:
! Touchstone port 1 = CST DES external port 1 ("")
# GHz S MA R 50
9                    0.974346383     -80.7176215
9.001                0.974280044     -80.8462866
9.002                0.974213507     -80.9752803
9.003                 0.97414677     -81.1046036
9.004                0.974079834     -81.2342575
9.005                0.974012699     -81.3642428
9.006                0.973945363     -81.4945606
9.007                0.973877827     -81.6252119
9.008                 0.97381009     -81.7561976
9.009                0.973742152     -81.8875188
9.01                 0.973674012     -82.0191763
9.011                0.973605671     -82.1511711
9.012                0.973537127     -82.2835044
9.013                0.973468381     -82.4161769
9.014                0.973399432     -82.5491898
9.015                 0.97333028     -82.6825439
9.016                0.973260924     -82.8162404
9.017                0.973191365     -82.9502801
9.018                0.973121602     -83.0846641
9.019                0.973051634     -83.2193934
9.02                 0.972981462     -83.3544689
9.021                0.972911084     -83.4898917
9.022                0.972840502     -83.6256627
9.023                0.972769713      -83.761783
9.024                0.972698719     -83.8982535
9.025                0.972627519     -84.0350753
9.026                0.972556112     -84.1722493
9.027                0.972484499     -84.3097765
9.028                0.972412678     -84.4476581
9.029                 0.97234065     -84.5858948
9.03                 0.972268415     -84.7244879
9.031                0.972195972     -84.8634382
9.032                0.972123322     -85.0027468
9.033                0.972050462     -85.1424148
9.034                0.971977395      -85.282443
9.035                0.971904119     -85.4228326
9.036                0.971830633     -85.5635845
9.037                0.971756939     -85.7046998
9.038                0.971683035     -85.8461794
9.039                0.971608922     -85.9880244
9.04                 0.971534599     -86.1302359
9.041                0.971460066     -86.2728147
9.042                0.971385322      -86.415762
9.043                0.971310369     -86.5590788
9.044                0.971235204     -86.7027661
9.045                 0.97115983     -86.8468249
9.046                0.971084244     -86.9912562
9.047                0.971008447     -87.1360611
9.048                0.970932439     -87.2812406
9.049                0.970856219     -87.4267957
9.05                 0.970779789     -87.5727275
9.051                0.970703146     -87.7190369
9.052                0.970626292      -87.865725
9.053                0.970549226     -88.0127928
9.054                0.970471947     -88.1602414
9.055                0.970394457     -88.3080718
9.056                0.970316755      -88.456285
9.057                 0.97023884     -88.6048821
9.058                0.970160713      -88.753864
9.059                0.970082373     -88.9032318
9.06                 0.970003821     -89.0529866
9.061                0.969925057     -89.2031294
9.062                0.969846079     -89.3536611
9.063                0.969766889     -89.5045829
9.064                0.969687486     -89.6558957
9.065                0.969607871     -89.8076007
9.066                0.969528043     -89.9596988
9.067                0.969448001      -90.112191
9.068                0.969367748     -90.2650785
9.069                0.969287281     -90.4183622
9.07                 0.969206601     -90.5720431
9.071                0.969125709     -90.7261224
9.072                0.969044604      -90.880601
9.073                0.968963287     -91.0354799
9.074                0.968881756     -91.1907602
9.075                0.968800013      -91.346443
9.076                0.968718058     -91.5025292
9.077                 0.96863589     -91.6590199
9.078                 0.96855351     -91.8159161
9.079                0.968470917     -91.9732189
9.08                 0.968388113     -92.1309293
9.081                0.968305096     -92.2890482
9.082                0.968221868     -92.4475768
9.083                0.968138427      -92.606516
9.084                0.968054775      -92.765867
9.085                0.967970912     -92.9256306
9.086                0.967886837      -93.085808
9.087                0.967802551     -93.2464001
9.088                0.967718055      -93.407408
9.089                0.967633347     -93.5688327
9.09                 0.967548429     -93.7306753
9.091                0.967463301     -93.8929367
9.092                0.967377962     -94.0556179
9.093                0.967292414     -94.2187201
9.094                0.967206656     -94.3822441
9.095                0.967120689      -94.546191
9.096                0.967034513     -94.7105619
9.097                0.966948128     -94.8753577
9.098                0.966861535     -95.0405795
9.099                0.966774734     -95.2062282
9.1                  0.966687725     -95.3723048
9.101                0.966600508     -95.5388105
9.102                0.966513085     -95.7057461
9.103                0.966425454     -95.8731126
9.104                0.966337618     -96.0409112
9.105                0.966249575     -96.2091427
9.106                0.966161327     -96.3778082
9.107                0.966072874     -96.5469086
9.108                0.965984217     -96.7164449
9.109                0.965895355     -96.8864182
9.11                 0.965806289     -97.0568295
9.111                 0.96571702     -97.2276796
9.112                0.965627549     -97.3989696
9.113                0.965537875     -97.5707005
9.114                0.965447999     -97.7428732
9.115                0.965357922     -97.9154887
9.116                0.965267644     -98.0885481
9.117                0.965177167     -98.2620521
9.118                 0.96508649     -98.4360019
9.119                0.964995613     -98.6103984
9.12                 0.964904539     -98.7852425
9.121                0.964813267     -98.9605352
9.122                0.964721798     -99.1362775
9.123                0.964630132     -99.3124702
9.124                0.964538271     -99.4891144
9.125                0.964446215      -99.666211
9.126                0.964353964     -99.8437609
9.127                 0.96426152     -100.021765
9.128                0.964168883     -100.200224
9.129                0.964076053      -100.37914
9.13                 0.963983033     -100.558512
9.131                0.963889822     -100.738343
9.132                0.963796421     -100.918632
9.133                0.963702831     -101.099381
9.134                0.963609053     -101.280591
9.135                0.963515088     -101.462263
9.136                0.963420936     -101.644396
9.137                0.963326599     -101.826994
9.138                0.963232078     -102.010055
9.139                0.963137373     -102.193582
9.14                 0.963042485     -102.377575
9.141                0.962947416     -102.562035
9.142                0.962852165     -102.746962
9.143                0.962756735     -102.932358
9.144                0.962661127     -103.118224
9.145                 0.96256534      -103.30456
9.146                0.962469378     -103.491367
9.147                0.962373239     -103.678647
9.148                0.962276926     -103.866399
9.149                 0.96218044     -104.054625
9.15                 0.962083782     -104.243326
9.151                0.961986953     -104.432501
9.152                0.961889954     -104.622154
9.153                0.961792786     -104.812283
9.154                0.961695451      -105.00289
9.155                 0.96159795     -105.193975
9.156                0.961500284      -105.38554
9.157                0.961402454     -105.577585
9.158                0.961304462     -105.770111
9.159                0.961206309     -105.963119
9.16                 0.961107997     -106.156609
9.161                0.961009526     -106.350583
9.162                0.960910898      -106.54504
9.163                0.960812115     -106.739983
9.164                0.960713178      -106.93541
9.165                0.960614089     -107.131324
9.166                0.960514848     -107.327725
9.167                0.960415457     -107.524614
9.168                0.960315919      -107.72199
9.169                0.960216234     -107.919856
9.17                 0.960116405     -108.118212
9.171                0.960016431     -108.317058
9.172                0.959916317     -108.516395
9.173                0.959816062     -108.716224
9.174                0.959715668     -108.916545
9.175                0.959615138     -109.117359
9.176                0.959514473     -109.318667
9.177                0.959413675      -109.52047
9.178                0.959312745     -109.722767
9.179                0.959211685      -109.92556
9.18                 0.959110498     -110.128849
9.181                0.959009184     -110.332635
9.182                0.958907746     -110.536918
9.183                0.958806186     -110.741699
9.184                0.958704505     -110.946978
9.185                0.958602706     -111.152757
9.186                 0.95850079     -111.359035
9.187                 0.95839876     -111.565813
9.188                0.958296617     -111.773092
9.189                0.958194363     -111.980872
9.19                 0.958092001     -112.189153
9.191                0.957989533     -112.397937
9.192                 0.95788696     -112.607224
9.193                0.957784285     -112.817013
9.194                 0.95768151     -113.027306
9.195                0.957578638     -113.238104
9.196                0.957475669     -113.449405
9.197                0.957372608     -113.661212
9.198                0.957269455     -113.873524
9.199                0.957166213     -114.086341
9.2                  0.957062885     -114.299665
9.201                0.956959473     -114.513495
9.202                0.956855979     -114.727832
9.203                0.956752405     -114.942677
9.204                0.956648755     -115.158029
9.205                 0.95654503     -115.373888
9.206                0.956441234     -115.590256
9.207                0.956337367     -115.807133
9.208                0.956233434     -116.024518
9.209                0.956129436     -116.242413
9.21                 0.956025377     -116.460817
9.211                0.955921258      -116.67973
9.212                0.955817083     -116.899153
9.213                0.955712854     -117.119087
9.214                0.955608573     -117.339531
9.215                0.955504245     -117.560485
9.216                 0.95539987      -117.78195
9.217                0.955295453     -118.003926
9.218                0.955190995     -118.226413
9.219                0.955086501     -118.449411
9.22                 0.954981972      -118.67292
9.221                0.954877411     -118.896941
9.222                0.954772822     -119.121473
9.223                0.954668207     -119.346517
9.224                0.954563569     -119.572073
9.225                0.954458912      -119.79814
9.226                0.954354239     -120.024719
9.227                0.954249552      -120.25181
9.228                0.954144854     -120.479413
9.229                0.954040149     -120.707528
9.23                  0.95393544     -120.936154
9.231                 0.95383073     -121.165292
9.232                0.953726022     -121.394942
9.233                0.953621319     -121.625103
9.234                0.953516625     -121.855776
9.235                0.953411944      -122.08696
9.236                0.953307277     -122.318655
9.237                0.953202629     -122.550862
9.238                0.953098003      -122.78358
9.239                0.952993403     -123.016808
9.24                 0.952888831     -123.250547
9.241                0.952784292     -123.484797
9.242                0.952679788     -123.719557
9.243                0.952575324     -123.954826
9.244                0.952470903     -124.190605
9.245                0.952366528     -124.426894
9.246                0.952262203     -124.663692
9.247                0.952157932     -124.900999
9.248                0.952053718     -125.138814
9.249                0.951949564     -125.377137
9.25                 0.951845476     -125.615967
9.251                0.951741456     -125.855306
9.252                0.951637508     -126.095151
9.253                0.951533636     -126.335502
9.254                0.951429843      -126.57636
9.255                0.951326134     -126.817723
9.256                0.951222513     -127.059591
9.257                0.951118983     -127.301963
9.258                0.951015548      -127.54484
9.259                0.950912212      -127.78822
9.26                  0.95080898     -128.032103
9.261                0.950705854     -128.276489
9.262                 0.95060284     -128.521376
9.263                 0.95049994     -128.766764
9.264                 0.95039716     -129.012653
9.265                0.950294504     -129.259041
9.266                0.950191974     -129.505928
9.267                0.950089577     -129.753314
9.268                0.949987315     -130.001197
9.269                0.949885193     -130.249577
9.27                 0.949783215     -130.498454
9.271                0.949681386     -130.747825
9.272                0.949579709     -130.997691
9.273                0.949478189      -131.24805
9.274                 0.94937683     -131.498902
9.275                0.949275637     -131.750246
9.276                0.949174614     -132.002081
9.277                0.949073765     -132.254406
9.278                0.948973095      -132.50722
9.279                0.948872607     -132.760522
9.28                 0.948772308     -133.014311
9.281                  0.9486722     -133.268586
9.282                0.948572289     -133.523346
9.283                0.948472578      -133.77859
9.284                0.948373073     -134.034317
9.285                0.948273778     -134.290526
9.286                0.948174698     -134.547215
9.287                0.948075837     -134.804383
9.288                0.947977199      -135.06203
9.289                 0.94787879     -135.320153
9.29                 0.947780614     -135.578753
9.291                0.947682675     -135.837827
9.292                0.947584979     -136.097374
9.293                0.947487529     -136.357393
9.294                0.947390331     -136.617883
9.295                 0.94729339     -136.878842
9.296                0.947196709     -137.140269
9.297                0.947100295     -137.402162
9.298                0.947004151      -137.66452
9.299                0.946908282     -137.927342
9.3                  0.946812693     -138.190626
9.301                 0.94671739     -138.454371
9.302                0.946622376     -138.718575
9.303                0.946527656     -138.983236
9.304                0.946433236     -139.248353
9.305                0.946339121     -139.513925
9.306                0.946245314     -139.779949
9.307                0.946151821     -140.046425
9.308                0.946058647      -140.31335
9.309                0.945965797     -140.580723
9.31                 0.945873276     -140.848541
9.311                0.945781088     -141.116804
9.312                0.945689238      -141.38551
9.313                0.945597732     -141.654656
9.314                0.945506574     -141.924241
9.315                 0.94541577     -142.194263
9.316                0.945325323      -142.46472
9.317                 0.94523524     -142.735611
9.318                0.945145524     -143.006932
9.319                0.945056182     -143.278683
9.32                 0.944967218     -143.550862
9.321                0.944878636     -143.823466
9.322                0.944790443     -144.096493
9.323                0.944702642     -144.369942
9.324                0.944615239      -144.64381
9.325                0.944528239     -144.918095
9.326                0.944441647     -145.192795
9.327                0.944355468     -145.467908
9.328                0.944269706     -145.743431
9.329                0.944184367     -146.019363
9.33                 0.944099455     -146.295702
9.331                0.944014976     -146.572444
9.332                0.943930935     -146.849588
9.333                0.943847336     -147.127131
9.334                0.943764185     -147.405072
9.335                0.943681486     -147.683407
9.336                0.943599244     -147.962135
9.337                0.943517465     -148.241252
9.338                0.943436152     -148.520757
9.339                0.943355312     -148.800648
9.34                 0.943274949      -149.08092
9.341                0.943195068     -149.361573
9.342                0.943115673     -149.642603
9.343                0.943036771     -149.924008
9.344                0.942958364     -150.205786
9.345                0.942880459     -150.487934
9.346                0.942803061     -150.770448
9.347                0.942726173     -151.053327
9.348                0.942649801     -151.336568
9.349                 0.94257395     -151.620168
9.35                 0.942498625     -151.904125
9.351                0.942423829     -152.188435
9.352                0.942349568     -152.473096
9.353                0.942275848     -152.758105
9.354                0.942202671     -153.043459
9.355                0.942130044     -153.329156
9.356                 0.94205797     -153.615192
9.357                0.941986455     -153.901565
9.358                0.941915502     -154.188271
9.359                0.941845118     -154.475308
9.36                 0.941775306     -154.762673
9.361                 0.94170607     -155.050363
9.362                0.941637416     -155.338375
9.363                0.941569347     -155.626705
9.364                0.941501869     -155.915351
9.365                0.941434986      -156.20431
9.366                0.941368702     -156.493578
9.367                0.941303022     -156.783153
9.368                 0.94123795      -157.07303
9.369                 0.94117349     -157.363208
9.37                 0.941109647     -157.653683
9.371                0.941046425     -157.944451
9.372                0.940983828      -158.23551
9.373                0.940921861     -158.526856
9.374                0.940860527     -158.818486
9.375                0.940799832     -159.110396
9.376                0.940739778     -159.402584
9.377                0.940680371     -159.695046
9.378                0.940621613     -159.987778
9.379                 0.94056351     -160.280777
9.38                 0.940506065      -160.57404
9.381                0.940449282     -160.867564
9.382                0.940393165     -161.161344
9.383                0.940337718     -161.455378
9.384                0.940282945     -161.749661
9.385                0.940228849     -162.044192
9.386                0.940175435     -162.338965
9.387                0.940122705     -162.633977
9.388                0.940070665     -162.929226
9.389                0.940019316     -163.224707
9.39                 0.939968664     -163.520416
9.391                0.939918711     -163.816351
9.392                0.939869461     -164.112507
9.393                0.939820917      -164.40888
9.394                0.939773083     -164.705468
9.395                0.939725963     -165.002267
9.396                0.939679559     -165.299272
