! TOUCHSTONE file generated by CST DESIGN STUDIO
! Date and time: Tue Feb  4 15:49:49 2025
! Project name: C:\Work\MatlabApps\UnitCellOptimizationMatlab\CST\unitcell.cst
! Tree item: Tasks\Sweep1\SPara1\S-Parameters
! Header version: 2024
! Port assignment regex: !\s*Touchstone port\s*([0-9]+)\s*=\s*(CST MWS port|CST DES external port|CST DES block port)\s*(.+)\s* \(\"(.*)\"\)(\s*mode\s*([0-9]+))?.*
! Touchstone port assignment:
! Touchstone port 1 = CST DES external port 1 ("")
# GHz S MA R 50
9                    0.975060829       -76.62515
9.001                0.974998739      -76.743687
9.002                 0.97493646     -76.8625227
9.003                0.974873991     -76.9816578
9.004                0.974811332     -77.1010934
9.005                0.974748483     -77.2208304
9.006                0.974685443     -77.3408696
9.007                0.974622212     -77.4612119
9.008                0.974558789     -77.5818584
9.009                0.974495174     -77.7028098
9.01                 0.974431367     -77.8240672
9.011                0.974367366     -77.9456314
9.012                0.974303173     -78.0675034
9.013                0.974238785     -78.1896841
9.014                0.974174203     -78.3121744
9.015                0.974109427     -78.4349752
9.016                0.974044456     -78.5580875
9.017                0.973979289     -78.6815123
9.018                0.973913926     -78.8052503
9.019                0.973848367     -78.9293027
9.02                 0.973782612     -79.0536703
9.021                0.973716659      -79.178354
9.022                0.973650509     -79.3033549
9.023                0.973584162     -79.4286738
9.024                0.973517616     -79.5543117
9.025                0.973450871     -79.6802696
9.026                0.973383928     -79.8065484
9.027                0.973316785      -79.933149
9.028                0.973249443     -80.0600725
9.029                  0.9731819     -80.1873197
9.03                 0.973114157     -80.3148917
9.031                0.973046213     -80.4427893
9.032                0.972978068     -80.5710136
9.033                0.972909722     -80.6995655
9.034                0.972841173      -80.828446
9.035                0.972772422      -80.957656
9.036                0.972703469     -81.0871966
9.037                0.972634312     -81.2170686
9.038                0.972564953     -81.3472731
9.039                0.972495389     -81.4778111
9.04                 0.972425622     -81.6086834
9.041                 0.97235565     -81.7398912
9.042                0.972285473     -81.8714353
9.043                0.972215092     -82.0033168
9.044                0.972144505     -82.1355367
9.045                0.972073712     -82.2680958
9.046                0.972002714     -82.4009953
9.047                0.971931509     -82.5342361
9.048                0.971860098     -82.6678191
9.049                 0.97178848     -82.8017455
9.05                 0.971716654     -82.9360161
9.051                0.971644621      -83.070632
9.052                0.971572381     -83.2055941
9.053                0.971499932     -83.3409036
9.054                0.971427275     -83.4765612
9.055                0.971354409     -83.6125682
9.056                0.971281334     -83.7489254
9.057                 0.97120805     -83.8856339
9.058                0.971134557     -84.0226946
9.059                0.971060854     -84.1601087
9.06                 0.970986941      -84.297877
9.061                0.970912818     -84.4360006
9.062                0.970838485     -84.5744805
9.063                0.970763941     -84.7133177
9.064                0.970689185     -84.8525133
9.065                0.970614219     -84.9920682
9.066                0.970539042     -85.1319834
9.067                0.970463652       -85.27226
9.068                0.970388051     -85.4128991
9.069                0.970312239     -85.5539015
9.07                 0.970236213     -85.6952683
9.071                0.970159976     -85.8370006
9.072                0.970083526     -85.9790994
9.073                0.970006863     -86.1215656
9.074                0.969929987     -86.2644004
9.075                0.969852899     -86.4076047
9.076                0.969775596     -86.5511796
9.077                0.969698081      -86.695126
9.078                0.969620352     -86.8394451
9.079                0.969542409     -86.9841378
9.08                 0.969464253     -87.1292051
9.081                0.969385882     -87.2746482
9.082                0.969307298      -87.420468
9.083                0.969228499     -87.5666656
9.084                0.969149486     -87.7132419
9.085                0.969070258     -87.8601981
9.086                0.968990816     -88.0075351
9.087                 0.96891116      -88.155254
9.088                0.968831289     -88.3033559
9.089                0.968751203     -88.4518416
9.09                 0.968670902     -88.6007124
9.091                0.968590386     -88.7499692
9.092                0.968509656     -88.8996131
9.093                0.968428711      -89.049645
9.094                 0.96834755     -89.2000661
9.095                0.968266175     -89.3508773
9.096                0.968184585     -89.5020797
9.097                0.968102779     -89.6536744
9.098                0.968020759     -89.8056623
9.099                0.967938524     -89.9580446
9.1                  0.967856074     -90.1108221
9.101                0.967773408     -90.2639961
9.102                0.967690528     -90.4175675
9.103                0.967607434     -90.5715373
9.104                0.967524124     -90.7259066
9.105                  0.9674406     -90.8806765
9.106                0.967356861     -91.0358478
9.107                0.967272907     -91.1914218
9.108                0.967188739     -91.3473994
9.109                0.967104357     -91.5037817
9.11                  0.96701976     -91.6605697
9.111                 0.96693495     -91.8177644
9.112                0.966849925     -91.9753669
9.113                0.966764687     -92.1333781
9.114                0.966679235     -92.2917992
9.115                0.966593569     -92.4506311
9.116                0.966507691      -92.609875
9.117                0.966421599     -92.7695317
9.118                0.966335294     -92.9296024
9.119                0.966248776     -93.0900881
9.12                 0.966162046     -93.2509898
9.121                0.966075104     -93.4123085
9.122                 0.96598795     -93.5740452
9.123                0.965900584      -93.736201
9.124                0.965813007      -93.898777
9.125                0.965725218      -94.061774
9.126                0.965637219     -94.2251932
9.127                0.965549009     -94.3890355
9.128                0.965460588      -94.553302
9.129                0.965371958     -94.7179938
9.13                 0.965283118     -94.8831117
9.131                0.965194069     -95.0486568
9.132                0.965104811     -95.2146302
9.133                0.965015345     -95.3810328
9.134                0.964925671     -95.5478656
9.135                0.964835789     -95.7151298
9.136                0.964745699     -95.8828261
9.137                0.964655403     -96.0509557
9.138                0.964564901     -96.2195196
9.139                0.964474193     -96.3885188
9.14                 0.964383279     -96.5579542
9.141                 0.96429216     -96.7278268
9.142                0.964200837     -96.8981377
9.143                0.964109311     -97.0688878
9.144                 0.96401758     -97.2400781
9.145                0.963925647     -97.4117096
9.146                0.963833512     -97.5837833
9.147                0.963741175     -97.7563002
9.148                0.963648637     -97.9292611
9.149                0.963555899     -98.1026672
9.15                 0.963462961     -98.2765194
9.151                0.963369824     -98.4508186
9.152                0.963276488     -98.6255658
9.153                0.963182954      -98.800762
9.154                0.963089223     -98.9764081
9.155                0.962995296     -99.1525051
9.156                0.962901173     -99.3290539
9.157                0.962806855     -99.5060555
9.158                0.962712343     -99.6835108
9.159                0.962617638     -99.8614208
9.16                  0.96252274     -100.039786
9.161                 0.96242765     -100.218608
9.162                0.962332369     -100.397888
9.163                0.962236898     -100.577626
9.164                0.962141237     -100.757823
9.165                0.962045389     -100.938481
9.166                0.961949352     -101.119599
9.167                0.961853129      -101.30118
9.168                0.961756721     -101.483224
9.169                0.961660127     -101.665731
9.17                  0.96156335     -101.848703
9.171                 0.96146639     -102.032141
9.172                0.961369249     -102.216046
9.173                0.961271926     -102.400418
9.174                0.961174425     -102.585258
9.175                0.961076744     -102.770567
9.176                0.960978886     -102.956346
9.177                0.960880851     -103.142596
9.178                0.960782642     -103.329318
9.179                0.960684258     -103.516513
9.18                 0.960585701     -103.704181
9.181                0.960486972     -103.892323
9.182                0.960388073      -104.08094
9.183                0.960289004     -104.270033
9.184                0.960189767     -104.459603
9.185                0.960090364     -104.649651
9.186                0.959990795     -104.840176
9.187                0.959891061     -105.031182
9.188                0.959791165     -105.222667
9.189                0.959691107     -105.414632
9.19                 0.959590889      -105.60708
9.191                0.959490512     -105.800009
9.192                0.959389978     -105.993422
9.193                0.959289288     -106.187319
9.194                0.959188444       -106.3817
9.195                0.959087446     -106.576567
9.196                0.958986297     -106.771919
9.197                0.958884998     -106.967759
9.198                0.958783551     -107.164086
9.199                0.958681957     -107.360902
9.2                  0.958580218     -107.558206
9.201                0.958478336        -107.756
9.202                0.958376311     -107.954285
9.203                0.958274146      -108.15306
9.204                0.958171843     -108.352328
9.205                0.958069403     -108.552088
9.206                0.957966828     -108.752341
9.207                0.957864119     -108.953087
9.208                0.957761279     -109.154329
9.209                 0.95765831     -109.356065
9.21                 0.957555212     -109.558297
9.211                0.957451989     -109.761025
9.212                0.957348641      -109.96425
9.213                0.957245172     -110.167972
9.214                0.957141582     -110.372193
9.215                0.957037874     -110.576912
9.216                0.956934049     -110.782131
9.217                0.956830111      -110.98785
9.218                 0.95672606     -111.194068
9.219                0.956621899     -111.400788
9.22                  0.95651763     -111.608009
9.221                0.956413255     -111.815733
9.222                0.956308777     -112.023958
9.223                0.956204196     -112.232687
9.224                0.956099517     -112.441919
9.225                 0.95599474     -112.651655
9.226                0.955889869     -112.861896
9.227                0.955784905     -113.072641
9.228                 0.95567985     -113.283892
9.229                0.955574708     -113.495648
9.23                  0.95546948     -113.707911
9.231                0.955364169      -113.92068
9.232                0.955258777     -114.133957
9.233                0.955153307     -114.347741
9.234                 0.95504776     -114.562032
9.235                0.954942141     -114.776832
9.236                0.954836451      -114.99214
9.237                0.954730692     -115.207957
9.238                0.954624868     -115.424283
9.239                 0.95451898     -115.641119
9.24                 0.954413032     -115.858465
9.241                0.954307027      -116.07632
9.242                0.954200966     -116.294686
9.243                0.954094853     -116.513563
9.244                 0.95398869      -116.73295
9.245                 0.95388248     -116.952849
9.246                0.953776227     -117.173259
9.247                0.953669932      -117.39418
9.248                0.953563599     -117.615613
9.249                 0.95345723     -117.837558
9.25                 0.953350829     -118.060016
9.251                0.953244399     -118.282985
9.252                0.953137941     -118.506467
9.253                0.953031461     -118.730461
9.254                0.952924959     -118.954968
9.255                 0.95281844     -119.179988
9.256                0.952711907      -119.40552
9.257                0.952605363     -119.631565
9.258                 0.95249881     -119.858123
9.259                0.952392253     -120.085194
9.26                 0.952285693     -120.312778
9.261                0.952179136     -120.540875
9.262                0.952072583     -120.769485
9.263                0.951966038     -120.998608
9.264                0.951859504     -121.228243
9.265                0.951752985     -121.458392
9.266                0.951646485     -121.689053
9.267                0.951540005     -121.920226
9.268                0.951433551     -122.151912
9.269                0.951327125     -122.384111
9.27                 0.951220731     -122.616821
9.271                0.951114373     -122.850044
9.272                0.951008054     -123.083779
9.273                0.950901777     -123.318025
9.274                0.950795546     -123.552782
9.275                0.950689365     -123.788051
9.276                0.950583238     -124.023831
9.277                0.950477167     -124.260121
9.278                0.950371158     -124.496922
9.279                0.950265213     -124.734233
9.28                 0.950159336     -124.972054
9.281                0.950053532     -125.210384
9.282                0.949947804     -125.449223
9.283                0.949842156      -125.68857
9.284                0.949736591     -125.928426
9.285                0.949631114      -126.16879
9.286                0.949525729     -126.409661
9.287                0.949420439     -126.651039
9.288                0.949315249     -126.892923
9.289                0.949210162     -127.135314
9.29                 0.949105183     -127.378209
9.291                0.949000316      -127.62161
9.292                0.948895564     -127.865515
9.293                0.948790933     -128.109923
9.294                0.948686425     -128.354835
9.295                0.948582046     -128.600249
9.296                0.948477799     -128.846165
9.297                0.948373688     -129.092582
9.298                0.948269719       -129.3395
9.299                0.948165895     -129.586917
9.3                   0.94806222     -129.834834
9.301                0.947958699     -130.083249
9.302                0.947855336     -130.332161
9.303                0.947752135      -130.58157
9.304                0.947649102     -130.831475
9.305                0.947546239     -131.081875
9.306                0.947443553      -131.33277
9.307                0.947341046     -131.584157
9.308                0.947238725     -131.836037
9.309                0.947136592     -132.088409
9.31                 0.947034653     -132.341271
9.311                0.946932913     -132.594623
9.312                0.946831375     -132.848463
9.313                0.946730044     -133.102791
9.314                0.946628926     -133.357606
9.315                0.946528024     -133.612905
9.316                0.946427344      -133.86869
9.317                0.946326889     -134.124957
9.318                0.946226665     -134.381707
9.319                0.946126677     -134.638938
9.32                 0.946026929     -134.896648
9.321                0.945927425     -135.154838
9.322                0.945828171     -135.413504
9.323                0.945729171     -135.672647
9.324                0.945630431     -135.932264
9.325                0.945531954     -136.192356
9.326                0.945433747     -136.452919
9.327                0.945335813     -136.713953
9.328                0.945238157     -136.975457
9.329                0.945140785     -137.237429
9.33                 0.945043701     -137.499867
9.331                 0.94494691     -137.762771
9.332                0.944850418     -138.026139
9.333                0.944754228     -138.289969
9.334                0.944658346      -138.55426
9.335                0.944562778      -138.81901
9.336                0.944467527     -139.084217
9.337                0.944372599     -139.349881
9.338                0.944277999     -139.615999
9.339                0.944183731      -139.88257
9.34                 0.944089802     -140.149592
9.341                0.943996215     -140.417064
9.342                0.943902977     -140.684983
9.343                0.943810091     -140.953348
9.344                0.943717563     -141.222158
9.345                0.943625398      -141.49141
9.346                0.943533602     -141.761102
9.347                0.943442178     -142.031234
9.348                0.943351133     -142.301802
9.349                 0.94326047     -142.572805
9.35                 0.943170197     -142.844242
9.351                0.943080316     -143.116109
9.352                0.942990834     -143.388406
9.353                0.942901756      -143.66113
9.354                0.942813086     -143.934279
9.355                0.942724831     -144.207851
9.356                0.942636994     -144.481844
9.357                0.942549581     -144.756256
9.358                0.942462596     -145.031085
9.359                0.942376046     -145.306328
9.36                 0.942289936     -145.581984
9.361                0.942204269      -145.85805
9.362                0.942119052     -146.134524
9.363                0.942034289     -146.411405
9.364                0.941949986     -146.688688
9.365                0.941866148     -146.966373
9.366                0.941782778     -147.244457
9.367                0.941699884     -147.522937
9.368                 0.94161747     -147.801811
9.369                 0.94153554     -148.081077
9.37                   0.9414541     -148.360733
9.371                0.941373154     -148.640775
9.372                0.941292709     -148.921202
9.373                0.941212769     -149.202011
9.374                0.941133338     -149.483199
9.375                0.941054422     -149.764763
9.376                0.940976026     -150.046702
9.377                0.940898154     -150.329013
9.378                0.940820813     -150.611693
9.379                0.940744005     -150.894738
9.38                 0.940667738     -151.178148
9.381                0.940592014     -151.461919
9.382                 0.94051684     -151.746047
9.383                0.940442221     -152.030531
9.384                 0.94036816     -152.315368
9.385                0.940294663     -152.600555
9.386                0.940221734     -152.886089
9.387                0.940149379     -153.171967
9.388                0.940077602     -153.458186
9.389                0.940006408     -153.744744
9.39                 0.939935801     -154.031637
9.391                0.939865787     -154.318863
9.392                 0.93979637     -154.606418
9.393                0.939727554       -154.8943
9.394                0.939659345     -155.182506
9.395                0.939591746     -155.471032
9.396                0.939524763     -155.759876
