! TOUCHSTONE file generated by CST DESIGN STUDIO
! Date and time: Tue Feb  4 13:24:02 2025
! Project name: C:\Work\MatlabApps\UnitCellOptimizationMatlab\CST\unitcell.cst
! Tree item: Tasks\Sweep1\SPara1\S-Parameters
! Header version: 2024
! Port assignment regex: !\s*Touchstone port\s*([0-9]+)\s*=\s*(CST MWS port|CST DES external port|CST DES block port)\s*(.+)\s* \(\"(.*)\"\)(\s*mode\s*([0-9]+))?.*
! Touchstone port assignment:
! Touchstone port 1 = CST DES external port 1 ("")
# GHz S MA R 50
9                    0.984183369     -67.9017584
9.001                0.984148862     -67.9993906
9.002                 0.98411425     -68.0972561
9.003                0.984079532     -68.1953554
9.004                0.984044708     -68.2936895
9.005                0.984009777     -68.3922588
9.006                0.983974741     -68.4910643
9.007                0.983939597     -68.5901066
9.008                0.983904346     -68.6893865
9.009                0.983868988     -68.7889046
9.01                 0.983833522     -68.8886618
9.011                0.983797948     -68.9886587
9.012                0.983762265     -69.0888961
9.013                0.983726474     -69.1893748
9.014                0.983690574     -69.2900954
9.015                0.983654565     -69.3910588
9.016                0.983618446     -69.4922657
9.017                0.983582217     -69.5937167
9.018                0.983545878     -69.6954128
9.019                0.983509429     -69.7973546
9.02                 0.983472868     -69.8995429
9.021                0.983436197     -70.0019785
9.022                0.983399415     -70.1046621
9.023                0.983362521     -70.2075944
9.024                0.983325515     -70.3107764
9.025                0.983288396     -70.4142086
9.026                0.983251165     -70.5178919
9.027                0.983213822     -70.6218271
9.028                0.983176365     -70.7260149
9.029                0.983138795     -70.8304561
9.03                 0.983101111     -70.9351516
9.031                0.983063313      -71.040102
9.032                  0.9830254     -71.1453081
9.033                0.982987373     -71.2507708
9.034                0.982949231     -71.3564909
9.035                0.982910974      -71.462469
9.036                0.982872602     -71.5687061
9.037                0.982834113     -71.6752029
9.038                0.982795509     -71.7819603
9.039                0.982756788     -71.8889789
9.04                 0.982717951     -71.9962596
9.041                0.982678996     -72.1038033
9.042                0.982639924     -72.2116107
9.043                0.982600735     -72.3196826
9.044                0.982561428     -72.4280199
9.045                0.982522002     -72.5366234
9.046                0.982482458     -72.6454938
9.047                0.982442796      -72.754632
9.048                0.982403014     -72.8640388
9.049                0.982363113     -72.9737151
9.05                 0.982323093     -73.0836616
9.051                0.982282952     -73.1938792
9.052                0.982242692     -73.3043687
9.053                0.982202311      -73.415131
9.054                0.982161809     -73.5261668
9.055                0.982121186     -73.6374771
9.056                0.982080442     -73.7490626
9.057                0.982039576     -73.8609243
9.058                0.981998588     -73.9730628
9.059                0.981957478     -74.0854791
9.06                 0.981916245     -74.1981741
9.061                 0.98187489     -74.3111486
9.062                0.981833412     -74.4244033
9.063                 0.98179181     -74.5379393
9.064                0.981750085     -74.6517573
9.065                0.981708236     -74.7658581
9.066                0.981666262     -74.8802428
9.067                0.981624165      -74.994912
9.068                0.981581942     -75.1098668
9.069                0.981539595     -75.2251079
9.07                 0.981497122     -75.3406361
9.071                0.981454524     -75.4564525
9.072                  0.9814118     -75.5725579
9.073                0.981368949      -75.688953
9.074                0.981325973     -75.8056389
9.075                 0.98128287     -75.9226164
9.076                0.981239639     -76.0398863
9.077                0.981196282     -76.1574496
9.078                0.981152797     -76.2753072
9.079                0.981109185     -76.3934599
9.08                 0.981065445     -76.5119085
9.081                0.981021576     -76.6306541
9.082                0.980977579     -76.7496975
9.083                0.980933453     -76.8690396
9.084                0.980889198     -76.9886813
9.085                0.980844814     -77.1086235
9.086                0.980800301     -77.2288671
9.087                0.980755657      -77.349413
9.088                0.980710884     -77.4702621
9.089                 0.98066598     -77.5914153
9.09                 0.980620946     -77.7128736
9.091                0.980575781     -77.8346377
9.092                0.980530485     -77.9567088
9.093                0.980485058     -78.0790876
9.094                0.980439499     -78.2017751
9.095                0.980393808     -78.3247722
9.096                0.980347986     -78.4480799
9.097                0.980302031      -78.571699
9.098                0.980255944     -78.6956305
9.099                0.980209724     -78.8198753
9.1                  0.980163372     -78.9444343
9.101                0.980116886     -79.0693085
9.102                0.980070267     -79.1944989
9.103                0.980023514     -79.3200062
9.104                0.979976627     -79.4458316
9.105                0.979929606     -79.5719758
9.106                0.979882451       -79.69844
9.107                0.979835162     -79.8252249
9.108                0.979787738     -79.9523316
9.109                0.979740179     -80.0797609
9.11                 0.979692485      -80.207514
9.111                0.979644656     -80.3355916
9.112                0.979596691     -80.4639947
9.113                 0.97954859     -80.5927244
9.114                0.979500353     -80.7217815
9.115                0.979451981      -80.851167
9.116                0.979403472     -80.9808819
9.117                0.979354826     -81.1109272
9.118                0.979306044     -81.2413037
9.119                0.979257125     -81.3720125
9.12                 0.979208069     -81.5030545
9.121                0.979158876     -81.6344307
9.122                0.979109545     -81.7661421
9.123                0.979060077     -81.8981896
9.124                0.979010471     -82.0305742
9.125                0.978960727     -82.1632968
9.126                0.978910845     -82.2963586
9.127                0.978860824     -82.4297603
9.128                0.978810666     -82.5635031
9.129                0.978760368     -82.6975879
9.13                 0.978709932     -82.8320156
9.131                0.978659358     -82.9667873
9.132                0.978608644     -83.1019039
9.133                0.978557791     -83.2373664
9.134                0.978506798     -83.3731759
9.135                0.978455667     -83.5093332
9.136                0.978404395     -83.6458394
9.137                0.978352984     -83.7826955
9.138                0.978301433     -83.9199025
9.139                0.978249743     -84.0574613
9.14                 0.978197912      -84.195373
9.141                0.978145941     -84.3336385
9.142                 0.97809383     -84.4722589
9.143                0.978041578     -84.6112351
9.144                0.977989186     -84.7505682
9.145                0.977936653     -84.8902591
9.146                 0.97788398     -85.0303088
9.147                0.977831166     -85.1707184
9.148                0.977778211     -85.3114889
9.149                0.977725116     -85.4526212
9.15                 0.977671879     -85.5941164
9.151                0.977618501     -85.7359754
9.152                0.977564982     -85.8781993
9.153                0.977511322     -86.0207891
9.154                0.977457521     -86.1637458
9.155                0.977403578     -86.3070704
9.156                0.977349494     -86.4507639
9.157                0.977295269     -86.5948274
9.158                0.977240902     -86.7392618
9.159                0.977186394     -86.8840681
9.16                 0.977131745     -87.0292474
9.161                0.977076953     -87.1748006
9.162                0.977022021     -87.3207289
9.163                0.976966947     -87.4670332
9.164                0.976911731     -87.6137144
9.165                0.976856374     -87.7607738
9.166                0.976800875     -87.9082122
9.167                0.976745235     -88.0560306
9.168                0.976689454     -88.2042302
9.169                 0.97663353     -88.3528118
9.17                 0.976577466     -88.5017766
9.171                 0.97652126     -88.6511256
9.172                0.976464913     -88.8008597
9.173                0.976408424       -88.95098
9.174                0.976351794     -89.1014875
9.175                0.976295023     -89.2523832
9.176                0.976238111     -89.4036682
9.177                0.976181058     -89.5553434
9.178                0.976123863     -89.7074099
9.179                0.976066528     -89.8598687
9.18                 0.976009052     -90.0127209
9.181                0.975951436     -90.1659673
9.182                0.975893678     -90.3196092
9.183                 0.97583578     -90.4736474
9.184                0.975777742      -90.628083
9.185                0.975719564      -90.782917
9.186                0.975661245     -90.9381505
9.187                0.975602787     -91.0937844
9.188                0.975544188     -91.2498198
9.189                 0.97548545     -91.4062577
9.19                 0.975426572     -91.5630991
9.191                0.975367556      -91.720345
9.192                0.975308399     -91.8779964
9.193                0.975249104     -92.0360544
9.194                 0.97518967       -92.19452
9.195                0.975130098     -92.3533941
9.196                0.975070387     -92.5126778
9.197                0.975010537     -92.6723721
9.198                 0.97495055      -92.832478
9.199                0.974890425     -92.9929966
9.2                  0.974830163     -93.1539287
9.201                0.974769763     -93.3152755
9.202                0.974709227      -93.477038
9.203                0.974648553     -93.6392171
9.204                0.974587743     -93.8018138
9.205                0.974526797     -93.9648292
9.206                0.974465715     -94.1282642
9.207                0.974404498     -94.2921199
9.208                0.974343145     -94.4563972
9.209                0.974281658     -94.6210972
9.21                 0.974220035     -94.7862208
9.211                0.974158279      -94.951769
9.212                0.974096388     -95.1177429
9.213                0.974034364     -95.2841433
9.214                0.973972206     -95.4509714
9.215                0.973909916     -95.6182281
9.216                0.973847493     -95.7859143
9.217                0.973784938     -95.9540311
9.218                0.973722252     -96.1225794
9.219                0.973659434     -96.2915602
9.22                 0.973596485     -96.4609745
9.221                0.973533406     -96.6308233
9.222                0.973470197     -96.8011074
9.223                0.973406859      -96.971828
9.224                0.973343391     -97.1429859
9.225                0.973279795     -97.3145822
9.226                0.973216071     -97.4866177
9.227                0.973152219     -97.6590935
9.228                 0.97308824     -97.8320104
9.229                0.973024135     -98.0053695
9.23                 0.972959904     -98.1791717
9.231                0.972895547      -98.353418
9.232                0.972831065     -98.5281092
9.233                0.972766459     -98.7032463
9.234                0.972701729     -98.8788303
9.235                0.972636876      -99.054862
9.236                  0.9725719     -99.2313425
9.237                0.972506802     -99.4082726
9.238                0.972441583     -99.5856533
9.239                0.972376243     -99.7634854
9.24                 0.972310783       -99.94177
9.241                0.972245204     -100.120508
9.242                0.972179505       -100.2997
9.243                0.972113689     -100.479347
9.244                0.972047756      -100.65945
9.245                0.971981705      -100.84001
9.246                0.971915539     -101.021028
9.247                0.971849258     -101.202505
9.248                0.971782862     -101.384441
9.249                0.971716352     -101.566837
9.25                  0.97164973     -101.749695
9.251                0.971582995     -101.933015
9.252                0.971516149     -102.116798
9.253                0.971449193     -102.301045
9.254                0.971382127     -102.485757
9.255                0.971314952     -102.670935
9.256                0.971247669     -102.856578
9.257                0.971180279     -103.042689
9.258                0.971112783     -103.229268
9.259                0.971045181     -103.416317
9.26                 0.970977475     -103.603834
9.261                0.970909665     -103.791823
9.262                0.970841753     -103.980282
9.263                 0.97077374     -104.169214
9.264                0.970705625     -104.358619
9.265                0.970637411     -104.548498
9.266                0.970569099     -104.738851
9.267                0.970500689      -104.92968
9.268                0.970432182     -105.120984
9.269                0.970363579     -105.312766
9.27                 0.970294883     -105.505025
9.271                0.970226092     -105.697763
9.272                 0.97015721     -105.890979
9.273                0.970088236     -106.084676
9.274                0.970019172     -106.278853
9.275                0.969950019     -106.473511
9.276                0.969880779     -106.668652
9.277                0.969811452     -106.864275
9.278                0.969742039     -107.060381
9.279                0.969672542     -107.256972
9.28                 0.969602962     -107.454048
9.281                  0.9695333     -107.651609
9.282                0.969463558     -107.849656
9.283                0.969393737      -108.04819
9.284                0.969323837     -108.247212
9.285                0.969253861     -108.446721
9.286                 0.96918381      -108.64672
9.287                0.969113684     -108.847208
9.288                0.969043486     -109.048186
9.289                0.968973216     -109.249654
9.29                 0.968902877     -109.451614
9.291                0.968832469     -109.654066
9.292                0.968761994      -109.85701
9.293                0.968691453     -110.060447
9.294                0.968620848     -110.264377
9.295                0.968550181     -110.468802
9.296                0.968479452     -110.673721
9.297                0.968408663     -110.879136
9.298                0.968337817     -111.085046
9.299                0.968266913     -111.291453
9.3                  0.968195955     -111.498356
9.301                0.968124943     -111.705757
9.302                0.968053879     -111.913655
9.303                0.967982765     -112.122052
9.304                0.967911602     -112.330947
9.305                0.967840392     -112.540341
9.306                0.967769137     -112.750235
9.307                0.967697838     -112.960629
9.308                0.967626497     -113.171524
9.309                0.967555116     -113.382919
9.31                 0.967483697     -113.594815
9.311                 0.96741224     -113.807213
9.312                0.967340749     -114.020113
9.313                0.967269225     -114.233516
9.314                0.967197669     -114.447421
9.315                0.967126084      -114.66183
9.316                0.967054472     -114.876741
9.317                0.966982833     -115.092157
9.318                0.966911171     -115.308076
9.319                0.966839487       -115.5245
9.32                 0.966767783     -115.741428
9.321                0.966696061     -115.958861
9.322                0.966624322     -116.176799
9.323                 0.96655257     -116.395243
9.324                0.966480806     -116.614192
9.325                0.966409031     -116.833647
9.326                0.966337249     -117.053608
9.327                0.966265461     -117.274075
9.328                0.966193668     -117.495048
9.329                0.966121874     -117.716528
9.33                 0.966050081     -117.938515
9.331                 0.96597829     -118.161008
9.332                0.965906504     -118.384008
9.333                0.965834724     -118.607515
9.334                0.965762954     -118.831529
9.335                0.965691195     -119.056051
9.336                 0.96561945     -119.281079
9.337                 0.96554772     -119.506615
9.338                0.965476009     -119.732657
9.339                0.965404318     -119.959208
9.34                 0.965332649     -120.186265
9.341                0.965261006     -120.413829
9.342                 0.96518939     -120.641901
9.343                0.965117804      -120.87048
9.344                 0.96504625     -121.099566
9.345                 0.96497473     -121.329159
9.346                0.964903248     -121.559259
9.347                0.964831805     -121.789865
9.348                0.964760404     -122.020978
9.349                0.964689047     -122.252598
9.35                 0.964617738     -122.484723
9.351                0.964546478     -122.717355
9.352                0.964475269     -122.950493
9.353                0.964404116     -123.184137
9.354                0.964333019     -123.418285
9.355                0.964261983     -123.652939
9.356                0.964191009     -123.888098
9.357                0.964120099     -124.123762
9.358                0.964049258      -124.35993
9.359                0.963978487     -124.596602
9.36                 0.963907789     -124.833777
9.361                0.963837166     -125.071456
9.362                0.963766622     -125.309637
9.363                 0.96369616     -125.548321
9.364                0.963625781     -125.787507
9.365                0.963555489     -126.027195
9.366                0.963485287     -126.267383
9.367                0.963415177     -126.508073
9.368                0.963345163     -126.749262
9.369                0.963275246     -126.990951
9.37                 0.963205431     -127.233139
9.371                0.963135719     -127.475826
9.372                0.963066114     -127.719011
9.373                0.962996619     -127.962693
9.374                0.962927237     -128.206872
9.375                 0.96285797     -128.451547
9.376                0.962788821     -128.696717
9.377                0.962719795     -128.942382
9.378                0.962650892     -129.188541
9.379                0.962582117     -129.435194
9.38                 0.962513473     -129.682339
9.381                0.962444963     -129.929976
9.382                0.962376589     -130.178104
9.383                0.962308355     -130.426722
9.384                0.962240264     -130.675829
9.385                0.962172318     -130.925425
9.386                0.962104522     -131.175509
9.387                0.962036878      -131.42608
9.388                 0.96196939     -131.677136
9.389                 0.96190206     -131.928678
9.39                 0.961834892     -132.180703
9.391                0.961767889     -132.433212
9.392                0.961701054     -132.686202
9.393                 0.96163439     -132.939673
9.394                0.961567901     -133.193625
9.395                0.961501589     -133.448055
9.396                0.961435459     -133.702963
