! TOUCHSTONE file generated by CST DESIGN STUDIO
! Date and time: Tue Feb  4 13:24:04 2025
! Project name: C:\Work\MatlabApps\UnitCellOptimizationMatlab\CST\unitcell.cst
! Tree item: Tasks\Sweep1\SPara1\S-Parameters
! Header version: 2024
! Port assignment regex: !\s*Touchstone port\s*([0-9]+)\s*=\s*(CST MWS port|CST DES external port|CST DES block port)\s*(.+)\s* \(\"(.*)\"\)(\s*mode\s*([0-9]+))?.*
! Touchstone port assignment:
! Touchstone port 1 = CST DES external port 1 ("")
# GHz S MA R 50
9                     0.98444655     -66.3414668
9.001                0.984413443     -66.4358901
9.002                0.984380234     -66.5305371
9.003                0.984346925     -66.6254086
9.004                0.984313513     -66.7205052
9.005                    0.98428     -66.8158276
9.006                0.984246385     -66.9113765
9.007                0.984212667     -67.0071527
9.008                0.984178846     -67.1031568
9.009                0.984144922     -67.1993895
9.01                 0.984110895     -67.2958516
9.011                0.984076764     -67.3925437
9.012                0.984042529     -67.4894665
9.013                 0.98400819     -67.5866209
9.014                0.983973746     -67.6840074
9.015                0.983939197     -67.7816269
9.016                0.983904544     -67.8794799
9.017                0.983869784     -67.9775674
9.018                0.983834919     -68.0758899
9.019                0.983799948     -68.1744482
9.02                  0.98376487     -68.2732431
9.021                0.983729686     -68.3722753
9.022                0.983694395     -68.4715454
9.023                0.983658996     -68.5710543
9.024                 0.98362349     -68.6708027
9.025                0.983587876     -68.7707913
9.026                0.983552154     -68.8710209
9.027                0.983516324     -68.9714922
9.028                0.983480385      -69.072206
9.029                0.983444336      -69.173163
9.03                 0.983408179     -69.2743639
9.031                0.983371911     -69.3758096
9.032                0.983335534     -69.4775007
9.033                0.983299047     -69.5794381
9.034                0.983262449     -69.6816225
9.035                 0.98322574     -69.7840546
9.036                 0.98318892     -69.8867353
9.037                0.983151989     -69.9896653
9.038                0.983114946     -70.0928453
9.039                 0.98307779     -70.1962762
9.04                 0.983040523     -70.2999587
9.041                0.983003143     -70.4038936
9.042                 0.98296565     -70.5080817
9.043                0.982928044     -70.6125237
9.044                0.982890324     -70.7172205
9.045                0.982852491     -70.8221728
9.046                0.982814543     -70.9273814
9.047                0.982776481     -71.0328471
9.048                0.982738304     -71.1385707
9.049                0.982700013      -71.244553
9.05                 0.982661606     -71.3507948
9.051                0.982623083     -71.4572969
9.052                0.982584445     -71.5640601
9.053                 0.98254569     -71.6710852
9.054                0.982506819      -71.778373
9.055                0.982467831     -71.8859244
9.056                0.982428726       -71.99374
9.057                0.982389504     -72.1018208
9.058                0.982350164     -72.2101676
9.059                0.982310706     -72.3187811
9.06                  0.98227113     -72.4276622
9.061                0.982231436     -72.5368118
9.062                0.982191623     -72.6462306
9.063                 0.98215169     -72.7559194
9.064                0.982111638     -72.8658792
9.065                0.982071467     -72.9761107
9.066                0.982031175     -73.0866148
9.067                0.981990764     -73.1973922
9.068                0.981950232     -73.3084439
9.069                0.981909579     -73.4197708
9.07                 0.981868804     -73.5313735
9.071                0.981827909      -73.643253
9.072                0.981786892     -73.7554101
9.073                0.981745752     -73.8678457
9.074                0.981704491     -73.9805606
9.075                0.981663107     -74.0935557
9.076                  0.9816216     -74.2068318
9.077                 0.98157997     -74.3203898
9.078                0.981538217     -74.4342306
9.079                 0.98149634      -74.548355
9.08                  0.98145434     -74.6627639
9.081                0.981412215     -74.7774581
9.082                0.981369965     -74.8924385
9.083                0.981327591      -75.007706
9.084                0.981285092     -75.1232615
9.085                0.981242467     -75.2391058
9.086                0.981199717     -75.3552399
9.087                0.981156841     -75.4716645
9.088                0.981113839     -75.5883806
9.089                 0.98107071     -75.7053891
9.09                 0.981027455     -75.8226909
9.091                0.980984073     -75.9402868
9.092                0.980940564     -76.0581777
9.093                0.980896927     -76.1763646
9.094                0.980853163     -76.2948483
9.095                 0.98080927     -76.4136297
9.096                 0.98076525     -76.5327097
9.097                0.980721101     -76.6520893
9.098                0.980676823     -76.7717693
9.099                0.980632416     -76.8917506
9.1                   0.98058788     -77.0120342
9.101                0.980543215     -77.1326209
9.102                0.980498419     -77.2535117
9.103                0.980453494     -77.3747075
9.104                0.980408438     -77.4962092
9.105                0.980363252     -77.6180177
9.106                0.980317935      -77.740134
9.107                0.980272488     -77.8625589
9.108                0.980226909     -77.9852933
9.109                0.980181198     -78.1083384
9.11                 0.980135356     -78.2316948
9.111                0.980089382     -78.3553636
9.112                0.980043276     -78.4793458
9.113                0.979997037     -78.6036421
9.114                0.979950666     -78.7282537
9.115                0.979904161     -78.8531813
9.116                0.979857524     -78.9784261
9.117                0.979810754     -79.1039888
9.118                0.979763849     -79.2298705
9.119                0.979716812      -79.356072
9.12                  0.97966964     -79.4825944
9.121                0.979622334     -79.6094386
9.122                0.979574894     -79.7366056
9.123                0.979527319     -79.8640962
9.124                0.979479609     -79.9919115
9.125                0.979431764     -80.1200524
9.126                0.979383784     -80.2485199
9.127                0.979335669     -80.3773149
9.128                0.979287418     -80.5064384
9.129                0.979239031     -80.6358913
9.13                 0.979190508     -80.7656747
9.131                0.979141849     -80.8957894
9.132                0.979093054     -81.0262366
9.133                0.979044122      -81.157017
9.134                0.978995053     -81.2881318
9.135                0.978945848     -81.4195819
9.136                0.978896505     -81.5513682
9.137                0.978847025     -81.6834917
9.138                0.978797408     -81.8159535
9.139                0.978747653     -81.9487544
9.14                  0.97869776     -82.0818956
9.141                 0.97864773     -82.2153779
9.142                0.978597561     -82.3492024
9.143                0.978547254       -82.48337
9.144                0.978496809     -82.6178817
9.145                0.978446225     -82.7527386
9.146                0.978395503     -82.8879415
9.147                0.978344641     -83.0234916
9.148                0.978293641     -83.1593898
9.149                0.978242502     -83.2956371
9.15                 0.978191224     -83.4322344
9.151                0.978139806     -83.5691829
9.152                0.978088249     -83.7064834
9.153                0.978036552     -83.8441371
9.154                0.977984715     -83.9821448
9.155                0.977932739     -84.1205077
9.156                0.977880623     -84.2592266
9.157                0.977828367     -84.3983027
9.158                0.977775971     -84.5377369
9.159                0.977723434     -84.6775302
9.16                 0.977670757     -84.8176836
9.161                 0.97761794     -84.9581983
9.162                0.977564983      -85.099075
9.163                0.977511885      -85.240315
9.164                0.977458646     -85.3819191
9.165                0.977405267     -85.5238885
9.166                0.977351747     -85.6662241
9.167                0.977298087     -85.8089269
9.168                0.977244285      -85.951998
9.169                0.977190343     -86.0954383
9.17                 0.977136259      -86.239249
9.171                0.977082035      -86.383431
9.172                 0.97702767     -86.5279853
9.173                0.976973164     -86.6729129
9.174                0.976918516      -86.818215
9.175                0.976863728     -86.9638925
9.176                0.976808799     -87.1099464
9.177                0.976753728     -87.2563777
9.178                0.976698517     -87.4031875
9.179                0.976643164     -87.5503769
9.18                  0.97658767     -87.6979468
9.181                0.976532036     -87.8458982
9.182                 0.97647626     -87.9942322
9.183                0.976420343     -88.1429499
9.184                0.976364285     -88.2920522
9.185                0.976308087     -88.4415401
9.186                0.976251747     -88.5914148
9.187                0.976195267     -88.7416772
9.188                0.976138646     -88.8923283
9.189                0.976081884     -89.0433693
9.19                 0.976024982      -89.194801
9.191                0.975967939     -89.3466246
9.192                0.975910755     -89.4988411
9.193                0.975853431     -89.6514515
9.194                0.975795967     -89.8044569
9.195                0.975738363     -89.9578582
9.196                0.975680618     -90.1116564
9.197                0.975622734     -90.2658528
9.198                0.975564709     -90.4204481
9.199                0.975506545     -90.5754436
9.2                  0.975448242     -90.7308402
9.201                0.975389799     -90.8866389
9.202                0.975331216     -91.0428407
9.203                0.975272495     -91.1994468
9.204                0.975213634     -91.3564581
9.205                0.975154635     -91.5138756
9.206                0.975095497     -91.6717004
9.207                0.975036221     -91.8299335
9.208                0.974976807      -91.988576
9.209                0.974917254     -92.1476287
9.21                 0.974857564     -92.3070929
9.211                0.974797736     -92.4669694
9.212                0.974737771     -92.6272594
9.213                0.974677668     -92.7879637
9.214                0.974617429     -92.9490836
9.215                0.974557053     -93.1106199
9.216                0.974496541     -93.2725736
9.217                0.974435893     -93.4349459
9.218                0.974375108     -93.5977377
9.219                0.974314189       -93.76095
9.22                 0.974253134     -93.9245839
9.221                0.974191944     -94.0886403
9.222                 0.97413062     -94.2531203
9.223                0.974069161     -94.4180248
9.224                0.974007568     -94.5833549
9.225                0.973945842     -94.7491116
9.226                0.973883982     -94.9152959
9.227                 0.97382199     -95.0819087
9.228                0.973759865     -95.2489511
9.229                0.973697608     -95.4164241
9.23                 0.973635219     -95.5843287
9.231                0.973572699     -95.7526658
9.232                0.973510048     -95.9214365
9.233                0.973447267     -96.0906418
9.234                0.973384355     -96.2602825
9.235                0.973321314     -96.4303598
9.236                0.973258143     -96.6008745
9.237                0.973194844     -96.7718278
9.238                0.973131416     -96.9432205
9.239                0.973067861     -97.1150536
9.24                 0.973004179     -97.2873281
9.241                0.972940369     -97.4600449
9.242                0.972876434     -97.6332051
9.243                0.972812372     -97.8068096
9.244                0.972748186     -97.9808594
9.245                0.972683875     -98.1553553
9.246                 0.97261944     -98.3302984
9.247                0.972554881     -98.5056897
9.248                0.972490199       -98.68153
9.249                0.972425396     -98.8578203
9.25                  0.97236047     -99.0345615
9.251                0.972295423     -99.2117546
9.252                0.972230256     -99.3894006
9.253                0.972164969     -99.5675003
9.254                0.972099563     -99.7460546
9.255                0.972034039     -99.9250646
9.256                0.971968396     -100.104531
9.257                0.971902637     -100.284455
9.258                0.971836761     -100.464837
9.259                0.971770769     -100.645679
9.26                 0.971704663      -100.82698
9.261                0.971638442     -101.008743
9.262                0.971572108     -101.190967
9.263                0.971505661     -101.373655
9.264                0.971439102     -101.556806
9.265                0.971372433     -101.740422
9.266                0.971305653     -101.924503
9.267                0.971238763      -102.10905
9.268                0.971171765     -102.294065
9.269                0.971104659     -102.479548
9.27                 0.971037446     -102.665499
9.271                0.970970128     -102.851921
9.272                0.970902704     -103.038813
9.273                0.970835176     -103.226176
9.274                0.970767545     -103.414012
9.275                0.970699811     -103.602321
9.276                0.970631976     -103.791103
9.277                0.970564041     -103.980361
9.278                0.970496006     -104.170094
9.279                0.970427873     -104.360303
9.28                 0.970359642     -104.550989
9.281                0.970291315     -104.742154
9.282                0.970222892     -104.933797
9.283                0.970154376     -105.125919
9.284                0.970085766     -105.318522
9.285                0.970017064     -105.511606
9.286                0.969948271     -105.705172
9.287                0.969879388      -105.89922
9.288                0.969810416     -106.093751
9.289                0.969741357     -106.288766
9.29                 0.969672212     -106.484267
9.291                0.969602981     -106.680252
9.292                0.969533666     -106.876724
9.293                0.969464268     -107.073682
9.294                0.969394789     -107.271129
9.295                0.969325229     -107.469063
9.296                 0.96925559     -107.667486
9.297                0.969185873     -107.866399
9.298                 0.96911608     -108.065803
9.299                0.969046212     -108.265697
9.3                   0.96897627     -108.466083
9.301                0.968906255     -108.666961
9.302                 0.96883617     -108.868332
9.303                0.968766014     -109.070196
9.304                0.968695791     -109.272555
9.305                  0.9686255     -109.475408
9.306                0.968555144     -109.678756
9.307                0.968484723     -109.882601
9.308                0.968414241     -110.086942
9.309                0.968343697     -110.291779
9.31                 0.968273094     -110.497115
9.311                0.968202432     -110.702949
9.312                0.968131714     -110.909281
9.313                0.968060941     -111.116112
9.314                0.967990115     -111.323444
9.315                0.967919237     -111.531275
9.316                 0.96784831     -111.739607
9.317                0.967777333     -111.948441
9.318                 0.96770631     -112.157776
9.319                0.967635241     -112.367613
9.32                 0.967564129     -112.577953
9.321                0.967492976     -112.788796
9.322                0.967421782     -113.000142
9.323                 0.96735055     -113.211992
9.324                0.967279281     -113.424347
9.325                0.967207978     -113.637206
9.326                0.967136641     -113.850571
9.327                0.967065274      -114.06444
9.328                0.966993877     -114.278816
9.329                0.966922453     -114.493698
9.33                 0.966851004     -114.709086
9.331                 0.96677953     -114.924982
9.332                0.966708035     -115.141384
9.333                 0.96663652     -115.358294
9.334                0.966564988     -115.575712
9.335                0.966493439     -115.793637
9.336                0.966421877     -116.012071
9.337                0.966350302     -116.231013
9.338                0.966278718     -116.450465
9.339                0.966207126     -116.670425
9.34                 0.966135528     -116.890894
9.341                0.966063927     -117.111873
9.342                0.965992324     -117.333361
9.343                0.965920722     -117.555359
9.344                0.965849123     -117.777867
9.345                0.965777528     -118.000885
9.346                0.965705941     -118.224412
9.347                0.965634363     -118.448451
9.348                0.965562796     -118.672999
9.349                0.965491244     -118.898058
9.35                 0.965419707     -119.123627
9.351                0.965348189     -119.349707
9.352                0.965276691     -119.576298
9.353                0.965205216     -119.803399
9.354                0.965133767      -120.03101
9.355                0.965062345     -120.259132
9.356                0.964990954     -120.487764
9.357                0.964919594     -120.716907
9.358                 0.96484827     -120.946561
9.359                0.964776983     -121.176724
9.36                 0.964705736     -121.407398
9.361                0.964634531     -121.638582
9.362                 0.96456337     -121.870276
9.363                0.964492257      -122.10248
9.364                0.964421194     -122.335193
9.365                0.964350183     -122.568416
9.366                0.964279227     -122.802148
9.367                0.964208329     -123.036389
9.368                 0.96413749     -123.271139
9.369                0.964066715     -123.506397
9.37                 0.963996004     -123.742164
9.371                0.963925362     -123.978439
9.372                0.963854791     -124.215221
9.373                0.963784293     -124.452511
9.374                0.963713871     -124.690308
9.375                0.963643528     -124.928611
9.376                0.963573267     -125.167421
9.377                 0.96350309     -125.406736
9.378                   0.963433     -125.646557
9.379                0.963363001     -125.886883
9.38                 0.963293094     -126.127714
9.381                0.963223283     -126.369048
9.382                0.963153571     -126.610887
9.383                 0.96308396     -126.853228
9.384                0.963014453     -127.096071
9.385                0.962945054     -127.339417
9.386                0.962875765     -127.583264
9.387                0.962806589     -127.827612
9.388                0.962737529      -128.07246
9.389                0.962668589     -128.317807
9.39                  0.96259977     -128.563654
9.391                0.962531077     -128.809998
9.392                0.962462511      -129.05684
9.393                0.962394077     -129.304179
9.394                0.962325777     -129.552013
9.395                0.962257615     -129.800343
9.396                0.962189592     -130.049168
