! TOUCHSTONE file generated by CST DESIGN STUDIO
! Date and time: Tue Feb  4 13:23:56 2025
! Project name: C:\Work\MatlabApps\UnitCellOptimizationMatlab\CST\unitcell.cst
! Tree item: Tasks\Sweep1\SPara1\S-Parameters
! Header version: 2024
! Port assignment regex: !\s*Touchstone port\s*([0-9]+)\s*=\s*(CST MWS port|CST DES external port|CST DES block port)\s*(.+)\s* \(\"(.*)\"\)(\s*mode\s*([0-9]+))?.*
! Touchstone port assignment:
! Touchstone port 1 = CST DES external port 1 ("")
# GHz S MA R 50
9                     0.98313218     -74.0962574
9.001                 0.98309204     -74.2074043
9.002                0.983051778     -74.3188242
9.003                0.983011395     -74.4305181
9.004                 0.98297089     -74.5424867
9.005                0.982930263     -74.6547309
9.006                0.982889513     -74.7672515
9.007                 0.98284864     -74.8800493
9.008                0.982807644     -74.9931252
9.009                0.982766524       -75.10648
9.01                 0.982725281     -75.2201146
9.011                0.982683913     -75.3340297
9.012                0.982642422     -75.4482263
9.013                0.982600805     -75.5627052
9.014                0.982559064     -75.6774672
9.015                0.982517198     -75.7925131
9.016                0.982475206     -75.9078439
9.017                0.982433088     -76.0234604
9.018                0.982390844     -76.1393634
9.019                0.982348474     -76.2555538
9.02                 0.982305977     -76.3720325
9.021                0.982263354     -76.4888003
9.022                0.982220603      -76.605858
9.023                0.982177725     -76.7232066
9.024                0.982134719      -76.840847
9.025                0.982091585     -76.9587798
9.026                0.982048322     -77.0770062
9.027                0.982004931     -77.1955269
9.028                0.981961412     -77.3143428
9.029                0.981917763     -77.4334547
9.03                 0.981873985     -77.5528636
9.031                0.981830077     -77.6725704
9.032                0.981786039     -77.7925759
9.033                0.981741871      -77.912881
9.034                0.981697573     -78.0334866
9.035                0.981653144     -78.1543936
9.036                0.981608584     -78.2756028
9.037                0.981563893     -78.3971153
9.038                 0.98151907     -78.5189318
9.039                0.981474115     -78.6410533
9.04                 0.981429029     -78.7634806
9.041                 0.98138381     -78.8862147
9.042                0.981338459     -79.0092565
9.043                0.981292975     -79.1326068
9.044                0.981247358     -79.2562667
9.045                0.981201607     -79.3802369
9.046                0.981155723     -79.5045184
9.047                0.981109706     -79.6291121
9.048                0.981063554     -79.7540189
9.049                0.981017269     -79.8792398
9.05                 0.980970848     -80.0047756
9.051                0.980924293     -80.1306273
9.052                0.980877603     -80.2567958
9.053                0.980830778      -80.383282
9.054                0.980783818     -80.5100869
9.055                0.980736722     -80.6372113
9.056                 0.98068949     -80.7646562
9.057                0.980642122     -80.8924225
9.058                0.980594618     -81.0205112
9.059                0.980546977     -81.1489232
9.06                   0.9804992     -81.2776594
9.061                0.980451285     -81.4067207
9.062                0.980403234     -81.5361082
9.063                0.980355045     -81.6658226
9.064                0.980306718     -81.7958651
9.065                0.980258254     -81.9262365
9.066                0.980209652     -82.0569377
9.067                0.980160912     -82.1879697
9.068                0.980112033     -82.3193335
9.069                0.980063016     -82.4510299
9.07                  0.98001386     -82.5830601
9.071                0.979964565     -82.7154248
9.072                0.979915131      -82.848125
9.073                0.979865557     -82.9811618
9.074                0.979815845     -83.1145361
9.075                0.979765992     -83.2482487
9.076                   0.979716     -83.3823007
9.077                0.979665868     -83.5166931
9.078                0.979615595     -83.6514267
9.079                0.979565183     -83.7865026
9.08                  0.97951463     -83.9219218
9.081                0.979463936     -84.0576851
9.082                0.979413101     -84.1937935
9.083                0.979362126     -84.3302481
9.084                0.979311009     -84.4670498
9.085                0.979259752     -84.6041995
9.086                0.979208353     -84.7416982
9.087                0.979156812     -84.8795469
9.088                 0.97910513     -85.0177466
9.089                0.979053306     -85.1562983
9.09                  0.97900134     -85.2952028
9.091                0.978949233     -85.4344612
9.092                0.978896983     -85.5740745
9.093                0.978844591     -85.7140437
9.094                0.978792057     -85.8543696
9.095                 0.97873938     -85.9950534
9.096                0.978686561      -86.136096
9.097                0.978633599     -86.2774983
9.098                0.978580495     -86.4192613
9.099                0.978527247     -86.5613861
9.1                  0.978473857     -86.7038736
9.101                0.978420324     -86.8467248
9.102                0.978366648     -86.9899407
9.103                0.978312829     -87.1335222
9.104                0.978258867     -87.2774704
9.105                0.978204762     -87.4217862
9.106                0.978150513     -87.5664706
9.107                0.978096121     -87.7115247
9.108                0.978041586     -87.8569493
9.109                0.977986907     -88.0027456
9.11                 0.977932086     -88.1489144
9.111                 0.97787712     -88.2954568
9.112                0.977822011     -88.4423737
9.113                0.977766759     -88.5896662
9.114                0.977711363     -88.7373352
9.115                0.977655824     -88.8853818
9.116                0.977600141     -89.0338068
9.117                0.977544315     -89.1826114
9.118                0.977488345     -89.3317965
9.119                0.977432232     -89.4813631
9.12                 0.977375976     -89.6313122
9.121                0.977319576     -89.7816447
9.122                0.977263033     -89.9323617
9.123                0.977206346     -90.0834642
9.124                0.977149516     -90.2349531
9.125                0.977092543     -90.3868295
9.126                0.977035427     -90.5390943
9.127                0.976978168     -90.6917485
9.128                0.976920766     -90.8447931
9.129                 0.97686322     -90.9982292
9.13                 0.976805532     -91.1520576
9.131                0.976747701     -91.3062795
9.132                0.976689728     -91.4608957
9.133                0.976631612     -91.6159072
9.134                0.976573353     -91.7713152
9.135                0.976514952     -91.9271204
9.136                0.976456409      -92.083324
9.137                0.976397724     -92.2399269
9.138                0.976338897     -92.3969301
9.139                0.976279928     -92.5543346
9.14                 0.976220818     -92.7121414
9.141                0.976161566     -92.8703514
9.142                0.976102173     -93.0289656
9.143                0.976042639     -93.1879851
9.144                0.975982963     -93.3474107
9.145                0.975923147     -93.5072436
9.146                0.975863191     -93.6674845
9.147                0.975803094     -93.8281347
9.148                0.975742857     -93.9891949
9.149                0.975682481     -94.1506662
9.15                 0.975621964     -94.3125495
9.151                0.975561308     -94.4748459
9.152                0.975500513     -94.6375563
9.153                0.975439579     -94.8006817
9.154                0.975378507     -94.9642229
9.155                0.975317296     -95.1281811
9.156                0.975255947     -95.2925572
9.157                0.975194461      -95.457352
9.158                0.975132837     -95.6225667
9.159                0.975071075     -95.7882021
9.16                 0.975009177     -95.9542592
9.161                0.974947143     -96.1207389
9.162                0.974884972     -96.2876423
9.163                0.974822665     -96.4549702
9.164                0.974760223     -96.6227236
9.165                0.974697646     -96.7909035
9.166                0.974634935     -96.9595108
9.167                0.974572088     -97.1285464
9.168                0.974509108     -97.2980113
9.169                0.974445995     -97.4679064
9.17                 0.974382748     -97.6382327
9.171                0.974319369      -97.808991
9.172                0.974255858     -97.9801824
9.173                0.974192214     -98.1518076
9.174                 0.97412844     -98.3238678
9.175                0.974064535     -98.4963637
9.176                0.974000499     -98.6692963
9.177                0.973936333     -98.8426665
9.178                0.973872038     -99.0164752
9.179                0.973807614     -99.1907234
9.18                 0.973743062     -99.3654119
9.181                0.973678382     -99.5405416
9.182                0.973613575     -99.7161134
9.183                0.973548641     -99.8921283
9.184                0.973483581     -100.068587
9.185                0.973418396     -100.245491
9.186                0.973353086      -100.42284
9.187                0.973287651     -100.600636
9.188                0.973222092     -100.778879
9.189                0.973156411      -100.95757
9.19                 0.973090607     -101.136711
9.191                0.973024681     -101.316302
9.192                0.972958634     -101.496344
9.193                0.972892467     -101.676837
9.194                 0.97282618     -101.857783
9.195                0.972759774     -102.039182
9.196                0.972693249     -102.221036
9.197                0.972626607     -102.403345
9.198                0.972559849      -102.58611
9.199                0.972492974     -102.769331
9.2                  0.972425983      -102.95301
9.201                0.972358878     -103.137148
9.202                 0.97229166     -103.321745
9.203                0.972224328     -103.506802
9.204                0.972156885     -103.692319
9.205                 0.97208933     -103.878298
9.206                0.972021664      -104.06474
9.207                0.971953889     -104.251645
9.208                0.971886006     -104.439014
9.209                0.971818014     -104.626847
9.21                 0.971749916     -104.815146
9.211                0.971681712     -105.003912
9.212                0.971613402     -105.193144
9.213                0.971544989     -105.382844
9.214                0.971476472     -105.573013
9.215                0.971407854     -105.763651
9.216                0.971339134     -105.954759
9.217                0.971270314     -106.146337
9.218                0.971201394     -106.338387
9.219                0.971132377      -106.53091
9.22                 0.971063263     -106.723905
9.221                0.970994053     -106.917373
9.222                0.970924747     -107.111316
9.223                0.970855349     -107.305733
9.224                0.970785857     -107.500626
9.225                0.970716274     -107.695996
9.226                  0.9706466     -107.891842
9.227                0.970576837     -108.088166
9.228                0.970506987     -108.284968
9.229                0.970437049     -108.482248
9.23                 0.970367026     -108.680009
9.231                0.970296918     -108.878249
9.232                0.970226727      -109.07697
9.233                0.970156454     -109.276172
9.234                  0.9700861     -109.475856
9.235                0.970015667     -109.676022
9.236                0.969945156     -109.876672
9.237                0.969874569     -110.077805
9.238                0.969803906     -110.279422
9.239                0.969733168     -110.481524
9.24                 0.969662359     -110.684111
9.241                0.969591478     -110.887184
9.242                0.969520527     -111.090743
9.243                0.969449507     -111.294789
9.244                0.969378421     -111.499323
9.245                0.969307269     -111.704344
9.246                0.969236053     -111.909853
9.247                0.969164775     -112.115851
9.248                0.969093435     -112.322338
9.249                0.969022037     -112.529315
9.25                  0.96895058     -112.736782
9.251                0.968879066      -112.94474
9.252                0.968807498     -113.153188
9.253                0.968735877     -113.362128
9.254                0.968664204      -113.57156
9.255                0.968592481     -113.781484
9.256                 0.96852071       -113.9919
9.257                0.968448892     -114.202809
9.258                 0.96837703     -114.414212
9.259                0.968305124     -114.626107
9.26                 0.968233177     -114.838497
9.261                 0.96816119     -115.051382
9.262                0.968089165      -115.26476
9.263                0.968017104     -115.478634
9.264                0.967945008     -115.693002
9.265                 0.96787288     -115.907866
9.266                0.967800721     -116.123226
9.267                0.967728533     -116.339082
9.268                0.967656319     -116.555433
9.269                0.967584079     -116.772281
9.27                 0.967511816     -116.989626
9.271                0.967439532     -117.207467
9.272                0.967367229     -117.425805
9.273                0.967294908     -117.644641
9.274                0.967222572     -117.863973
9.275                0.967150222     -118.083803
9.276                0.967077862     -118.304131
9.277                0.967005492     -118.524956
9.278                0.966933115     -118.746278
9.279                0.966860733     -118.968099
9.28                 0.966788348     -119.190417
9.281                0.966715962     -119.413234
9.282                0.966643577     -119.636548
9.283                0.966571196     -119.860361
9.284                 0.96649882     -120.084671
9.285                0.966426452     -120.309479
9.286                0.966354094     -120.534786
9.287                0.966281749      -120.76059
9.288                0.966209418     -120.986892
9.289                0.966137103     -121.213692
9.29                 0.966064808      -121.44099
9.291                0.965992534     -121.668786
9.292                0.965920284     -121.897079
9.293                 0.96584806     -122.125869
9.294                0.965775865     -122.355157
9.295                  0.9657037     -122.584942
9.296                0.965631569     -122.815224
9.297                0.965559473     -123.046002
9.298                0.965487415     -123.277277
9.299                0.965415398     -123.509048
9.3                  0.965343424     -123.741316
9.301                0.965271495     -123.974079
9.302                0.965199614     -124.207338
9.303                0.965127784     -124.441092
9.304                0.965056008     -124.675341
9.305                0.964984286     -124.910084
9.306                0.964912623     -125.145322
9.307                0.964841021     -125.381053
9.308                0.964769483     -125.617279
9.309                0.964698011     -125.853997
9.31                 0.964626607     -126.091207
9.311                0.964555275      -126.32891
9.312                0.964484017     -126.567105
9.313                0.964412836     -126.805791
9.314                0.964341735     -127.044968
9.315                0.964270716     -127.284635
9.316                0.964199782     -127.524792
9.317                0.964128936     -127.765438
9.318                0.964058181     -128.006573
9.319                0.963987519     -128.248195
9.32                 0.963916954     -128.490305
9.321                0.963846488     -128.732902
9.322                0.963776123     -128.975985
9.323                0.963705864     -129.219553
9.324                0.963635713     -129.463607
9.325                0.963565672     -129.708144
9.326                0.963495746     -129.953164
9.327                0.963425935     -130.198667
9.328                0.963356245     -130.444652
9.329                0.963286676     -130.691118
9.33                 0.963217234     -130.938064
9.331                 0.96314792      -131.18549
9.332                0.963078737     -131.433394
9.333                0.963009689     -131.681775
9.334                0.962940779     -131.930634
9.335                0.962872009     -132.179968
9.336                0.962803383     -132.429777
9.337                0.962734904      -132.68006
9.338                0.962666575     -132.930816
9.339                0.962598399     -133.182044
9.34                 0.962530379     -133.433743
9.341                0.962462518     -133.685911
9.342                 0.96239482     -133.938549
9.343                0.962327288     -134.191654
9.344                0.962259924     -134.445225
9.345                0.962192733     -134.699262
9.346                0.962125716     -134.953764
9.347                0.962058878     -135.208728
9.348                0.961992222     -135.464155
9.349                0.961925751     -135.720042
9.35                 0.961859467     -135.976388
9.351                0.961793375     -136.233193
9.352                0.961727478     -136.490455
9.353                0.961661779     -136.748172
9.354                 0.96159628     -137.006343
9.355                0.961530987     -137.264967
9.356                0.961465901     -137.524043
9.357                0.961401026     -137.783569
9.358                0.961336366     -138.043543
9.359                0.961271923     -138.303964
9.36                 0.961207701     -138.564832
9.361                0.961143704     -138.826143
9.362                0.961079935     -139.087897
9.363                0.961016396     -139.350092
9.364                0.960953093     -139.612727
9.365                0.960890027       -139.8758
9.366                0.960827202     -140.139309
9.367                0.960764622     -140.403253
9.368                0.960702289     -140.667629
9.369                0.960640209     -140.932437
9.37                 0.960578382     -141.197675
9.371                0.960516815     -141.463341
9.372                0.960455508     -141.729432
9.373                0.960394467     -141.995948
9.374                0.960333694     -142.262887
9.375                0.960273192     -142.530246
9.376                0.960212966     -142.798024
9.377                0.960153019      -143.06622
9.378                0.960093353      -143.33483
9.379                0.960033973     -143.603853
9.38                 0.959974881     -143.873287
9.381                0.959916082     -144.143131
9.382                0.959857579     -144.413382
9.383                0.959799374     -144.684038
9.384                0.959741472     -144.955097
9.385                0.959683876     -145.226557
9.386                0.959626589     -145.498416
9.387                0.959569615     -145.770672
9.388                0.959512957     -146.043323
9.389                0.959456618     -146.316366
9.39                 0.959400603       -146.5898
9.391                0.959344913     -146.863621
9.392                0.959289553     -147.137829
9.393                0.959234527      -147.41242
9.394                0.959179836     -147.687392
9.395                0.959125486     -147.962743
9.396                0.959071478     -148.238471
