! TOUCHSTONE file generated by CST DESIGN STUDIO
! Date and time: Wed Feb  5 13:20:48 2025
! Project name: C:\Work\MatlabApps\UnitCellOptimizationMatlab\CST\unitcell.cst
! Tree item: Tasks\Sweep1\SPara1\S-Parameters
! Header version: 2024
! Port assignment regex: !\s*Touchstone port\s*([0-9]+)\s*=\s*(CST MWS port|CST DES external port|CST DES block port)\s*(.+)\s* \(\"(.*)\"\)(\s*mode\s*([0-9]+))?.*
! Touchstone port assignment:
! Touchstone port 1 = CST DES external port 1 ("")
# GHz S MA R 50
9                    0.978484344     -68.6425794
9.001                0.978435761     -68.7424358
9.002                 0.97838703     -68.8425339
9.003                0.978338149     -68.9428743
9.004                0.978289118     -69.0434579
9.005                0.978239937     -69.1442854
9.006                0.978190606     -69.2453576
9.007                0.978141123     -69.3466751
9.008                0.978091489     -69.4482389
9.009                0.978041703     -69.5500495
9.01                 0.977991764     -69.6521079
9.011                0.977941673     -69.7544148
9.012                0.977891428      -69.856971
9.013                 0.97784103     -69.9597771
9.014                0.977790477     -70.0628341
9.015                 0.97773977     -70.1661427
9.016                0.977688908     -70.2697036
9.017                0.977637891     -70.3735177
9.018                0.977586718     -70.4775858
9.019                0.977535389     -70.5819086
9.02                 0.977483903     -70.6864869
9.021                 0.97743226     -70.7913215
9.022                0.977380459     -70.8964132
9.023                0.977328501     -71.0017629
9.024                0.977276384     -71.1073713
9.025                0.977224108     -71.2132392
9.026                0.977171673     -71.3193674
9.027                0.977119079     -71.4257567
9.028                0.977066324      -71.532408
9.029                0.977013409      -71.639322
9.03                 0.976960333     -71.7464996
9.031                0.976907096     -71.8539416
9.032                0.976853697     -71.9616488
9.033                0.976800136      -72.069622
9.034                0.976746412      -72.177862
9.035                0.976692525     -72.2863698
9.036                0.976638475      -72.395146
9.037                0.976584261     -72.5041916
9.038                0.976529882     -72.6135073
9.039                0.976475339     -72.7230941
9.04                 0.976420631     -72.8329527
9.041                0.976365757     -72.9430839
9.042                0.976310717     -73.0534887
9.043                0.976255511     -73.1641679
9.044                0.976200138     -73.2751223
9.045                0.976144597     -73.3863527
9.046                0.976088889     -73.4978601
9.047                0.976033013     -73.6096452
9.048                0.975976969      -73.721709
9.049                0.975920756     -73.8340522
9.05                 0.975864373     -73.9466758
9.051                0.975807821     -74.0595807
9.052                0.975751098     -74.1727675
9.053                0.975694205     -74.2862374
9.054                0.975637141      -74.399991
9.055                0.975579906     -74.5140294
9.056                0.975522499     -74.6283532
9.057                 0.97546492     -74.7429636
9.058                0.975407168     -74.8578612
9.059                0.975349244     -74.9730471
9.06                 0.975291145      -75.088522
9.061                0.975232874     -75.2042869
9.062                0.975174428     -75.3203427
9.063                0.975115807     -75.4366902
9.064                0.975057012     -75.5533303
9.065                0.974998041      -75.670264
9.066                0.974938894     -75.7874921
9.067                0.974879572     -75.9050155
9.068                0.974820072     -76.0228352
9.069                0.974760396      -76.140952
9.07                 0.974700543     -76.2593669
9.071                0.974640512     -76.3780807
9.072                0.974580303     -76.4970943
9.073                0.974519915     -76.6164088
9.074                0.974459348     -76.7360249
9.075                0.974398603     -76.8559436
9.076                0.974337677     -76.9761659
9.077                0.974276572     -77.0966926
9.078                0.974215287     -77.2175247
9.079                 0.97415382     -77.3386631
9.08                 0.974092173     -77.4601086
9.081                0.974030344     -77.5818624
9.082                0.973968334     -77.7039252
9.083                0.973906141     -77.8262981
9.084                0.973843765     -77.9489819
9.085                0.973781207     -78.0719776
9.086                0.973718466     -78.1952861
9.087                0.973655541     -78.3189084
9.088                0.973592432     -78.4428454
9.089                0.973529139     -78.5670981
9.09                 0.973465661     -78.6916674
9.091                0.973401998     -78.8165543
9.092                 0.97333815     -78.9417596
9.093                0.973274116     -79.0672845
9.094                0.973209896     -79.1931298
9.095                 0.97314549     -79.3192965
9.096                0.973080897     -79.4457855
9.097                0.973016117     -79.5725978
9.098                 0.97295115     -79.6997344
9.099                0.972885995     -79.8271962
9.1                  0.972820653     -79.9549843
9.101                0.972755122     -80.0830995
9.102                0.972689402     -80.2115429
9.103                0.972623494     -80.3403154
9.104                0.972557396      -80.469418
9.105                0.972491109     -80.5988517
9.106                0.972424633     -80.7286174
9.107                0.972357966     -80.8587162
9.108                0.972291109      -80.989149
9.109                0.972224061     -81.1199168
9.11                 0.972156822     -81.2510206
9.111                0.972089392     -81.3824614
9.112                0.972021771     -81.5142401
9.113                0.971953957     -81.6463578
9.114                0.971885952     -81.7788155
9.115                0.971817755     -81.9116141
9.116                0.971749365     -82.0447546
9.117                0.971680782     -82.1782381
9.118                0.971612006     -82.3120656
9.119                0.971543037      -82.446238
9.12                 0.971473874     -82.5807563
9.121                0.971404517     -82.7156216
9.122                0.971334967     -82.8508349
9.123                0.971265222     -82.9863971
9.124                0.971195283     -83.1223094
9.125                0.971125149     -83.2585726
9.126                 0.97105482     -83.3951878
9.127                0.970984296      -83.532156
9.128                0.970913577     -83.6694782
9.129                0.970842663     -83.8071555
9.13                 0.970771552     -83.9451889
9.131                0.970700246     -84.0835793
9.132                0.970628744     -84.2223279
9.133                0.970557045     -84.3614355
9.134                 0.97048515     -84.5009034
9.135                0.970413058     -84.6407324
9.136                 0.97034077     -84.7809235
9.137                0.970268285      -84.921478
9.138                0.970195602     -85.0623966
9.139                0.970122723     -85.2036806
9.14                 0.970049646     -85.3453309
9.141                0.969976371     -85.4873485
9.142                0.969902899     -85.6297344
9.143                 0.96982923     -85.7724898
9.144                0.969755362     -85.9156157
9.145                0.969681297      -86.059113
9.146                0.969607033     -86.2029828
9.147                0.969532571     -86.3472262
9.148                0.969457912     -86.4918442
9.149                0.969383053     -86.6368378
9.15                 0.969307997      -86.782208
9.151                0.969232742      -86.927956
9.152                0.969157288     -87.0740827
9.153                0.969081636     -87.2205892
9.154                0.969005785     -87.3674766
9.155                0.968929736     -87.5147458
9.156                0.968853488     -87.6623979
9.157                0.968777041      -87.810434
9.158                0.968700396     -87.9588551
9.159                0.968623551     -88.1076623
9.16                 0.968546509     -88.2568565
9.161                0.968469267     -88.4064389
9.162                0.968391827     -88.5564105
9.163                0.968314188     -88.7067724
9.164                 0.96823635     -88.8575255
9.165                0.968158314      -89.008671
9.166                0.968080079     -89.1602098
9.167                0.968001645     -89.3121431
9.168                0.967923014     -89.4644718
9.169                0.967844183     -89.6171971
9.17                 0.967765155     -89.7703199
9.171                0.967685928     -89.9238414
9.172                0.967606504     -90.0777625
9.173                0.967526881     -90.2320843
9.174                 0.96744706     -90.3868079
9.175                0.967367042     -90.5419344
9.176                0.967286826     -90.6974646
9.177                0.967206413     -90.8533998
9.178                0.967125803      -91.009741
9.179                0.967044995     -91.1664891
9.18                  0.96696399     -91.3236453
9.181                0.966882789     -91.4812106
9.182                0.966801391      -91.639186
9.183                0.966719797     -91.7975726
9.184                0.966638007     -91.9563714
9.185                 0.96655602     -92.1155835
9.186                0.966473839     -92.2752099
9.187                0.966391461     -92.4352517
9.188                0.966308889     -92.5957099
9.189                0.966226122     -92.7565854
9.19                  0.96614316     -92.9178795
9.191                0.966060004     -93.0795931
9.192                0.965976654     -93.2417272
9.193                 0.96589311      -93.404283
9.194                0.965809373     -93.5672613
9.195                0.965725443     -93.7306633
9.196                0.965641321       -93.89449
9.197                0.965557006     -94.0587424
9.198                  0.9654725     -94.2234215
9.199                0.965387801     -94.3885285
9.2                  0.965302912     -94.5540642
9.201                0.965217833     -94.7200298
9.202                0.965132563     -94.8864262
9.203                0.965047103     -95.0532545
9.204                0.964961454     -95.2205157
9.205                0.964875616     -95.3882108
9.206                0.964789589     -95.5563408
9.207                0.964703375     -95.7249068
9.208                0.964616974     -95.8939097
9.209                0.964530385     -96.0633506
9.21                 0.964443611     -96.2332305
9.211                 0.96435665     -96.4035504
9.212                0.964269505     -96.5743113
9.213                0.964182174     -96.7455141
9.214                 0.96409466     -96.9171599
9.215                0.964006963     -97.0892497
9.216                0.963919082     -97.2617845
9.217                 0.96383102     -97.4347653
9.218                0.963742776      -97.608193
9.219                0.963654351     -97.7820686
9.22                 0.963565746     -97.9563932
9.221                0.963476962     -98.1311677
9.222                0.963387999     -98.3063931
9.223                0.963298858     -98.4820703
9.224                0.963209539     -98.6582003
9.225                0.963120045     -98.8347841
9.226                0.963030374     -99.0118227
9.227                0.962940529      -99.189317
9.228                 0.96285051      -99.367268
9.229                0.962760317     -99.5456766
9.23                 0.962669952     -99.7245438
9.231                0.962579415     -99.9038705
9.232                0.962488708     -100.083658
9.233                0.962397831     -100.263906
9.234                0.962306785     -100.444617
9.235                0.962215571     -100.625791
9.236                0.962124191      -100.80743
9.237                0.962032644     -100.989533
9.238                0.961940932     -101.172102
9.239                0.961849056     -101.355139
9.24                 0.961757017     -101.538643
9.241                0.961664816     -101.722616
9.242                0.961572455     -101.907059
9.243                0.961479933     -102.091972
9.244                0.961387253     -102.277356
9.245                0.961294415     -102.463213
9.246                0.961201421     -102.649543
9.247                0.961108271     -102.836348
9.248                0.961014967     -103.023627
9.249                 0.96092151     -103.211381
9.25                 0.960827902     -103.399613
9.251                0.960734142     -103.588322
9.252                0.960640234     -103.777509
9.253                0.960546178     -103.967176
9.254                0.960451975     -104.157322
9.255                0.960357626      -104.34795
9.256                0.960263133     -104.539059
9.257                0.960168498      -104.73065
9.258                0.960073722     -104.922725
9.259                0.959978805     -105.115284
9.26                  0.95988375     -105.308328
9.261                0.959788558     -105.501857
9.262                 0.95969323     -105.695873
9.263                0.959597768     -105.890376
9.264                0.959502174     -106.085367
9.265                0.959406448     -106.280847
9.266                0.959310593     -106.476816
9.267                0.959214609     -106.673276
9.268                  0.9591185     -106.870226
9.269                0.959022265     -107.067668
9.27                 0.958925908     -107.265603
9.271                0.958829429     -107.464031
9.272                 0.95873283     -107.662953
9.273                0.958636113     -107.862369
9.274                0.958539279      -108.06228
9.275                0.958442331     -108.262688
9.276                 0.95834527     -108.463592
9.277                0.958248098     -108.664993
9.278                0.958150817     -108.866892
9.279                0.958053428      -109.06929
9.28                 0.957955934     -109.272187
9.281                0.957858337     -109.475584
9.282                0.957760637     -109.679481
9.283                0.957662838     -109.883879
9.284                0.957564941     -110.088779
9.285                0.957466948     -110.294182
9.286                0.957368861     -110.500087
9.287                0.957270683     -110.706495
9.288                0.957172415     -110.913408
9.289                0.957074059     -111.120825
9.29                 0.956975618     -111.328747
9.291                0.956877094     -111.537175
9.292                0.956778488     -111.746108
9.293                0.956679803     -111.955549
9.294                0.956581042     -112.165496
9.295                0.956482206     -112.375952
9.296                0.956383298     -112.586915
9.297                0.956284319     -112.798387
9.298                0.956185274     -113.010368
9.299                0.956086162     -113.222858
9.3                  0.955986988     -113.435858
9.301                0.955887754     -113.649369
9.302                0.955788461      -113.86339
9.303                0.955689112     -114.077922
9.304                0.955589711     -114.292966
9.305                0.955490259     -114.508522
9.306                0.955390758      -114.72459
9.307                0.955291212     -114.941171
9.308                0.955191623     -115.158264
9.309                0.955091993     -115.375871
9.31                 0.954992326     -115.593991
9.311                0.954892624     -115.812625
9.312                0.954792889     -116.031773
9.313                0.954693125     -116.251436
9.314                0.954593333     -116.471613
9.315                0.954493517     -116.692305
9.316                 0.95439368     -116.913512
9.317                0.954293825     -117.135235
9.318                0.954193953     -117.357473
9.319                0.954094069     -117.580226
9.32                 0.953994175     -117.803496
9.321                0.953894274     -118.027282
9.322                0.953794369     -118.251583
9.323                0.953694462     -118.476401
9.324                0.953594558     -118.701736
9.325                0.953494659     -118.927587
9.326                0.953394767     -119.153954
9.327                0.953294887     -119.380839
9.328                0.953195022     -119.608239
9.329                0.953095173     -119.836157
9.33                 0.952995345     -120.064591
9.331                0.952895541     -120.293542
9.332                0.952795765      -120.52301
9.333                0.952696018     -120.752995
9.334                0.952596305     -120.983496
9.335                0.952496629     -121.214514
9.336                0.952396993     -121.446048
9.337                0.952297401     -121.678098
9.338                0.952197856     -121.910665
9.339                0.952098361     -122.143748
9.34                  0.95199892     -122.377347
9.341                0.951899536     -122.611462
9.342                0.951800213     -122.846093
9.343                0.951700955     -123.081239
9.344                0.951601765       -123.3169
9.345                0.951502646     -123.553076
9.346                0.951403602     -123.789767
9.347                0.951304637     -124.026972
9.348                0.951205754     -124.264692
9.349                0.951106958     -124.502925
9.35                 0.951008251     -124.741672
9.351                0.950909638     -124.980932
9.352                0.950811122     -125.220705
9.353                0.950712707      -125.46099
9.354                0.950614398     -125.701787
9.355                0.950516196     -125.943096
9.356                0.950418108     -126.184915
9.357                0.950320136     -126.427246
9.358                0.950222285     -126.670086
9.359                0.950124557     -126.913436
9.36                 0.950026958     -127.157296
9.361                0.949929492     -127.401664
9.362                0.949832162     -127.646539
9.363                0.949734972     -127.891923
9.364                0.949637926     -128.137813
9.365                0.949541029     -128.384209
9.366                0.949444285      -128.63111
9.367                0.949347697     -128.878517
9.368                 0.94925127     -129.126427
9.369                0.949155009     -129.374841
9.37                 0.949058916     -129.623758
9.371                0.948962997     -129.873176
9.372                0.948867256     -130.123096
9.373                0.948771697     -130.373516
9.374                0.948676324     -130.624436
9.375                0.948581141     -130.875854
9.376                0.948486154     -131.127769
9.377                0.948391365     -131.380182
9.378                 0.94829678     -131.633091
9.379                0.948202404     -131.886494
9.38                 0.948108239     -132.140392
9.381                0.948014292     -132.394783
9.382                0.947920565     -132.649666
9.383                0.947827065      -132.90504
9.384                0.947733795     -133.160903
9.385                0.947640759     -133.417256
9.386                0.947547962     -133.674097
9.387                 0.94745541     -133.931424
9.388                0.947363105     -134.189236
9.389                0.947271054     -134.447533
9.39                  0.94717926     -134.706314
9.391                0.947087728     -134.965576
9.392                0.946996463     -135.225318
9.393                0.946905469      -135.48554
9.394                0.946814751     -135.746241
9.395                0.946724314     -136.007418
9.396                0.946634162      -136.26907
