! TOUCHSTONE file generated by CST DESIGN STUDIO
! Date and time: Wed Feb  5 13:20:38 2025
! Project name: C:\Work\MatlabApps\UnitCellOptimizationMatlab\CST\unitcell.cst
! Tree item: Tasks\Sweep1\SPara1\S-Parameters
! Header version: 2024
! Port assignment regex: !\s*Touchstone port\s*([0-9]+)\s*=\s*(CST MWS port|CST DES external port|CST DES block port)\s*(.+)\s* \(\"(.*)\"\)(\s*mode\s*([0-9]+))?.*
! Touchstone port assignment:
! Touchstone port 1 = CST DES external port 1 ("")
# GHz S MA R 50
9                    0.976459985      -80.496153
9.001                0.976399286     -80.6238104
9.002                0.976338406     -80.7517922
9.003                0.976277346     -80.8800994
9.004                0.976216103     -81.0087329
9.005                 0.97615468     -81.1376937
9.006                0.976093074     -81.2669827
9.007                0.976031285      -81.396601
9.008                0.975969314     -81.5265493
9.009                 0.97590716     -81.6568288
9.01                 0.975844822     -81.7874404
9.011                0.975782301      -81.918385
9.012                0.975719596     -82.0496636
9.013                0.975656706     -82.1812772
9.014                0.975593632     -82.3132267
9.015                0.975530373     -82.4455131
9.016                0.975466929     -82.5781374
9.017                  0.9754033     -82.7111006
9.018                0.975339484     -82.8444036
9.019                0.975275483     -82.9780475
9.02                 0.975211295     -83.1120331
9.021                0.975146921     -83.2463615
9.022                 0.97508236     -83.3810337
9.023                0.975017612     -83.5160506
9.024                0.974952676     -83.6514132
9.025                0.974887553     -83.7871225
9.026                0.974822241     -83.9231795
9.027                0.974756742     -84.0595852
9.028                0.974691054     -84.1963406
9.029                0.974625177     -84.3334466
9.03                 0.974559112     -84.4709043
9.031                0.974492857     -84.6087147
9.032                0.974426413     -84.7468786
9.033                0.974359779     -84.8853973
9.034                0.974292956     -85.0242715
9.035                0.974225942     -85.1635024
9.036                0.974158739      -85.303091
9.037                0.974091345     -85.4430381
9.038                 0.97402376     -85.5833449
9.039                0.973955984     -85.7240124
9.04                 0.973888017     -85.8650414
9.041                0.973819859     -86.0064332
9.042                 0.97375151     -86.1481885
9.043                0.973682969     -86.2903086
9.044                0.973614236     -86.4327943
9.045                0.973545311     -86.5756466
9.046                0.973476194     -86.7188667
9.047                0.973406885     -86.8624554
9.048                0.973337383     -87.0064139
9.049                0.973267689      -87.150743
9.05                 0.973197802     -87.2954439
9.051                0.973127723     -87.4405176
9.052                 0.97305745     -87.5859649
9.053                0.972986985     -87.7317871
9.054                0.972916326      -87.877985
9.055                0.972845474     -88.0245597
9.056                0.972774428     -88.1715122
9.057                0.972703189     -88.3188436
9.058                0.972631757     -88.4665548
9.059                0.972560131     -88.6146468
9.06                 0.972488311     -88.7631208
9.061                0.972416297     -88.9119776
9.062                 0.97234409     -89.0612183
9.063                0.972271689      -89.210844
9.064                0.972199093     -89.3608556
9.065                0.972126304     -89.5112542
9.066                0.972053321     -89.6620408
9.067                0.971980143     -89.8132164
9.068                0.971906772      -89.964782
9.069                0.971833207     -90.1167386
9.07                 0.971759447     -90.2690873
9.071                0.971685494     -90.4218291
9.072                0.971611346      -90.574965
9.073                0.971537005      -90.728496
9.074                0.971462469     -90.8824231
9.075                 0.97138774     -91.0367474
9.076                0.971312816     -91.1914698
9.077                0.971237699     -91.3465915
9.078                0.971162388     -91.5021133
9.079                0.971086884     -91.6580364
9.08                 0.971011185     -91.8143617
9.081                0.970935294     -91.9710902
9.082                0.970859208     -92.1282231
9.083                 0.97078293     -92.2857612
9.084                0.970706458     -92.4437056
9.085                0.970629794     -92.6020573
9.086                0.970552936     -92.7608174
9.087                0.970475886     -92.9199867
9.088                0.970398643     -93.0795664
9.089                0.970321207     -93.2395575
9.09                 0.970243579     -93.3999609
9.091                 0.97016576     -93.5607777
9.092                0.970087748     -93.7220089
9.093                0.970009544     -93.8836555
9.094                 0.96993115     -94.0457184
9.095                0.969852563     -94.2081988
9.096                0.969773786     -94.3710975
9.097                0.969694819     -94.5344156
9.098                 0.96961566     -94.6981541
9.099                0.969536312      -94.862314
9.1                  0.969456773     -95.0268963
9.101                0.969377045      -95.191902
9.102                0.969297128      -95.357332
9.103                0.969217021     -95.5231874
9.104                0.969136726     -95.6894691
9.105                0.969056243     -95.8561782
9.106                0.968975571     -96.0233156
9.107                0.968894712     -96.1908823
9.108                0.968813666     -96.3588793
9.109                0.968732433     -96.5273075
9.11                 0.968651013      -96.696168
9.111                0.968569407     -96.8654617
9.112                0.968487616     -97.0351896
9.113                0.968405639     -97.2053527
9.114                0.968323478     -97.3759519
9.115                0.968241132     -97.5469881
9.116                0.968158603     -97.7184625
9.117                 0.96807589     -97.8903758
9.118                0.967992995     -98.0627291
9.119                0.967909917     -98.2355234
9.12                 0.967826657     -98.4087595
9.121                0.967743216     -98.5824384
9.122                0.967659595     -98.7565612
9.123                0.967575793     -98.9311286
9.124                0.967491812     -99.1061417
9.125                0.967407652     -99.2816013
9.126                0.967323314     -99.4575085
9.127                0.967238798     -99.6338641
9.128                0.967154105     -99.8106691
9.129                0.967069236     -99.9879244
9.13                 0.966984191     -100.165631
9.131                0.966898971      -100.34379
9.132                0.966813577     -100.522401
9.133                 0.96672801     -100.701467
9.134                0.966642269     -100.880987
9.135                0.966556356     -101.060964
9.136                0.966470273     -101.241396
9.137                0.966384018     -101.422287
9.138                0.966297594     -101.603636
9.139                0.966211001     -101.785444
9.14                  0.96612424     -101.967712
9.141                0.966037312     -102.150441
9.142                0.965950217     -102.333632
9.143                0.965862957     -102.517286
9.144                0.965775532     -102.701404
9.145                0.965687944     -102.885986
9.146                0.965600193     -103.071034
9.147                 0.96551228     -103.256547
9.148                0.965424206     -103.442528
9.149                0.965335973     -103.628976
9.15                  0.96524758     -103.815894
9.151                 0.96515903      -104.00328
9.152                0.965070323     -104.191137
9.153                0.964981461     -104.379465
9.154                0.964892444     -104.568265
9.155                0.964803273     -104.757538
9.156                 0.96471395     -104.947284
9.157                0.964624475     -105.137505
9.158                0.964534851       -105.3282
9.159                0.964445078     -105.519372
9.16                 0.964355156      -105.71102
9.161                0.964265089     -105.903145
9.162                0.964174875     -106.095749
9.163                0.964084518     -106.288831
9.164                0.963994018     -106.482393
9.165                0.963903377     -106.676435
9.166                0.963812595     -106.870959
9.167                0.963721675     -107.065964
9.168                0.963630616     -107.261452
9.169                0.963539422     -107.457423
9.17                 0.963448093     -107.653877
9.171                 0.96335663     -107.850817
9.172                0.963265036     -108.048242
9.173                0.963173311     -108.246152
9.174                0.963081457     -108.444549
9.175                0.962989476     -108.643434
9.176                0.962897368     -108.842806
9.177                0.962805136     -109.042667
9.178                0.962712782     -109.243017
9.179                0.962620305     -109.443857
9.18                 0.962527709     -109.645187
9.181                0.962434995     -109.847008
9.182                0.962342165     -110.049321
9.183                0.962249219     -110.252126
9.184                0.962156161     -110.455424
9.185                0.962062991     -110.659216
9.186                0.961969712     -110.863501
9.187                0.961876324      -111.06828
9.188                0.961782831     -111.273555
9.189                0.961689233     -111.479325
9.19                 0.961595533     -111.685591
9.191                0.961501731     -111.892354
9.192                0.961407832     -112.099613
9.193                0.961313835     -112.307371
9.194                0.961219743     -112.515626
9.195                0.961125559     -112.724379
9.196                0.961031283     -112.933632
9.197                0.960936918     -113.143384
9.198                0.960842466     -113.353636
9.199                0.960747929     -113.564388
9.2                   0.96065331     -113.775641
9.201                0.960558609     -113.987395
9.202                0.960463829      -114.19965
9.203                0.960368973     -114.412407
9.204                0.960274043     -114.625667
9.205                 0.96017904     -114.839428
9.206                0.960083967     -115.053693
9.207                0.959988826     -115.268461
9.208                0.959893619     -115.483733
9.209                 0.95979835     -115.699508
9.21                 0.959703019     -115.915788
9.211                 0.95960763     -116.132572
9.212                0.959512184      -116.34986
9.213                0.959416684     -116.567654
9.214                0.959321133     -116.785952
9.215                0.959225532     -117.004757
9.216                0.959129885     -117.224066
9.217                0.959034194     -117.443882
9.218                0.958938461     -117.664204
9.219                0.958842689     -117.885031
9.22                 0.958746881     -118.106366
9.221                0.958651038     -118.328206
9.222                0.958555164     -118.550553
9.223                0.958459261     -118.773407
9.224                0.958363332     -118.996768
9.225                 0.95826738     -119.220636
9.226                0.958171407     -119.445011
9.227                0.958075416     -119.669893
9.228                0.957979409     -119.895282
9.229                0.957883391     -120.121178
9.23                 0.957787362     -120.347581
9.231                0.957691327     -120.574491
9.232                0.957595288     -120.801909
9.233                0.957499248     -121.029833
9.234                0.957403209     -121.258265
9.235                0.957307176     -121.487203
9.236                 0.95721115     -121.716649
9.237                0.957115135     -121.946601
9.238                0.957019134      -122.17706
9.239                0.956923149     -122.408025
9.24                 0.956827185     -122.639497
9.241                0.956731243     -122.871475
9.242                0.956635328     -123.103959
9.243                0.956539441     -123.336949
9.244                0.956443587     -123.570445
9.245                0.956347769     -123.804445
9.246                0.956251989     -124.038951
9.247                0.956156252     -124.273962
9.248                0.956060559     -124.509478
9.249                0.955964916     -124.745497
9.25                 0.955869324     -124.982021
9.251                0.955773787     -125.219048
9.252                0.955678309     -125.456579
9.253                0.955582893     -125.694612
9.254                0.955487543     -125.933147
9.255                0.955392261     -126.172185
9.256                0.955297051     -126.411725
9.257                0.955201918     -126.651765
9.258                0.955106863     -126.892306
9.259                0.955011892     -127.133347
9.26                 0.954917006     -127.374888
9.261                0.954822211     -127.616928
9.262                0.954727509     -127.859467
9.263                0.954632905     -128.102504
9.264                0.954538401     -128.346037
9.265                0.954444002     -128.590068
9.266                0.954349711     -128.834595
9.267                0.954255532     -129.079618
9.268                0.954161469     -129.325135
9.269                0.954067525     -129.571146
9.27                 0.953973704     -129.817651
9.271                 0.95388001     -130.064648
9.272                0.953786447     -130.312137
9.273                0.953693019     -130.560118
9.274                 0.95359973     -130.808588
9.275                0.953506583     -131.057549
9.276                0.953413582     -131.306997
9.277                0.953320731     -131.556934
9.278                0.953228035     -131.807358
9.279                0.953135497     -132.058267
9.28                 0.953043122     -132.309662
9.281                0.952950912      -132.56154
9.282                0.952858873     -132.813902
9.283                0.952767008     -133.066746
9.284                0.952675321     -133.320071
9.285                0.952583817     -133.573876
9.286                  0.9524925      -133.82816
9.287                0.952401373     -134.082922
9.288                0.952310441     -134.338161
9.289                0.952219708     -134.593876
9.29                 0.952129179     -134.850065
9.291                0.952038856     -135.106727
9.292                0.951948746     -135.363861
9.293                0.951858851     -135.621467
9.294                0.951769176     -135.879542
9.295                0.951679725     -136.138085
9.296                0.951590503     -136.397095
9.297                0.951501514     -136.656572
9.298                0.951412762     -136.916512
9.299                0.951324251     -137.176916
9.3                  0.951235987     -137.437781
9.301                0.951147972     -137.699107
9.302                0.951060212     -137.960891
9.303                0.950972711     -138.223133
9.304                0.950885473      -138.48583
9.305                0.950798502     -138.748982
9.306                0.950711804     -139.012587
9.307                0.950625382     -139.276643
9.308                0.950539241     -139.541148
9.309                0.950453385     -139.806102
9.31                 0.950367819     -140.071502
9.311                0.950282547     -140.337347
9.312                0.950197574     -140.603634
9.313                0.950112904     -140.870364
9.314                0.950028541     -141.137532
9.315                0.949944491     -141.405139
9.316                0.949860757     -141.673182
9.317                0.949777344     -141.941659
9.318                0.949694256     -142.210568
9.319                0.949611499     -142.479909
9.32                 0.949529076     -142.749677
9.321                0.949446992     -143.019873
9.322                0.949365252     -143.290494
9.323                 0.94928386     -143.561537
9.324                 0.94920282     -143.833002
9.325                0.949122138     -144.104885
9.326                0.949041817     -144.377185
9.327                0.948961862       -144.6499
9.328                0.948882278     -144.923028
9.329                0.948803069     -145.196567
9.33                 0.948724241     -145.470514
9.331                0.948645796     -145.744868
9.332                 0.94856774     -146.019625
9.333                0.948490078     -146.294785
9.334                0.948412813     -146.570345
9.335                0.948335951     -146.846302
9.336                0.948259495     -147.122654
9.337                0.948183451     -147.399399
9.338                0.948107823     -147.676535
9.339                0.948032616     -147.954059
9.34                 0.947957833     -148.231969
9.341                0.947883479     -148.510263
9.342                 0.94780956     -148.788937
9.343                0.947736078     -149.067991
9.344                 0.94766304      -149.34742
9.345                0.947590448     -149.627223
9.346                0.947518309     -149.907397
9.347                0.947446625     -150.187939
9.348                0.947375402     -150.468848
9.349                0.947304644      -150.75012
9.35                 0.947234355     -151.031752
9.351                 0.94716454     -151.313743
9.352                0.947095203     -151.596089
9.353                0.947026348     -151.878788
9.354                 0.94695798     -152.161837
9.355                0.946890103     -152.445234
9.356                0.946822722     -152.728974
9.357                 0.94675584     -153.013057
9.358                0.946689462     -153.297478
9.359                0.946623592     -153.582236
9.36                 0.946558235     -153.867327
9.361                0.946493394     -154.152748
9.362                0.946429074     -154.438496
9.363                 0.94636528     -154.724569
9.364                0.946302014     -155.010964
9.365                0.946239282     -155.297677
9.366                0.946177087     -155.584706
9.367                0.946115434     -155.872047
9.368                0.946054326     -156.159698
9.369                0.945993768     -156.447655
9.37                 0.945933763     -156.735916
9.371                0.945874316     -157.024477
9.372                0.945815431     -157.313335
9.373                0.945757111     -157.602488
9.374                 0.94569936     -157.891931
9.375                0.945642183     -158.181661
9.376                0.945585583     -158.471676
9.377                0.945529564     -158.761973
9.378                 0.94547413     -159.052547
9.379                0.945419284     -159.343396
9.38                 0.945365031     -159.634516
9.381                0.945311373     -159.925904
9.382                0.945258315     -160.217557
9.383                 0.94520586     -160.509472
9.384                0.945154013     -160.801644
9.385                0.945102775     -161.094071
9.386                0.945052151     -161.386749
9.387                0.945002145     -161.679675
9.388                 0.94495276     -161.972845
9.389                0.944903999     -162.266256
9.39                 0.944855865     -162.559905
9.391                0.944808363     -162.853787
9.392                0.944761495       -163.1479
9.393                0.944715265     -163.442239
9.394                0.944669675     -163.736801
9.395                0.944624729     -164.031584
9.396                 0.94458043     -164.326582
