! TOUCHSTONE file generated by CST DESIGN STUDIO
! Date and time: Wed Feb  5 13:20:36 2025
! Project name: C:\Work\MatlabApps\UnitCellOptimizationMatlab\CST\unitcell.cst
! Tree item: Tasks\Sweep1\SPara1\S-Parameters
! Header version: 2024
! Port assignment regex: !\s*Touchstone port\s*([0-9]+)\s*=\s*(CST MWS port|CST DES external port|CST DES block port)\s*(.+)\s* \(\"(.*)\"\)(\s*mode\s*([0-9]+))?.*
! Touchstone port assignment:
! Touchstone port 1 = CST DES external port 1 ("")
# GHz S MA R 50
9                    0.976185849     -82.2024247
9.001                0.976123599     -82.3344015
9.002                0.976061165     -82.4667152
9.003                0.975998546     -82.5993667
9.004                0.975935742     -82.7323571
9.005                0.975872753     -82.8656873
9.006                0.975809579     -82.9993584
9.007                0.975746218     -83.1333711
9.008                0.975682672     -83.2677267
9.009                0.975618939     -83.4024259
9.01                 0.975555019     -83.5374699
9.011                0.975490912     -83.6728596
9.012                0.975426618      -83.808596
9.013                0.975362137       -83.94468
9.014                0.975297468     -84.0811127
9.015                0.975232611      -84.217895
9.016                0.975167565      -84.355028
9.017                0.975102331     -84.4925126
9.018                0.975036908     -84.6303499
9.019                0.974971297     -84.7685408
9.02                 0.974905496     -84.9070862
9.021                0.974839506     -85.0459873
9.022                0.974773326     -85.1852451
9.023                0.974706956     -85.3248604
9.024                0.974640396     -85.4648343
9.025                0.974573645     -85.6051679
9.026                0.974506705      -85.745862
9.027                0.974439573     -85.8869178
9.028                0.974372251     -86.0283362
9.029                0.974304737     -86.1701182
9.03                 0.974237032     -86.3122649
9.031                0.974169136     -86.4547772
9.032                0.974101048     -86.5976561
9.033                0.974032769     -86.7409027
9.034                0.973964297      -86.884518
9.035                0.973895633      -87.028503
9.036                0.973826777     -87.1728586
9.037                0.973757729      -87.317586
9.038                0.973688488      -87.462686
9.039                0.973619054     -87.6081598
9.04                 0.973549427     -87.7540083
9.041                0.973479608     -87.9002326
9.042                0.973409596     -88.0468337
9.043                 0.97333939     -88.1938125
9.044                0.973268991     -88.3411701
9.045                0.973198399     -88.4889076
9.046                0.973127613     -88.6370259
9.047                0.973056634      -88.785526
9.048                0.972985461      -88.934409
9.049                0.972914094     -89.0836759
9.05                 0.972842534     -89.2333277
9.051                 0.97277078     -89.3833654
9.052                0.972698832     -89.5337901
9.053                 0.97262669     -89.6846027
9.054                0.972554355     -89.8358043
9.055                0.972481825     -89.9873959
9.056                0.972409102     -90.1393785
9.057                0.972336184     -90.2917531
9.058                0.972263072     -90.4445208
9.059                0.972189767     -90.5976825
9.06                 0.972116268     -90.7512394
9.061                0.972042574     -90.9051923
9.062                0.971968687     -91.0595424
9.063                0.971894606     -91.2142906
9.064                0.971820331      -91.369438
9.065                0.971745862     -91.5249855
9.066                  0.9716712     -91.6809343
9.067                0.971596343     -91.8372852
9.068                0.971521294     -91.9940394
9.069                0.971446051     -92.1511978
9.07                 0.971370614     -92.3087615
9.071                0.971294984     -92.4667314
9.072                0.971219162     -92.6251086
9.073                0.971143146     -92.7838941
9.074                0.971066937     -92.9430889
9.075                0.970990535      -93.102694
9.076                0.970913941     -93.2627104
9.077                0.970837154     -93.4231392
9.078                0.970760176     -93.5839813
9.079                0.970683005     -93.7452378
9.08                 0.970605642     -93.9069095
9.081                0.970528087     -94.0689977
9.082                0.970450342     -94.2315032
9.083                0.970372404     -94.3944271
9.084                0.970294276     -94.5577703
9.085                0.970215957     -94.7215338
9.086                0.970137448     -94.8857188
9.087                0.970058748      -95.050326
9.088                0.969979858     -95.2153567
9.089                0.969900779     -95.3808116
9.09                  0.96982151     -95.5466919
9.091                0.969742053     -95.7129985
9.092                0.969662406     -95.8797324
9.093                0.969582571     -96.0468945
9.094                0.969502548      -96.214486
9.095                0.969422338     -96.3825077
9.096                 0.96934194     -96.5509606
9.097                0.969261355     -96.7198457
9.098                0.969180584      -96.889164
9.099                0.969099626     -97.0589165
9.1                  0.969018483      -97.229104
9.101                0.968937154     -97.3997277
9.102                0.968855641     -97.5707884
9.103                0.968773943     -97.7422871
9.104                0.968692061     -97.9142248
9.105                0.968609996     -98.0866025
9.106                0.968527748      -98.259421
9.107                0.968445318     -98.4326813
9.108                0.968362706     -98.6063845
9.109                0.968279912     -98.7805313
9.11                 0.968196938     -98.9551229
9.111                0.968113783       -99.13016
9.112                0.968030449     -99.3056437
9.113                0.967946935     -99.4815749
9.114                0.967863243     -99.6579544
9.115                0.967779374     -99.8347833
9.116                0.967695327     -100.012062
9.117                0.967611104     -100.189793
9.118                0.967526704     -100.367975
9.119                 0.96744213     -100.546611
9.12                 0.967357381       -100.7257
9.121                0.967272459     -100.905244
9.122                0.967187363     -101.085244
9.123                0.967102095       -101.2657
9.124                0.967016656     -101.446614
9.125                0.966931045     -101.627986
9.126                0.966845265     -101.809818
9.127                0.966759316     -101.992109
9.128                0.966673198     -102.174862
9.129                0.966586913     -102.358076
9.13                 0.966500462     -102.541753
9.131                0.966413844     -102.725894
9.132                0.966327062     -102.910499
9.133                0.966240116      -103.09557
9.134                0.966153006     -103.281106
9.135                0.966065735      -103.46711
9.136                0.965978303     -103.653581
9.137                 0.96589071     -103.840521
9.138                0.965802958     -104.027931
9.139                0.965715049      -104.21581
9.14                 0.965626982     -104.404161
9.141                0.965538759     -104.592984
9.142                0.965450381     -104.782279
9.143                0.965361849     -104.972048
9.144                0.965273165     -105.162291
9.145                0.965184328     -105.353009
9.146                0.965095342     -105.544202
9.147                0.965006206     -105.735873
9.148                0.964916921      -105.92802
9.149                 0.96482749     -106.120646
9.15                 0.964737913      -106.31375
9.151                0.964648192     -106.507334
9.152                0.964558327     -106.701399
9.153                0.964468321     -106.895944
9.154                0.964378173     -107.090971
9.155                0.964287887     -107.286481
9.156                0.964197462     -107.482473
9.157                0.964106901      -107.67895
9.158                0.964016204     -107.875911
9.159                0.963925374     -108.073357
9.16                 0.963834411     -108.271289
9.161                0.963743317     -108.469707
9.162                0.963652094     -108.668613
9.163                0.963560742     -108.868007
9.164                0.963469264     -109.067889
9.165                0.963377661      -109.26826
9.166                0.963285935     -109.469121
9.167                0.963194086     -109.670472
9.168                0.963102117     -109.872314
9.169                 0.96301003     -110.074648
9.17                 0.962917825     -110.277474
9.171                0.962825505     -110.480792
9.172                0.962733072     -110.684604
9.173                0.962640526      -110.88891
9.174                 0.96254787      -111.09371
9.175                0.962455105     -111.299005
9.176                0.962362234     -111.504795
9.177                0.962269257     -111.711082
9.178                0.962176178     -111.917865
9.179                0.962082997     -112.125144
9.18                 0.961989716     -112.332922
9.181                0.961896338     -112.541197
9.182                0.961802865      -112.74997
9.183                0.961709297     -112.959243
9.184                0.961615638     -113.169015
9.185                0.961521889     -113.379286
9.186                0.961428052     -113.590058
9.187                0.961334129      -113.80133
9.188                0.961240122     -114.013103
9.189                0.961146034     -114.225378
9.19                 0.961051866     -114.438154
9.191                0.960957621     -114.651433
9.192                  0.9608633     -114.865214
9.193                0.960768907     -115.079497
9.194                0.960674442     -115.294284
9.195                0.960579908     -115.509574
9.196                0.960485308     -115.725368
9.197                0.960390644     -115.941667
9.198                0.960295918     -116.158469
9.199                0.960201132     -116.375776
9.2                  0.960106289     -116.593588
9.201                0.960011391     -116.811905
9.202                0.959916441     -117.030727
9.203                 0.95982144     -117.250055
9.204                0.959726392     -117.469889
9.205                0.959631298     -117.690228
9.206                0.959536162     -117.911074
9.207                0.959440986     -118.132426
9.208                0.959345771     -118.354284
9.209                0.959250522     -118.576649
9.21                 0.959155241      -118.79952
9.211                0.959059929     -119.022898
9.212                 0.95896459     -119.246783
9.213                0.958869227     -119.471175
9.214                0.958773842     -119.696074
9.215                0.958678437      -119.92148
9.216                0.958583017     -120.147393
9.217                0.958487582     -120.373813
9.218                0.958392137      -120.60074
9.219                0.958296683     -120.828173
9.22                 0.958201225     -121.056114
9.221                0.958105764     -121.284562
9.222                0.958010304     -121.513517
9.223                0.957914847     -121.742979
9.224                0.957819397     -121.972947
9.225                0.957723956     -122.203421
9.226                0.957628527     -122.434403
9.227                0.957533114      -122.66589
9.228                0.957437719     -122.897884
9.229                0.957342346     -123.130383
9.23                 0.957246998     -123.363388
9.231                0.957151677     -123.596899
9.232                0.957056387     -123.830915
9.233                0.956961132     -124.065436
9.234                0.956865913     -124.300462
9.235                0.956770736     -124.535992
9.236                0.956675602     -124.772026
9.237                0.956580514     -125.008564
9.238                0.956485478     -125.245606
9.239                0.956390495      -125.48315
9.24                 0.956295569     -125.721198
9.241                0.956200703     -125.959748
9.242                0.956105901     -126.198799
9.243                0.956011166     -126.438352
9.244                0.955916502     -126.678406
9.245                0.955821912     -126.918961
9.246                0.955727399     -127.160016
9.247                0.955632967      -127.40157
9.248                 0.95553862     -127.643623
9.249                0.955444362     -127.886175
9.25                 0.955350195     -128.129224
9.251                0.955256123     -128.372771
9.252                 0.95516215     -128.616815
9.253                 0.95506828     -128.861354
9.254                0.954974517     -129.106389
9.255                0.954880863     -129.351918
9.256                0.954787323     -129.597942
9.257                  0.9546939     -129.844458
9.258                0.954600599     -130.091468
9.259                0.954507423     -130.338969
9.26                 0.954414375     -130.586961
9.261                 0.95432146     -130.835443
9.262                0.954228682     -131.084414
9.263                0.954136044     -131.333874
9.264                 0.95404355     -131.583822
9.265                0.953951204     -131.834257
9.266                0.953859011     -132.085177
9.267                0.953766973     -132.336582
9.268                0.953675096     -132.588471
9.269                0.953583382     -132.840844
9.27                 0.953491837     -133.093698
9.271                0.953400463     -133.347033
9.272                0.953309266     -133.600848
9.273                0.953218248     -133.855142
9.274                0.953127415     -134.109914
9.275                 0.95303677     -134.365162
9.276                0.952946318     -134.620886
9.277                0.952856062     -134.877084
9.278                0.952766006     -135.133756
9.279                0.952676156     -135.390899
9.28                 0.952586515     -135.648513
9.281                0.952497086     -135.906597
9.282                0.952407876     -136.165149
9.283                0.952318887     -136.424167
9.284                0.952230124     -136.683652
9.285                0.952141591     -136.943601
9.286                0.952053292     -137.204012
9.287                0.951965233     -137.464885
9.288                0.951877416     -137.726218
9.289                0.951789847      -137.98801
9.29                 0.951702529     -138.250259
9.291                0.951615467     -138.512964
9.292                0.951528666     -138.776123
9.293                0.951442129     -139.039734
9.294                0.951355861     -139.303797
9.295                0.951269867     -139.568309
9.296                0.951184151     -139.833269
9.297                0.951098717     -140.098675
9.298                 0.95101357     -140.364526
9.299                0.950928713      -140.63082
9.3                  0.950844152     -140.897555
9.301                0.950759891     -141.164729
9.302                0.950675935     -141.432341
9.303                0.950592287     -141.700389
9.304                0.950508953     -141.968872
9.305                0.950425936     -142.237786
9.306                0.950343241     -142.507131
9.307                0.950260873     -142.776905
9.308                0.950178836     -143.047105
9.309                0.950097135      -143.31773
9.31                 0.950015774     -143.588777
9.311                0.949934758     -143.860246
9.312                 0.94985409     -144.132133
9.313                0.949773776     -144.404437
9.314                0.949693821     -144.677156
9.315                0.949614227     -144.950287
9.316                0.949535001     -145.223829
9.317                0.949456146     -145.497779
9.318                0.949377668     -145.772135
9.319                0.949299569     -146.046896
9.32                 0.949221856     -146.322058
9.321                0.949144533      -146.59762
9.322                0.949067603     -146.873579
9.323                0.948991072     -147.149934
9.324                0.948914943     -147.426681
9.325                0.948839222     -147.703818
9.326                0.948763913     -147.981344
9.327                 0.94868902     -148.259255
9.328                0.948614548      -148.53755
9.329                0.948540501     -148.816226
9.33                 0.948466884      -149.09528
9.331                0.948393701      -149.37471
9.332                0.948320957     -149.654513
9.333                0.948248655     -149.934687
9.334                0.948176801      -150.21523
9.335                0.948105398     -150.496139
9.336                0.948034451     -150.777411
9.337                0.947963965     -151.059043
9.338                0.947893944     -151.341033
9.339                0.947824392     -151.623379
9.34                 0.947755313     -151.906077
9.341                0.947686713     -152.189125
9.342                0.947618594      -152.47252
9.343                0.947550962     -152.756259
9.344                 0.94748382     -153.040341
9.345                0.947417173      -153.32476
9.346                0.947351026     -153.609516
9.347                0.947285381     -153.894605
9.348                0.947220245     -154.180024
9.349                 0.94715562      -154.46577
9.35                 0.947091511      -154.75184
9.351                0.947027922     -155.038232
9.352                0.946964857     -155.324943
9.353                 0.94690232     -155.611969
9.354                0.946840316     -155.899307
9.355                0.946778847     -156.186954
9.356                 0.94671792     -156.474908
9.357                0.946657536     -156.763165
9.358                0.946597702     -157.051722
9.359                0.946538419     -157.340577
9.36                 0.946479692     -157.629725
9.361                0.946421526     -157.919163
9.362                0.946363924     -158.208889
9.363                0.946306889       -158.4989
9.364                0.946250426     -158.789191
9.365                0.946194539      -159.07976
9.366                 0.94613923     -159.370604
9.367                0.946084505     -159.661719
9.368                0.946030366     -159.953102
9.369                0.945976817     -160.244749
9.37                 0.945923862     -160.536658
9.371                0.945871505     -160.828824
9.372                0.945819748     -161.121245
9.373                0.945768597     -161.413917
9.374                0.945718053     -161.706836
9.375                 0.94566812            -162
9.376                0.945618802     -162.293404
9.377                0.945570103     -162.587045
9.378                0.945522025      -162.88092
9.379                0.945474572     -163.175026
9.38                 0.945427748     -163.469357
9.381                0.945381554     -163.763912
9.382                0.945335995     -164.058687
9.383                0.945291074     -164.353677
9.384                0.945246794      -164.64888
9.385                0.945203157     -164.944291
9.386                0.945160168     -165.239907
9.387                0.945117828     -165.535725
9.388                0.945076141      -165.83174
9.389                 0.94503511     -166.127949
9.39                 0.944994737     -166.424349
9.391                0.944955026     -166.720935
9.392                0.944915979     -167.017704
9.393                0.944877598     -167.314652
9.394                0.944839887     -167.611776
9.395                0.944802848     -167.909071
9.396                0.944766484     -168.206533
