! TOUCHSTONE file generated by CST DESIGN STUDIO
! Date and time: Wed Feb  5 13:20:49 2025
! Project name: C:\Work\MatlabApps\UnitCellOptimizationMatlab\CST\unitcell.cst
! Tree item: Tasks\Sweep1\SPara1\S-Parameters
! Header version: 2024
! Port assignment regex: !\s*Touchstone port\s*([0-9]+)\s*=\s*(CST MWS port|CST DES external port|CST DES block port)\s*(.+)\s* \(\"(.*)\"\)(\s*mode\s*([0-9]+))?.*
! Touchstone port assignment:
! Touchstone port 1 = CST DES external port 1 ("")
# GHz S MA R 50
9                    0.978857125     -66.5635934
9.001                0.978810799     -66.6589933
9.002                 0.97876433     -66.7546214
9.003                0.978717719     -66.8504786
9.004                0.978670964     -66.9465654
9.005                0.978624067     -67.0428827
9.006                0.978577025      -67.139431
9.007                0.978529839     -67.2362113
9.008                0.978482508     -67.3332241
9.009                0.978435032     -67.4304702
9.01                 0.978387411     -67.5279503
9.011                0.978339643     -67.6256653
9.012                0.978291729     -67.7236157
9.013                0.978243669     -67.8218024
9.014                0.978195461      -67.920226
9.015                0.978147105     -68.0188874
9.016                0.978098601     -68.1177872
9.017                0.978049949     -68.2169262
9.018                0.978001147     -68.3163052
9.019                0.977952196     -68.4159248
9.02                 0.977903096      -68.515786
9.021                0.977853845     -68.6158893
9.022                0.977804443     -68.7162356
9.023                 0.97775489     -68.8168256
9.024                0.977705186     -68.9176601
9.025                0.977655329     -69.0187399
9.026                 0.97760532     -69.1200657
9.027                0.977555159     -69.2216382
9.028                0.977504844     -69.3234583
9.029                0.977454375     -69.4255268
9.03                 0.977403753     -69.5278443
9.031                0.977352975     -69.6304118
9.032                0.977302043     -69.7332298
9.033                0.977250955     -69.8362994
9.034                0.977199712     -69.9396211
9.035                0.977148312     -70.0431959
9.036                0.977096755     -70.1470245
9.037                0.977045041     -70.2511076
9.038                 0.97699317     -70.3554462
9.039                0.976941141     -70.4600409
9.04                 0.976888953     -70.5648927
9.041                0.976836606     -70.6700022
9.042                0.976784101     -70.7753703
9.043                0.976731435     -70.8809978
9.044                0.976678609     -70.9868855
9.045                0.976625623     -71.0930343
9.046                0.976572476     -71.1994448
9.047                0.976519167      -71.306118
9.048                0.976465696     -71.4130547
9.049                0.976412063     -71.5202556
9.05                 0.976358268     -71.6277217
9.051                0.976304309     -71.7354536
9.052                0.976250187     -71.8434524
9.053                0.976195901     -71.9517187
9.054                 0.97614145     -72.0602534
9.055                0.976086835     -72.1690574
9.056                0.976032054     -72.2781315
9.057                0.975977108     -72.3874765
9.058                0.975921995     -72.4970933
9.059                0.975866716     -72.6069826
9.06                  0.97581127     -72.7171455
9.061                0.975755657     -72.8275826
9.062                0.975699876     -72.9382949
9.063                0.975643927     -73.0492832
9.064                0.975587809     -73.1605484
9.065                0.975531522     -73.2720913
9.066                0.975475065     -73.3839128
9.067                0.975418439     -73.4960137
9.068                0.975361643      -73.608395
9.069                0.975304675     -73.7210574
9.07                 0.975247537     -73.8340018
9.071                0.975190227     -73.9472292
9.072                0.975132746     -74.0607404
9.073                0.975075091     -74.1745362
9.074                0.975017265     -74.2886176
9.075                0.974959265     -74.4029854
9.076                0.974901091     -74.5176405
9.077                0.974842744     -74.6325838
9.078                0.974784222     -74.7478162
9.079                0.974725525     -74.8633386
9.08                 0.974666653     -74.9791519
9.081                0.974607606     -75.0952569
9.082                0.974548382     -75.2116545
9.083                0.974488983     -75.3283458
9.084                0.974429406     -75.4453314
9.085                0.974369653     -75.5626125
9.086                0.974309721     -75.6801898
9.087                0.974249612     -75.7980643
9.088                0.974189325     -75.9162369
9.089                0.974128858     -76.0347085
9.09                 0.974068213       -76.15348
9.091                0.974007388     -76.2725523
9.092                0.973946384     -76.3919264
9.093                0.973885199     -76.5116031
9.094                0.973823833     -76.6315835
9.095                0.973762287     -76.7518684
9.096                0.973700559     -76.8724587
9.097                0.973638649     -76.9933554
9.098                0.973576557     -77.1145595
9.099                0.973514283     -77.2360718
9.1                  0.973451826     -77.3578932
9.101                0.973389186     -77.4800248
9.102                0.973326362     -77.6024675
9.103                0.973263354     -77.7252222
9.104                0.973200161     -77.8482898
9.105                0.973136785     -77.9716714
9.106                0.973073223     -78.0953678
9.107                0.973009475       -78.21938
9.108                0.972945542      -78.343709
9.109                0.972881423     -78.4683557
9.11                 0.972817118     -78.5933211
9.111                0.972752626     -78.7186061
9.112                0.972687947     -78.8442117
9.113                 0.97262308     -78.9701389
9.114                0.972558026     -79.0963886
9.115                0.972492783     -79.2229618
9.116                0.972427353     -79.3498594
9.117                0.972361733     -79.4770825
9.118                0.972295925      -79.604632
9.119                0.972229927      -79.732509
9.12                 0.972163739     -79.8607142
9.121                0.972097362     -79.9892489
9.122                0.972030794     -80.1181138
9.123                0.971964036     -80.2473101
9.124                0.971897086     -80.3768387
9.125                0.971829946     -80.5067006
9.126                0.971762614     -80.6368967
9.127                0.971695091     -80.7674281
9.128                0.971627375     -80.8982958
9.129                0.971559467     -81.0295007
9.13                 0.971491367     -81.1610439
9.131                0.971423073     -81.2929264
9.132                0.971354587     -81.4251491
9.133                0.971285907      -81.557713
9.134                0.971217033     -81.6906193
9.135                0.971147966     -81.8238687
9.136                0.971078704     -81.9574625
9.137                0.971009248     -82.0914015
9.138                0.970939597     -82.2256868
9.139                0.970869752     -82.3603195
9.14                 0.970799711     -82.4953004
9.141                0.970729475     -82.6306307
9.142                0.970659043     -82.7663113
9.143                0.970588416     -82.9023433
9.144                0.970517592     -83.0387277
9.145                0.970446572     -83.1754655
9.146                0.970375356     -83.3125578
9.147                0.970303943     -83.4500055
9.148                0.970232334     -83.5878096
9.149                0.970160527     -83.7259713
9.15                 0.970088523     -83.8644915
9.151                0.970016322     -84.0033713
9.152                0.969943923     -84.1426117
9.153                0.969871326     -84.2822137
9.154                0.969798532     -84.4221784
9.155                 0.96972554     -84.5625068
9.156                0.969652349     -84.7031999
9.157                 0.96957896     -84.8442588
9.158                0.969505372     -84.9856846
9.159                0.969431586     -85.1274781
9.16                 0.969357601     -85.2696406
9.161                0.969283417      -85.412173
9.162                0.969209035     -85.5550764
9.163                0.969134453     -85.6983518
9.164                0.969059672     -85.8420003
9.165                0.968984692     -85.9860229
9.166                0.968909512     -86.1304207
9.167                0.968834133     -86.2751946
9.168                0.968758554     -86.4203459
9.169                0.968682776     -86.5658754
9.17                 0.968606798     -86.7117843
9.171                0.968530621     -86.8580737
9.172                0.968454243     -87.0047444
9.173                0.968377666     -87.1517978
9.174                0.968300889     -87.2992346
9.175                0.968223912     -87.4470561
9.176                0.968146736     -87.5952633
9.177                0.968069359     -87.7438572
9.178                0.967991783     -87.8928389
9.179                0.967914007     -88.0422095
9.18                 0.967836031       -88.19197
9.181                0.967757855     -88.3421214
9.182                0.967679479     -88.4926648
9.183                0.967600904     -88.6436014
9.184                0.967522128      -88.794932
9.185                0.967443154     -88.9466579
9.186                0.967363979       -89.09878
9.187                0.967284605     -89.2512994
9.188                0.967205032     -89.4042172
9.189                 0.96712526     -89.5575345
9.19                 0.967045288     -89.7112522
9.191                0.966965117     -89.8653714
9.192                0.966884747     -90.0198933
9.193                0.966804178     -90.1748189
9.194                0.966723411     -90.3301491
9.195                0.966642445     -90.4858852
9.196                0.966561281     -90.6420281
9.197                0.966479918     -90.7985789
9.198                0.966398357     -90.9555387
9.199                0.966316599     -91.1129085
9.2                  0.966234643     -91.2706894
9.201                0.966152489     -91.4288824
9.202                0.966070138     -91.5874885
9.203                0.965987591      -91.746509
9.204                0.965904846     -91.9059447
9.205                0.965821905     -92.0657968
9.206                0.965738768     -92.2260663
9.207                0.965655435     -92.3867543
9.208                0.965571906     -92.5478618
9.209                0.965488182     -92.7093898
9.21                 0.965404263     -92.8713395
9.211                0.965320149     -93.0337118
9.212                 0.96523584     -93.1965078
9.213                0.965151338     -93.3597286
9.214                0.965066642     -93.5233752
9.215                0.964981752     -93.6874487
9.216                 0.96489667       -93.85195
9.217                0.964811395     -94.0168803
9.218                0.964725929     -94.1822405
9.219                 0.96464027     -94.3480318
9.22                  0.96455442     -94.5142551
9.221                0.964468379     -94.6809116
9.222                0.964382148     -94.8480021
9.223                0.964295727     -95.0155278
9.224                0.964209117     -95.1834897
9.225                0.964122318     -95.3518888
9.226                 0.96403533     -95.5207261
9.227                0.963948155     -95.6900027
9.228                0.963860792     -95.8597196
9.229                0.963773243     -96.0298779
9.23                 0.963685507     -96.2004784
9.231                0.963597586     -96.3715223
9.232                 0.96350948     -96.5430105
9.233                0.963421189     -96.7149442
9.234                0.963332715     -96.8873242
9.235                0.963244057     -97.0601516
9.236                0.963155218     -97.2334273
9.237                0.963066196     -97.4071525
9.238                0.962976993     -97.5813281
9.239                 0.96288761      -97.755955
9.24                 0.962798048     -97.9310343
9.241                0.962708306      -98.106567
9.242                0.962618387     -98.2825541
9.243                0.962528289     -98.4589965
9.244                0.962438016     -98.6358952
9.245                0.962347566     -98.8132512
9.246                0.962256942     -98.9910654
9.247                0.962166144     -99.1693389
9.248                0.962075172     -99.3480726
9.249                0.961984028     -99.5272674
9.25                 0.961892712     -99.7069244
9.251                0.961801226     -99.8870445
9.252                 0.96170957     -100.067629
9.253                0.961617745     -100.248678
9.254                0.961525752     -100.430193
9.255                0.961433593     -100.612174
9.256                0.961341268     -100.794624
9.257                0.961248778     -100.977542
9.258                0.961156124      -101.16093
9.259                0.961063308     -101.344789
9.26                  0.96097033     -101.529119
9.261                0.960877191     -101.713921
9.262                0.960783893     -101.899197
9.263                0.960690437     -102.084947
9.264                0.960596823     -102.271172
9.265                0.960503054     -102.457873
9.266                 0.96040913      -102.64505
9.267                0.960315052     -102.832706
9.268                0.960220821      -103.02084
9.269                 0.96012644     -103.209454
9.27                 0.960031908     -103.398548
9.271                0.959937228     -103.588123
9.272                0.959842401      -103.77818
9.273                0.959747428      -103.96872
9.274                 0.95965231     -104.159744
9.275                0.959557048     -104.351253
9.276                0.959461645     -104.543247
9.277                0.959366102     -104.735727
9.278                0.959270419     -104.928694
9.279                0.959174599     -105.122149
9.28                 0.959078643     -105.316093
9.281                0.958982552     -105.510526
9.282                0.958886329     -105.705449
9.283                0.958789973     -105.900864
9.284                0.958693488      -106.09677
9.285                0.958596874     -106.293168
9.286                0.958500134      -106.49006
9.287                0.958403268     -106.687446
9.288                0.958306279     -106.885327
9.289                0.958209168     -107.083704
9.29                 0.958111937     -107.282576
9.291                0.958014588     -107.481946
9.292                0.957917122     -107.681813
9.293                0.957819541     -107.882179
9.294                0.957721847     -108.083044
9.295                0.957624042     -108.284408
9.296                0.957526127     -108.486273
9.297                0.957428105     -108.688639
9.298                0.957329977     -108.891507
9.299                0.957231746     -109.094877
9.3                  0.957133412     -109.298751
9.301                0.957034979     -109.503128
9.302                0.956936448     -109.708009
9.303                0.956837821     -109.913395
9.304                0.956739101     -110.119287
9.305                0.956640289     -110.325685
9.306                0.956541387      -110.53259
9.307                0.956442397     -110.740001
9.308                0.956343322     -110.947921
9.309                0.956244164     -111.156349
9.31                 0.956144925     -111.365286
9.311                0.956045608     -111.574733
9.312                0.955946213      -111.78469
9.313                0.955846745     -111.995157
9.314                0.955747204     -112.206135
9.315                0.955647594     -112.417624
9.316                0.955547916     -112.629626
9.317                0.955448174      -112.84214
9.318                0.955348368     -113.055166
9.319                0.955248503     -113.268706
9.32                  0.95514858      -113.48276
9.321                0.955048602     -113.697328
9.322                0.954948571     -113.912411
9.323                 0.95484849     -114.128008
9.324                0.954748362     -114.344121
9.325                0.954648188      -114.56075
9.326                0.954547973     -114.777895
9.327                0.954447717     -114.995556
9.328                0.954347424     -115.213734
9.329                0.954247097     -115.432429
9.33                 0.954146738     -115.651641
9.331                0.954046351     -115.871371
9.332                0.953945937     -116.091619
9.333                  0.9538455     -116.312385
9.334                0.953745042     -116.533669
9.335                0.953644567     -116.755472
9.336                0.953544077     -116.977794
9.337                0.953443575     -117.200636
9.338                0.953343064     -117.423996
9.339                0.953242547     -117.647876
9.34                 0.953142028     -117.872276
9.341                0.953041508     -118.097195
9.342                0.952940992     -118.322634
9.343                0.952840482     -118.548594
9.344                0.952739981     -118.775073
9.345                0.952639493     -119.002073
9.346                0.952539021     -119.229593
9.347                0.952438567     -119.457633
9.348                0.952338135     -119.686194
9.349                0.952237729     -119.915275
9.35                 0.952137351     -120.144876
9.351                0.952037005     -120.374998
9.352                0.951936695     -120.605641
9.353                0.951836423     -120.836803
9.354                0.951736193     -121.068486
9.355                0.951636008     -121.300689
9.356                0.951535872     -121.533413
9.357                0.951435788     -121.766656
9.358                 0.95133576     -122.000419
9.359                0.951235792     -122.234702
9.36                 0.951135886     -122.469504
9.361                0.951036047     -122.704826
9.362                0.950936278     -122.940666
9.363                0.950836582     -123.177026
9.364                0.950736964     -123.413905
9.365                0.950637427     -123.651302
9.366                0.950537974     -123.889217
9.367                 0.95043861      -124.12765
9.368                0.950339338     -124.366601
9.369                0.950240162     -124.606069
9.37                 0.950141086     -124.846053
9.371                0.950042113     -125.086555
9.372                0.949943248     -125.327572
9.373                0.949844495     -125.569105
9.374                0.949745857     -125.811154
9.375                0.949647338     -126.053717
9.376                0.949548942     -126.296795
9.377                0.949450674     -126.540386
9.378                0.949352537     -126.784491
9.379                0.949254535     -127.029109
9.38                 0.949156672     -127.274239
9.381                0.949058953     -127.519881
9.382                0.948961382     -127.766034
9.383                0.948863962     -128.012697
9.384                0.948766698     -128.259871
9.385                0.948669595     -128.507553
9.386                0.948572655     -128.755744
9.387                0.948475884     -129.004443
9.388                0.948379286     -129.253649
9.389                0.948282865     -129.503362
9.39                 0.948186626      -129.75358
9.391                0.948090572     -130.004303
9.392                0.947994708      -130.25553
9.393                0.947899038      -130.50726
9.394                0.947803568     -130.759493
9.395                  0.9477083     -131.012227
9.396                 0.94761324     -131.265461
