! TOUCHSTONE file generated by CST DESIGN STUDIO
! Date and time: Wed Feb  5 13:20:39 2025
! Project name: C:\Work\MatlabApps\UnitCellOptimizationMatlab\CST\unitcell.cst
! Tree item: Tasks\Sweep1\SPara1\S-Parameters
! Header version: 2024
! Port assignment regex: !\s*Touchstone port\s*([0-9]+)\s*=\s*(CST MWS port|CST DES external port|CST DES block port)\s*(.+)\s* \(\"(.*)\"\)(\s*mode\s*([0-9]+))?.*
! Touchstone port assignment:
! Touchstone port 1 = CST DES external port 1 ("")
# GHz S MA R 50
9                    0.976759502     -78.6653443
9.001                0.976700675     -78.7884653
9.002                0.976641671     -78.9118973
9.003                0.976582488     -79.0356413
9.004                0.976523126     -79.1596982
9.005                0.976463585     -79.2840689
9.006                0.976403865     -79.4087544
9.007                0.976343965     -79.5337556
9.008                0.976283884     -79.6590733
9.009                0.976223624     -79.7847086
9.01                 0.976163182     -79.9106624
9.011                 0.97610256     -80.0369357
9.012                0.976041756     -80.1635293
9.013                 0.97598077     -80.2904443
9.014                0.975919602     -80.4176815
9.015                0.975858251     -80.5452419
9.016                0.975796718     -80.6731265
9.017                0.975735001     -80.8013362
9.018                0.975673101     -80.9298719
9.019                0.975611017     -81.0587347
9.02                 0.975548749     -81.1879255
9.021                0.975486297     -81.3174452
9.022                 0.97542366     -81.4472948
9.023                0.975360837     -81.5774752
9.024                 0.97529783     -81.7079875
9.025                0.975234637     -81.8388326
9.026                0.975171257     -81.9700114
9.027                0.975107692     -82.1015249
9.028                 0.97504394     -82.2333742
9.029                0.974980001     -82.3655601
9.03                 0.974915875     -82.4980836
9.031                0.974851562     -82.6309457
9.032                 0.97478706     -82.7641475
9.033                0.974722371     -82.8976898
9.034                0.974657494     -83.0315736
9.035                0.974592428        -83.1658
9.036                0.974527174     -83.3003698
9.037                 0.97446173     -83.4352842
9.038                0.974396097      -83.570544
9.039                0.974330274     -83.7061503
9.04                 0.974264262      -83.842104
9.041                 0.97419806     -83.9784062
9.042                0.974131667     -84.1150578
9.043                0.974065084     -84.2520598
9.044                0.973998311     -84.3894132
9.045                0.973931346      -84.527119
9.046                 0.97386419     -84.6651783
9.047                0.973796843     -84.8035919
9.048                0.973729304     -84.9423609
9.049                0.973661573     -85.0814863
9.05                  0.97359365     -85.2209691
9.051                0.973525535     -85.3608103
9.052                0.973457228     -85.5010109
9.053                0.973388728     -85.6415719
9.054                0.973320035     -85.7824943
9.055                0.973251149     -85.9237791
9.056                 0.97318207     -86.0654273
9.057                0.973112798       -86.20744
9.058                0.973043333      -86.349818
9.059                0.972973673     -86.4925625
9.06                  0.97290382     -86.6356745
9.061                0.972833774     -86.7791549
9.062                0.972763533     -86.9230048
9.063                0.972693098     -87.0672252
9.064                0.972622468      -87.211817
9.065                0.972551645     -87.3567814
9.066                0.972480626     -87.5021193
9.067                0.972409413     -87.6478317
9.068                0.972338006     -87.7939197
9.069                0.972266403     -87.9403842
9.07                 0.972194606     -88.0872264
9.071                0.972122614     -88.2344471
9.072                0.972050426     -88.3820475
9.073                0.971978044     -88.5300285
9.074                0.971905466     -88.6783911
9.075                0.971832693     -88.8271364
9.076                0.971759725     -88.9762654
9.077                0.971686561     -89.1257792
9.078                0.971613202     -89.2756786
9.079                0.971539648     -89.4259648
9.08                 0.971465898     -89.5766388
9.081                0.971391953     -89.7277016
9.082                0.971317812     -89.8791542
9.083                0.971243476     -90.0309976
9.084                0.971168945     -90.1832329
9.085                0.971094218      -90.335861
9.086                0.971019296      -90.488883
9.087                0.970944178        -90.6423
9.088                0.970868865     -90.7961128
9.089                0.970793357     -90.9503226
9.09                 0.970717654     -91.1049304
9.091                0.970641756     -91.2599372
9.092                0.970565663      -91.415344
9.093                0.970489375     -91.5711518
9.094                0.970412892     -91.7273616
9.095                0.970336215     -91.8839745
9.096                0.970259342     -92.0409915
9.097                0.970182276     -92.1984136
9.098                0.970105015     -92.3562417
9.099                 0.97002756      -92.514477
9.1                  0.969949911     -92.6731204
9.101                0.969872068      -92.832173
9.102                0.969794031     -92.9916358
9.103                0.969715801     -93.1515097
9.104                0.969637378     -93.3117957
9.105                0.969558761      -93.472495
9.106                0.969479952     -93.6336085
9.107                 0.96940095     -93.7951372
9.108                0.969321755     -93.9570821
9.109                0.969242368     -94.1194442
9.11                  0.96916279     -94.2822245
9.111                0.969083019      -94.445424
9.112                0.969003058     -94.6090438
9.113                0.968922905     -94.7730848
9.114                0.968842561      -94.937548
9.115                0.968762027     -95.1024345
9.116                0.968681303     -95.2677451
9.117                0.968600389     -95.4334809
9.118                0.968519286      -95.599643
9.119                0.968437993     -95.7662322
9.12                 0.968356512     -95.9332496
9.121                0.968274842     -96.1006961
9.122                0.968192985     -96.2685728
9.123                0.968110939     -96.4368806
9.124                0.968028707     -96.6056205
9.125                0.967946288     -96.7747935
9.126                0.967863683     -96.9444005
9.127                0.967780892     -97.1144426
9.128                0.967697915     -97.2849206
9.129                0.967614754     -97.4558356
9.13                 0.967531409     -97.6271886
9.131                0.967447879     -97.7989804
9.132                0.967364166      -97.971212
9.133                0.967280271     -98.1438845
9.134                0.967196193     -98.3169987
9.135                0.967111934     -98.4905557
9.136                0.967027494     -98.6645562
9.137                0.966942873     -98.8390014
9.138                0.966858072     -99.0138921
9.139                0.966773092     -99.1892293
9.14                 0.966687933      -99.365014
9.141                0.966602597     -99.5412469
9.142                0.966517083     -99.7179291
9.143                0.966431392     -99.8950616
9.144                0.966345526     -100.072645
9.145                0.966259485     -100.250681
9.146                0.966173269     -100.429169
9.147                0.966086879     -100.608112
9.148                0.966000316     -100.787509
9.149                0.965913581     -100.967362
9.15                 0.965826675     -101.147671
9.151                0.965739598     -101.328438
9.152                0.965652352     -101.509663
9.153                0.965564936     -101.691347
9.154                0.965477353     -101.873492
9.155                0.965389602     -102.056097
9.156                0.965301685     -102.239165
9.157                0.965213603     -102.422695
9.158                0.965125356     -102.606688
9.159                0.965036946     -102.791147
9.16                 0.964948373      -102.97607
9.161                0.964859639     -103.161459
9.162                0.964770744     -103.347316
9.163                0.964681689      -103.53364
9.164                0.964592476     -103.720433
9.165                0.964503105     -103.907696
9.166                0.964413578     -104.095428
9.167                0.964323896     -104.283632
9.168                0.964234059     -104.472308
9.169                 0.96414407     -104.661456
9.17                 0.964053928     -104.851078
9.171                0.963963636     -105.041174
9.172                0.963873194     -105.231745
9.173                0.963782603     -105.422792
9.174                0.963691866     -105.614316
9.175                0.963600982     -105.806317
9.176                0.963509954     -105.998796
9.177                0.963418782     -106.191754
9.178                0.963327468     -106.385192
9.179                0.963236014      -106.57911
9.18                 0.963144419     -106.773509
9.181                0.963052687      -106.96839
9.182                0.962960818     -107.163754
9.183                0.962868814       -107.3596
9.184                0.962776676     -107.555931
9.185                0.962684405     -107.752746
9.186                0.962592003     -107.950047
9.187                0.962499472     -108.147834
9.188                0.962406813     -108.346107
9.189                0.962314027     -108.544867
9.19                 0.962221117     -108.744116
9.191                0.962128083     -108.943853
9.192                0.962034927      -109.14408
9.193                0.961941651     -109.344796
9.194                0.961848256     -109.546003
9.195                0.961754745       -109.7477
9.196                0.961661118      -109.94989
9.197                0.961567378     -110.152572
9.198                0.961473526     -110.355747
9.199                0.961379564     -110.559415
9.2                  0.961285494     -110.763577
9.201                0.961191317     -110.968234
9.202                0.961097036     -111.173386
9.203                0.961002652     -111.379033
9.204                0.960908167     -111.585177
9.205                0.960813583     -111.791817
9.206                0.960718902     -111.998955
9.207                0.960624125      -112.20659
9.208                0.960529255     -112.414724
9.209                0.960434294     -112.623356
9.21                 0.960339244     -112.832487
9.211                0.960244106     -113.042118
9.212                0.960148883     -113.252248
9.213                0.960053577     -113.462879
9.214                 0.95995819     -113.674011
9.215                0.959862724     -113.885645
9.216                0.959767182     -114.097779
9.217                0.959671564     -114.310416
9.218                0.959575875     -114.523556
9.219                0.959480115     -114.737198
9.22                 0.959384287     -114.951343
9.221                0.959288393     -115.165991
9.222                0.959192437     -115.381144
9.223                0.959096419       -115.5968
9.224                0.959000342     -115.812961
9.225                0.958904209     -116.029626
9.226                0.958808022     -116.246797
9.227                0.958711784     -116.464472
9.228                0.958615497     -116.682653
9.229                0.958519162      -116.90134
9.23                 0.958422784     -117.120532
9.231                0.958326365     -117.340231
9.232                0.958229906     -117.560436
9.233                0.958133411     -117.781148
9.234                0.958036882     -118.002366
9.235                0.957940321      -118.22409
9.236                0.957843732     -118.446322
9.237                0.957747117     -118.669061
9.238                0.957650479     -118.892307
9.239                0.957553821      -119.11606
9.24                 0.957457145     -119.340321
9.241                0.957360453     -119.565089
9.242                 0.95726375     -119.790364
9.243                0.957167037     -120.016147
9.244                0.957070318     -120.242438
9.245                0.956973595     -120.469235
9.246                0.956876872     -120.696541
9.247                0.956780151     -120.924354
9.248                0.956683435     -121.152674
9.249                0.956586727     -121.381501
9.25                  0.95649003     -121.610836
9.251                0.956393348     -121.840678
9.252                0.956296682     -122.071027
9.253                0.956200038     -122.301883
9.254                0.956103416     -122.533246
9.255                0.956006822     -122.765116
9.256                0.955910257     -122.997492
9.257                0.955813725     -123.230374
9.258                0.955717229     -123.463762
9.259                0.955620772     -123.697656
9.26                 0.955524359     -123.932056
9.261                0.955427991     -124.166961
9.262                0.955331672     -124.402371
9.263                0.955235407     -124.638286
9.264                0.955139197     -124.874705
9.265                0.955043046     -125.111628
9.266                0.954946958     -125.349055
9.267                0.954850937     -125.586985
9.268                0.954754985     -125.825418
9.269                0.954659106     -126.064354
9.27                 0.954563304     -126.303792
9.271                0.954467582     -126.543732
9.272                0.954371944     -126.784173
9.273                0.954276393     -127.025114
9.274                0.954180934     -127.266556
9.275                0.954085568     -127.508497
9.276                0.953990301     -127.750938
9.277                0.953895136     -127.993877
9.278                0.953800077     -128.237314
9.279                0.953705126     -128.481248
9.28                 0.953610289     -128.725679
9.281                0.953515569     -128.970606
9.282                0.953420969     -129.216029
9.283                0.953326494     -129.461946
9.284                0.953232147     -129.708358
9.285                0.953137932     -129.955262
9.286                0.953043854     -130.202659
9.287                0.952949915     -130.450548
9.288                 0.95285612     -130.698928
9.289                0.952762472     -130.947798
9.29                 0.952668977     -131.197158
9.291                0.952575637     -131.447006
9.292                0.952482457     -131.697341
9.293                 0.95238944     -131.948163
9.294                0.952296592     -132.199471
9.295                0.952203915     -132.451264
9.296                0.952111414      -132.70354
9.297                0.952019093       -132.9563
9.298                0.951926957     -133.209541
9.299                0.951835008     -133.463263
9.3                  0.951743252     -133.717464
9.301                0.951651693     -133.972145
9.302                0.951560334     -134.227303
9.303                0.951469181     -134.482937
9.304                0.951378237     -134.739047
9.305                0.951287506      -134.99563
9.306                0.951196993     -135.252687
9.307                0.951106702     -135.510215
9.308                0.951016638     -135.768214
9.309                0.950926804     -136.026682
9.31                 0.950837204     -136.285618
9.311                0.950747845      -136.54502
9.312                0.950658729     -136.804888
9.313                 0.95056986     -137.065219
9.314                0.950481245     -137.326013
9.315                0.950392886     -137.587268
9.316                0.950304788     -137.848983
9.317                0.950216956     -138.111156
9.318                0.950129393     -138.373786
9.319                0.950042106     -138.636871
9.32                 0.949955097     -138.900409
9.321                0.949868371       -139.1644
9.322                0.949781933     -139.428841
9.323                0.949695788     -139.693731
9.324                0.949609939     -139.959069
9.325                0.949524392     -140.224852
9.326                 0.94943915     -140.491079
9.327                0.949354219     -140.757749
9.328                0.949269603     -141.024859
9.329                0.949185306     -141.292408
9.33                 0.949101333     -141.560394
9.331                0.949017688     -141.828815
9.332                0.948934376     -142.097669
9.333                0.948851402     -142.366955
9.334                 0.94876877     -142.636671
9.335                0.948686484     -142.906815
9.336                 0.94860455     -143.177384
9.337                0.948522972     -143.448378
9.338                0.948441754     -143.719793
9.339                  0.9483609     -143.991629
9.34                 0.948280417     -144.263882
9.341                0.948200307     -144.536551
9.342                0.948120576     -144.809634
9.343                0.948041228     -145.083129
9.344                0.947962268     -145.357033
9.345                0.947883701     -145.631345
9.346                 0.94780553     -145.906062
9.347                0.947727761     -146.181182
9.348                0.947650397     -146.456703
9.349                0.947573445     -146.732623
9.35                 0.947496908     -147.008939
9.351                 0.94742079     -147.285649
9.352                0.947345096      -147.56275
9.353                0.947269832     -147.840241
9.354                0.947195001     -148.118119
9.355                0.947120607     -148.396382
9.356                0.947046656     -148.675027
9.357                0.946973152     -148.954051
9.358                0.946900099     -149.233453
9.359                0.946827503     -149.513229
9.36                 0.946755366     -149.793378
9.361                0.946683694     -150.073897
9.362                0.946612492     -150.354782
9.363                0.946541763     -150.636032
9.364                0.946471513     -150.917644
9.365                0.946401745     -151.199616
9.366                0.946332464     -151.481944
9.367                0.946263675     -151.764625
9.368                0.946195381     -152.047658
9.369                0.946127588      -152.33104
9.37                 0.946060298     -152.614767
9.371                0.945993518     -152.898837
9.372                0.945927251     -153.183248
9.373                0.945861501     -153.467995
9.374                0.945796273     -153.753077
9.375                0.945731571     -154.038491
9.376                0.945667399     -154.324233
9.377                0.945603761     -154.610301
9.378                0.945540662     -154.896692
9.379                0.945478105     -155.183403
9.38                 0.945416095      -155.47043
9.381                0.945354637     -155.757771
9.382                0.945293733     -156.045423
9.383                0.945233389     -156.333383
9.384                0.945173607     -156.621648
9.385                0.945114393     -156.910214
9.386                 0.94505575     -157.199078
9.387                0.944997682     -157.488238
9.388                0.944940194     -157.777689
9.389                0.944883288      -158.06743
9.39                 0.944826969     -158.357456
9.391                0.944771241     -158.647765
9.392                0.944716107     -158.938353
9.393                0.944661572     -159.229217
9.394                0.944607638     -159.520354
9.395                0.944554311      -159.81176
9.396                0.944501593     -160.103432
