! TOUCHSTONE file generated by CST DESIGN STUDIO
! Date and time: Tue Feb  4 14:19:21 2025
! Project name: C:\Work\MatlabApps\UnitCellOptimizationMatlab\CST\unitcell.cst
! Tree item: Tasks\Sweep1\SPara1\S-Parameters
! Header version: 2024
! Port assignment regex: !\s*Touchstone port\s*([0-9]+)\s*=\s*(CST MWS port|CST DES external port|CST DES block port)\s*(.+)\s* \(\"(.*)\"\)(\s*mode\s*([0-9]+))?.*
! Touchstone port assignment:
! Touchstone port 1 = CST DES external port 1 ("")
# GHz S MA R 50
9                    0.936693089      -82.202633
9.001                 0.93644048     -82.3569476
9.002                0.936186518     -82.5117133
9.003                  0.9359312     -82.6669314
9.004                0.935674522     -82.8226035
9.005                0.935416481      -82.978731
9.006                0.935157073     -83.1353152
9.007                0.934896293     -83.2923578
9.008                 0.93463414       -83.44986
9.009                0.934370609     -83.6078234
9.01                 0.934105696     -83.7662494
9.011                0.933839399     -83.9251394
9.012                0.933571713     -84.0844949
9.013                0.933302635     -84.2443174
9.014                0.933032163     -84.4046083
9.015                0.932760292     -84.5653691
9.016                0.932487019     -84.7266013
9.017                0.932212341     -84.8883063
9.018                0.931936255     -85.0504856
9.019                0.931658757     -85.2131406
9.02                 0.931379845     -85.3762729
9.021                0.931099514     -85.5398838
9.022                0.930817763      -85.703975
9.023                0.930534588     -85.8685478
9.024                0.930249985     -86.0336038
9.025                0.929963953     -86.1991445
9.026                0.929676487     -86.3651712
9.027                0.929387586     -86.5316856
9.028                0.929097245     -86.6986891
9.029                0.928805463     -86.8661831
9.03                 0.928512237     -87.0341693
9.031                0.928217563      -87.202649
9.032                 0.92792144     -87.3716238
9.033                0.927623864     -87.5410952
9.034                0.927324832     -87.7110646
9.035                0.927024343     -87.8815337
9.036                0.926722394     -88.0525038
9.037                0.926418982     -88.2239765
9.038                0.926114105     -88.3959533
9.039                 0.92580776     -88.5684356
9.04                 0.925499946     -88.7414251
9.041                0.925190659     -88.9149232
9.042                0.924879899     -89.0889315
9.043                0.924567661     -89.2634513
9.044                0.924253945     -89.4384843
9.045                0.923938749      -89.614032
9.046                0.923622069     -89.7900959
9.047                0.923303905     -89.9666774
9.048                0.922984255     -90.1437781
9.049                0.922663116     -90.3213996
9.05                 0.922340487     -90.4995432
9.051                0.922016367     -90.6782107
9.052                0.921690752     -90.8574034
9.053                0.921363643     -91.0371229
9.054                0.921035037     -91.2173707
9.055                0.920704934     -91.3981483
9.056                 0.92037333     -91.5794572
9.057                0.920040226      -91.761299
9.058                 0.91970562     -91.9436752
9.059                0.919369511     -92.1265873
9.06                 0.919031897     -92.3100368
9.061                0.918692777     -92.4940252
9.062                0.918352152     -92.6785541
9.063                0.918010018     -92.8636249
9.064                0.917666377     -93.0492392
9.065                0.917321227     -93.2353985
9.066                0.916974567     -93.4221043
9.067                0.916626396     -93.6093581
9.068                0.916276715     -93.7971614
9.069                0.915925522     -93.9855158
9.07                 0.915572817     -94.1744227
9.071                0.915218601     -94.3638838
9.072                0.914862872     -94.5539003
9.073                 0.91450563      -94.744474
9.074                0.914146876     -94.9356062
9.075                0.913786609     -95.1272986
9.076                 0.91342483     -95.3195525
9.077                0.913061538     -95.5123695
9.078                0.912696735     -95.7057511
9.079                 0.91233042     -95.8996988
9.08                 0.911962593     -96.0942141
9.081                0.911593256     -96.2892984
9.082                0.911222408     -96.4849533
9.083                0.910850052     -96.6811802
9.084                0.910476186     -96.8779807
9.085                0.910100813     -97.0753562
9.086                0.909723933     -97.2733081
9.087                0.909345547     -97.4718381
9.088                0.908965658     -97.6709475
9.089                0.908584264     -97.8706377
9.09                 0.908201369     -98.0709104
9.091                0.907816974     -98.2717669
9.092                 0.90743108     -98.4732087
9.093                0.907043689     -98.6752373
9.094                0.906654803      -98.877854
9.095                0.906264424     -99.0810605
9.096                0.905872553      -99.284858
9.097                0.905479193      -99.489248
9.098                0.905084346     -99.6942321
9.099                0.904688014     -99.8998115
9.1                  0.904290201     -100.105988
9.101                0.903890907     -100.312762
9.102                0.903490137     -100.520136
9.103                0.903087892     -100.728112
9.104                0.902684176      -100.93669
9.105                0.902278992     -101.145871
9.106                0.901872343     -101.355658
9.107                0.901464232     -101.566052
9.108                0.901054663     -101.777053
9.109                0.900643638     -101.988664
9.11                 0.900231163     -102.200886
9.111                0.899817239      -102.41372
9.112                0.899401872     -102.627168
9.113                0.898985066      -102.84123
9.114                0.898566824     -103.055909
9.115                 0.89814715     -103.271205
9.116                 0.89772605     -103.487121
9.117                0.897303527     -103.703656
9.118                0.896879587     -103.920813
9.119                0.896454233     -104.138593
9.12                 0.896027472     -104.356997
9.121                0.895599308     -104.576026
9.122                0.895169746     -104.795682
9.123                0.894738792     -105.015966
9.124                0.894306451      -105.23688
9.125                0.893872729     -105.458423
9.126                0.893437631     -105.680599
9.127                0.893001164     -105.903408
9.128                0.892563333     -106.126851
9.129                0.892124145     -106.350929
9.13                 0.891683606     -106.575644
9.131                0.891241723     -106.800997
9.132                0.890798502     -107.026989
9.133                 0.89035395     -107.253622
9.134                0.889908075     -107.480896
9.135                0.889460882     -107.708812
9.136                 0.88901238     -107.937372
9.137                0.888562575     -108.166577
9.138                0.888111477     -108.396428
9.139                0.887659091     -108.626926
9.14                 0.887205426     -108.858073
9.141                0.886750491     -109.089868
9.142                0.886294293     -109.322315
9.143                0.885836841     -109.555412
9.144                0.885378143     -109.789162
9.145                0.884918208     -110.023566
9.146                0.884457046     -110.258624
9.147                0.883994664     -110.494338
9.148                0.883531072     -110.730709
9.149                 0.88306628     -110.967737
9.15                 0.882600298     -111.205423
9.151                0.882133134     -111.443769
9.152                0.881664799     -111.682776
9.153                0.881195303     -111.922444
9.154                0.880724657     -112.162775
9.155                 0.88025287     -112.403768
9.156                0.879779953     -112.645426
9.157                0.879305917     -112.887749
9.158                0.878830773     -113.130737
9.159                0.878354533     -113.374392
9.16                 0.877877207     -113.618715
9.161                0.877398807     -113.863706
9.162                0.876919344     -114.109366
9.163                0.876438832     -114.355696
9.164                0.875957281     -114.602696
9.165                0.875474703     -114.850368
9.166                0.874991113     -115.098711
9.167                0.874506521     -115.347728
9.168                0.874020941     -115.597417
9.169                0.873534385     -115.847781
9.17                 0.873046868      -116.09882
9.171                0.872558402     -116.350534
9.172                0.872069001     -116.602924
9.173                0.871578678      -116.85599
9.174                0.871087448     -117.109733
9.175                0.870595325     -117.364154
9.176                0.870102323     -117.619253
9.177                0.869608457     -117.875031
9.178                0.869113741     -118.131487
9.179                 0.86861819     -118.388624
9.18                  0.86812182      -118.64644
9.181                0.867624645     -118.904936
9.182                0.867126682     -119.164113
9.183                0.866627945     -119.423972
9.184                0.866128451     -119.684512
9.185                0.865628216     -119.945733
9.186                0.865127257     -120.207637
9.187                0.864625589     -120.470223
9.188                0.864123229     -120.733491
9.189                0.863620195     -120.997442
9.19                 0.863116503     -121.262077
9.191                 0.86261217     -121.527394
9.192                0.862107215     -121.793395
9.193                0.861601655     -122.060079
9.194                0.861095507     -122.327446
9.195                 0.86058879     -122.595497
9.196                0.860081522     -122.864232
9.197                0.859573721      -123.13365
9.198                0.859065407     -123.403752
9.199                0.858556598     -123.674537
9.2                  0.858047313     -123.946006
9.201                0.857537572     -124.218158
9.202                0.857027393     -124.490994
9.203                0.856516797     -124.764512
9.204                0.856005803     -125.038713
9.205                0.855494432     -125.313597
9.206                0.854982704     -125.589163
9.207                0.854470639     -125.865412
9.208                0.853958258     -126.142342
9.209                0.853445581     -126.419953
9.21                 0.852932631     -126.698246
9.211                0.852419427     -126.977219
9.212                0.851905992     -127.256873
9.213                0.851392346     -127.537206
9.214                0.850878513     -127.818219
9.215                0.850364514      -128.09991
9.216                 0.84985037      -128.38228
9.217                0.849336105     -128.665327
9.218                0.848821742     -128.949051
9.219                0.848307301     -129.233451
9.22                 0.847792808     -129.518526
9.221                0.847278285     -129.804277
9.222                0.846763754     -130.090701
9.223                0.846249241     -130.377799
9.224                0.845734768     -130.665569
9.225                0.845220359      -130.95401
9.226                0.844706038     -131.243122
9.227                 0.84419183     -131.532904
9.228                0.843677758     -131.823354
9.229                0.843163848     -132.114472
9.23                 0.842650124     -132.406256
9.231                0.842136612     -132.698705
9.232                0.841623335     -132.991819
9.233                 0.84111032     -133.285596
9.234                0.840597592     -133.580035
9.235                0.840085176     -133.875134
9.236                0.839573098     -134.170893
9.237                0.839061384      -134.46731
9.238                 0.83855006     -134.764383
9.239                0.838039153     -135.062111
9.24                 0.837528688     -135.360493
9.241                0.837018693     -135.659527
9.242                0.836509193     -135.959212
9.243                0.836000216     -136.259546
9.244                0.835491788     -136.560527
9.245                0.834983938     -136.862154
9.246                0.834476691     -137.164425
9.247                0.833970076     -137.467338
9.248                0.833464119     -137.770892
9.249                0.832958849     -138.075085
9.25                 0.832454293     -138.379914
9.251                 0.83195048     -138.685378
9.252                0.831447436     -138.991476
9.253                0.830945191     -139.298204
9.254                0.830443773      -139.60556
9.255                 0.82994321     -139.913544
9.256                 0.82944353     -140.222152
9.257                0.828944762     -140.531383
9.258                0.828446935     -140.841233
9.259                0.827950077     -141.151702
9.26                 0.827454218     -141.462786
9.261                0.826959387     -141.774483
9.262                0.826465612     -142.086791
9.263                0.825972923     -142.399708
9.264                0.825481349      -142.71323
9.265                 0.82499092     -143.027356
9.266                0.824501664     -143.342082
9.267                0.824013612     -143.657406
9.268                0.823526792     -143.973326
9.269                0.823041235     -144.289838
9.27                 0.822556971      -144.60694
9.271                0.822074028     -144.924629
9.272                0.821592438     -145.242901
9.273                0.821112229     -145.561756
9.274                0.820633432     -145.881188
9.275                0.820156076     -146.201195
9.276                0.819680192     -146.521775
9.277                 0.81920581     -146.842923
9.278                0.818732959     -147.164638
9.279                 0.81826167     -147.486914
9.28                 0.817791974     -147.809751
9.281                0.817323899     -148.133143
9.282                0.816857477     -148.457088
9.283                0.816392737     -148.781582
9.284                 0.81592971     -149.106622
9.285                0.815468425     -149.432204
9.286                0.815008914     -149.758325
9.287                0.814551205     -150.084981
9.288                 0.81409533     -150.412168
9.289                0.813641318     -150.739883
9.29                 0.813189199     -151.068123
9.291                0.812739005     -151.396882
9.292                0.812290763     -151.726158
9.293                0.811844505     -152.055947
9.294                0.811400261     -152.386244
9.295                0.810958061     -152.717046
9.296                0.810517933     -153.048348
9.297                0.810079909     -153.380147
9.298                0.809644018     -153.712438
9.299                0.809210289     -154.045217
9.3                  0.808778753      -154.37848
9.301                0.808349438     -154.712223
9.302                0.807922374     -155.046441
9.303                0.807497591     -155.381131
9.304                0.807075118     -155.716287
9.305                0.806654984     -156.051905
9.306                0.806237218      -156.38798
9.307                0.805821849     -156.724509
9.308                0.805408906     -157.061486
9.309                0.804998418     -157.398907
9.31                 0.804590413     -157.736767
9.311                 0.80418492     -158.075062
9.312                0.803781967     -158.413786
9.313                0.803381582     -158.752935
9.314                0.802983794     -159.092504
9.315                0.802588631     -159.432488
9.316                 0.80219612     -159.772882
9.317                0.801806288     -160.113681
9.318                0.801419164      -160.45488
9.319                0.801034775     -160.796474
9.32                 0.800653147     -161.138457
9.321                0.800274308     -161.480826
9.322                0.799898285     -161.823573
9.323                0.799525103     -162.166695
9.324                 0.79915479     -162.510186
9.325                0.798787372      -162.85404
9.326                0.798422874     -163.198252
9.327                0.798061323     -163.542817
9.328                0.797702744     -163.887729
9.329                0.797347162     -164.232982
9.33                 0.796994602     -164.578572
9.331                 0.79664509     -164.924492
9.332                 0.79629865     -165.270738
9.333                0.795955306     -165.617302
9.334                0.795615083      -165.96418
9.335                0.795278004     -166.311366
9.336                0.794944094     -166.658854
9.337                0.794613375     -167.006639
9.338                0.794285871     -167.354713
9.339                0.793961605     -167.703073
9.34                 0.793640599     -168.051711
9.341                0.793322876     -168.400621
9.342                0.793008458     -168.749799
9.343                0.792697367     -169.099237
9.344                0.792389623      -169.44893
9.345                0.792085249     -169.798871
9.346                0.791784266     -170.149055
9.347                0.791486693     -170.499475
9.348                0.791192551     -170.850126
9.349                0.790901861        -171.201
9.35                 0.790614642     -171.552093
9.351                0.790330913     -171.903397
9.352                0.790050693     -172.254906
9.353                0.789774002     -172.606614
9.354                0.789500857     -172.958515
9.355                0.789231277     -173.310602
9.356                0.788965279     -173.662869
9.357                0.788702881     -174.015309
9.358                  0.7884441     -174.367917
9.359                0.788188953     -174.720685
9.36                 0.787937455     -175.073608
9.361                0.787689624     -175.426678
9.362                0.787445474      -175.77989
9.363                0.787205022     -176.133236
9.364                0.786968282      -176.48671
9.365                0.786735268     -176.840306
9.366                0.786505995     -177.194017
9.367                0.786280476     -177.547836
9.368                0.786058726     -177.901757
9.369                0.785840758     -178.255773
9.37                 0.785626583     -178.609878
9.371                0.785416215     -178.964065
9.372                0.785209665     -179.318327
9.373                0.785006946     -179.672657
9.374                0.784808067      179.972951
9.375                0.784613041      179.618503
9.376                0.784421878      179.264007
9.377                0.784234587      178.909469
9.378                0.784051178      178.554897
9.379                0.783871661      178.200296
9.38                 0.783696044      177.845673
9.381                0.783524337      177.491035
9.382                0.783356546       177.13639
9.383                 0.78319268      176.781743
9.384                0.783032746      176.427101
9.385                0.782876752      176.072471
9.386                0.782724702      175.717861
9.387                0.782576604      175.363276
9.388                0.782432464      175.008723
9.389                0.782292286      174.654209
9.39                 0.782156075      174.299742
9.391                0.782023836      173.945326
9.392                0.781895573      173.590971
9.393                 0.78177129      173.236681
9.394                0.781650989      172.882464
9.395                0.781534675      172.528326
9.396                0.781422349      172.174275
