! TOUCHSTONE file generated by CST DESIGN STUDIO
! Date and time: Tue Feb  4 14:19:30 2025
! Project name: C:\Work\MatlabApps\UnitCellOptimizationMatlab\CST\unitcell.cst
! Tree item: Tasks\Sweep1\SPara1\S-Parameters
! Header version: 2024
! Port assignment regex: !\s*Touchstone port\s*([0-9]+)\s*=\s*(CST MWS port|CST DES external port|CST DES block port)\s*(.+)\s* \(\"(.*)\"\)(\s*mode\s*([0-9]+))?.*
! Touchstone port assignment:
! Touchstone port 1 = CST DES external port 1 ("")
# GHz S MA R 50
9                    0.965933497     -53.0659961
9.001                0.965807047     -53.1378136
9.002                0.965680168     -53.2097806
9.003                0.965552861     -53.2818974
9.004                0.965425123     -53.3541646
9.005                0.965296956     -53.4265827
9.006                0.965168357      -53.499152
9.007                0.965039326     -53.5718732
9.008                0.964909864     -53.6447467
9.009                0.964779967      -53.717773
9.01                 0.964649638     -53.7909526
9.011                0.964518873      -53.864286
9.012                0.964387673     -53.9377737
9.013                0.964256037     -54.0114162
9.014                0.964123964     -54.0852139
9.015                0.963991454     -54.1591675
9.016                0.963858506     -54.2332774
9.017                0.963725119     -54.3075441
9.018                0.963591292     -54.3819681
9.019                0.963457024       -54.45655
9.02                 0.963322316     -54.5312903
9.021                0.963187165     -54.6061894
9.022                0.963051572     -54.6812479
9.023                0.962915536     -54.7564664
9.024                0.962779055     -54.8318453
9.025                 0.96264213     -54.9073851
9.026                0.962504759     -54.9830865
9.027                0.962366941     -55.0589499
9.028                0.962228676     -55.1349759
9.029                0.962089964      -55.211165
9.03                 0.961950802     -55.2875177
9.031                0.961811192     -55.3640346
9.032                0.961671131     -55.4407162
9.033                0.961530618     -55.5175631
9.034                0.961389655     -55.5945758
9.035                0.961248238     -55.6717549
9.036                0.961106368     -55.7491009
9.037                0.960964044     -55.8266143
9.038                0.960821265     -55.9042958
9.039                0.960678031     -55.9821459
9.04                 0.960534339     -56.0601651
9.041                0.960390191      -56.138354
9.042                0.960245584     -56.2167132
9.043                0.960100519     -56.2952433
9.044                0.959954993     -56.3739447
9.045                0.959809007     -56.4528182
9.046                 0.95966256     -56.5318642
9.047                 0.95951565     -56.6110833
9.048                0.959368277     -56.6904762
9.049                0.959220441     -56.7700433
9.05                  0.95907214     -56.8497854
9.051                0.958923373     -56.9297029
9.052                 0.95877414     -57.0097964
9.053                 0.95862444     -57.0900666
9.054                0.958474271     -57.1705141
9.055                0.958323634     -57.2511394
9.056                0.958172527     -57.3319431
9.057                 0.95802095     -57.4129259
9.058                0.957868901     -57.4940883
9.059                 0.95771638      -57.575431
9.06                 0.957563385     -57.6569546
9.061                0.957409917     -57.7386596
9.062                0.957255974     -57.8205467
9.063                0.957101555     -57.9026165
9.064                0.956946659     -57.9848696
9.065                0.956791286     -58.0673067
9.066                0.956635434     -58.1499283
9.067                0.956479104     -58.2327352
9.068                0.956322293     -58.3157279
9.069                0.956165001      -58.398907
9.07                 0.956007227     -58.4822732
9.071                0.955848971     -58.5658272
9.072                 0.95569023     -58.6495695
9.073                0.955531005     -58.7335008
9.074                0.955371295     -58.8176218
9.075                0.955211098     -58.9019331
9.076                0.955050414     -58.9864353
9.077                0.954889241     -59.0711292
9.078                 0.95472758     -59.1560153
9.079                0.954565428     -59.2410944
9.08                 0.954402785      -59.326367
9.081                0.954239651     -59.4118339
9.082                0.954076023     -59.4974957
9.083                0.953911902     -59.5833531
9.084                0.953747286     -59.6694067
9.085                0.953582174     -59.7556573
9.086                0.953416566     -59.8421055
9.087                 0.95325046     -59.9287519
9.088                0.953083855     -60.0155974
9.089                0.952916751     -60.1026425
9.09                 0.952749147     -60.1898879
9.091                0.952581041     -60.2773344
9.092                0.952412433     -60.3649826
9.093                0.952243322     -60.4528333
9.094                0.952073706      -60.540887
9.095                0.951903585     -60.6291446
9.096                0.951732958     -60.7176068
9.097                0.951561824     -60.8062742
9.098                0.951390181     -60.8951475
9.099                 0.95121803     -60.9842276
9.1                  0.951045368      -61.073515
9.101                0.950872195     -61.1630105
9.102                 0.95069851     -61.2527149
9.103                0.950524312     -61.3426288
9.104                0.950349599      -61.432753
9.105                0.950174372     -61.5230882
9.106                0.949998628     -61.6136352
9.107                0.949822368     -61.7043947
9.108                0.949645589     -61.7953674
9.109                0.949468291     -61.8865541
9.11                 0.949290473     -61.9779555
9.111                0.949112133     -62.0695723
9.112                0.948933272     -62.1614054
9.113                0.948753887     -62.2534555
9.114                0.948573978     -62.3457234
9.115                0.948393543     -62.4382097
9.116                0.948212582     -62.5309153
9.117                0.948031094     -62.6238409
9.118                0.947849078     -62.7169873
9.119                0.947666532     -62.8103554
9.12                 0.947483455     -62.9039457
9.121                0.947299847     -62.9977592
9.122                0.947115706     -63.0917967
9.123                0.946931032     -63.1860588
9.124                0.946745823     -63.2805465
9.125                0.946560078     -63.3752604
9.126                0.946373797     -63.4702014
9.127                0.946186977     -63.5653703
9.128                0.945999619     -63.6607679
9.129                 0.94581172      -63.756395
9.13                  0.94562328     -63.8522523
9.131                0.945434299     -63.9483408
9.132                0.945244774     -64.0446613
9.133                0.945054704     -64.1412144
9.134                 0.94486409     -64.2380012
9.135                0.944672928     -64.3350223
9.136                 0.94448122     -64.4322787
9.137                0.944288962     -64.5297711
9.138                0.944096155     -64.6275004
9.139                0.943902797     -64.7254674
9.14                 0.943708887      -64.823673
9.141                0.943514424      -64.922118
9.142                0.943319407     -65.0208032
9.143                0.943123834     -65.1197296
9.144                0.942927705     -65.2188979
9.145                0.942731019     -65.3183091
9.146                0.942533774     -65.4179639
9.147                 0.94233597     -65.5178633
9.148                0.942137605     -65.6180081
9.149                0.941938678     -65.7183992
9.15                 0.941739188     -65.8190374
9.151                0.941539134     -65.9199237
9.152                0.941338514     -66.0210589
9.153                0.941137329      -66.122444
9.154                0.940935576     -66.2240797
9.155                0.940733254      -66.325967
9.156                0.940530362     -66.4281068
9.157                  0.9403269     -66.5304999
9.158                0.940122866     -66.6331474
9.159                0.939918258       -66.73605
9.16                 0.939713077     -66.8392087
9.161                 0.93950732     -66.9426244
9.162                0.939300986     -67.0462981
9.163                0.939094075     -67.1502306
9.164                0.938886586     -67.2544229
9.165                0.938678516     -67.3588758
9.166                0.938469865     -67.4635904
9.167                0.938260633     -67.5685676
9.168                0.938050816     -67.6738082
9.169                0.937840416     -67.7793133
9.17                  0.93762943     -67.8850838
9.171                0.937417857     -67.9911205
9.172                0.937205696     -68.0974246
9.173                0.936992947     -68.2039969
9.174                0.936779607     -68.3108384
9.175                0.936565676     -68.4179501
9.176                0.936351153     -68.5253328
9.177                0.936136036     -68.6329877
9.178                0.935920324     -68.7409156
9.179                0.935704017     -68.8491176
9.18                 0.935487112     -68.9575946
9.181                 0.93526961     -69.0663476
9.182                0.935051508     -69.1753776
9.183                0.934832806     -69.2846855
9.184                0.934613502     -69.3942725
9.185                0.934393596     -69.5041394
9.186                0.934173086     -69.6142874
9.187                0.933951971     -69.7247173
9.188                 0.93373025     -69.8354302
9.189                0.933507921     -69.9464271
9.19                 0.933284984      -70.057709
9.191                0.933061438      -70.169277
9.192                0.932837281     -70.2811321
9.193                0.932612513     -70.3932753
9.194                0.932387131     -70.5057076
9.195                0.932161136     -70.6184301
9.196                0.931934525     -70.7314437
9.197                0.931707298     -70.8447497
9.198                0.931479454     -70.9583489
9.199                0.931250991     -71.0722426
9.2                  0.931021909     -71.1864316
9.201                0.930792206      -71.300917
9.202                0.930561881     -71.4157001
9.203                0.930330933     -71.5307817
9.204                0.930099361     -71.6461629
9.205                0.929867164      -71.761845
9.206                 0.92963434     -71.8778288
9.207                0.929400889     -71.9941155
9.208                 0.92916681     -72.1107063
9.209                0.928932101     -72.2276021
9.21                 0.928696761      -72.344804
9.211                0.928460789     -72.4623133
9.212                0.928224185     -72.5801309
9.213                0.927986946     -72.6982579
9.214                0.927749073     -72.8166956
9.215                0.927510563     -72.9354449
9.216                0.927271417     -73.0545071
9.217                0.927031632     -73.1738831
9.218                0.926791207     -73.2935743
9.219                0.926550143     -73.4135816
9.22                 0.926308436     -73.5339062
9.221                0.926066088     -73.6545493
9.222                0.925823096     -73.7755119
9.223                0.925579459     -73.8967953
9.224                0.925335176     -74.0184006
9.225                0.925090247     -74.1403289
9.226                0.924844671     -74.2625813
9.227                0.924598445     -74.3851591
9.228                 0.92435157     -74.5080635
9.229                0.924104044     -74.6312955
9.23                 0.923855867     -74.7548563
9.231                0.923607037     -74.8787471
9.232                0.923357553     -75.0029692
9.233                0.923107414     -75.1275236
9.234                 0.92285662     -75.2524116
9.235                0.922605169     -75.3776344
9.236                 0.92235306      -75.503193
9.237                0.922100293     -75.6290889
9.238                0.921846867     -75.7553231
9.239                 0.92159278     -75.8818968
9.24                 0.921338031     -76.0088113
9.241                0.921082621     -76.1360678
9.242                0.920826547     -76.2636674
9.243                0.920569809     -76.3916115
9.244                0.920312406     -76.5199012
9.245                0.920054337     -76.6485378
9.246                0.919795601     -76.7775225
9.247                0.919536198     -76.9068566
9.248                0.919276126     -77.0365412
9.249                0.919015385     -77.1665776
9.25                 0.918753974     -77.2969671
9.251                0.918491891     -77.4277109
9.252                0.918229137     -77.5588103
9.253                 0.91796571     -77.6902665
9.254                0.917701609     -77.8220809
9.255                0.917436835     -77.9542546
9.256                0.917171385     -78.0867889
9.257                0.916905259     -78.2196852
9.258                0.916638457     -78.3529446
9.259                0.916370978     -78.4865685
9.26                  0.91610282     -78.6205582
9.261                0.915833984      -78.754915
9.262                0.915564468     -78.8896401
9.263                0.915294273     -79.0247348
9.264                0.915023396     -79.1602005
9.265                0.914751838     -79.2960384
9.266                0.914479598     -79.4322499
9.267                0.914206674     -79.5688363
9.268                0.913933068     -79.7057988
9.269                0.913658777     -79.8431389
9.27                 0.913383802     -79.9808578
9.271                0.913108142     -80.1189569
9.272                0.912831796     -80.2574374
9.273                0.912554763     -80.3963008
9.274                0.912277044     -80.5355484
9.275                0.911998638     -80.6751814
9.276                0.911719543     -80.8152013
9.277                 0.91143976     -80.9556094
9.278                0.911159289     -81.0964071
9.279                0.910878128     -81.2375957
9.28                 0.910596277     -81.3791765
9.281                0.910313737      -81.521151
9.282                0.910030505     -81.6635205
9.283                0.909746583     -81.8062864
9.284                 0.90946197       -81.94945
9.285                0.909176665     -82.0930127
9.286                0.908890669      -82.236976
9.287                 0.90860398     -82.3813411
9.288                0.908316598     -82.5261095
9.289                0.908028524     -82.6712826
9.29                 0.907739757     -82.8168618
9.291                0.907450297     -82.9628484
9.292                0.907160143     -83.1092439
9.293                0.906869296     -83.2560496
9.294                0.906577755     -83.4032671
9.295                0.906285521     -83.5508976
9.296                0.905992592     -83.6989426
9.297                 0.90569897     -83.8474035
9.298                0.905404653     -83.9962818
9.299                0.905109642     -84.1455789
9.3                  0.904813937     -84.2952961
9.301                0.904517539     -84.4454349
9.302                0.904220446     -84.5959969
9.303                0.903922659     -84.7469833
9.304                0.903624178     -84.8983956
9.305                0.903325003     -85.0502353
9.306                0.903025135     -85.2025038
9.307                0.902724574     -85.3552026
9.308                0.902423319     -85.5083332
9.309                0.902121371     -85.6618968
9.31                 0.901818731     -85.8158952
9.311                0.901515398     -85.9703296
9.312                0.901211372     -86.1252015
9.313                0.900906655     -86.2805125
9.314                0.900601247     -86.4362639
9.315                0.900295148     -86.5924573
9.316                0.899988358     -86.7490942
9.317                0.899680878     -86.9061759
9.318                0.899372708      -87.063704
9.319                0.899063849       -87.22168
9.32                 0.898754302     -87.3801053
9.321                0.898444067     -87.5389814
9.322                0.898133144     -87.6983099
9.323                0.897821535     -87.8580921
9.324                0.897509241     -88.0183297
9.325                 0.89719626      -88.179024
9.326                0.896882596     -88.3401767
9.327                0.896568248     -88.5017891
9.328                0.896253217     -88.6638628
9.329                0.895937505     -88.8263993
9.33                 0.895621111     -88.9894001
9.331                0.895304037     -89.1528667
9.332                0.894986285     -89.3168006
9.333                0.894667854     -89.4812034
9.334                0.894348747     -89.6460764
9.335                0.894028964     -89.8114213
9.336                0.893708506     -89.9772396
9.337                0.893387375     -90.1435328
9.338                0.893065572     -90.3103023
9.339                0.892743098     -90.4775498
9.34                 0.892419954     -90.6452767
9.341                0.892096142     -90.8134846
9.342                0.891771664      -90.982175
9.343                 0.89144652     -91.1513494
9.344                0.891120712     -91.3210093
9.345                0.890794242     -91.4911563
9.346                0.890467111     -91.6617919
9.347                0.890139321     -91.8329176
9.348                0.889810874      -92.004535
9.349                0.889481771     -92.1766456
9.35                 0.889152014     -92.3492509
9.351                0.888821605     -92.5223524
9.352                0.888490546     -92.6959518
9.353                0.888158839     -92.8700504
9.354                0.887826486       -93.04465
9.355                0.887493488     -93.2197519
9.356                0.887159848     -93.3953577
9.357                0.886825569      -93.571469
9.358                0.886490651     -93.7480873
9.359                0.886155098     -93.9252142
9.36                 0.885818911     -94.1028511
9.361                0.885482093     -94.2809996
9.362                0.885144647     -94.4596613
9.363                0.884806575     -94.6388377
9.364                0.884467879     -94.8185302
9.365                0.884128563     -94.9987406
9.366                0.883788627     -95.1794702
9.367                0.883448077     -95.3607206
9.368                0.883106913     -95.5424933
9.369                0.882765139       -95.72479
9.37                 0.882422758     -95.9076121
9.371                0.882079772     -96.0909611
9.372                0.881736185     -96.2748385
9.373                   0.881392      -96.459246
9.374                0.881047219      -96.644185
9.375                0.880701847     -96.8296571
9.376                0.880355885     -97.0156637
9.377                0.880009338     -97.2022065
9.378                 0.87966221     -97.3892868
9.379                0.879314502     -97.5769063
9.38                 0.878966219     -97.7650664
9.381                0.878617365     -97.9537688
9.382                0.878267942     -98.1430147
9.383                0.877917956     -98.3328059
9.384                0.877567408     -98.5231438
9.385                0.877216305     -98.7140299
9.386                0.876864648     -98.9054657
9.387                0.876512443     -99.0974527
9.388                0.876159693     -99.2899923
9.389                0.875806402     -99.4830862
9.39                 0.875452575     -99.6767358
9.391                0.875098216     -99.8709426
9.392                0.874743329     -100.065708
9.393                0.874387919     -100.261034
9.394                 0.87403199     -100.456921
9.395                0.873675547     -100.653371
9.396                0.873318595     -100.850386
