! TOUCHSTONE file generated by CST DESIGN STUDIO
! Date and time: Tue Feb  4 14:19:18 2025
! Project name: C:\Work\MatlabApps\UnitCellOptimizationMatlab\CST\unitcell.cst
! Tree item: Tasks\Sweep1\SPara1\S-Parameters
! Header version: 2024
! Port assignment regex: !\s*Touchstone port\s*([0-9]+)\s*=\s*(CST MWS port|CST DES external port|CST DES block port)\s*(.+)\s* \(\"(.*)\"\)(\s*mode\s*([0-9]+))?.*
! Touchstone port assignment:
! Touchstone port 1 = CST DES external port 1 ("")
# GHz S MA R 50
9                    0.919199146     -98.8561362
9.001                0.918887628     -99.0675765
9.002                0.918574467     -99.2796708
9.003                0.918259662     -99.4924207
9.004                 0.91794321     -99.7058278
9.005                0.917625112     -99.9198938
9.006                0.917305365      -100.13462
9.007                0.916983969     -100.350009
9.008                0.916660923     -100.566061
9.009                0.916336226     -100.782778
9.01                 0.916009878     -101.000162
9.011                0.915681877     -101.218214
9.012                0.915352224     -101.436936
9.013                0.915020918      -101.65633
9.014                0.914687959     -101.876396
9.015                0.914353347     -102.097137
9.016                0.914017082     -102.318554
9.017                0.913679163     -102.540648
9.018                0.913339592     -102.763421
9.019                0.912998368     -102.986875
9.02                 0.912655493      -103.21101
9.021                0.912310966     -103.435829
9.022                0.911964789     -103.661333
9.023                0.911616962     -103.887523
9.024                0.911267486     -104.114401
9.025                0.910916363     -104.341968
9.026                0.910563594     -104.570225
9.027                0.910209181     -104.799175
9.028                0.909853124     -105.028817
9.029                0.909495426     -105.259155
9.03                 0.909136088     -105.490188
9.031                0.908775113     -105.721919
9.032                0.908412503     -105.954349
9.033                0.908048259     -106.187479
9.034                0.907682385      -106.42131
9.035                0.907314883     -106.655844
9.036                0.906945756     -106.891082
9.037                0.906575006     -107.127025
9.038                0.906202638     -107.363675
9.039                0.905828653     -107.601032
9.04                 0.905453055     -107.839099
9.041                0.905075849     -108.077875
9.042                0.904697037     -108.317364
9.043                0.904316624     -108.557564
9.044                0.903934613     -108.798479
9.045                 0.90355101     -109.040108
9.046                0.903165817     -109.282454
9.047                 0.90277904     -109.525517
9.048                0.902390684     -109.769298
9.049                0.902000753     -110.013798
9.05                 0.901609253     -110.259019
9.051                0.901216188     -110.504962
9.052                0.900821564     -110.751626
9.053                0.900425388     -110.999015
9.054                0.900027664     -111.247128
9.055                0.899628399     -111.495966
9.056                0.899227598     -111.745531
9.057                0.898825269     -111.995824
9.058                0.898421418     -112.246845
9.059                0.898016051     -112.498595
9.06                 0.897609176     -112.751075
9.061                0.897200799     -113.004286
9.062                0.896790929     -113.258229
9.063                0.896379572     -113.512904
9.064                0.895966737     -113.768313
9.065                 0.89555243     -114.024456
9.066                0.895136662     -114.281334
9.067                0.894719439     -114.538948
9.068                0.894300771     -114.797298
9.069                0.893880665     -115.056385
9.07                 0.893459132      -115.31621
9.071                0.893036181     -115.576773
9.072                 0.89261182     -115.838075
9.073                 0.89218606     -116.100117
9.074                 0.89175891     -116.362899
9.075                 0.89133038     -116.626421
9.076                0.890900481     -116.890685
9.077                0.890469223      -117.15569
9.078                0.890036617     -117.421437
9.079                0.889602674     -117.687927
9.08                 0.889167404     -117.955159
9.081                 0.88873082     -118.223135
9.082                0.888292933     -118.491855
9.083                0.887853755     -118.761318
9.084                0.887413298     -119.031526
9.085                0.886971574     -119.302478
9.086                0.886528596     -119.574175
9.087                0.886084376     -119.846617
9.088                0.885638928     -120.119805
9.089                0.885192265     -120.393737
9.09                 0.884744399     -120.668415
9.091                0.884295346     -120.943838
9.092                0.883845119     -121.220007
9.093                0.883393731     -121.496921
9.094                0.882941199     -121.774581
9.095                0.882487535     -122.052986
9.096                0.882032755     -122.332137
9.097                0.881576874     -122.612033
9.098                0.881119908     -122.892674
9.099                0.880661872      -123.17406
9.1                  0.880202782     -123.456191
9.101                0.879742655     -123.739067
9.102                0.879281505     -124.022687
9.103                0.878819351      -124.30705
9.104                0.878356209     -124.592158
9.105                0.877892095     -124.878008
9.106                0.877427028     -125.164602
9.107                0.876961025     -125.451937
9.108                0.876494103     -125.740015
9.109                0.876026281     -126.028834
9.11                 0.875557577     -126.318394
9.111                 0.87508801     -126.608693
9.112                0.874617598     -126.899733
9.113                 0.87414636     -127.191511
9.114                0.873674316     -127.484027
9.115                0.873201486      -127.77728
9.116                0.872727888      -128.07127
9.117                0.872253543     -128.365996
9.118                0.871778472     -128.661456
9.119                0.871302694     -128.957651
9.12                 0.870826231     -129.254578
9.121                0.870349104     -129.552237
9.122                0.869871333     -129.850627
9.123                0.869392941     -130.149747
9.124                0.868913948     -130.449596
9.125                0.868434377     -130.750171
9.126                0.867954251     -131.051474
9.127                0.867473591     -131.353501
9.128                 0.86699242     -131.656252
9.129                0.866510762     -131.959725
9.13                 0.866028638     -132.263919
9.131                0.865546074     -132.568833
9.132                0.865063091     -132.874464
9.133                0.864579715     -133.180813
9.134                0.864095969     -133.487876
9.135                0.863611877     -133.795652
9.136                0.863127464      -134.10414
9.137                0.862642755     -134.413338
9.138                0.862157775     -134.723244
9.139                0.861672549     -135.033857
9.14                 0.861187102     -135.345174
9.141                 0.86070146     -135.657193
9.142                0.860215649     -135.969913
9.143                0.859729694     -136.283332
9.144                0.859243623     -136.597448
9.145                0.858757462     -136.912258
9.146                0.858271236      -137.22776
9.147                0.857784974     -137.543952
9.148                0.857298703     -137.860833
9.149                0.856812449     -138.178399
9.15                  0.85632624     -138.496648
9.151                0.855840104     -138.815578
9.152                0.855354069     -139.135187
9.153                0.854868163     -139.455471
9.154                0.854382414     -139.776429
9.155                 0.85389685     -140.098058
9.156                  0.8534115     -140.420355
9.157                0.852926394     -140.743317
9.158                0.852441559     -141.066942
9.159                0.851957026     -141.391227
9.16                 0.851472823     -141.716169
9.161                 0.85098898     -142.041765
9.162                0.850505526     -142.368012
9.163                0.850022492     -142.694907
9.164                0.849539907     -143.022447
9.165                0.849057802      -143.35063
9.166                0.848576206     -143.679451
9.167                0.848095151     -144.008907
9.168                0.847614666     -144.338996
9.169                0.847134783     -144.669714
9.17                 0.846655531     -145.001057
9.171                0.846176943     -145.333022
9.172                0.845699049     -145.665606
9.173                 0.84522188     -145.998805
9.174                0.844745467     -146.332615
9.175                0.844269843     -146.667033
9.176                0.843795038     -147.002056
9.177                0.843321084     -147.337678
9.178                0.842848013     -147.673897
9.179                0.842375857     -148.010708
9.18                 0.841904647     -148.348108
9.181                0.841434415     -148.686093
9.182                0.840965194     -149.024659
9.183                0.840497015     -149.363801
9.184                0.840029911     -149.703515
9.185                0.839563914     -150.043798
9.186                0.839099057     -150.384644
9.187                 0.83863537      -150.72605
9.188                0.838172888     -151.068012
9.189                0.837711642     -151.410524
9.19                 0.837251665     -151.753583
9.191                0.836792989     -152.097183
9.192                0.836335647     -152.441321
9.193                0.835879671     -152.785991
9.194                0.835425095      -153.13119
9.195                 0.83497195     -153.476911
9.196                0.834520268     -153.823151
9.197                0.834070084     -154.169905
9.198                0.833621428     -154.517167
9.199                0.833174335     -154.864933
9.2                  0.832728835     -155.213198
9.201                0.832284963     -155.561956
9.202                0.831842749     -155.911203
9.203                0.831402227     -156.260934
9.204                0.830963429     -156.611142
9.205                0.830526387     -156.961824
9.206                0.830091134     -157.312973
9.207                0.829657701     -157.664585
9.208                0.829226122     -158.016653
9.209                0.828796427     -158.369173
9.21                 0.828368649     -158.722138
9.211                 0.82794282     -159.075545
9.212                0.827518972     -159.429385
9.213                0.827097136     -159.783655
9.214                0.826677344     -160.138348
9.215                0.826259628     -160.493459
9.216                0.825844018     -160.848982
9.217                0.825430547      -161.20491
9.218                0.825019245     -161.561239
9.219                0.824610143     -161.917962
9.22                 0.824203272     -162.275073
9.221                0.823798663     -162.632566
9.222                0.823396346     -162.990435
9.223                0.822996352     -163.348674
9.224                0.822598711     -163.707277
9.225                0.822203454     -164.066237
9.226                0.821810609     -164.425549
9.227                0.821420206     -164.785206
9.228                0.821032276     -165.145201
9.229                0.820646848     -165.505529
9.23                  0.82026395     -165.866183
9.231                0.819883611     -166.227156
9.232                0.819505861     -166.588442
9.233                0.819130727     -166.950034
9.234                0.818758239     -167.311927
9.235                0.818388423     -167.674113
9.236                0.818021308     -168.036585
9.237                0.817656922     -168.399337
9.238                0.817295291     -168.762362
9.239                0.816936442     -169.125654
9.24                 0.816580403     -169.489206
9.241                  0.8162272      -169.85301
9.242                 0.81587686     -170.217061
9.243                0.815529407     -170.581351
9.244                0.815184869     -170.945873
9.245                0.814843269      -171.31062
9.246                0.814504635     -171.675585
9.247                0.814168989     -172.040762
9.248                0.813836358     -172.406143
9.249                0.813506764     -172.771722
9.25                 0.813180233     -173.137491
9.251                0.812856787     -173.503442
9.252                 0.81253645      -173.86957
9.253                0.812219244     -174.235866
9.254                0.811905194     -174.602324
9.255                 0.81159432     -174.968937
9.256                0.811286644     -175.335696
9.257                0.810982189     -175.702596
9.258                0.810680976     -176.069628
9.259                0.810383025     -176.436786
9.26                 0.810088358     -176.804062
9.261                0.809796993     -177.171448
9.262                0.809508952     -177.538938
9.263                0.809224254     -177.906524
9.264                0.808942917     -178.274199
9.265                 0.80866496     -178.641955
9.266                0.808390403     -179.009785
9.267                0.808119262     -179.377682
9.268                0.807851556     -179.745638
9.269                0.807587301      179.886355
9.27                 0.807326515      179.518303
9.271                0.807069214      179.150214
9.272                0.806815413      178.782096
9.273                0.806565129      178.413956
9.274                0.806318377      178.045801
9.275                0.806075171      177.677639
9.276                0.805835527      177.309478
9.277                0.805599457      176.941325
9.278                0.805366976      176.573187
9.279                0.805138097      176.205071
9.28                 0.804912833      175.836986
9.281                0.804691195      175.468939
9.282                0.804473196      175.100937
9.283                0.804258848      174.732988
9.284                0.804048161      174.365099
9.285                0.803841147      173.997277
9.286                0.803637815       173.62953
9.287                0.803438175      173.261866
9.288                0.803242236      172.894292
9.289                0.803050009      172.526815
9.29                 0.802861501      172.159443
9.291                 0.80267672      171.792183
9.292                0.802495674      171.425043
9.293                 0.80231837      171.058029
9.294                0.802144816       170.69115
9.295                0.801975017      170.324412
9.296                0.801808979      169.957823
9.297                0.801646709      169.591391
9.298                0.801488211      169.225122
9.299                0.801333489      168.859024
9.3                  0.801182549      168.493104
9.301                0.801035394      168.127369
9.302                0.800892027      167.761827
9.303                0.800752452      167.396484
9.304                 0.80061667      167.031349
9.305                0.800484685      166.666427
9.306                0.800356497      166.301727
9.307                0.800232109      165.937255
9.308                 0.80011152      165.573019
9.309                0.799994731      165.209025
9.31                 0.799881743       164.84528
9.311                0.799772555      164.481792
9.312                0.799667166      164.118567
9.313                0.799565575      163.755612
9.314                 0.79946778      163.392935
9.315                 0.79937378      163.030541
9.316                0.799283571      162.668439
9.317                0.799197151      162.306634
9.318                0.799114517      161.945134
9.319                0.799035665      161.583945
9.32                 0.798960591      161.223074
9.321                0.798889291      160.862527
9.322                0.798821759      160.502312
9.323                 0.79875799      160.142434
9.324                 0.79869798      159.782901
9.325                0.798641721      159.423719
9.326                0.798589208      159.064893
9.327                0.798540434      158.706432
9.328                0.798495391       158.34834
9.329                0.798454072      157.990625
9.33                  0.79841647      157.633293
9.331                0.798382575      157.276349
9.332                 0.79835238      156.919801
9.333                0.798325875      156.563654
9.334                0.798303051      156.207915
9.335                0.798283899      155.852589
9.336                0.798268408      155.497682
9.337                0.798256569      155.143201
9.338                0.798248369      154.789152
9.339                  0.7982438       154.43554
9.34                 0.798242848      154.082371
9.341                0.798245503      153.729651
9.342                0.798251752      153.377385
9.343                0.798261583       153.02558
9.344                0.798274984      152.674241
9.345                0.798291941      152.323374
9.346                0.798312442      151.972983
9.347                0.798336472      151.623076
9.348                0.798364018      151.273656
9.349                0.798395066       150.92473
9.35                 0.798429602      150.576302
9.351                 0.79846761      150.228379
9.352                0.798509076      149.880964
9.353                0.798553984      149.534064
9.354                 0.79860232      149.187684
9.355                0.798654066      148.841828
9.356                0.798709208      148.496501
9.357                0.798767728       148.15171
9.358                0.798829611      147.807457
9.359                 0.79889484      147.463749
9.36                 0.798963397      147.120589
9.361                0.799035265      146.777984
9.362                0.799110427      146.435936
9.363                0.799188864      146.094452
9.364                 0.79927056      145.753535
9.365                0.799355496      145.413191
9.366                0.799443654      145.073422
9.367                0.799535014      144.734235
9.368                0.799629559      144.395633
9.369                0.799727268       144.05762
9.37                 0.799828124      143.720201
9.371                0.799932107      143.383379
9.372                0.800039196       143.04716
9.373                0.800149373      142.711546
9.374                0.800262618      142.376543
9.375                 0.80037891      142.042153
9.376                0.800498229       141.70838
9.377                0.800620556       141.37523
9.378                0.800745868      141.042704
9.379                0.800874146      140.710808
9.38                  0.80100537      140.379543
9.381                0.801139517      140.048916
9.382                0.801276566      139.718927
9.383                0.801416497      139.389582
9.384                0.801559289      139.060883
9.385                0.801704919      138.732834
9.386                0.801853366      138.405438
9.387                0.802004609      138.078699
9.388                0.802158625      137.752619
9.389                0.802315393      137.427201
9.39                  0.80247489       137.10245
9.391                0.802637095      136.778366
9.392                0.802801986      136.454955
9.393                0.802969539      136.132218
9.394                0.803139734      135.810158
9.395                0.803312546      135.488779
9.396                0.803487954      135.168082
