! TOUCHSTONE file generated by CST DESIGN STUDIO
! Date and time: Tue Feb  4 17:09:49 2025
! Project name: C:\Work\MatlabApps\UnitCellOptimizationMatlab\CST\unitcell.cst
! Tree item: Tasks\Sweep1\SPara1\S-Parameters
! Header version: 2024
! Port assignment regex: !\s*Touchstone port\s*([0-9]+)\s*=\s*(CST MWS port|CST DES external port|CST DES block port)\s*(.+)\s* \(\"(.*)\"\)(\s*mode\s*([0-9]+))?.*
! Touchstone port assignment:
! Touchstone port 1 = CST DES external port 1 ("")
# GHz S MA R 50
9                    0.966671359     -50.7132098
9.001                0.966575519     -50.7805547
9.002                0.966479278     -50.8480395
9.003                0.966382636     -50.9156644
9.004                0.966285591     -50.9834301
9.005                0.966188142     -51.0513368
9.006                 0.96609029      -51.119385
9.007                0.965992032     -51.1875751
9.008                0.965893368     -51.2559076
9.009                0.965794296     -51.3243829
9.01                 0.965694817     -51.3930015
9.011                0.965594929     -51.4617637
9.012                 0.96549463     -51.5306701
9.013                0.965393921      -51.599721
9.014                  0.9652928     -51.6689169
9.015                0.965191267     -51.7382583
9.016                0.965089319     -51.8077456
9.017                0.964986957     -51.8773793
9.018                 0.96488418     -51.9471598
9.019                0.964780986     -52.0170875
9.02                 0.964677374     -52.0871629
9.021                0.964573344     -52.1573865
9.022                0.964468894     -52.2277587
9.023                0.964364024     -52.2982801
9.024                0.964258733     -52.3689509
9.025                0.964153019     -52.4397718
9.026                0.964046882     -52.5107432
9.027                0.963940321     -52.5818655
9.028                0.963833335     -52.6531393
9.029                0.963725922     -52.7245649
9.03                 0.963618082     -52.7961429
9.031                0.963509814     -52.8678737
9.032                0.963401116     -52.9397579
9.033                0.963291989     -53.0117958
9.034                 0.96318243     -53.0839881
9.035                0.963072439     -53.1563351
9.036                0.962962014     -53.2288373
9.037                0.962851156     -53.3014953
9.038                0.962739862     -53.3743095
9.039                0.962628132     -53.4472804
9.04                 0.962515965     -53.5204085
9.041                 0.96240336     -53.5936943
9.042                0.962290315     -53.6671384
9.043                 0.96217683     -53.7407411
9.044                0.962062904      -53.814503
9.045                0.961948535     -53.8884246
9.046                0.961833723     -53.9625064
9.047                0.961718466     -54.0367489
9.048                0.961602764     -54.1111527
9.049                0.961486616     -54.1857182
9.05                  0.96137002     -54.2604459
9.051                0.961252975     -54.3353364
9.052                0.961135481     -54.4103902
9.053                0.961017536     -54.4856077
9.054                0.960899139     -54.5609896
9.055                0.960780289     -54.6365364
9.056                0.960660986     -54.7122484
9.057                0.960541227     -54.7881264
9.058                0.960421013     -54.8641708
9.059                0.960300341     -54.9403822
9.06                 0.960179212     -55.0167611
9.061                0.960057623     -55.0933079
9.062                0.959935574     -55.1700234
9.063                0.959813063     -55.2469079
9.064                 0.95969009     -55.3239621
9.065                0.959566653     -55.4011865
9.066                0.959442752     -55.4785816
9.067                0.959318385     -55.5561481
9.068                0.959193551     -55.6338863
9.069                0.959068249      -55.711797
9.07                 0.958942478     -55.7898805
9.071                0.958816237     -55.8681376
9.072                0.958689525     -55.9465688
9.073                 0.95856234     -56.0251746
9.074                0.958434681     -56.1039556
9.075                0.958306548     -56.1829123
9.076                0.958177939     -56.2620454
9.077                0.958048854     -56.3413554
9.078                 0.95791929     -56.4208428
9.079                0.957789247     -56.5005083
9.08                 0.957658724     -56.5803524
9.081                0.957527719     -56.6603758
9.082                0.957396232     -56.7405789
9.083                0.957264261     -56.8209624
9.084                0.957131806     -56.9015269
9.085                0.956998864     -56.9822729
9.086                0.956865435      -57.063201
9.087                0.956731518      -57.144312
9.088                0.956597111     -57.2256062
9.089                0.956462213     -57.3070844
9.09                 0.956326824     -57.3887471
9.091                0.956190942      -57.470595
9.092                0.956054565     -57.5526286
9.093                0.955917693     -57.6348486
9.094                0.955780325     -57.7172555
9.095                0.955642459     -57.7998501
9.096                0.955504094     -57.8826328
9.097                0.955365229     -57.9656043
9.098                0.955225862     -58.0487653
9.099                0.955085993     -58.1321164
9.1                  0.954945621     -58.2156582
9.101                0.954804743     -58.2993912
9.102                0.954663359     -58.3833163
9.103                0.954521469     -58.4674339
9.104                0.954379069     -58.5517447
9.105                 0.95423616     -58.6362494
9.106                 0.95409274     -58.7209486
9.107                0.953948807     -58.8058429
9.108                0.953804362      -58.890933
9.109                0.953659401     -58.9762196
9.11                 0.953513925     -59.0617033
9.111                0.953367932     -59.1473847
9.112                 0.95322142     -59.2332645
9.113                0.953074389     -59.3193433
9.114                0.952926837     -59.4056219
9.115                0.952778763     -59.4921009
9.116                0.952630165      -59.578781
9.117                0.952481043     -59.6656627
9.118                0.952331395     -59.7527469
9.119                 0.95218122     -59.8400341
9.12                 0.952030517     -59.9275251
9.121                0.951879284     -60.0152205
9.122                 0.95172752      -60.103121
9.123                0.951575225     -60.1912274
9.124                0.951422395     -60.2795402
9.125                0.951269031     -60.3680602
9.126                0.951115131     -60.4567881
9.127                0.950960694     -60.5457245
9.128                0.950805718     -60.6348702
9.129                0.950650202     -60.7242259
9.13                 0.950494146     -60.8137923
9.131                0.950337546       -60.90357
9.132                0.950180403     -60.9935599
9.133                0.950022715     -61.0837625
9.134                0.949864481     -61.1741787
9.135                0.949705699     -61.2648091
9.136                0.949546368     -61.3556545
9.137                0.949386487     -61.4467156
9.138                0.949226055     -61.5379931
9.139                0.949065069     -61.6294877
9.14                 0.948903529     -61.7212002
9.141                0.948741434     -61.8131314
9.142                0.948578782     -61.9052819
9.143                0.948415572     -61.9976525
9.144                0.948251802     -62.0902439
9.145                0.948087471     -62.1830569
9.146                0.947922579     -62.2760923
9.147                0.947757122     -62.3693508
9.148                0.947591101     -62.4628331
9.149                0.947424514       -62.55654
9.15                 0.947257359     -62.6504723
9.151                0.947089635     -62.7446307
9.152                0.946921341     -62.8390161
9.153                0.946752476     -62.9336291
9.154                0.946583037     -63.0284705
9.155                0.946413024     -63.1235412
9.156                0.946242436     -63.2188419
9.157                0.946071271     -63.3143734
9.158                0.945899527     -63.4101364
9.159                0.945727203     -63.5061319
9.16                 0.945554298     -63.6023604
9.161                0.945380811      -63.698823
9.162                 0.94520674     -63.7955203
9.163                0.945032084     -63.8924531
9.164                0.944856841     -63.9896223
9.165                 0.94468101     -64.0870287
9.166                0.944504589      -64.184673
9.167                0.944327578     -64.2825561
9.168                0.944149975     -64.3806788
9.169                0.943971778      -64.479042
9.17                 0.943792986     -64.5776464
9.171                0.943613598     -64.6764929
9.172                0.943433613     -64.7755823
9.173                0.943253028     -64.8749154
9.174                0.943071843     -64.9744931
9.175                0.942890055     -65.0743162
9.176                0.942707665     -65.1743855
9.177                 0.94252467      -65.274702
9.178                0.942341069     -65.3752664
9.179                 0.94215686     -65.4760796
9.18                 0.941972042     -65.5771425
9.181                0.941786614     -65.6784559
9.182                0.941600575     -65.7800206
9.183                0.941413922     -65.8818376
9.184                0.941226654     -65.9839077
9.185                0.941038771     -66.0862318
9.186                0.940850271     -66.1888107
9.187                0.940661151     -66.2916453
9.188                0.940471412     -66.3947366
9.189                0.940281051     -66.4980854
9.19                 0.940090067     -66.6016925
9.191                0.939898458     -66.7055589
9.192                0.939706224     -66.8096855
9.193                0.939513362     -66.9140732
9.194                0.939319872     -67.0187228
9.195                0.939125751     -67.1236353
9.196                0.938930999     -67.2288115
9.197                0.938735615     -67.3342525
9.198                0.938539595     -67.4399591
9.199                0.938342941     -67.5459322
9.2                  0.938145648     -67.6521727
9.201                0.937947718     -67.7586816
9.202                0.937749147     -67.8654598
9.203                0.937549935     -67.9725082
9.204                 0.93735008     -68.0798278
9.205                 0.93714958     -68.1874195
9.206                0.936948435     -68.2952842
9.207                0.936746643     -68.4034229
9.208                0.936544203     -68.5118366
9.209                0.936341112     -68.6205261
9.21                  0.93613737     -68.7294925
9.211                0.935932975     -68.8387367
9.212                0.935727926     -68.9482596
9.213                0.935522222     -69.0580623
9.214                 0.93531586     -69.1681457
9.215                 0.93510884     -69.2785107
9.216                 0.93490116     -69.3891584
9.217                0.934692819     -69.5000897
9.218                0.934483815     -69.6113057
9.219                0.934274147     -69.7228072
9.22                 0.934063814     -69.8345953
9.221                0.933852813     -69.9466711
9.222                0.933641145     -70.0590353
9.223                0.933428806     -70.1716892
9.224                0.933215797     -70.2846337
9.225                0.933002115     -70.3978697
9.226                0.932787759     -70.5113984
9.227                0.932572728     -70.6252206
9.228                 0.93235702     -70.7393376
9.229                0.932140635     -70.8537501
9.23                  0.93192357     -70.9684594
9.231                0.931705824     -71.0834664
9.232                0.931487395     -71.1987721
9.233                0.931268284     -71.3143776
9.234                0.931048487      -71.430284
9.235                0.930828004     -71.5464922
9.236                0.930606833     -71.6630033
9.237                0.930384973     -71.7798184
9.238                0.930162423     -71.8969386
9.239                0.929939181     -72.0143648
9.24                 0.929715246     -72.1320981
9.241                0.929490617     -72.2501397
9.242                0.929265292     -72.3684905
9.243                0.929039269     -72.4871517
9.244                0.928812548     -72.6061243
9.245                0.928585128     -72.7254095
9.246                0.928357006     -72.8450082
9.247                0.928128182     -72.9649216
9.248                0.927898653     -73.0851508
9.249                 0.92766842     -73.2056968
9.25                 0.927437481     -73.3265608
9.251                0.927205834     -73.4477438
9.252                0.926973478     -73.5692471
9.253                0.926740411     -73.6910716
9.254                0.926506633     -73.8132185
9.255                0.926272142     -73.9356889
9.256                0.926036937     -74.0584839
9.257                0.925801017     -74.1816047
9.258                 0.92556438     -74.3050524
9.259                0.925327026     -74.4288281
9.26                 0.925088952     -74.5529329
9.261                0.924850157      -74.677368
9.262                0.924610642     -74.8021345
9.263                0.924370403     -74.9272336
9.264                 0.92412944     -75.0526664
9.265                0.923887753     -75.1784341
9.266                0.923645338     -75.3045378
9.267                0.923402197     -75.4309788
9.268                0.923158326      -75.557758
9.269                0.922913725     -75.6848768
9.27                 0.922668393     -75.8123363
9.271                0.922422329     -75.9401376
9.272                0.922175532      -76.068282
9.273                   0.921928     -76.1967706
9.274                0.921679732     -76.3256046
9.275                0.921430728     -76.4547853
9.276                0.921180985     -76.5843137
9.277                0.920930503     -76.7141911
9.278                0.920679282     -76.8444187
9.279                0.920427319     -76.9749977
9.28                 0.920174614     -77.1059293
9.281                0.919921165     -77.2372147
9.282                0.919666973     -77.3688551
9.283                0.919412035     -77.5008517
9.284                 0.91915635     -77.6332059
9.285                0.918899918     -77.7659187
9.286                0.918642738     -77.8989914
9.287                0.918384808     -78.0324253
9.288                0.918126128     -78.1662216
9.289                0.917866696     -78.3003815
9.29                 0.917606513     -78.4349063
9.291                0.917345576     -78.5697971
9.292                0.917083885     -78.7050554
9.293                0.916821439     -78.8406822
9.294                0.916558237      -78.976679
9.295                0.916294278     -79.1130468
9.296                0.916029562     -79.2497871
9.297                0.915764087      -79.386901
9.298                0.915497852     -79.5243899
9.299                0.915230858     -79.6622549
9.3                  0.914963103     -79.8004975
9.301                0.914694586     -79.9391188
9.302                0.914425307     -80.0781201
9.303                0.914155264     -80.2175028
9.304                0.913884457     -80.3572682
9.305                0.913612886     -80.4974174
9.306                 0.91334055     -80.6379518
9.307                0.913067447     -80.7788728
9.308                0.912793578     -80.9201816
9.309                0.912518941     -81.0618795
9.31                 0.912243536     -81.2039679
9.311                0.911967363      -81.346448
9.312                0.911690421     -81.4893212
9.313                0.911412709     -81.6325888
9.314                0.911134226     -81.7762521
9.315                0.910854973     -81.9203124
9.316                0.910574949     -82.0647711
9.317                0.910294153     -82.2096295
9.318                0.910012584      -82.354889
9.319                0.909730243     -82.5005508
9.32                 0.909447129     -82.6466163
9.321                0.909163242     -82.7930869
9.322                 0.90887858      -82.939964
9.323                0.908593145     -83.0872487
9.324                0.908306934     -83.2349426
9.325                0.908019949      -83.383047
9.326                0.907732189     -83.5315632
9.327                0.907443654     -83.6804926
9.328                0.907154343     -83.8298365
9.329                0.906864257     -83.9795964
9.33                 0.906573394     -84.1297736
9.331                0.906281755     -84.2803695
9.332                 0.90598934     -84.4313854
9.333                0.905696149     -84.5828227
9.334                0.905402182     -84.7346829
9.335                0.905107438     -84.8869672
9.336                0.904811918     -85.0396772
9.337                0.904515621     -85.1928141
9.338                0.904218548     -85.3463794
9.339                0.903920699     -85.5003744
9.34                 0.903622073     -85.6548006
9.341                0.903322672     -85.8096594
9.342                0.903022494     -85.9649521
9.343                0.902721541     -86.1206802
9.344                0.902419813     -86.2768451
9.345                0.902117309     -86.4334481
9.346                0.901814031     -86.5904908
9.347                0.901509978     -86.7479744
9.348                0.901205151     -86.9059005
9.349                 0.90089955     -87.0642704
9.35                 0.900593175     -87.2230856
9.351                0.900286028     -87.3823475
9.352                0.899978109     -87.5420574
9.353                0.899669417      -87.702217
9.354                0.899359955     -87.8628274
9.355                0.899049721     -88.0238903
9.356                0.898738718      -88.185407
9.357                0.898426945      -88.347379
9.358                0.898114404     -88.5098077
9.359                0.897801095     -88.6726945
9.36                 0.897487018     -88.8360409
9.361                0.897172176     -88.9998483
9.362                0.896856568     -89.1641181
9.363                0.896540196     -89.3288518
9.364                 0.89622306     -89.4940509
9.365                0.895905162     -89.6597168
9.366                0.895586503      -89.825851
9.367                0.895267083     -89.9924548
9.368                0.894946904     -90.1595297
9.369                0.894625967     -90.3270773
9.37                 0.894304273     -90.4950989
9.371                0.893981823     -90.6635959
9.372                 0.89365862       -90.83257
9.373                0.893334663     -91.0020224
9.374                0.893009955     -91.1719547
9.375                0.892684497     -91.3423683
9.376                 0.89235829     -91.5132647
9.377                0.892031337     -91.6846454
9.378                0.891703638     -91.8565117
9.379                0.891375195     -92.0288652
9.38                 0.891046011     -92.2017073
9.381                0.890716086     -92.3750394
9.382                0.890385422     -92.5488631
9.383                0.890054022     -92.7231798
9.384                0.889721887      -92.897991
9.385                0.889389019     -93.0732981
9.386                 0.88905542     -93.2491025
9.387                0.888721093     -93.4254058
9.388                0.888386039     -93.6022094
9.389                 0.88805026     -93.7795147
9.39                 0.887713759     -93.9573233
9.391                0.887376538     -94.1356366
9.392                  0.8870386      -94.314456
9.393                0.886699946      -94.493783
9.394                0.886360579      -94.673619
9.395                0.886020503     -94.8539656
9.396                0.885679718     -95.0348241
