! TOUCHSTONE file generated by CST DESIGN STUDIO
! Date and time: Tue Feb  4 17:09:46 2025
! Project name: C:\Work\MatlabApps\UnitCellOptimizationMatlab\CST\unitcell.cst
! Tree item: Tasks\Sweep1\SPara1\S-Parameters
! Header version: 2024
! Port assignment regex: !\s*Touchstone port\s*([0-9]+)\s*=\s*(CST MWS port|CST DES external port|CST DES block port)\s*(.+)\s* \(\"(.*)\"\)(\s*mode\s*([0-9]+))?.*
! Touchstone port assignment:
! Touchstone port 1 = CST DES external port 1 ("")
# GHz S MA R 50
9                     0.96193708     -55.1287142
9.001                0.961827541     -55.2057307
9.002                0.961717495     -55.2829196
9.003                0.961606941     -55.3602814
9.004                0.961495877     -55.4378166
9.005                0.961384303     -55.5155258
9.006                0.961272216     -55.5934094
9.007                0.961159616     -55.6714681
9.008                  0.9610465     -55.7497024
9.009                0.960932868     -55.8281129
9.01                 0.960818719        -55.9067
9.011                 0.96070405     -55.9854644
9.012                0.960588861     -56.0644066
9.013                 0.96047315     -56.1435271
9.014                0.960356915     -56.2228266
9.015                0.960240156     -56.3023056
9.016                 0.96012287     -56.3819646
9.017                0.960005057     -56.4618042
9.018                0.959886715      -56.541825
9.019                0.959767843     -56.6220275
9.02                 0.959648439     -56.7024124
9.021                0.959528502     -56.7829802
9.022                 0.95940803     -56.8637314
9.023                0.959287022     -56.9446667
9.024                0.959165477     -57.0257867
9.025                0.959043393     -57.1070919
9.026                0.958920769     -57.1885829
9.027                0.958797603     -57.2702603
9.028                0.958673893     -57.3521247
9.029                0.958549639     -57.4341767
9.03                  0.95842484     -57.5164169
9.031                0.958299492     -57.5988458
9.032                0.958173596     -57.6814642
9.033                0.958047149     -57.7642725
9.034                0.957920151     -57.8472715
9.035                0.957792599     -57.9304616
9.036                0.957664492     -58.0138436
9.037                0.957535829      -58.097418
9.038                0.957406609     -58.1811854
9.039                0.957276829     -58.2651465
9.04                 0.957146489     -58.3493019
9.041                0.957015587     -58.4336522
9.042                0.956884121     -58.5181981
9.043                 0.95675209       -58.60294
9.044                0.956619493     -58.6878788
9.045                0.956486327      -58.773015
9.046                0.956352592     -58.8583493
9.047                0.956218286     -58.9438823
9.048                0.956083408     -59.0296146
9.049                0.955947955     -59.1155469
9.05                 0.955811927     -59.2016798
9.051                0.955675322      -59.288014
9.052                0.955538139     -59.3745501
9.053                0.955400376     -59.4612888
9.054                0.955262031     -59.5482307
9.055                0.955123103     -59.6353766
9.056                 0.95498359      -59.722727
9.057                0.954843492     -59.8102826
9.058                0.954702806     -59.8980441
9.059                 0.95456153     -59.9860121
9.06                 0.954419665     -60.0741874
9.061                0.954277207     -60.1625706
9.062                0.954134155     -60.2511623
9.063                0.953990508     -60.3399633
9.064                0.953846264     -60.4289743
9.065                0.953701422     -60.5181959
9.066                 0.95355598     -60.6076288
9.067                0.953409937     -60.6972737
9.068                 0.95326329     -60.7871312
9.069                0.953116039     -60.8772022
9.07                 0.952968182     -60.9674873
9.071                0.952819718     -61.0579872
9.072                0.952670644     -61.1487025
9.073                 0.95252096     -61.2396341
9.074                0.952370663     -61.3307825
9.075                0.952219752     -61.4221486
9.076                0.952068226     -61.5137331
9.077                0.951916083     -61.6055366
9.078                0.951763321     -61.6975598
9.079                0.951609939     -61.7898036
9.08                 0.951455935     -61.8822686
9.081                0.951301308     -61.9749556
9.082                0.951146056     -62.0678652
9.083                0.950990177     -62.1609983
9.084                 0.95083367     -62.2543555
9.085                0.950676534     -62.3479377
9.086                0.950518766     -62.4417455
9.087                0.950360365     -62.5357796
9.088                 0.95020133      -62.630041
9.089                0.950041659     -62.7245302
9.09                  0.94988135     -62.8192481
9.091                0.949720402     -62.9141953
9.092                0.949558812     -63.0093728
9.093                0.949396581     -63.1047811
9.094                0.949233705     -63.2004212
9.095                0.949070183     -63.2962938
9.096                0.948906014     -63.3923996
9.097                0.948741196     -63.4887394
9.098                0.948575727      -63.585314
9.099                0.948409606     -63.6821242
9.1                  0.948242831     -63.7791707
9.101                0.948075401     -63.8764544
9.102                0.947907314     -63.9739761
9.103                0.947738567     -64.0717365
9.104                0.947569161     -64.1697364
9.105                0.947399092     -64.2679767
9.106                 0.94722836     -64.3664581
9.107                0.947056962     -64.4651814
9.108                0.946884898     -64.5641475
9.109                0.946712165     -64.6633572
9.11                 0.946538762     -64.7628112
9.111                0.946364686     -64.8625105
9.112                0.946189938     -64.9624557
9.113                0.946014514     -65.0626479
9.114                0.945838413     -65.1630877
9.115                0.945661634      -65.263776
9.116                0.945484175     -65.3647136
9.117                0.945306034     -65.4659014
9.118                 0.94512721     -65.5673403
9.119                  0.9449477      -65.669031
9.12                 0.944767504     -65.7709744
9.121                0.944586619     -65.8731714
9.122                0.944405045     -65.9756228
9.123                0.944222779     -66.0783295
9.124                0.944039819     -66.1812923
9.125                0.943856164     -66.2845121
9.126                0.943671813     -66.3879898
9.127                0.943486764     -66.4917262
9.128                0.943301014     -66.5957222
9.129                0.943114563     -66.6999787
9.13                 0.942927408     -66.8044966
9.131                0.942739549     -66.9092767
9.132                0.942550983     -67.0143199
9.133                0.942361708     -67.1196272
9.134                0.942171724     -67.2251993
9.135                0.941981028     -67.3310373
9.136                0.941789618      -67.437142
9.137                0.941597494     -67.5435143
9.138                0.941404653     -67.6501551
9.139                0.941211094     -67.7570654
9.14                 0.941016815     -67.8642459
9.141                0.940821814     -67.9716978
9.142                 0.94062609     -68.0794218
9.143                0.940429641     -68.1874189
9.144                0.940232465     -68.2956901
9.145                0.940034562     -68.4042362
9.146                0.939835928     -68.5130582
9.147                0.939636563      -68.622157
9.148                0.939436464     -68.7315336
9.149                 0.93923563     -68.8411889
9.15                  0.93903406     -68.9511238
9.151                0.938831752     -69.0613394
9.152                0.938628704     -69.1718365
9.153                0.938424914     -69.2826161
9.154                0.938220381     -69.3936792
9.155                0.938015104     -69.5050268
9.156                 0.93780908     -69.6166597
9.157                0.937602307     -69.7285791
9.158                0.937394785     -69.8407858
9.159                0.937186512     -69.9532808
9.16                 0.936977485     -70.0660652
9.161                0.936767704     -70.1791398
9.162                0.936557167     -70.2925057
9.163                0.936345871      -70.406164
9.164                0.936133816     -70.5201155
9.165                   0.935921     -70.6343612
9.166                0.935707421     -70.7489023
9.167                0.935493077     -70.8637396
9.168                0.935277967     -70.9788742
9.169                 0.93506209     -71.0943072
9.17                 0.934845443     -71.2100394
9.171                0.934628025      -71.326072
9.172                0.934409835      -71.442406
9.173                 0.93419087     -71.5590424
9.174                 0.93397113     -71.6759822
9.175                0.933750612     -71.7932264
9.176                0.933529316     -71.9107762
9.177                0.933307238     -72.0286325
9.178                0.933084379     -72.1467964
9.179                0.932860736     -72.2652689
9.18                 0.932636308     -72.3840511
9.181                0.932411092      -72.503144
9.182                0.932185089     -72.6225488
9.183                0.931958295     -72.7422664
9.184                 0.93173071      -72.862298
9.185                0.931502331     -72.9826445
9.186                0.931273158     -73.1033071
9.187                0.931043189     -73.2242869
9.188                0.930812422      -73.345585
9.189                0.930580856     -73.4672023
9.19                 0.930348488     -73.5891401
9.191                0.930115319     -73.7113993
9.192                0.929881346     -73.8339812
9.193                0.929646567     -73.9568868
9.194                0.929410981     -74.0801171
9.195                0.929174588     -74.2036734
9.196                0.928937384     -74.3275567
9.197                0.928699369     -74.4517681
9.198                0.928460541     -74.5763087
9.199                0.928220899     -74.7011798
9.2                  0.927980441     -74.8263823
9.201                0.927739166     -74.9519174
9.202                0.927497073     -75.0777863
9.203                0.927254159     -75.2039901
9.204                0.927010424     -75.3305299
9.205                0.926765866     -75.4574069
9.206                0.926520484     -75.5846222
9.207                0.926274276     -75.7121769
9.208                0.926027241     -75.8400723
9.209                0.925779377     -75.9683095
9.21                 0.925530684     -76.0968895
9.211                 0.92528116     -76.2258137
9.212                0.925030803     -76.3550832
9.213                0.924779612     -76.4846991
9.214                0.924527586     -76.6146626
9.215                0.924274723     -76.7449749
9.216                0.924021022     -76.8756372
9.217                0.923766483     -77.0066506
9.218                0.923511103     -77.1380164
9.219                0.923254881     -77.2697357
9.22                 0.922997816     -77.4018098
9.221                0.922739907     -77.5342398
9.222                0.922481153      -77.667027
9.223                0.922221552     -77.8001725
9.224                0.921961103     -77.9336775
9.225                0.921699805     -78.0675433
9.226                0.921437656     -78.2017712
9.227                0.921174656     -78.3363622
9.228                0.920910804     -78.4713176
9.229                0.920646098     -78.6066388
9.23                 0.920380537     -78.7423268
9.231                0.920114119     -78.8783829
9.232                0.919846845     -79.0148084
9.233                0.919578713     -79.1516046
9.234                0.919309721     -79.2887725
9.235                0.919039869     -79.4263136
9.236                0.918769155      -79.564229
9.237                 0.91849758     -79.7025201
9.238                 0.91822514      -79.841188
9.239                0.917951837      -79.980234
9.24                 0.917677668     -80.1196595
9.241                0.917402632     -80.2594655
9.242                 0.91712673     -80.3996536
9.243                0.916849959     -80.5402248
9.244                0.916572319     -80.6811805
9.245                 0.91629381      -80.822522
9.246                0.916014429     -80.9642506
9.247                0.915734177     -81.1063675
9.248                0.915453052      -81.248874
9.249                0.915171054     -81.3917715
9.25                 0.914888182     -81.5350612
9.251                0.914604435     -81.6787444
9.252                0.914319812     -81.8228225
9.253                0.914034313     -81.9672967
9.254                0.913747937     -82.1121683
9.255                0.913460684     -82.2574388
9.256                0.913172552     -82.4031093
9.257                0.912883541     -82.5491812
9.258                 0.91259365     -82.6956558
9.259                 0.91230288     -82.8425345
9.26                 0.912011228     -82.9898186
9.261                0.911718696     -83.1375094
9.262                0.911425281     -83.2856082
9.263                0.911130984     -83.4341165
9.264                0.910835805     -83.5830354
9.265                0.910539742     -83.7323664
9.266                0.910242796     -83.8821109
9.267                0.909944966     -84.0322701
9.268                0.909646251     -84.1828454
9.269                0.909346652     -84.3338382
9.27                 0.909046168     -84.4852499
9.271                0.908744799     -84.6370817
9.272                0.908442544     -84.7893351
9.273                0.908139403     -84.9420114
9.274                0.907835377      -85.095112
9.275                0.907530465     -85.2486383
9.276                0.907224666     -85.4025916
9.277                0.906917981     -85.5569733
9.278                 0.90661041     -85.7117847
9.279                0.906301952     -85.8670274
9.28                 0.905992609     -86.0227026
9.281                0.905682378     -86.1788118
9.282                0.905371262     -86.3353563
9.283                0.905059259     -86.4923375
9.284                 0.90474637     -86.6497568
9.285                0.904432596     -86.8076156
9.286                0.904117936     -86.9659153
9.287                 0.90380239     -87.1246573
9.288                0.903485959      -87.283843
9.289                0.903168643     -87.4434739
9.29                 0.902850443     -87.6035512
9.291                0.902531359     -87.7640765
9.292                0.902211391      -87.925051
9.293                 0.90189054     -88.0864764
9.294                0.901568805     -88.2483539
9.295                0.901246189     -88.4106849
9.296                0.900922691      -88.573471
9.297                0.900598312     -88.7367134
9.298                0.900273053     -88.9004137
9.299                0.899946914     -89.0645732
9.3                  0.899619896     -89.2291934
9.301                   0.899292     -89.3942757
9.302                0.898963227     -89.5598215
9.303                0.898633577     -89.7258322
9.304                0.898303051     -89.8923094
9.305                0.897971651     -90.0592543
9.306                0.897639378     -90.2266685
9.307                0.897306232     -90.3945534
9.308                0.896972214     -90.5629103
9.309                0.896637326     -90.7317408
9.31                 0.896301569     -90.9010463
9.311                0.895964945     -91.0708282
9.312                0.895627453      -91.241088
9.313                0.895289096     -91.4118271
9.314                0.894949876     -91.5830469
9.315                0.894609793     -91.7547488
9.316                0.894268849     -91.9269344
9.317                0.893927046     -92.0996051
9.318                0.893584385     -92.2727622
9.319                0.893240867     -92.4464073
9.32                 0.892896495     -92.6205417
9.321                0.892551271      -92.795167
9.322                0.892205195     -92.9702846
9.323                0.891858271     -93.1458958
9.324                0.891510499     -93.3220023
9.325                0.891161882     -93.4986053
9.326                0.890812422     -93.6757064
9.327                0.890462121     -93.8533069
9.328                0.890110981     -94.0314084
9.329                0.889759004     -94.2100123
9.33                 0.889406193       -94.38912
9.331                0.889052549     -94.5687329
9.332                0.888698076     -94.7488526
9.333                0.888342776     -94.9294803
9.334                 0.88798665     -95.1106177
9.335                0.887629703     -95.2922661
9.336                0.887271936     -95.4744269
9.337                0.886913352     -95.6571016
9.338                0.886553954     -95.8402917
9.339                0.886193744     -96.0239985
9.34                 0.885832727     -96.2082235
9.341                0.885470903     -96.3929682
9.342                0.885108278     -96.5782339
9.343                0.884744853     -96.7640221
9.344                0.884380631     -96.9503342
9.345                0.884015617     -97.1371716
9.346                0.883649814     -97.3245359
9.347                0.883283224     -97.5124283
9.348                0.882915851     -97.7008503
9.349                0.882547699     -97.8898034
9.35                 0.882178772     -98.0792888
9.351                0.881809072     -98.2693082
9.352                0.881438604     -98.4598628
9.353                0.881067372     -98.6509541
9.354                0.880695379     -98.8425834
9.355                 0.88032263     -99.0347522
9.356                0.879949128     -99.2274619
9.357                0.879574878     -99.4207139
9.358                0.879199884     -99.6145096
9.359                 0.87882415     -99.8088503
9.36                  0.87844768     -100.003737
9.361                0.878070479     -100.199172
9.362                0.877692552     -100.395157
9.363                0.877313903     -100.591691
9.364                0.876934536     -100.788778
9.365                0.876554457     -100.986418
9.366                0.876173671     -101.184613
9.367                0.875792182     -101.383363
9.368                0.875409995     -101.582672
9.369                0.875027116     -101.782538
9.37                  0.87464355     -101.982965
9.371                0.874259302     -102.183954
9.372                0.873874377     -102.385505
9.373                0.873488781      -102.58762
9.374                0.873102519     -102.790301
9.375                0.872715598     -102.993548
9.376                0.872328023     -103.197363
9.377                0.871939799     -103.401748
9.378                0.871550933     -103.606703
9.379                 0.87116143     -103.812231
9.38                 0.870771298     -104.018331
9.381                0.870380541     -104.225006
9.382                0.869989167     -104.432257
9.383                0.869597182     -104.640085
9.384                0.869204592     -104.848491
9.385                0.868811404     -105.057477
9.386                0.868417624     -105.267044
9.387                 0.86802326     -105.477192
9.388                0.867628318     -105.687924
9.389                0.867232806     -105.899241
9.39                  0.86683673     -106.111143
9.391                0.866440098     -106.323632
9.392                0.866042916     -106.536709
9.393                0.865645193     -106.750376
9.394                0.865246936     -106.964633
9.395                0.864848153     -107.179482
9.396                 0.86444885     -107.394924
