! TOUCHSTONE file generated by CST DESIGN STUDIO
! Date and time: Tue Feb  4 17:09:51 2025
! Project name: C:\Work\MatlabApps\UnitCellOptimizationMatlab\CST\unitcell.cst
! Tree item: Tasks\Sweep1\SPara1\S-Parameters
! Header version: 2024
! Port assignment regex: !\s*Touchstone port\s*([0-9]+)\s*=\s*(CST MWS port|CST DES external port|CST DES block port)\s*(.+)\s* \(\"(.*)\"\)(\s*mode\s*([0-9]+))?.*
! Touchstone port assignment:
! Touchstone port 1 = CST DES external port 1 ("")
# GHz S MA R 50
9                     0.97066187     -46.7641905
9.001                0.970578243     -46.8236404
9.002                0.970494296     -46.8832047
9.003                0.970410026     -46.9428839
9.004                0.970325433     -47.0026782
9.005                0.970240517     -47.0625881
9.006                0.970155277     -47.1226138
9.007                0.970069713     -47.1827558
9.008                0.969983824     -47.2430143
9.009                 0.96989761     -47.3033897
9.01                 0.969811069     -47.3638824
9.011                0.969724202     -47.4244927
9.012                0.969637008     -47.4852209
9.013                0.969549485     -47.5460675
9.014                0.969461635     -47.6070327
9.015                0.969373456     -47.6681169
9.016                0.969284947     -47.7293205
9.017                0.969196108     -47.7906438
9.018                0.969106938     -47.8520873
9.019                0.969017438     -47.9136512
9.02                 0.968927605     -47.9753359
9.021                 0.96883744     -48.0371417
9.022                0.968746942     -48.0990692
9.023                0.968656111     -48.1611185
9.024                0.968564945     -48.2232902
9.025                0.968473444     -48.2855845
9.026                0.968381609     -48.3480018
9.027                0.968289437     -48.4105425
9.028                0.968196928      -48.473207
9.029                0.968104083     -48.5359956
9.03                 0.968010899     -48.5989088
9.031                0.967917377     -48.6619469
9.032                0.967823517     -48.7251103
9.033                0.967729316     -48.7883993
9.034                0.967634775     -48.8518144
9.035                0.967539894      -48.915356
9.036                0.967444671     -48.9790244
9.037                0.967349106       -49.04282
9.038                0.967253198     -49.1067432
9.039                0.967156946     -49.1707944
9.04                 0.967060351     -49.2349739
9.041                0.966963411     -49.2992823
9.042                0.966866126     -49.3637199
9.043                0.966768495      -49.428287
9.044                0.966670517     -49.4929842
9.045                0.966572193     -49.5578117
9.046                 0.96647352       -49.62277
9.047                0.966374499     -49.6878595
9.048                0.966275129     -49.7530806
9.049                0.966175408     -49.8184337
9.05                 0.966075338     -49.8839192
9.051                0.965974916     -49.9495375
9.052                0.965874143     -50.0152891
9.053                0.965773017     -50.0811743
9.054                0.965671538     -50.1471936
9.055                0.965569706     -50.2133474
9.056                0.965467519     -50.2796361
9.057                0.965364976     -50.3460601
9.058                0.965262078     -50.4126199
9.059                0.965158824     -50.4793159
9.06                 0.965055212     -50.5461484
9.061                0.964951243      -50.613118
9.062                0.964846915     -50.6802251
9.063                0.964742228       -50.74747
9.064                0.964637181     -50.8148533
9.065                0.964531773     -50.8823753
9.066                0.964426005     -50.9500365
9.067                0.964319874     -51.0178374
9.068                 0.96421338     -51.0857784
9.069                0.964106523     -51.1538598
9.07                 0.963999302     -51.2220822
9.071                0.963891716     -51.2904461
9.072                0.963783765     -51.3589518
9.073                0.963675447     -51.4275998
9.074                0.963566762     -51.4963905
9.075                 0.96345771     -51.5653245
9.076                0.963348289     -51.6344021
9.077                0.963238499     -51.7036238
9.078                0.963128339     -51.7729902
9.079                0.963017809     -51.8425015
9.08                 0.962906907     -51.9121584
9.081                0.962795633     -51.9819612
9.082                0.962683987     -52.0519105
9.083                0.962571966     -52.1220067
9.084                0.962459572     -52.1922502
9.085                0.962346802     -52.2626416
9.086                0.962233656     -52.3331813
9.087                0.962120134     -52.4038698
9.088                0.962006234     -52.4747075
9.089                0.961891957      -52.545695
9.09                   0.9617773     -52.6168328
9.091                0.961662264     -52.6881212
9.092                0.961546847     -52.7595608
9.093                0.961431049     -52.8311522
9.094                0.961314869     -52.9028957
9.095                0.961198307     -52.9747918
9.096                 0.96108136     -53.0468411
9.097                 0.96096403     -53.1190441
9.098                0.960846314     -53.1914012
9.099                0.960728212      -53.263913
9.1                  0.960609724     -53.3365799
9.101                0.960490848     -53.4094025
9.102                0.960371583     -53.4823812
9.103                 0.96025193     -53.5555166
9.104                0.960131887     -53.6288092
9.105                0.960011452     -53.7022594
9.106                0.959890626     -53.7758679
9.107                0.959769408      -53.849635
9.108                0.959647797     -53.9235614
9.109                0.959525791     -53.9976475
9.11                 0.959403391      -54.071894
9.111                0.959280595     -54.1463012
9.112                0.959157402     -54.2208697
9.113                0.959033812     -54.2956001
9.114                0.958909823     -54.3704928
9.115                0.958785436     -54.4455485
9.116                0.958660648     -54.5207676
9.117                 0.95853546     -54.5961507
9.118                 0.95840987     -54.6716983
9.119                0.958283878      -54.747411
9.12                 0.958157482     -54.8232892
9.121                0.958030682     -54.8993337
9.122                0.957903476     -54.9755448
9.123                0.957775865     -55.0519232
9.124                0.957647847     -55.1284693
9.125                0.957519421     -55.2051839
9.126                0.957390587     -55.2820673
9.127                0.957261343     -55.3591202
9.128                0.957131689     -55.4363431
9.129                0.957001623     -55.5137366
9.13                 0.956871145     -55.5913013
9.131                0.956740254     -55.6690377
9.132                0.956608949     -55.7469463
9.133                0.956477229     -55.8250279
9.134                0.956345094     -55.9032829
9.135                0.956212541     -55.9817119
9.136                0.956079571     -56.0603155
9.137                0.955946183     -56.1390942
9.138                0.955812374     -56.2180488
9.139                0.955678146     -56.2971796
9.14                 0.955543496     -56.3764875
9.141                0.955408424     -56.4559728
9.142                0.955272928     -56.5356362
9.143                0.955137009     -56.6154784
9.144                0.955000664     -56.6954999
9.145                0.954863893     -56.7757012
9.146                0.954726696     -56.8560831
9.147                 0.95458907     -56.9366461
9.148                0.954451015     -57.0173909
9.149                0.954312531     -57.0983179
9.15                 0.954173615      -57.179428
9.151                0.954034268     -57.2607215
9.152                0.953894488     -57.3421993
9.153                0.953754274     -57.4238618
9.154                0.953613626     -57.5057098
9.155                0.953472542     -57.5877438
9.156                0.953331021     -57.6699645
9.157                0.953189062     -57.7523725
9.158                0.953046665     -57.8349684
9.159                0.952903828     -57.9177529
9.16                  0.95276055     -58.0007266
9.161                0.952616831     -58.0838902
9.162                0.952472668     -58.1672442
9.163                0.952328063     -58.2507893
9.164                0.952183012     -58.3345263
9.165                0.952037516     -58.4184556
9.166                0.951891573     -58.5025781
9.167                0.951745182     -58.5868943
9.168                0.951598342     -58.6714049
9.169                0.951451052     -58.7561105
9.17                 0.951303312     -58.8410118
9.171                 0.95115512     -58.9261096
9.172                0.951006474     -59.0114043
9.173                0.950857375     -59.0968968
9.174                0.950707821     -59.1825877
9.175                 0.95055781     -59.2684777
9.176                0.950407343     -59.3545674
9.177                0.950256417     -59.4408576
9.178                0.950105032     -59.5273488
9.179                0.949953186     -59.6140419
9.18                 0.949800879     -59.7009374
9.181                 0.94964811     -59.7880362
9.182                0.949494877     -59.8753388
9.183                0.949341179      -59.962846
9.184                0.949187016     -60.0505584
9.185                0.949032386     -60.1384769
9.186                0.948877288      -60.226602
9.187                0.948721721     -60.3149346
9.188                0.948565684     -60.4034752
9.189                0.948409176     -60.4922247
9.19                 0.948252195     -60.5811836
9.191                0.948094741     -60.6703529
9.192                0.947936813     -60.7597331
9.193                0.947778409     -60.8493251
9.194                0.947619528     -60.9391295
9.195                 0.94746017      -61.029147
9.196                0.947300333     -61.1193784
9.197                0.947140015     -61.2098245
9.198                0.946979216      -61.300486
9.199                0.946817935     -61.3913636
9.2                  0.946656171      -61.482458
9.201                0.946493922     -61.5737701
9.202                0.946331187     -61.6653005
9.203                0.946167965     -61.7570501
9.204                0.946004255     -61.8490195
9.205                0.945840056     -61.9412096
9.206                0.945675367     -62.0336211
9.207                0.945510187     -62.1262547
9.208                0.945344513     -62.2191113
9.209                0.945178346     -62.3121916
9.21                 0.945011684     -62.4054964
9.211                0.944844526     -62.4990264
9.212                 0.94467687     -62.5927825
9.213                0.944508716     -62.6867654
9.214                0.944340063      -62.780976
9.215                0.944170908     -62.8754149
9.216                0.944001252     -62.9700831
9.217                0.943831093     -63.0649812
9.218                0.943660429     -63.1601102
9.219                0.943489259     -63.2554707
9.22                 0.943317583     -63.3510637
9.221                0.943145399     -63.4468898
9.222                0.942972706       -63.54295
9.223                0.942799502     -63.6392451
9.224                0.942625787     -63.7357758
9.225                 0.94245156      -63.832543
9.226                0.942276818     -63.9295475
9.227                0.942101561     -64.0267901
9.228                0.941925788     -64.1242717
9.229                0.941749498     -64.2219931
9.23                 0.941572688     -64.3199551
9.231                0.941395359     -64.4181586
9.232                0.941217508     -64.5166045
9.233                0.941039135     -64.6152935
9.234                0.940860239     -64.7142265
9.235                0.940680817     -64.8134044
9.236                 0.94050087      -64.912828
9.237                0.940320395     -65.0124982
9.238                0.940139391     -65.1124158
9.239                0.939957858     -65.2125818
9.24                 0.939775794      -65.312997
9.241                0.939593198     -65.4136622
9.242                0.939410068     -65.5145783
9.243                0.939226403     -65.6157463
9.244                0.939042203     -65.7171669
9.245                0.938857465     -65.8188412
9.246                0.938672189     -65.9207699
9.247                0.938486373      -66.022954
9.248                0.938300016     -66.1253943
9.249                0.938113117     -66.2280918
9.25                 0.937925674     -66.3310474
9.251                0.937737687      -66.434262
9.252                0.937549154     -66.5377364
9.253                0.937360074     -66.6414716
9.254                0.937170445     -66.7454685
9.255                0.936980267      -66.849728
9.256                0.936789538     -66.9542511
9.257                0.936598256     -67.0590387
9.258                0.936406421     -67.1640917
9.259                0.936214031      -67.269411
9.26                 0.936021086     -67.3749976
9.261                0.935827583     -67.4808524
9.262                0.935633521     -67.5869764
9.263                  0.9354389     -67.6933705
9.264                0.935243718     -67.8000356
9.265                0.935047973     -67.9069727
9.266                0.934851665     -68.0141829
9.267                0.934654793     -68.1216669
9.268                0.934457354     -68.2294259
9.269                0.934259347     -68.3374607
9.27                 0.934060773     -68.4457723
9.271                0.933861628     -68.5543618
9.272                0.933661912       -68.66323
9.273                0.933461624      -68.772378
9.274                0.933260762     -68.8818068
9.275                0.933059325     -68.9915173
9.276                0.932857313     -69.1015105
9.277                0.932654722     -69.2117875
9.278                0.932451554     -69.3223492
9.279                0.932247805     -69.4331967
9.28                 0.932043475     -69.5443309
9.281                0.931838562     -69.6557528
9.282                0.931633066     -69.7674635
9.283                0.931426985      -69.879464
9.284                0.931220318     -69.9917553
9.285                0.931013063     -70.1043385
9.286                 0.93080522     -70.2172145
9.287                0.930596786     -70.3303843
9.288                0.930387762     -70.4438492
9.289                0.930178145     -70.5576099
9.29                 0.929967934     -70.6716677
9.291                0.929757129     -70.7860236
9.292                0.929545727     -70.9006786
9.293                0.929333728     -71.0156337
9.294                 0.92912113       -71.13089
9.295                0.928907933     -71.2464486
9.296                0.928694134     -71.3623106
9.297                0.928479733      -71.478477
9.298                0.928264729     -71.5949488
9.299                 0.92804912     -71.7117272
9.3                  0.927832905     -71.8288133
9.301                0.927616082     -71.9462081
9.302                0.927398652     -72.0639127
9.303                0.927180611     -72.1819282
9.304                 0.92696196     -72.3002556
9.305                0.926742697     -72.4188962
9.306                0.926522821      -72.537851
9.307                0.926302331      -72.657121
9.308                0.926081225     -72.7767075
9.309                0.925859502     -72.8966115
9.31                 0.925637161     -73.0168342
9.311                0.925414201     -73.1373765
9.312                0.925190621     -73.2582398
9.313                 0.92496642     -73.3794251
9.314                0.924741596     -73.5009335
9.315                0.924516148     -73.6227662
9.316                0.924290075     -73.7449243
9.317                0.924063376     -73.8674089
9.318                 0.92383605     -73.9902213
9.319                0.923608096     -74.1133625
9.32                 0.923379513     -74.2368337
9.321                0.923150299      -74.360636
9.322                0.922920453     -74.4847707
9.323                0.922689974     -74.6092389
9.324                0.922458862     -74.7340417
9.325                0.922227115     -74.8591803
9.326                0.921994731     -74.9846559
9.327                0.921761711     -75.1104697
9.328                0.921528052     -75.2366229
9.329                0.921293754     -75.3631166
9.33                 0.921058816     -75.4899521
9.331                0.920823237     -75.6171304
9.332                0.920587015      -75.744653
9.333                0.920350149     -75.8725208
9.334                 0.92011264     -76.0007352
9.335                0.919874484     -76.1292973
9.336                0.919635683     -76.2582083
9.337                0.919396234     -76.3874696
9.338                0.919156136     -76.5170822
9.339                0.918915389     -76.6470474
9.34                 0.918673992     -76.7773665
9.341                0.918431943     -76.9080407
9.342                0.918189242     -77.0390711
9.343                0.917945888     -77.1704591
9.344                0.917701879     -77.3022059
9.345                0.917457216     -77.4343126
9.346                0.917211896     -77.5667807
9.347                 0.91696592     -77.6996113
9.348                0.916719286     -77.8328057
9.349                0.916471993     -77.9663651
9.35                 0.916224041     -78.1002908
9.351                0.915975428     -78.2345841
9.352                0.915726154     -78.3692462
9.353                0.915476219     -78.5042785
9.354                 0.91522562     -78.6396821
9.355                0.914974358     -78.7754584
9.356                0.914722432     -78.9116086
9.357                 0.91446984     -79.0481341
9.358                0.914216583     -79.1850362
9.359                0.913962658      -79.322316
9.36                 0.913708067      -79.459975
9.361                0.913452807     -79.5980144
9.362                0.913196879     -79.7364355
9.363                0.912940281     -79.8752396
9.364                0.912683014     -80.0144281
9.365                0.912425075     -80.1540023
9.366                0.912166465     -80.2939635
9.367                0.911907183     -80.4343129
9.368                0.911647228      -80.575052
9.369                  0.9113866      -80.716182
9.37                 0.911125299     -80.8577043
9.371                0.910863323     -80.9996202
9.372                0.910600672     -81.1419311
9.373                0.910337346     -81.2846383
9.374                0.910073344     -81.4277432
9.375                0.909808666      -81.571247
9.376                0.909543311     -81.7151511
9.377                0.909277279      -81.859457
9.378                0.909010569     -82.0041659
9.379                0.908743181     -82.1492792
9.38                 0.908475115     -82.2947983
9.381                 0.90820637     -82.4407245
9.382                0.907936946     -82.5870593
9.383                0.907666843     -82.7338039
9.384                 0.90739606     -82.8809598
9.385                0.907124597     -83.0285283
9.386                0.906852454     -83.1765109
9.387                 0.90657963     -83.3249088
9.388                0.906306126     -83.4737235
9.389                0.906031941     -83.6229565
9.39                 0.905757075     -83.7726089
9.391                0.905481528     -83.9226824
9.392                  0.9052053     -84.0731782
9.393                 0.90492839     -84.2240978
9.394                0.904650799     -84.3754425
9.395                0.904372527     -84.5272139
9.396                0.904093574     -84.6794132
