! TOUCHSTONE file generated by CST DESIGN STUDIO
! Date and time: Tue Feb  4 17:09:54 2025
! Project name: C:\Work\MatlabApps\UnitCellOptimizationMatlab\CST\unitcell.cst
! Tree item: Tasks\Sweep1\SPara1\S-Parameters
! Header version: 2024
! Port assignment regex: !\s*Touchstone port\s*([0-9]+)\s*=\s*(CST MWS port|CST DES external port|CST DES block port)\s*(.+)\s* \(\"(.*)\"\)(\s*mode\s*([0-9]+))?.*
! Touchstone port assignment:
! Touchstone port 1 = CST DES external port 1 ("")
# GHz S MA R 50
9                    0.974022234     -43.2269126
9.001                0.973948596     -43.2799392
9.002                0.973874701     -43.3330603
9.003                0.973800548     -43.3862762
9.004                0.973726138     -43.4395872
9.005                 0.97365147     -43.4929935
9.006                0.973576544     -43.5464954
9.007                 0.97350136     -43.6000932
9.008                0.973425917     -43.6537871
9.009                0.973350216     -43.7075776
9.01                 0.973274255     -43.7614647
9.011                0.973198035     -43.8154489
9.012                0.973121556     -43.8695304
9.013                0.973044816     -43.9237095
9.014                0.972967817     -43.9779865
9.015                0.972890557     -44.0323616
9.016                0.972813036     -44.0868353
9.017                0.972735254     -44.1414076
9.018                0.972657211     -44.1960791
9.019                0.972578906     -44.2508498
9.02                  0.97250034     -44.3057202
9.021                0.972421511     -44.3606906
9.022                 0.97234242     -44.4157612
9.023                0.972263066     -44.4709323
9.024                0.972183449     -44.5262042
9.025                0.972103569     -44.5815773
9.026                0.972023425     -44.6370518
9.027                0.971943017     -44.6926281
9.028                0.971862345     -44.7483064
9.029                0.971781408      -44.804087
9.03                 0.971700207     -44.8599703
9.031                0.971618741     -44.9159566
9.032                0.971537009     -44.9720461
9.033                0.971455011     -45.0282393
9.034                0.971372747     -45.0845363
9.035                0.971290217     -45.1409376
9.036                 0.97120742     -45.1974433
9.037                0.971124356      -45.254054
9.038                0.971041025     -45.3107697
9.039                0.970957426      -45.367591
9.04                 0.970873559     -45.4245181
9.041                0.970789424     -45.4815512
9.042                 0.97070502     -45.5386909
9.043                0.970620347     -45.5959373
9.044                0.970535405     -45.6532908
9.045                0.970450193     -45.7107517
9.046                0.970364711     -45.7683203
9.047                0.970278959     -45.8259971
9.048                0.970192936     -45.8837822
9.049                0.970106642     -45.9416761
9.05                 0.970020077      -45.999679
9.051                 0.96993324     -46.0577914
9.052                0.969846131     -46.1160135
9.053                 0.96975875     -46.1743457
9.054                0.969671095     -46.2327883
9.055                0.969583168     -46.2913416
9.056                0.969494967     -46.3500061
9.057                0.969406492     -46.4087819
9.058                0.969317743     -46.4676696
9.059                0.969228719     -46.5266694
9.06                 0.969139421     -46.5857817
9.061                0.969049847     -46.6450068
9.062                0.968959997     -46.7043451
9.063                0.968869871     -46.7637969
9.064                0.968779469     -46.8233626
9.065                 0.96868879     -46.8830426
9.066                0.968597833     -46.9428371
9.067                0.968506599     -47.0027465
9.068                0.968415087     -47.0627713
9.069                0.968323296     -47.1229117
9.07                 0.968231227     -47.1831682
9.071                0.968138878      -47.243541
9.072                 0.96804625     -47.3040306
9.073                0.967953341     -47.3646373
9.074                0.967860153     -47.4253614
9.075                0.967766683     -47.4862035
9.076                0.967672932     -47.5471637
9.077                0.967578899     -47.6082425
9.078                0.967484584     -47.6694403
9.079                0.967389987     -47.7307575
9.08                 0.967295107     -47.7921943
9.081                0.967199943     -47.8537513
9.082                0.967104496     -47.9154287
9.083                0.967008764     -47.9772269
9.084                0.966912748     -48.0391464
9.085                0.966816447     -48.1011875
9.086                 0.96671986     -48.1633506
9.087                0.966622987     -48.2256361
9.088                0.966525827     -48.2880444
9.089                0.966428381     -48.3505758
9.09                 0.966330648     -48.4132308
9.091                0.966232626     -48.4760097
9.092                0.966134317      -48.538913
9.093                0.966035718      -48.601941
9.094                0.965936831     -48.6650942
9.095                0.965837654     -48.7283728
9.096                0.965738186     -48.7917774
9.097                0.965638429     -48.8553084
9.098                 0.96553838     -48.9189661
9.099                0.965438039     -48.9827509
9.1                  0.965337407     -49.0466633
9.101                0.965236482     -49.1107036
9.102                0.965135264     -49.1748724
9.103                0.965033753     -49.2391699
9.104                0.964931948     -49.3035966
9.105                0.964829848     -49.3681529
9.106                0.964727453     -49.4328392
9.107                0.964624763      -49.497656
9.108                0.964521777     -49.5626037
9.109                0.964418495     -49.6276826
9.11                 0.964314915     -49.6928933
9.111                0.964211038     -49.7582361
9.112                0.964106863     -49.8237115
9.113                0.964002389     -49.8893199
9.114                0.963897617     -49.9550617
9.115                0.963792544     -50.0209373
9.116                0.963687172     -50.0869473
9.117                0.963581499     -50.1530919
9.118                0.963475525     -50.2193718
9.119                0.963369249     -50.2857872
9.12                 0.963262671     -50.3523387
9.121                 0.96315579     -50.4190267
9.122                0.963048605     -50.4858516
9.123                0.962941117     -50.5528139
9.124                0.962833324      -50.619914
9.125                0.962725227     -50.6871524
9.126                0.962616823     -50.7545295
9.127                0.962508114     -50.8220458
9.128                0.962399097     -50.8897018
9.129                0.962289774     -50.9574978
9.13                 0.962180142     -51.0254344
9.131                0.962070202      -51.093512
9.132                0.961959953     -51.1617311
9.133                0.961849395     -51.2300921
9.134                0.961738526     -51.2985955
9.135                0.961627346     -51.3672418
9.136                0.961515855     -51.4360315
9.137                0.961404052     -51.5049649
9.138                0.961291936     -51.5740427
9.139                0.961179507     -51.6432652
9.14                 0.961066764      -51.712633
9.141                0.960953707     -51.7821465
9.142                0.960840335     -51.8518062
9.143                0.960726646     -51.9216126
9.144                0.960612642     -51.9915661
9.145                0.960498321     -52.0616674
9.146                0.960383682     -52.1319167
9.147                0.960268725     -52.2023147
9.148                0.960153449     -52.2728619
9.149                0.960037853     -52.3435587
9.15                 0.959921937     -52.4144056
9.151                0.959805701     -52.4854031
9.152                0.959689143     -52.5565518
9.153                0.959572263      -52.627852
9.154                 0.95945506     -52.6993045
9.155                0.959337534     -52.7709095
9.156                0.959219683     -52.8426677
9.157                0.959101508     -52.9145796
9.158                0.958983008     -52.9866457
9.159                0.958864181     -53.0588664
9.16                 0.958745027     -53.1312423
9.161                0.958625546      -53.203774
9.162                0.958505737     -53.2764619
9.163                0.958385599     -53.3493066
9.164                0.958265131     -53.4223086
9.165                0.958144333     -53.4954684
9.166                0.958023204     -53.5687865
9.167                0.957901743     -53.6422636
9.168                 0.95777995        -53.7159
9.169                0.957657823     -53.7896965
9.17                 0.957535363     -53.8636534
9.171                0.957412568     -53.9377713
9.172                0.957289438     -54.0120508
9.173                0.957165972     -54.0864925
9.174                0.957042169     -54.1610968
9.175                0.956918028     -54.2358643
9.176                0.956793549     -54.3107956
9.177                0.956668732     -54.3858912
9.178                0.956543574     -54.4611517
9.179                0.956418076     -54.5365776
9.18                 0.956292237     -54.6121695
9.181                0.956166055     -54.6879279
9.182                0.956039531     -54.7638535
9.183                0.955912663     -54.8399468
9.184                0.955785451     -54.9162083
9.185                0.955657893     -54.9926387
9.186                 0.95552999     -55.0692384
9.187                 0.95540174     -55.1460081
9.188                0.955273143     -55.2229484
9.189                0.955144197     -55.3000598
9.19                 0.955014902     -55.3773429
9.191                0.954885257     -55.4547984
9.192                0.954755262     -55.5324267
9.193                0.954624915     -55.6102285
9.194                0.954494215     -55.6882043
9.195                0.954363163     -55.7663548
9.196                0.954231756     -55.8446806
9.197                0.954099995     -55.9231822
9.198                0.953967878     -56.0018603
9.199                0.953835405     -56.0807155
9.2                  0.953702574     -56.1597483
9.201                0.953569386     -56.2389594
9.202                0.953435838     -56.3183494
9.203                 0.95330193     -56.3979189
9.204                0.953167662     -56.4776685
9.205                0.953033032     -56.5575989
9.206                 0.95289804     -56.6377106
9.207                0.952762685     -56.7180043
9.208                0.952626965     -56.7984805
9.209                0.952490881     -56.8791401
9.21                  0.95235443     -56.9599834
9.211                0.952217613     -57.0410113
9.212                0.952080428     -57.1222243
9.213                0.951942875     -57.2036231
9.214                0.951804952     -57.2852083
9.215                0.951666658     -57.3669805
9.216                0.951527994     -57.4489404
9.217                0.951388957     -57.5310887
9.218                0.951249548     -57.6134259
9.219                0.951109764     -57.6959528
9.22                 0.950969606     -57.7786701
9.221                0.950829072     -57.8615782
9.222                0.950688161      -57.944678
9.223                0.950546872     -58.0279701
9.224                0.950405205     -58.1114552
9.225                0.950263158     -58.1951338
9.226                0.950120731     -58.2790068
9.227                0.949977922     -58.3630747
9.228                0.949834732     -58.4473382
9.229                0.949691157     -58.5317981
9.23                 0.949547199      -58.616455
9.231                0.949402855     -58.7013095
9.232                0.949258125     -58.7863625
9.233                0.949113008     -58.8716145
9.234                0.948967503     -58.9570662
9.235                0.948821609     -59.0427184
9.236                0.948675325     -59.1285718
9.237                0.948528649      -59.214627
9.238                0.948381582     -59.3008848
9.239                0.948234122     -59.3873458
9.24                 0.948086267     -59.4740108
9.241                0.947938018     -59.5608804
9.242                0.947789372     -59.6479555
9.243                 0.94764033     -59.7352367
9.244                0.947490889     -59.8227247
9.245                 0.94734105     -59.9104203
9.246                 0.94719081     -59.9983241
9.247                 0.94704017      -60.086437
9.248                0.946889127     -60.1747595
9.249                0.946737681     -60.2632926
9.25                 0.946585831     -60.3520369
9.251                0.946433575     -60.4409931
9.252                0.946280914      -60.530162
9.253                0.946127845     -60.6195444
9.254                0.945974368     -60.7091409
9.255                0.945820481     -60.7989524
9.256                0.945666184     -60.8889796
9.257                0.945511476     -60.9792232
9.258                0.945356355     -61.0696841
9.259                 0.94520082     -61.1603629
9.26                 0.945044871     -61.2512605
9.261                0.944888506     -61.3423775
9.262                0.944731724     -61.4337149
9.263                0.944574524     -61.5252733
9.264                0.944416906     -61.6170535
9.265                0.944258867     -61.7090563
9.266                0.944100407     -61.8012826
9.267                0.943941525      -61.893733
9.268                0.943782219     -61.9864084
9.269                0.943622489     -62.0793096
9.27                 0.943462334     -62.1724373
9.271                0.943301752     -62.2657924
9.272                0.943140742     -62.3593756
9.273                0.942979303     -62.4531879
9.274                0.942817434     -62.5472299
9.275                0.942655135     -62.6415025
9.276                0.942492402     -62.7360065
9.277                0.942329237     -62.8307427
9.278                0.942165637     -62.9257119
9.279                0.942001602     -63.0209151
9.28                  0.94183713     -63.1163529
9.281                 0.94167222     -63.2120262
9.282                0.941506871     -63.3079359
9.283                0.941341082     -63.4040828
9.284                0.941174852     -63.5004677
9.285                0.941008179     -63.5970915
9.286                0.940841062      -63.693955
9.287                0.940673501     -63.7910591
9.288                0.940505494     -63.8884046
9.289                 0.94033704     -63.9859923
9.29                 0.940168138     -64.0838233
9.291                0.939998787     -64.1818982
9.292                0.939828984     -64.2802179
9.293                0.939658731     -64.3787834
9.294                0.939488024     -64.4775955
9.295                0.939316863     -64.5766551
9.296                0.939145248      -64.675963
9.297                0.938973175     -64.7755202
9.298                0.938800645     -64.8753275
9.299                0.938627657     -64.9753858
9.3                  0.938454208      -65.075696
9.301                0.938280299      -65.176259
9.302                0.938105927     -65.2770757
9.303                0.937931091      -65.378147
9.304                0.937755791     -65.4794738
9.305                0.937580025      -65.581057
9.306                0.937403792     -65.6828975
9.307                 0.93722709     -65.7849963
9.308                0.937049919     -65.8873542
9.309                0.936872278     -65.9899722
9.31                 0.936694164     -66.0928512
9.311                0.936515578     -66.1959921
9.312                0.936336517     -66.2993958
9.313                 0.93615698     -66.4030634
9.314                0.935976967     -66.5069957
9.315                0.935796476     -66.6111937
9.316                0.935615506     -66.7156583
9.317                0.935434055     -66.8203905
9.318                0.935252123     -66.9253912
9.319                0.935069708     -67.0306614
9.32                 0.934886809      -67.136202
9.321                0.934703425     -67.2420141
9.322                0.934519554     -67.3480985
9.323                0.934335196     -67.4544562
9.324                0.934150349     -67.5610883
9.325                0.933965011     -67.6679956
9.326                0.933779183     -67.7751792
9.327                0.933592861     -67.8826401
9.328                0.933406046     -67.9903792
9.329                0.933218736     -68.0983976
9.33                  0.93303093     -68.2066962
9.331                0.932842626      -68.315276
9.332                0.932653824      -68.424138
9.333                0.932464521     -68.5332833
9.334                0.932274718     -68.6427128
9.335                0.932084412     -68.7524276
9.336                0.931893603     -68.8624286
9.337                0.931702288      -68.972717
9.338                0.931510468     -69.0832936
9.339                0.931318141     -69.1941596
9.34                 0.931125305      -69.305316
9.341                0.930931959     -69.4167638
9.342                0.930738102      -69.528504
9.343                0.930543733     -69.6405377
9.344                0.930348851      -69.752866
9.345                0.930153454     -69.8654898
9.346                0.929957542     -69.9784103
9.347                0.929761112     -70.0916284
9.348                0.929564164     -70.2051453
9.349                0.929366697     -70.3189621
9.35                 0.929168709     -70.4330797
9.351                0.928970199     -70.5474992
9.352                0.928771166     -70.6622218
9.353                0.928571609     -70.7772485
9.354                0.928371526     -70.8925804
9.355                0.928170916     -71.0082185
9.356                0.927969779      -71.124164
9.357                0.927768112      -71.240418
9.358                0.927565915     -71.3569815
9.359                0.927363186     -71.4738556
9.36                 0.927159925     -71.5910415
9.361                 0.92695613     -71.7085403
9.362                  0.9267518     -71.8263531
9.363                0.926546933     -71.9444809
9.364                0.926341529     -72.0629249
9.365                0.926135587     -72.1816863
9.366                0.925929104     -72.3007662
9.367                0.925722081     -72.4201656
9.368                0.925514515     -72.5398857
9.369                0.925306406     -72.6599277
9.37                 0.925097753     -72.7802927
9.371                0.924888553     -72.9009819
9.372                0.924678808     -73.0219963
9.373                0.924468514     -73.1433372
9.374                0.924257671     -73.2650057
9.375                0.924046278     -73.3870029
9.376                0.923834333     -73.5093301
9.377                0.923621836     -73.6319884
9.378                0.923408786     -73.7549789
9.379                 0.92319518     -73.8783029
9.38                 0.922981019     -74.0019615
9.381                0.922766301     -74.1259559
9.382                0.922551025     -74.2502872
9.383                0.922335189     -74.3749568
9.384                0.922118794     -74.4999657
9.385                0.921901837     -74.6253152
9.386                0.921684317     -74.7510065
9.387                0.921466234     -74.8770407
9.388                0.921247587     -75.0034191
9.389                0.921028374     -75.1301429
9.39                 0.920808594     -75.2572133
9.391                0.920588247     -75.3846315
9.392                 0.92036733     -75.5123988
9.393                0.920145844     -75.6405164
9.394                0.919923788     -75.7689855
9.395                0.919701159     -75.8978073
9.396                0.919477958     -76.0269831
