! TOUCHSTONE file generated by CST DESIGN STUDIO
! Date and time: Tue Feb  4 17:09:35 2025
! Project name: C:\Work\MatlabApps\UnitCellOptimizationMatlab\CST\unitcell.cst
! Tree item: Tasks\Sweep1\SPara1\S-Parameters
! Header version: 2024
! Port assignment regex: !\s*Touchstone port\s*([0-9]+)\s*=\s*(CST MWS port|CST DES external port|CST DES block port)\s*(.+)\s* \(\"(.*)\"\)(\s*mode\s*([0-9]+))?.*
! Touchstone port assignment:
! Touchstone port 1 = CST DES external port 1 ("")
# GHz S MA R 50
9                    0.933359162      -78.551104
9.001                0.933164064     -78.6917319
9.002                0.932967902     -78.8327675
9.003                0.932770673     -78.9742121
9.004                0.932572373     -79.1160672
9.005                   0.932373      -79.258334
9.006                0.932172548     -79.4010139
9.007                0.931971016     -79.5441083
9.008                  0.9317684     -79.6876185
9.009                0.931564696     -79.8315459
9.01                 0.931359902     -79.9758918
9.011                0.931154013     -80.1206577
9.012                0.930947026     -80.2658448
9.013                0.930738939     -80.4114546
9.014                0.930529748     -80.5574885
9.015                0.930319449     -80.7039477
9.016                 0.93010804     -80.8508338
9.017                0.929895517     -80.9981481
9.018                0.929681876     -81.1458919
9.019                0.929467116     -81.2940668
9.02                 0.929251231      -81.442674
9.021                 0.92903422      -81.591715
9.022                0.928816079     -81.7411911
9.023                0.928596805     -81.8911039
9.024                0.928376395     -82.0414547
9.025                0.928154845     -82.1922448
9.026                0.927932153     -82.3434758
9.027                0.927708315      -82.495149
9.028                0.927483328     -82.6472659
9.029                 0.92725719     -82.7998279
9.03                 0.927029897     -82.9528364
9.031                0.926801446     -83.1062928
9.032                0.926571834     -83.2601986
9.033                0.926341058     -83.4145552
9.034                0.926109116     -83.5693641
9.035                0.925876004     -83.7246266
9.036                0.925641719     -83.8803443
9.037                0.925406259     -84.0365185
9.038                0.925169621     -84.1931507
9.039                0.924931801     -84.3502424
9.04                 0.924692797      -84.507795
9.041                0.924452607       -84.66581
9.042                0.924211226     -84.8242888
9.043                0.923968654     -84.9832329
9.044                0.923724886     -85.1426438
9.045                0.923479921     -85.3025228
9.046                0.923233755     -85.4628716
9.047                0.922986386     -85.6236915
9.048                0.922737811      -85.784984
9.049                0.922488028     -85.9467506
9.05                 0.922237034     -86.1089927
9.051                0.921984827     -86.2717119
9.052                0.921731403     -86.4349096
9.053                0.921476762     -86.5985873
9.054                0.921220899     -86.7627465
9.055                0.920963814     -86.9273886
9.056                0.920705503     -87.0925152
9.057                0.920445964     -87.2581277
9.058                0.920185194     -87.4242276
9.059                0.919923193     -87.5908164
9.06                 0.919659956     -87.7578957
9.061                0.919395483     -87.9254668
9.062                0.919129771     -88.0935313
9.063                0.918862818     -88.2620907
9.064                0.918594621     -88.4311465
9.065                0.918325179     -88.6007001
9.066                 0.91805449     -88.7707531
9.067                0.917782551     -88.9413071
9.068                0.917509361     -89.1123633
9.069                0.917234919     -89.2839235
9.07                 0.916959221     -89.4559891
9.071                0.916682267     -89.6285615
9.072                0.916404054     -89.8016423
9.073                0.916124581      -89.975233
9.074                0.915843846     -90.1493352
9.075                0.915561848     -90.3239502
9.076                0.915278585     -90.4990797
9.077                0.914994055     -90.6747251
9.078                0.914708257     -90.8508879
9.079                 0.91442119     -91.0275696
9.08                 0.914132852     -91.2047719
9.081                0.913843242      -91.382496
9.082                0.913552359     -91.5607437
9.083                  0.9132602     -91.7395163
9.084                0.912966766     -91.9188154
9.085                0.912672055     -92.0986424
9.086                0.912376066      -92.278999
9.087                0.912078799     -92.4598866
9.088                0.911780251     -92.6413067
9.089                0.911480422     -92.8232609
9.09                 0.911179312     -93.0057505
9.091                0.910876919     -93.1887772
9.092                0.910573243     -93.3723424
9.093                0.910268283     -93.5564477
9.094                0.909962039     -93.7410945
9.095                 0.90965451     -93.9262844
9.096                0.909345695     -94.1120188
9.097                0.909035594     -94.2982992
9.098                0.908724208     -94.4851272
9.099                0.908411535     -94.6725042
9.1                  0.908097575     -94.8604318
9.101                0.907782328     -95.0489114
9.102                0.907465795     -95.2379445
9.103                0.907147974     -95.4275326
9.104                0.906828867     -95.6176772
9.105                0.906508473     -95.8083797
9.106                0.906186793     -95.9996418
9.107                0.905863826     -96.1914648
9.108                0.905539574     -96.3838502
9.109                0.905214036     -96.5767995
9.11                 0.904887213     -96.7703142
9.111                0.904559106     -96.9643957
9.112                0.904229715     -97.1590455
9.113                0.903899041     -97.3542651
9.114                0.903567085     -97.5500559
9.115                0.903233848     -97.7464194
9.116                0.902899331     -97.9433571
9.117                0.902563534     -98.1408703
9.118                 0.90222646     -98.3389606
9.119                0.901888109     -98.5376294
9.12                 0.901548482     -98.7368782
9.121                0.901207581     -98.9367082
9.122                0.900865408     -99.1371211
9.123                0.900521964     -99.3381182
9.124                 0.90017725      -99.539701
9.125                0.899831269     -99.7418708
9.126                0.899484022     -99.9446291
9.127                0.899135512     -100.147977
9.128                0.898785739     -100.351917
9.129                0.898434708     -100.556449
9.13                 0.898082419     -100.761575
9.131                0.897728875     -100.967297
9.132                0.897374078     -101.173615
9.133                0.897018032     -101.380532
9.134                0.896660738     -101.588049
9.135                  0.8963022     -101.796166
9.136                0.895942419     -102.004886
9.137                  0.8955814     -102.214209
9.138                0.895219145     -102.424137
9.139                0.894855658     -102.634672
9.14                 0.894490941     -102.845815
9.141                0.894124998     -103.057566
9.142                0.893757833     -103.269928
9.143                0.893389448     -103.482901
9.144                0.893019849     -103.696488
9.145                0.892649038     -103.910688
9.146                0.892277019     -104.125504
9.147                0.891903797     -104.340937
9.148                0.891529376     -104.556988
9.149                 0.89115376     -104.773659
9.15                 0.890776953      -104.99095
9.151                 0.89039896     -105.208862
9.152                0.890019785     -105.427398
9.153                0.889639434     -105.646558
9.154                0.889257911     -105.866344
9.155                0.888875221     -106.086756
9.156                0.888491369     -106.307797
9.157                0.888106361     -106.529466
9.158                0.887720201     -106.751766
9.159                0.887332896     -106.974697
9.16                 0.886944451     -107.198261
9.161                0.886554872     -107.422459
9.162                0.886164165     -107.647291
9.163                0.885772335      -107.87276
9.164                 0.88537939     -108.098865
9.165                0.884985334     -108.325609
9.166                0.884590175     -108.552992
9.167                0.884193919     -108.781016
9.168                0.883796573     -109.009681
9.169                0.883398144     -109.238988
9.17                 0.882998639      -109.46894
9.171                0.882598064     -109.699535
9.172                0.882196428     -109.930777
9.173                0.881793737     -110.162665
9.174                0.881389999       -110.3952
9.175                0.880985222     -110.628384
9.176                0.880579414     -110.862218
9.177                0.880172582     -111.096702
9.178                0.879764734     -111.331837
9.179                 0.87935588     -111.567625
9.18                 0.878946028     -111.804066
9.181                0.878535185     -112.041161
9.182                0.878123361     -112.278911
9.183                0.877710565     -112.517317
9.184                0.877296806     -112.756379
9.185                0.876882092     -112.996099
9.186                0.876466434     -113.236478
9.187                 0.87604984     -113.477515
9.188                0.875632321     -113.719212
9.189                0.875213886      -113.96157
9.19                 0.874794546     -114.204589
9.191                 0.87437431      -114.44827
9.192                0.873953188     -114.692614
9.193                0.873531192     -114.937622
9.194                0.873108331     -115.183293
9.195                0.872684617      -115.42963
9.196                 0.87226006     -115.676631
9.197                0.871834672     -115.924299
9.198                0.871408464     -116.172633
9.199                0.870981447     -116.421634
9.2                  0.870553633     -116.671304
9.201                0.870125034     -116.921641
9.202                0.869695661     -117.172647
9.203                0.869265527     -117.424322
9.204                0.868834645     -117.676667
9.205                0.868403025     -117.929682
9.206                0.867970682     -118.183367
9.207                0.867537627     -118.437724
9.208                0.867103874     -118.692752
9.209                0.866669436     -118.948451
9.21                 0.866234327     -119.204823
9.211                0.865798559     -119.461866
9.212                0.865362146     -119.719583
9.213                0.864925103     -119.977972
9.214                0.864487442     -120.237034
9.215                0.864049179      -120.49677
9.216                0.863610327     -120.757179
9.217                0.863170902     -121.018262
9.218                0.862730917     -121.280018
9.219                0.862290388     -121.542449
9.22                 0.861849329     -121.805553
9.221                0.861407757     -122.069332
9.222                0.860965685     -122.333784
9.223                0.860523131     -122.598911
9.224                0.860080109     -122.864712
9.225                0.859636635     -123.131187
9.226                0.859192725     -123.398335
9.227                0.858748397     -123.666158
9.228                0.858303665     -123.934654
9.229                0.857858547     -124.203824
9.23                  0.85741306     -124.473667
9.231                 0.85696722     -124.744184
9.232                0.856521045     -125.015373
9.233                0.856074551     -125.287235
9.234                0.855627757     -125.559769
9.235                0.855180679     -125.832976
9.236                0.854733337     -126.106853
9.237                0.854285747     -126.381402
9.238                0.853837928     -126.656622
9.239                0.853389898     -126.932512
9.24                 0.852941676     -127.209072
9.241                 0.85249328     -127.486302
9.242                0.852044729       -127.7642
9.243                0.851596042     -128.042766
9.244                0.851147239        -128.322
9.245                0.850698338       -128.6019
9.246                 0.85024936     -128.882467
9.247                0.849800323     -129.163699
9.248                0.849351248     -129.445596
9.249                0.848902155     -129.728157
9.25                 0.848453063     -130.011381
9.251                0.848003994     -130.295268
9.252                0.847554967     -130.579815
9.253                0.847106004     -130.865023
9.254                0.846657125      -131.15089
9.255                 0.84620835     -131.437416
9.256                0.845759702     -131.724599
9.257                0.845311201     -132.012439
9.258                0.844862869     -132.300934
9.259                0.844414728     -132.590082
9.26                 0.843966798     -132.879884
9.261                0.843519103     -133.170337
9.262                0.843071663      -133.46144
9.263                0.842624502     -133.753193
9.264                0.842177641     -134.045593
9.265                0.841731104      -134.33864
9.266                0.841284912     -134.632331
9.267                0.840839088     -134.926666
9.268                0.840393655     -135.221643
9.269                0.839948637      -135.51726
9.27                 0.839504056     -135.813517
9.271                0.839059935      -136.11041
9.272                0.838616299     -136.407939
9.273                 0.83817317     -136.706101
9.274                0.837730572     -137.004896
9.275                 0.83728853     -137.304321
9.276                0.836847066     -137.604375
9.277                0.836406205     -137.905055
9.278                0.835965972      -138.20636
9.279                0.835526389     -138.508287
9.28                 0.835087483     -138.810836
9.281                0.834649276     -139.114003
9.282                0.834211795     -139.417787
9.283                0.833775063     -139.722185
9.284                0.833339105     -140.027196
9.285                0.832903947     -140.332816
9.286                0.832469613     -140.639045
9.287                0.832036127     -140.945879
9.288                0.831603517     -141.253317
9.289                0.831171806     -141.561355
9.29                  0.83074102     -141.869992
9.291                0.830311185     -142.179225
9.292                0.829882326     -142.489051
9.293                0.829454468     -142.799469
9.294                0.829027637     -143.110474
9.295                 0.82860186     -143.422065
9.296                0.828177161     -143.734239
9.297                0.827753567     -144.046994
9.298                0.827331104     -144.360326
9.299                0.826909797     -144.674232
9.3                  0.826489673      -144.98871
9.301                0.826070757     -145.303757
9.302                0.825653076     -145.619369
9.303                0.825236656     -145.935545
9.304                0.824821524      -146.25228
9.305                0.824407704     -146.569572
9.306                0.823995225     -146.887417
9.307                0.823584112     -147.205813
9.308                0.823174391     -147.524755
9.309                0.822766088     -147.844242
9.31                 0.822359231     -148.164268
9.311                0.821953846     -148.484832
9.312                0.821549958      -148.80593
9.313                0.821147594     -149.127557
9.314                0.820746782     -149.449711
9.315                0.820347546     -149.772389
9.316                0.819949914     -150.095585
9.317                0.819553912     -150.419298
9.318                0.819159566     -150.743522
9.319                0.818766903     -151.068255
9.32                 0.818375948     -151.393492
9.321                 0.81798673      -151.71923
9.322                0.817599272     -152.045465
9.323                0.817213603     -152.372193
9.324                0.816829747     -152.699409
9.325                0.816447732     -153.027111
9.326                0.816067583     -153.355293
9.327                0.815689326     -153.683952
9.328                0.815312987     -154.013083
9.329                0.814938593     -154.342683
9.33                 0.814566169     -154.672747
9.331                0.814195741      -155.00327
9.332                0.813827335     -155.334249
9.333                0.813460976     -155.665679
9.334                 0.81309669     -155.997556
9.335                0.812734503     -156.329875
9.336                0.812374439     -156.662631
9.337                0.812016525      -156.99582
9.338                0.811660785     -157.329438
9.339                0.811307244      -157.66348
9.34                 0.810955927     -157.997941
9.341                 0.81060686     -158.332816
9.342                0.810260067     -158.668101
9.343                0.809915573     -159.003791
9.344                0.809573402     -159.339881
9.345                0.809233578     -159.676366
9.346                0.808896126     -160.013241
9.347                 0.80856107     -160.350501
9.348                0.808228433     -160.688141
9.349                0.807898241     -161.026157
9.35                 0.807570515     -161.364542
9.351                 0.80724528     -161.703292
9.352                 0.80692256     -162.042402
9.353                0.806602376     -162.381867
9.354                0.806284753      -162.72168
9.355                0.805969713     -163.061837
9.356                0.805657278     -163.402333
9.357                0.805347471     -163.743163
9.358                0.805040315      -164.08432
9.359                0.804735831     -164.425799
9.36                 0.804434041     -164.767595
9.361                0.804134967     -165.109703
9.362                 0.80383863     -165.452116
9.363                0.803545052      -165.79483
9.364                0.803254254     -166.137838
9.365                0.802966256     -166.481136
9.366                0.802681078     -166.824716
9.367                0.802398743     -167.168575
9.368                0.802119268     -167.512705
9.369                0.801842675     -167.857101
9.37                 0.801568984     -168.201758
9.371                0.801298212     -168.546668
9.372                 0.80103038     -168.891828
9.373                0.800765507      -169.23723
9.374                0.800503611     -169.582869
9.375                 0.80024471     -169.928739
9.376                0.799988823     -170.274833
9.377                0.799735968     -170.621147
9.378                0.799486162     -170.967673
9.379                0.799239422     -171.314406
9.38                 0.798995766     -171.661339
9.381                0.798755211     -172.008467
9.382                0.798517772     -172.355784
9.383                0.798283467     -172.703283
9.384                 0.79805231     -173.050958
9.385                0.797824319     -173.398802
9.386                0.797599507     -173.746811
9.387                0.797377891     -174.094976
9.388                0.797159484     -174.443294
9.389                0.796944301     -174.791755
9.39                 0.796732357     -175.140356
9.391                0.796523666     -175.489089
9.392                 0.79631824     -175.837947
9.393                0.796116093     -176.186926
9.394                0.795917238     -176.536017
9.395                0.795721687     -176.885216
9.396                0.795529454     -177.234515
