! TOUCHSTONE file generated by CST DESIGN STUDIO
! Date and time: Tue Feb  4 16:39:52 2025
! Project name: C:\Work\MatlabApps\UnitCellOptimizationMatlab\CST\unitcell.cst
! Tree item: Tasks\Sweep1\SPara1\S-Parameters
! Header version: 2024
! Port assignment regex: !\s*Touchstone port\s*([0-9]+)\s*=\s*(CST MWS port|CST DES external port|CST DES block port)\s*(.+)\s* \(\"(.*)\"\)(\s*mode\s*([0-9]+))?.*
! Touchstone port assignment:
! Touchstone port 1 = CST DES external port 1 ("")
# GHz S MA R 50
9                    0.978277897      -75.554228
9.001                 0.97822473     -75.6690062
9.002                0.978171402     -75.7840691
9.003                0.978117916     -75.8994174
9.004                0.978064269     -76.0150521
9.005                0.978010461      -76.130974
9.006                0.977956493     -76.2471839
9.007                0.977902364     -76.3636827
9.008                0.977848073     -76.4804713
9.009                 0.97779362     -76.5975506
9.01                 0.977739004     -76.7149214
9.011                0.977684226     -76.8325845
9.012                0.977629285      -76.950541
9.013                0.977574181     -77.0687916
9.014                0.977518913     -77.1873371
9.015                 0.97746348     -77.3061786
9.016                0.977407884     -77.4253169
9.017                0.977352122     -77.5447529
9.018                0.977296195     -77.6644874
9.019                0.977240103     -77.7845213
9.02                 0.977183844     -77.9048556
9.021                 0.97712742     -78.0254911
9.022                0.977070829     -78.1464287
9.023                0.977014071     -78.2676693
9.024                0.976957146     -78.3892138
9.025                0.976900053     -78.5110631
9.026                0.976842792     -78.6332182
9.027                0.976785363     -78.7556798
9.028                0.976727765      -78.878449
9.029                0.976669998     -79.0015266
9.03                 0.976612062     -79.1249136
9.031                0.976553956     -79.2486108
9.032                0.976495681     -79.3726192
9.033                0.976437235     -79.4969396
9.034                0.976378618      -79.621573
9.035                0.976319831     -79.7465204
9.036                0.976260872     -79.8717825
9.037                0.976201742     -79.9973605
9.038                 0.97614244     -80.1232551
9.039                0.976082965     -80.2494673
9.04                 0.976023319      -80.375998
9.041                0.975963499     -80.5028482
9.042                0.975903507     -80.6300188
9.043                0.975843341     -80.7575108
9.044                0.975783001     -80.8853249
9.045                0.975722487     -81.0134623
9.046                0.975661799     -81.1419238
9.047                0.975600937     -81.2707104
9.048                0.975539899      -81.399823
9.049                0.975478687     -81.5292625
9.05                 0.975417299       -81.65903
9.051                0.975355735     -81.7891262
9.052                0.975293996     -81.9195523
9.053                 0.97523208     -82.0503091
9.054                0.975169988     -82.1813977
9.055                0.975107719     -82.3128188
9.056                0.975045273     -82.4445736
9.057                 0.97498265     -82.5766629
9.058                0.974919849     -82.7090877
9.059                 0.97485687      -82.841849
9.06                 0.974793714     -82.9749477
9.061                0.974730379     -83.1083848
9.062                0.974666866     -83.2421612
9.063                0.974603174      -83.376278
9.064                0.974539303      -83.510736
9.065                0.974475253     -83.6455363
9.066                0.974411024     -83.7806798
9.067                0.974346614     -83.9161675
9.068                0.974282026     -84.0520003
9.069                0.974217257     -84.1881793
9.07                 0.974152307     -84.3247053
9.071                0.974087178     -84.4615795
9.072                0.974021868     -84.5988026
9.073                0.973956377     -84.7363758
9.074                0.973890705        -84.8743
9.075                0.973824851     -85.0125762
9.076                0.973758817     -85.1512053
9.077                0.973692601     -85.2901883
9.078                0.973626203     -85.4295263
9.079                0.973559623     -85.5692202
9.08                 0.973492862     -85.7092709
9.081                0.973425918     -85.8496795
9.082                0.973358792      -85.990447
9.083                0.973291483     -86.1315743
9.084                0.973223992     -86.2730625
9.085                0.973156318     -86.4149125
9.086                0.973088462     -86.5571252
9.087                0.973020422     -86.6997018
9.088                0.972952199     -86.8426432
9.089                0.972883793     -86.9859503
9.09                 0.972815204     -87.1296242
9.091                0.972746432     -87.2736658
9.092                0.972677476     -87.4180763
9.093                0.972608336     -87.5628564
9.094                0.972539013     -87.7080073
9.095                0.972469506       -87.85353
9.096                0.972399816     -87.9994253
9.097                0.972329941     -88.1456944
9.098                0.972259883     -88.2923383
9.099                0.972189641     -88.4393578
9.1                  0.972119214     -88.5867541
9.101                0.972048604     -88.7345281
9.102                 0.97197781     -88.8826808
9.103                0.971906832     -89.0312132
9.104                 0.97183567     -89.1801263
9.105                0.971764324     -89.3294211
9.106                0.971692793     -89.4790986
9.107                0.971621079     -89.6291599
9.108                0.971549181     -89.7796058
9.109                0.971477098     -89.9304375
9.11                 0.971404832     -90.0816558
9.111                0.971332382     -90.2332619
9.112                0.971259748     -90.3852566
9.113                 0.97118693      -90.537641
9.114                0.971113929     -90.6904162
9.115                0.971040744      -90.843583
9.116                0.970967375     -90.9971425
9.117                0.970893823     -91.1510957
9.118                0.970820087     -91.3054436
9.119                0.970746169     -91.4601872
9.12                 0.970672066     -91.6153274
9.121                0.970597781     -91.7708653
9.122                0.970523313     -91.9268019
9.123                0.970448663     -92.0831382
9.124                0.970373829     -92.2398751
9.125                0.970298814     -92.3970137
9.126                0.970223616     -92.5545549
9.127                0.970148235     -92.7124997
9.128                0.970072673     -92.8708492
9.129                0.969996929     -93.0296042
9.13                 0.969921004     -93.1887659
9.131                0.969844897     -93.3483352
9.132                 0.96976861      -93.508313
9.133                0.969692141     -93.6687004
9.134                0.969615492     -93.8294984
9.135                0.969538663     -93.9907079
9.136                0.969461653     -94.1523299
9.137                0.969384464     -94.3143654
9.138                0.969307095     -94.4768154
9.139                0.969229547     -94.6396809
9.14                  0.96915182     -94.8029627
9.141                0.969073915      -94.966662
9.142                0.968995831     -95.1307797
9.143                0.968917569     -95.2953167
9.144                 0.96883913      -95.460274
9.145                0.968760514     -95.6256526
9.146                0.968681721     -95.7914535
9.147                0.968602751     -95.9576776
9.148                0.968523606     -96.1243259
9.149                0.968444285     -96.2913993
9.15                 0.968364788     -96.4588989
9.151                0.968285117     -96.6268255
9.152                0.968205272     -96.7951801
9.153                0.968125253     -96.9639637
9.154                 0.96804506     -97.1331772
9.155                0.967964695     -97.3028215
9.156                0.967884157     -97.4728977
9.157                0.967803448     -97.6434066
9.158                0.967722567     -97.8143492
9.159                0.967641515     -97.9857264
9.16                 0.967560293     -98.1575392
9.161                0.967478902     -98.3297885
9.162                0.967397341     -98.5024752
9.163                0.967315612     -98.6756002
9.164                0.967233715     -98.8491645
9.165                 0.96715165      -99.023169
9.166                0.967069419     -99.1976146
9.167                0.966987022     -99.3725022
9.168                0.966904459     -99.5478328
9.169                0.966821732     -99.7236071
9.17                 0.966738841     -99.8998262
9.171                0.966655787     -100.076491
9.172                 0.96657257     -100.253602
9.173                0.966489191     -100.431161
9.174                0.966405651     -100.609168
9.175                0.966321951     -100.787624
9.176                0.966238091      -100.96653
9.177                0.966154073     -101.145887
9.178                0.966069896     -101.325696
9.179                0.965985563     -101.505958
9.18                 0.965901073     -101.686673
9.181                0.965816428     -101.867843
9.182                0.965731628     -102.049467
9.183                0.965646675     -102.231548
9.184                0.965561569     -102.414086
9.185                0.965476311     -102.597082
9.186                0.965390902     -102.780536
9.187                0.965305343      -102.96445
9.188                0.965219635     -103.148824
9.189                 0.96513378     -103.333659
9.19                 0.965047777     -103.518956
9.191                0.964961628     -103.704715
9.192                0.964875335     -103.890939
9.193                0.964788898     -104.077626
9.194                0.964702318     -104.264779
9.195                0.964615596     -104.452397
9.196                0.964528733     -104.640482
9.197                0.964441732     -104.829035
9.198                0.964354592     -105.018056
9.199                0.964267315     -105.207546
9.2                  0.964179902     -105.397505
9.201                0.964092354     -105.587935
9.202                0.964004673     -105.778836
9.203                0.963916859      -105.97021
9.204                0.963828914     -106.162056
9.205                 0.96374084     -106.354375
9.206                0.963652637     -106.547168
9.207                0.963564308     -106.740437
9.208                0.963475852      -106.93418
9.209                0.963387272     -107.128401
9.21                 0.963298569     -107.323098
9.211                0.963209744     -107.518272
9.212                0.963120799     -107.713925
9.213                0.963031735     -107.910057
9.214                0.962942554     -108.106668
9.215                0.962853257      -108.30376
9.216                0.962763846     -108.501333
9.217                0.962674321     -108.699387
9.218                0.962584686     -108.897923
9.219                 0.96249494     -109.096942
9.22                 0.962405087     -109.296445
9.221                0.962315127     -109.496431
9.222                0.962225062     -109.696902
9.223                0.962134893     -109.897858
9.224                0.962044623       -110.0993
9.225                0.961954253     -110.301228
9.226                0.961863784     -110.503643
9.227                0.961773219     -110.706546
9.228                 0.96168256     -110.909936
9.229                0.961591807     -111.113815
9.23                 0.961500963     -111.318183
9.231                0.961410029     -111.523041
9.232                0.961319008     -111.728388
9.233                0.961227901     -111.934226
9.234                 0.96113671     -112.140555
9.235                0.961045438     -112.347375
9.236                0.960954085     -112.554687
9.237                0.960862654     -112.762492
9.238                0.960771147     -112.970789
9.239                0.960679566      -113.17958
9.24                 0.960587913     -113.388864
9.241                 0.96049619     -113.598642
9.242                0.960404399     -113.808914
9.243                0.960312542     -114.019682
9.244                0.960220621     -114.230944
9.245                0.960128638     -114.442703
9.246                0.960036596     -114.654957
9.247                0.959944496     -114.867707
9.248                0.959852342     -115.080954
9.249                0.959760134     -115.294697
9.25                 0.959667876     -115.508938
9.251                0.959575569     -115.723677
9.252                0.959483216     -115.938913
9.253                 0.95939082     -116.154647
9.254                0.959298381     -116.370879
9.255                0.959205904      -116.58761
9.256                0.959113391     -116.804839
9.257                0.959020842     -117.022567
9.258                0.958928263     -117.240795
9.259                0.958835653     -117.459522
9.26                 0.958743017     -117.678748
9.261                0.958650356     -117.898474
9.262                0.958557674       -118.1187
9.263                0.958464972     -118.339425
9.264                0.958372254     -118.560651
9.265                0.958279521     -118.782377
9.266                0.958186777     -119.004603
9.267                0.958094024     -119.227329
9.268                0.958001265     -119.450556
9.269                0.957908503     -119.674283
9.27                  0.95781574     -119.898511
9.271                0.957722979     -120.123239
9.272                0.957630223     -120.348467
9.273                0.957537474     -120.574196
9.274                0.957444736     -120.800425
9.275                0.957352011     -121.027155
9.276                0.957259302     -121.254385
9.277                0.957166612     -121.482115
9.278                0.957073945     -121.710345
9.279                0.956981302     -121.939076
9.28                 0.956888687     -122.168306
9.281                0.956796103     -122.398036
9.282                0.956703553     -122.628265
9.283                 0.95661104     -122.858994
9.284                0.956518567     -123.090223
9.285                0.956426136      -123.32195
9.286                0.956333753     -123.554176
9.287                0.956241418     -123.786901
9.288                0.956149136     -124.020123
9.289                 0.95605691     -124.253844
9.29                 0.955964742     -124.488063
9.291                0.955872637     -124.722779
9.292                0.955780597     -124.957992
9.293                0.955688625     -125.193702
9.294                0.955596726     -125.429908
9.295                0.955504902     -125.666611
9.296                0.955413156     -125.903808
9.297                0.955321492     -126.141501
9.298                0.955229914     -126.379689
9.299                0.955138424     -126.618371
9.3                  0.955047027     -126.857547
9.301                0.954955725     -127.097216
9.302                0.954864523     -127.337378
9.303                0.954773423     -127.578032
9.304                0.954682429     -127.819178
9.305                0.954591545     -128.060814
9.306                0.954500774     -128.302942
9.307                 0.95441012     -128.545559
9.308                0.954319587     -128.788666
9.309                0.954229177     -129.032261
9.31                 0.954138895     -129.276344
9.311                0.954048745     -129.520914
9.312                 0.95395873     -129.765971
9.313                0.953868853     -130.011514
9.314                0.953779119     -130.257542
9.315                0.953689532     -130.504054
9.316                0.953600094      -130.75105
9.317                 0.95351081     -130.998528
9.318                0.953421684     -131.246488
9.319                 0.95333272      -131.49493
9.32                  0.95324392     -131.743851
9.321                 0.95315529     -131.993251
9.322                0.953066833      -132.24313
9.323                0.952978553     -132.493486
9.324                0.952890453     -132.744319
9.325                0.952802539     -132.995626
9.326                0.952714813     -133.247409
9.327                 0.95262728     -133.499664
9.328                0.952539944     -133.752392
9.329                0.952452808     -134.005591
9.33                 0.952365877      -134.25926
9.331                0.952279155     -134.513398
9.332                0.952192646     -134.768004
9.333                0.952106354     -135.023077
9.334                0.952020282     -135.278615
9.335                0.951934436     -135.534618
9.336                0.951848819     -135.791083
9.337                0.951763435     -136.048011
9.338                0.951678288     -136.305399
9.339                0.951593383     -136.563246
9.34                 0.951508724     -136.821551
9.341                0.951424315     -137.080313
9.342                0.951340159     -137.339529
9.343                0.951256262       -137.5992
9.344                0.951172628     -137.859323
9.345                 0.95108926     -138.119897
9.346                0.951006163      -138.38092
9.347                0.950923341     -138.642392
9.348                0.950840799      -138.90431
9.349                 0.95075854     -139.166672
9.35                 0.950676569     -139.429479
9.351                0.950594891     -139.692727
9.352                0.950513509     -139.956415
9.353                0.950432427     -140.220541
9.354                0.950351651     -140.485105
9.355                0.950271184     -140.750104
9.356                0.950191031     -141.015536
9.357                0.950111195       -141.2814
9.358                0.950031682     -141.547695
9.359                0.949952496     -141.814417
9.36                 0.949873641     -142.081566
9.361                0.949795121      -142.34914
9.362                 0.94971694     -142.617136
9.363                0.949639104     -142.885553
9.364                0.949561616      -143.15439
9.365                 0.94948448     -143.423643
9.366                0.949407702     -143.693312
9.367                0.949331285     -143.963394
9.368                0.949255233     -144.233887
9.369                0.949179552     -144.504789
9.37                 0.949104245     -144.776099
9.371                0.949029317     -145.047813
9.372                0.948954772     -145.319931
9.373                0.948880614     -145.592449
9.374                0.948806848     -145.865367
9.375                0.948733478      -146.13868
9.376                0.948660508     -146.412389
9.377                0.948587944     -146.686489
9.378                0.948515788     -146.960979
9.379                0.948444046     -147.235857
9.38                 0.948372721     -147.511121
9.381                0.948301819     -147.786768
9.382                0.948231343     -148.062795
9.383                0.948161297     -148.339201
9.384                0.948091686     -148.615983
9.385                0.948022514     -148.893138
9.386                0.947953786     -149.170665
9.387                0.947885506      -149.44856
9.388                0.947817677     -149.726822
9.389                0.947750304     -150.005447
9.39                 0.947683392     -150.284434
9.391                0.947616945      -150.56378
9.392                0.947550966     -150.843481
9.393                 0.94748546     -151.123537
9.394                0.947420431     -151.403943
9.395                0.947355883     -151.684697
9.396                0.947291821     -151.965798
