! TOUCHSTONE file generated by CST DESIGN STUDIO
! Date and time: Tue Feb  4 16:39:47 2025
! Project name: C:\Work\MatlabApps\UnitCellOptimizationMatlab\CST\unitcell.cst
! Tree item: Tasks\Sweep1\SPara1\S-Parameters
! Header version: 2024
! Port assignment regex: !\s*Touchstone port\s*([0-9]+)\s*=\s*(CST MWS port|CST DES external port|CST DES block port)\s*(.+)\s* \(\"(.*)\"\)(\s*mode\s*([0-9]+))?.*
! Touchstone port assignment:
! Touchstone port 1 = CST DES external port 1 ("")
# GHz S MA R 50
9                    0.977691403     -80.6966236
9.001                 0.97763416     -80.8239278
9.002                0.977576746     -80.9515529
9.003                 0.97751916     -81.0794999
9.004                0.977461402     -81.2077697
9.005                0.977403471     -81.3363633
9.006                0.977345368     -81.4652816
9.007                0.977287093     -81.5945255
9.008                0.977228644      -81.724096
9.009                0.977170021      -81.853994
9.01                 0.977111225     -81.9842204
9.011                0.977052255     -82.1147762
9.012                0.976993111     -82.2456624
9.013                0.976933792     -82.3768799
9.014                0.976874298     -82.5084296
9.015                 0.97681463     -82.6403125
9.016                0.976754786     -82.7725295
9.017                0.976694766     -82.9050816
9.018                 0.97663457     -83.0379697
9.019                0.976574198     -83.1711949
9.02                  0.97651365      -83.304758
9.021                0.976452925       -83.43866
9.022                0.976392024     -83.5729018
9.023                0.976330945     -83.7074845
9.024                0.976269689      -83.842409
9.025                0.976208255     -83.9776762
9.026                0.976146644     -84.1132872
9.027                0.976084854     -84.2492428
9.028                0.976022887     -84.3855441
9.029                 0.97596074     -84.5221919
9.03                 0.975898416     -84.6591874
9.031                0.975835912     -84.7965314
9.032                0.975773229      -84.934225
9.033                0.975710367      -85.072269
9.034                0.975647325     -85.2106646
9.035                0.975584104     -85.3494125
9.036                0.975520703     -85.4885139
9.037                0.975457122     -85.6279697
9.038                 0.97539336     -85.7677809
9.039                0.975329418     -85.9079484
9.04                 0.975265296     -86.0484732
9.041                0.975200993     -86.1893564
9.042                0.975136509     -86.3305989
9.043                0.975071844     -86.4722016
9.044                0.975006998     -86.6141656
9.045                 0.97494197     -86.7564918
9.046                0.974876762     -86.8991813
9.047                0.974811371      -87.042235
9.048                0.974745799     -87.1856538
9.049                0.974680045     -87.3294389
9.05                 0.974614109     -87.4735911
9.051                0.974547991     -87.6181115
9.052                 0.97448169      -87.763001
9.053                0.974415208     -87.9082607
9.054                0.974348543     -88.0538914
9.055                0.974281696     -88.1998943
9.056                0.974214666     -88.3462703
9.057                0.974147454     -88.4930204
9.058                0.974080059     -88.6401456
9.059                0.974012481     -88.7876469
9.06                  0.97394472     -88.9355252
9.061                0.973876777     -89.0837815
9.062                0.973808651      -89.232417
9.063                0.973740341     -89.3814324
9.064                0.973671849     -89.5308289
9.065                0.973603174     -89.6806075
9.066                0.973534316      -89.830769
9.067                0.973465275     -89.9813146
9.068                0.973396051     -90.1322451
9.069                0.973326644     -90.2835617
9.07                 0.973257055     -90.4352652
9.071                0.973187282     -90.5873567
9.072                0.973117326     -90.7398372
9.073                0.973047187     -90.8927077
9.074                0.972976866     -91.0459691
9.075                0.972906362     -91.1996224
9.076                0.972835675     -91.3536687
9.077                0.972764805     -91.5081089
9.078                0.972693753      -91.662944
9.079                0.972622518     -91.8181751
9.08                 0.972551101      -91.973803
9.081                0.972479501     -92.1298288
9.082                 0.97240772     -92.2862535
9.083                0.972335756      -92.443078
9.084                 0.97226361     -92.6003034
9.085                0.972191283     -92.7579306
9.086                0.972118774     -92.9159606
9.087                0.972046083     -93.0743944
9.088                0.971973211      -93.233233
9.089                0.971900158     -93.3924774
9.09                 0.971826924     -93.5521285
9.091                0.971753508     -93.7121873
9.092                0.971679913     -93.8726548
9.093                0.971606136      -94.033532
9.094                 0.97153218     -94.1948198
9.095                0.971458044     -94.3565193
9.096                0.971383728     -94.5186314
9.097                0.971309232      -94.681157
9.098                0.971234557     -94.8440972
9.099                0.971159703     -95.0074529
9.1                  0.971084671     -95.1712251
9.101                 0.97100946     -95.3354148
9.102                0.970934071     -95.5000228
9.103                0.970858504     -95.6650502
9.104                 0.97078276      -95.830498
9.105                0.970706838      -95.996367
9.106                 0.97063074     -96.1626583
9.107                0.970554465     -96.3293728
9.108                0.970478014     -96.4965115
9.109                0.970401388     -96.6640752
9.11                 0.970324586     -96.8320651
9.111                0.970247609     -97.0004819
9.112                0.970170458     -97.1693266
9.113                0.970093132     -97.3386003
9.114                0.970015633     -97.5083038
9.115                0.969937961      -97.678438
9.116                0.969860116     -97.8490039
9.117                0.969782098     -98.0200025
9.118                0.969703909     -98.1914346
9.119                0.969625549     -98.3633012
9.12                 0.969547018     -98.5356032
9.121                0.969468316     -98.7083415
9.122                0.969389445      -98.881517
9.123                0.969310404     -99.0551307
9.124                0.969231195     -99.2291835
9.125                0.969151818     -99.4036762
9.126                0.969072273     -99.5786098
9.127                0.968992562     -99.7539852
9.128                0.968912684     -99.9298033
9.129                 0.96883264     -100.106065
9.13                 0.968752432     -100.282771
9.131                0.968672059     -100.459922
9.132                0.968591523      -100.63752
9.133                0.968510823     -100.815565
9.134                0.968429962     -100.994057
9.135                0.968348938     -101.172999
9.136                0.968267754      -101.35239
9.137                 0.96818641     -101.532232
9.138                0.968104907     -101.712525
9.139                0.968023245     -101.893271
9.14                 0.967941425     -102.074469
9.141                0.967859448     -102.256122
9.142                0.967777315     -102.438229
9.143                0.967695027     -102.620792
9.144                0.967612584     -102.803812
9.145                0.967529988     -102.987289
9.146                0.967447238     -103.171224
9.147                0.967364338     -103.355618
9.148                0.967281286     -103.540471
9.149                0.967198084     -103.725786
9.15                 0.967114733     -103.911561
9.151                0.967031234     -104.097799
9.152                0.966947588     -104.284499
9.153                0.966863796     -104.471664
9.154                0.966779859     -104.659293
9.155                0.966695778     -104.847387
9.156                0.966611554     -105.035947
9.157                0.966527188     -105.224974
9.158                0.966442681     -105.414468
9.159                0.966358035     -105.604431
9.16                 0.966273249     -105.794862
9.161                0.966188327     -105.985764
9.162                0.966103268     -106.177136
9.163                0.966018074     -106.368979
9.164                0.965932745     -106.561294
9.165                0.965847285     -106.754082
9.166                0.965761692     -106.947343
9.167                 0.96567597     -107.141078
9.168                0.965590118     -107.335288
9.169                0.965504138     -107.529973
9.17                 0.965418033     -107.725134
9.171                0.965331802     -107.920772
9.172                0.965245447     -108.116887
9.173                 0.96515897      -108.31348
9.174                0.965072372     -108.510552
9.175                0.964985654     -108.708103
9.176                0.964898818     -108.906134
9.177                0.964811866     -109.104646
9.178                0.964724798     -109.303638
9.179                0.964637616     -109.503113
9.18                 0.964550322      -109.70307
9.181                0.964462917     -109.903509
9.182                0.964375403     -110.104432
9.183                0.964287781      -110.30584
9.184                0.964200053     -110.507731
9.185                 0.96411222     -110.710108
9.186                0.964024285     -110.912971
9.187                0.963936248      -111.11632
9.188                0.963848112     -111.320155
9.189                0.963759878     -111.524478
9.19                 0.963671548     -111.729288
9.191                0.963583123     -111.934587
9.192                0.963494606     -112.140374
9.193                0.963405997     -112.346651
9.194                  0.9633173     -112.553417
9.195                0.963228515     -112.760673
9.196                0.963139644      -112.96842
9.197                 0.96305069     -113.176658
9.198                0.962961654     -113.385387
9.199                0.962872539     -113.594608
9.2                  0.962783345      -113.80432
9.201                0.962694075     -114.014526
9.202                0.962604732     -114.225224
9.203                0.962515316     -114.436416
9.204                 0.96242583     -114.648101
9.205                0.962336277     -114.860281
9.206                0.962246657     -115.072954
9.207                0.962156974     -115.286122
9.208                0.962067228     -115.499785
9.209                0.961977424     -115.713944
9.21                 0.961887561     -115.928597
9.211                0.961797644     -116.143747
9.212                0.961707673     -116.359392
9.213                0.961617651     -116.575534
9.214                0.961527581     -116.792172
9.215                0.961437464     -117.009307
9.216                0.961347304     -117.226938
9.217                0.961257101     -117.445067
9.218                0.961166859     -117.663693
9.219                 0.96107658     -117.882816
9.22                 0.960986266     -118.102437
9.221                 0.96089592     -118.322556
9.222                0.960805544     -118.543172
9.223                0.960715141     -118.764287
9.224                0.960624712     -118.985899
9.225                0.960534261      -119.20801
9.226                 0.96044379     -119.430618
9.227                0.960353302     -119.653725
9.228                0.960262799      -119.87733
9.229                0.960172284     -120.101433
9.23                 0.960081759     -120.326035
9.231                0.959991227     -120.551135
9.232                 0.95990069     -120.776733
9.233                0.959810152     -121.002829
9.234                0.959719615     -121.229423
9.235                0.959629082     -121.456516
9.236                0.959538555     -121.684106
9.237                0.959448038     -121.912194
9.238                0.959357533      -122.14078
9.239                0.959267043     -122.369864
9.24                  0.95917657     -122.599445
9.241                0.959086118     -122.829523
9.242                 0.95899569     -123.060099
9.243                0.958905288     -123.291171
9.244                0.958814916      -123.52274
9.245                0.958724576     -123.754806
9.246                0.958634271     -123.987368
9.247                0.958544004     -124.220426
9.248                 0.95845378     -124.453979
9.249                0.958363599     -124.688028
9.25                 0.958273466     -124.922572
9.251                0.958183384      -125.15761
9.252                0.958093355     -125.393143
9.253                0.958003384      -125.62917
9.254                0.957913472      -125.86569
9.255                0.957823624     -126.102704
9.256                0.957733842      -126.34021
9.257                 0.95764413     -126.578209
9.258                 0.95755449     -126.816699
9.259                0.957464928     -127.055681
9.26                 0.957375444     -127.295153
9.261                0.957286044     -127.535116
9.262                0.957196729     -127.775569
9.263                0.957107505      -128.01651
9.264                0.957018373     -128.257941
9.265                0.956929338     -128.499859
9.266                0.956840402     -128.742265
9.267                 0.95675157     -128.985158
9.268                0.956662844     -129.228537
9.269                0.956574229     -129.472401
9.27                 0.956485727      -129.71675
9.271                0.956397343     -129.961582
9.272                0.956309079     -130.206899
9.273                 0.95622094     -130.452697
9.274                0.956132929     -130.698978
9.275                0.956045049     -130.945739
9.276                0.955957304      -131.19298
9.277                0.955869699     -131.440701
9.278                0.955782236       -131.6889
9.279                0.955694919     -131.937577
9.28                 0.955607752      -132.18673
9.281                0.955520738     -132.436359
9.282                0.955433882     -132.686462
9.283                0.955347187     -132.937039
9.284                0.955260658      -133.18809
9.285                0.955174296     -133.439611
9.286                0.955088107     -133.691604
9.287                0.955002095     -133.944066
9.288                0.954916263     -134.196997
9.289                0.954830614     -134.450395
9.29                 0.954745154      -134.70426
9.291                0.954659885     -134.958589
9.292                0.954574812     -135.213383
9.293                0.954489939      -135.46864
9.294                0.954405269     -135.724358
9.295                0.954320807     -135.980537
9.296                0.954236556     -136.237175
9.297                 0.95415252      -136.49427
9.298                0.954068704     -136.751823
9.299                0.953985111      -137.00983
9.3                  0.953901746     -137.268291
9.301                0.953818612     -137.527205
9.302                0.953735714      -137.78657
9.303                0.953653055     -138.046385
9.304                0.953570639     -138.306647
9.305                0.953488472     -138.567357
9.306                0.953406556     -138.828512
9.307                0.953324896     -139.090111
9.308                0.953243495     -139.352151
9.309                0.953162359     -139.614633
9.31                 0.953081491     -139.877554
9.311                0.953000895     -140.140912
9.312                0.952920576     -140.404706
9.313                0.952840537     -140.668934
9.314                0.952760783     -140.933594
9.315                0.952681317     -141.198686
9.316                0.952602145     -141.464207
9.317                 0.95252327     -141.730154
9.318                0.952444696     -141.996528
9.319                0.952366428     -142.263325
9.32                 0.952288469     -142.530544
9.321                0.952210825     -142.798184
9.322                0.952133498     -143.066241
9.323                0.952056494     -143.334715
9.324                0.951979816     -143.603603
9.325                0.951903469     -143.872904
9.326                0.951827457     -144.142615
9.327                0.951751784     -144.412735
9.328                0.951676454     -144.683261
9.329                0.951601472     -144.954192
9.33                 0.951526841     -145.225525
9.331                0.951452566     -145.497259
9.332                0.951378652      -145.76939
9.333                0.951305101     -146.041918
9.334                0.951231919      -146.31484
9.335                 0.95115911     -146.588153
9.336                0.951086678     -146.861856
9.337                0.951014627     -147.135946
9.338                0.950942961     -147.410422
9.339                0.950871685      -147.68528
9.34                 0.950800802     -147.960518
9.341                0.950730317     -148.236135
9.342                0.950660233     -148.512127
9.343                0.950590556     -148.788493
9.344                 0.95052129      -149.06523
9.345                0.950452437     -149.342335
9.346                0.950384003     -149.619807
9.347                0.950315992     -149.897642
9.348                0.950248407     -150.175839
9.349                0.950181254     -150.454394
9.35                 0.950114535     -150.733305
9.351                0.950048255      -151.01257
9.352                0.949982418     -151.292186
9.353                0.949917029      -151.57215
9.354                 0.94985209      -151.85246
9.355                0.949787607     -152.133113
9.356                0.949723583     -152.414107
9.357                0.949660022     -152.695438
9.358                0.949596928     -152.977104
9.359                0.949534306     -153.259103
9.36                 0.949472158     -153.541431
9.361                 0.94941049     -153.824086
9.362                0.949349304     -154.107064
9.363                0.949288606     -154.390364
9.364                0.949228398     -154.673982
9.365                0.949168684     -154.957915
9.366                 0.94910947     -155.242161
9.367                0.949050757     -155.526716
9.368                 0.94899255     -155.811578
9.369                0.948934853     -156.096743
9.37                  0.94887767     -156.382209
9.371                0.948821004     -156.667973
9.372                0.948764858     -156.954031
9.373                0.948709238      -157.24038
9.374                0.948654146     -157.527018
9.375                0.948599585     -157.813942
9.376                0.948545561     -158.101148
9.377                0.948492075     -158.388633
9.378                0.948439132     -158.676393
9.379                0.948386735     -158.964427
9.38                 0.948334888      -159.25273
9.381                0.948283594       -159.5413
9.382                0.948232856     -159.830133
9.383                0.948182679     -160.119225
9.384                0.948133065     -160.408575
9.385                0.948084017     -160.698178
9.386                 0.94803554     -160.988031
9.387                0.947987635      -161.27813
9.388                0.947940308     -161.568473
9.389                 0.94789356     -161.859056
9.39                 0.947847395     -162.149876
9.391                0.947801816     -162.440929
9.392                0.947756826     -162.732212
9.393                0.947712428     -163.023721
9.394                0.947668626     -163.315453
9.395                0.947625422     -163.607405
9.396                0.947582819     -163.899573
