! TOUCHSTONE file generated by CST DESIGN STUDIO
! Date and time: Tue Feb  4 18:22:20 2025
! Project name: C:\Work\MatlabApps\UnitCellOptimizationMatlab\CST\unitcell.cst
! Tree item: Tasks\Sweep1\SPara1\S-Parameters
! Header version: 2024
! Port assignment regex: !\s*Touchstone port\s*([0-9]+)\s*=\s*(CST MWS port|CST DES external port|CST DES block port)\s*(.+)\s* \(\"(.*)\"\)(\s*mode\s*([0-9]+))?.*
! Touchstone port assignment:
! Touchstone port 1 = CST DES external port 1 ("")
# GHz S MA R 50
9                     0.96123555     -49.4196224
9.001                0.961163835     -49.4817756
9.002                  0.9610919      -49.544059
9.003                0.961019744     -49.6064729
9.004                0.960947367     -49.6690178
9.005                0.960874767     -49.7316941
9.006                0.960801945     -49.7945022
9.007                0.960728898     -49.8574424
9.008                0.960655627     -49.9205152
9.009                0.960582131      -49.983721
9.01                 0.960508409     -50.0470601
9.011                0.960434459     -50.1105331
9.012                0.960360283     -50.1741403
9.013                0.960285877     -50.2378821
9.014                0.960211243     -50.3017589
9.015                0.960136378     -50.3657711
9.016                0.960061283     -50.4299193
9.017                0.959985956     -50.4942037
9.018                0.959910397     -50.5586248
9.019                0.959834605      -50.623183
9.02                 0.959758579     -50.6878787
9.021                0.959682318     -50.7527124
9.022                0.959605821     -50.8176845
9.023                0.959529088     -50.8827954
9.024                0.959452118     -50.9480456
9.025                 0.95937491     -51.0134354
9.026                0.959297463     -51.0789654
9.027                0.959219777     -51.1446358
9.028                 0.95914185     -51.2104473
9.029                0.959063682     -51.2764001
9.03                 0.958985271     -51.3424948
9.031                0.958906618     -51.4087318
9.032                0.958827721     -51.4751115
9.033                0.958748579     -51.5416344
9.034                0.958669192     -51.6083009
9.035                0.958589559     -51.6751115
9.036                0.958509678     -51.7420665
9.037                 0.95842955     -51.8091665
9.038                0.958349172      -51.876412
9.039                0.958268545     -51.9438032
9.04                 0.958187668     -52.0113408
9.041                0.958106538     -52.0790252
9.042                0.958025157     -52.1468568
9.043                0.957943523     -52.2148361
9.044                0.957861634     -52.2829635
9.045                0.957779491     -52.3512396
9.046                0.957697092     -52.4196647
9.047                0.957614436     -52.4882393
9.048                0.957531523      -52.556964
9.049                0.957448351     -52.6258392
9.05                  0.95736492     -52.6948653
9.051                0.957281228     -52.7640428
9.052                0.957197276     -52.8333722
9.053                0.957113062      -52.902854
9.054                0.957028584     -52.9724887
9.055                0.956943843     -53.0422767
9.056                0.956858838     -53.1122185
9.057                0.956773566     -53.1823146
9.058                0.956688028     -53.2525655
9.059                0.956602223     -53.3229717
9.06                 0.956516149     -53.3935336
9.061                0.956429806     -53.4642518
9.062                0.956343193     -53.5351267
9.063                0.956256308     -53.6061589
9.064                0.956169152     -53.6773488
9.065                0.956081722     -53.7486969
9.066                0.955994018     -53.8202038
9.067                 0.95590604     -53.8918699
9.068                0.955817786     -53.9636958
9.069                0.955729254     -54.0356819
9.07                 0.955640446     -54.1078288
9.071                0.955551358     -54.1801369
9.072                0.955461991     -54.2526068
9.073                0.955372343      -54.325239
9.074                0.955282413      -54.398034
9.075                0.955192201     -54.4709923
9.076                0.955101705     -54.5441145
9.077                0.955010925      -54.617401
9.078                 0.95491986     -54.6908524
9.079                0.954828507     -54.7644692
9.08                 0.954736868      -54.838252
9.081                 0.95464494     -54.9122012
9.082                0.954552722     -54.9863174
9.083                0.954460214     -55.0606011
9.084                0.954367415     -55.1350529
9.085                0.954274323     -55.2096733
9.086                0.954180938     -55.2844629
9.087                0.954087258     -55.3594221
9.088                0.953993283     -55.4345516
9.089                0.953899011     -55.5098518
9.09                 0.953804442     -55.5853233
9.091                0.953709575     -55.6609667
9.092                0.953614407     -55.7367825
9.093                 0.95351894     -55.8127712
9.094                 0.95342317     -55.8889335
9.095                0.953327098     -55.9652699
9.096                0.953230723     -56.0417809
9.097                0.953134042     -56.1184671
9.098                0.953037056     -56.1953291
9.099                0.952939763     -56.2723673
9.1                  0.952842162     -56.3495825
9.101                0.952744253     -56.4269752
9.102                0.952646033     -56.5045458
9.103                0.952547503     -56.5822951
9.104                 0.95244866     -56.6602236
9.105                0.952349504     -56.7383318
9.106                0.952250034     -56.8166204
9.107                0.952150248     -56.8950899
9.108                0.952050147     -56.9737409
9.109                0.951949727      -57.052574
9.11                  0.95184899     -57.1315898
9.111                0.951747932     -57.2107888
9.112                0.951646554     -57.2901718
9.113                0.951544854     -57.3697391
9.114                0.951442831     -57.4494916
9.115                0.951340484     -57.5294297
9.116                0.951237813     -57.6095541
9.117                0.951134814     -57.6898653
9.118                0.951031489      -57.770364
9.119                0.950927835     -57.8510508
9.12                 0.950823852     -57.9319263
9.121                0.950719538     -58.0129911
9.122                0.950614892     -58.0942458
9.123                0.950509913      -58.175691
9.124                  0.9504046     -58.2573274
9.125                0.950298952     -58.3391556
9.126                0.950192968     -58.4211762
9.127                0.950086646     -58.5033898
9.128                0.949979986     -58.5857971
9.129                0.949872985     -58.6683987
9.13                 0.949765644     -58.7511952
9.131                0.949657961     -58.8341873
9.132                0.949549935     -58.9173756
9.133                0.949441565     -59.0007607
9.134                0.949332849     -59.0843433
9.135                0.949223786      -59.168124
9.136                0.949114375     -59.2521035
9.137                0.949004616     -59.3362824
9.138                0.948894506     -59.4206614
9.139                0.948784045     -59.5052412
9.14                 0.948673231     -59.5900224
9.141                0.948562063     -59.6750056
9.142                0.948450541     -59.7601915
9.143                0.948338663     -59.8455808
9.144                0.948226427     -59.9311741
9.145                0.948113833     -60.0169722
9.146                0.948000879     -60.1029757
9.147                0.947887564     -60.1891852
9.148                0.947773887     -60.2756015
9.149                0.947659847     -60.3622252
9.15                 0.947545442      -60.449057
9.151                0.947430672     -60.5360976
9.152                0.947315535     -60.6233476
9.153                0.947200029     -60.7108079
9.154                0.947084154     -60.7984789
9.155                0.946967909     -60.8863616
9.156                0.946851292     -60.9744565
9.157                0.946734301     -61.0627643
9.158                0.946616936     -61.1512858
9.159                0.946499196     -61.2400216
9.16                 0.946381079     -61.3289725
9.161                0.946262584     -61.4181392
9.162                 0.94614371     -61.5075224
9.163                0.946024455     -61.5971228
9.164                0.945904819     -61.6869411
9.165                0.945784799      -61.776978
9.166                0.945664395     -61.8672343
9.167                0.945543606     -61.9577107
9.168                 0.94542243     -62.0484078
9.169                0.945300865     -62.1393266
9.17                 0.945178912     -62.2304676
9.171                0.945056568     -62.3218316
9.172                0.944933832     -62.4134194
9.173                0.944810703     -62.5052317
9.174                0.944687179     -62.5972692
9.175                 0.94456326     -62.6895328
9.176                0.944438943      -62.782023
9.177                0.944314229     -62.8747407
9.178                0.944189115     -62.9676867
9.179                  0.9440636     -63.0608617
9.18                 0.943937683     -63.1542664
9.181                0.943811362     -63.2479017
9.182                0.943684637     -63.3417683
9.183                0.943557505     -63.4358669
9.184                0.943429967     -63.5301983
9.185                0.943302019     -63.6247634
9.186                0.943173662     -63.7195628
9.187                0.943044893     -63.8145974
9.188                0.942915712     -63.9098679
9.189                0.942786117     -64.0053752
9.19                 0.942656107       -64.10112
9.191                 0.94252568      -64.197103
9.192                0.942394836     -64.2933252
9.193                0.942263572     -64.3897873
9.194                0.942131888     -64.4864901
9.195                0.941999782     -64.5834343
9.196                0.941867252     -64.6806209
9.197                0.941734299     -64.7780505
9.198                0.941600919     -64.8757241
9.199                0.941467113     -64.9736425
9.2                  0.941332878     -65.0718063
9.201                0.941198213     -65.1702166
9.202                0.941063117      -65.268874
9.203                0.940927588     -65.3677794
9.204                0.940791626     -65.4669337
9.205                0.940655228     -65.5663377
9.206                0.940518394     -65.6659921
9.207                0.940381122     -65.7658979
9.208                0.940243411     -65.8660559
9.209                0.940105259     -65.9664669
9.21                 0.939966665     -66.0671318
9.211                0.939827628     -66.1680514
9.212                0.939688147     -66.2692265
9.213                0.939548219     -66.3706581
9.214                0.939407844      -66.472347
9.215                0.939267021      -66.574294
9.216                0.939125747        -66.6765
9.217                0.938984022     -66.7789658
9.218                0.938841844     -66.8816924
9.219                0.938699212     -66.9846806
9.22                 0.938556125     -67.0879313
9.221                 0.93841258     -67.1914454
9.222                0.938268578     -67.2952236
9.223                0.938124115      -67.399267
9.224                0.937979192     -67.5035764
9.225                0.937833807     -67.6081528
9.226                0.937687957     -67.7129969
9.227                0.937541643     -67.8181097
9.228                0.937394863      -67.923492
9.229                0.937247614     -68.0291449
9.23                 0.937099897     -68.1350692
9.231                0.936951708     -68.2412657
9.232                0.936803048     -68.3477355
9.233                0.936653915     -68.4544794
9.234                0.936504307     -68.5614983
9.235                0.936354223     -68.6687932
9.236                0.936203662      -68.776365
9.237                0.936052622     -68.8842146
9.238                0.935901101     -68.9923429
9.239                  0.9357491      -69.100751
9.24                 0.935596615     -69.2094396
9.241                0.935443647     -69.3184097
9.242                0.935290192     -69.4276624
9.243                0.935136251     -69.5371985
9.244                0.934981821      -69.647019
9.245                0.934826902     -69.7571248
9.246                0.934671492     -69.8675168
9.247                0.934515589     -69.9781962
9.248                0.934359193     -70.0891637
9.249                0.934202301     -70.2004204
9.25                 0.934044913     -70.3119672
9.251                0.933887027     -70.4238051
9.252                0.933728642     -70.5359351
9.253                0.933569757     -70.6483582
9.254                0.933410369     -70.7610753
9.255                0.933250478     -70.8740873
9.256                0.933090083     -70.9873954
9.257                0.932929182     -71.1010005
9.258                0.932767773     -71.2149035
9.259                0.932605856     -71.3291055
9.26                 0.932443429     -71.4436075
9.261                 0.93228049     -71.5584104
9.262                0.932117039     -71.6735154
9.263                0.931953074     -71.7889232
9.264                0.931788593     -71.9046351
9.265                0.931623596      -72.020652
9.266                0.931458081     -72.1369749
9.267                0.931292046     -72.2536048
9.268                0.931125491     -72.3705428
9.269                0.930958414     -72.4877899
9.27                 0.930790814      -72.605347
9.271                0.930622689     -72.7232154
9.272                0.930454038     -72.8413959
9.273                 0.93028486     -72.9598896
9.274                0.930115154     -73.0786976
9.275                0.929944918     -73.1978209
9.276                 0.92977415     -73.3172605
9.277                0.929602851     -73.4370175
9.278                0.929431017      -73.557093
9.279                0.929258649      -73.677488
9.28                 0.929085745     -73.7982036
9.281                0.928912303     -73.9192408
9.282                0.928738322     -74.0406008
9.283                0.928563802     -74.1622844
9.284                 0.92838874      -74.284293
9.285                0.928213135     -74.4066274
9.286                0.928036987     -74.5292889
9.287                0.927860294     -74.6522784
9.288                0.927683054     -74.7755971
9.289                0.927505267      -74.899246
9.29                 0.927326932     -75.0232263
9.291                0.927148046      -75.147539
9.292                0.926968609     -75.2721853
9.293                 0.92678862     -75.3971662
9.294                0.926608078     -75.5224828
9.295                0.926426981     -75.6481363
9.296                0.926245327     -75.7741277
9.297                0.926063117     -75.9004582
9.298                0.925880349     -76.0271289
9.299                0.925697021     -76.1541408
9.3                  0.925513132     -76.2814952
9.301                0.925328682     -76.4091932
9.302                0.925143669     -76.5372358
9.303                0.924958091     -76.6656242
9.304                0.924771949     -76.7943595
9.305                0.924585241     -76.9234429
9.306                0.924397965     -77.0528756
9.307                 0.92421012     -77.1826585
9.308                0.924021706      -77.312793
9.309                0.923832721     -77.4432801
9.31                 0.923643165     -77.5741211
9.311                0.923453036     -77.7053169
9.312                0.923262333     -77.8368689
9.313                0.923071055     -77.9687782
9.314                0.922879201     -78.1010459
9.315                 0.92268677     -78.2336732
9.316                0.922493762     -78.3666612
9.317                0.922300174     -78.5000112
9.318                0.922106006     -78.6337243
9.319                0.921911257     -78.7678017
9.32                 0.921715927     -78.9022445
9.321                0.921520013      -79.037054
9.322                0.921323516     -79.1722313
9.323                0.921126434     -79.3077777
9.324                0.920928766     -79.4436943
9.325                0.920730512     -79.5799822
9.326                 0.92053167     -79.7166428
9.327                0.920332239     -79.8536772
9.328                 0.92013222     -79.9910866
9.329                 0.91993161     -80.1288722
9.33                 0.919730409     -80.2670352
9.331                0.919528617     -80.4055768
9.332                0.919326231     -80.5444982
9.333                0.919123253     -80.6838007
9.334                 0.91891968     -80.8234855
9.335                0.918715512     -80.9635538
9.336                0.918510748     -81.1040068
9.337                0.918305387     -81.2448457
9.338                 0.91809943     -81.3860717
9.339                0.917892874     -81.5276862
9.34                  0.91768572     -81.6696903
9.341                0.917477966     -81.8120852
9.342                0.917269612     -81.9548722
9.343                0.917060658     -82.0980526
9.344                0.916851102     -82.2416275
9.345                0.916640944     -82.3855983
9.346                0.916430184     -82.5299661
9.347                 0.91621882     -82.6747322
9.348                0.916006853     -82.8198979
9.349                0.915794282     -82.9654644
9.35                 0.915581105      -83.111433
9.351                0.915367324     -83.2578049
9.352                0.915152936     -83.4045814
9.353                0.914937943     -83.5517638
9.354                0.914722342     -83.6993532
9.355                0.914506135     -83.8473511
9.356                0.914289319     -83.9957586
9.357                0.914071896      -84.144577
9.358                0.913853865     -84.2938076
9.359                0.913635225     -84.4434516
9.36                 0.913415976     -84.5935104
9.361                0.913196117     -84.7439852
9.362                0.912975649     -84.8948773
9.363                0.912754571     -85.0461879
9.364                0.912532883     -85.1979185
9.365                0.912310585     -85.3500701
9.366                0.912087676     -85.5026442
9.367                0.911864157      -85.655642
9.368                0.911640026     -85.8090647
9.369                0.911415285     -85.9629138
9.37                 0.911189933     -86.1171905
9.371                0.910963969      -86.271896
9.372                0.910737395     -86.4270317
9.373                0.910510209     -86.5825989
9.374                0.910282412     -86.7385988
9.375                0.910054004     -86.8950328
9.376                0.909824985     -87.0519022
9.377                0.909595355     -87.2092082
9.378                0.909365114     -87.3669522
9.379                0.909134263     -87.5251354
9.38                 0.908902801     -87.6837593
9.381                0.908670728      -87.842825
9.382                0.908438046     -88.0023339
9.383                0.908204753     -88.1622873
9.384                0.907970851     -88.3226865
9.385                 0.90773634     -88.4835328
9.386                 0.90750122     -88.6448275
9.387                0.907265491     -88.8065719
9.388                0.907029155     -88.9687674
9.389                0.906792211     -89.1314153
9.39                 0.906554659     -89.2945168
9.391                0.906316501     -89.4580733
9.392                0.906077737     -89.6220861
9.393                0.905838367     -89.7865565
9.394                0.905598392     -89.9514858
9.395                0.905357814     -90.1168753
9.396                0.905116631     -90.2827264
