! TOUCHSTONE file generated by CST DESIGN STUDIO
! Date and time: Tue Feb  4 18:22:11 2025
! Project name: C:\Work\MatlabApps\UnitCellOptimizationMatlab\CST\unitcell.cst
! Tree item: Tasks\Sweep1\SPara1\S-Parameters
! Header version: 2024
! Port assignment regex: !\s*Touchstone port\s*([0-9]+)\s*=\s*(CST MWS port|CST DES external port|CST DES block port)\s*(.+)\s* \(\"(.*)\"\)(\s*mode\s*([0-9]+))?.*
! Touchstone port assignment:
! Touchstone port 1 = CST DES external port 1 ("")
# GHz S MA R 50
9                    0.942302392     -72.4378412
9.001                0.942153743     -72.5504956
9.002                0.942004614     -72.6634421
9.003                0.941855005     -72.7766818
9.004                0.941704913     -72.8902155
9.005                0.941554337     -73.0040442
9.006                0.941403276      -73.118169
9.007                0.941251729     -73.2325907
9.008                0.941099693     -73.3473103
9.009                0.940947169     -73.4623288
9.01                 0.940794154     -73.5776472
9.011                0.940640648     -73.6932665
9.012                0.940486648     -73.8091876
9.013                0.940332154     -73.9254115
9.014                0.940177164     -74.0419392
9.015                0.940021677     -74.1587718
9.016                0.939865692     -74.2759101
9.017                0.939709207     -74.3933551
9.018                0.939552221      -74.511108
9.019                0.939394733     -74.6291697
9.02                 0.939236741     -74.7475411
9.021                0.939078244     -74.8662233
9.022                 0.93891924     -74.9852173
9.023                0.938759729     -75.1045242
9.024                 0.93859971     -75.2241449
9.025                 0.93843918     -75.3440804
9.026                0.938278139     -75.4643318
9.027                0.938116585     -75.5849001
9.028                0.937954517     -75.7057863
9.029                0.937791933     -75.8269915
9.03                 0.937628833     -75.9485166
9.031                0.937465216     -76.0703628
9.032                0.937301079      -76.192531
9.033                0.937136422     -76.3150223
9.034                0.936971243     -76.4378378
9.035                0.936805541     -76.5609785
9.036                0.936639315     -76.6844454
9.037                0.936472564     -76.8082396
9.038                0.936305286     -76.9323621
9.039                 0.93613748      -77.056814
9.04                 0.935969146     -77.1815965
9.041                 0.93580028     -77.3067104
9.042                0.935630884     -77.4321569
9.043                0.935460954     -77.5579371
9.044                0.935290491     -77.6840521
9.045                0.935119493     -77.8105028
9.046                0.934947958     -77.9372905
9.047                0.934775886     -78.0644161
9.048                0.934603275     -78.1918807
9.049                0.934430124     -78.3196855
9.05                 0.934256432     -78.4478316
9.051                0.934082198     -78.5763199
9.052                 0.93390742     -78.7051517
9.053                0.933732098     -78.8343279
9.054                 0.93355623     -78.9638498
9.055                0.933379816     -79.0937184
9.056                0.933202853     -79.2239348
9.057                0.933025342     -79.3545001
9.058                 0.93284728     -79.4854154
9.059                0.932668667     -79.6166819
9.06                 0.932489502     -79.7483006
9.061                0.932309783     -79.8802728
9.062                 0.93212951     -80.0125994
9.063                0.931948681     -80.1452816
9.064                0.931767295     -80.2783205
9.065                0.931585352     -80.4117174
9.066                0.931402851     -80.5454732
9.067                0.931219789     -80.6795891
9.068                0.931036167     -80.8140664
9.069                0.930851982      -80.948906
9.07                 0.930667235     -81.0841091
9.071                0.930481925      -81.219677
9.072                0.930296049     -81.3556107
9.073                0.930109608     -81.4919113
9.074                  0.9299226     -81.6285801
9.075                0.929735025     -81.7656182
9.076                 0.92954688     -81.9030267
9.077                0.929358167     -82.0408068
9.078                0.929168883     -82.1789596
9.079                0.928979028     -82.3174863
9.08                   0.9287886     -82.4563882
9.081                  0.9285976     -82.5956662
9.082                0.928406025     -82.7353217
9.083                0.928213876     -82.8753557
9.084                0.928021151     -83.0157695
9.085                 0.92782785     -83.1565642
9.086                0.927633972      -83.297741
9.087                0.927439515     -83.4393011
9.088                 0.92724448     -83.5812456
9.089                0.927048865     -83.7235758
9.09                  0.92685267     -83.8662928
9.091                0.926655894     -84.0093978
9.092                0.926458536      -84.152892
9.093                0.926260595     -84.2967766
9.094                0.926062071     -84.4410528
9.095                0.925862964     -84.5857218
9.096                0.925663272     -84.7307847
9.097                0.925462995     -84.8762429
9.098                0.925262132     -85.0220973
9.099                0.925060682     -85.1683494
9.1                  0.924858646     -85.3150003
9.101                0.924656022     -85.4620511
9.102                 0.92445281     -85.6095031
9.103                0.924249009     -85.7573575
9.104                0.924044619     -85.9056155
9.105                 0.92383964     -86.0542784
9.106                 0.92363407     -86.2033473
9.107                 0.92342791     -86.3528234
9.108                0.923221158      -86.502708
9.109                0.923013815     -86.6530023
9.11                 0.922805881     -86.8037075
9.111                0.922597354     -86.9548248
9.112                0.922388234     -87.1063554
9.113                0.922178521     -87.2583006
9.114                0.921968215     -87.4106617
9.115                0.921757316     -87.5634397
9.116                0.921545822      -87.716636
9.117                0.921333734     -87.8702517
9.118                0.921121052     -88.0242882
9.119                0.920907776     -88.1787466
9.12                 0.920693904     -88.3336281
9.121                0.920479438     -88.4889341
9.122                0.920264377     -88.6446657
9.123                 0.92004872     -88.8008241
9.124                0.919832468     -88.9574107
9.125                0.919615621     -89.1144265
9.126                0.919398178      -89.271873
9.127                 0.91918014     -89.4297513
9.128                0.918961506     -89.5880626
9.129                0.918742277     -89.7468082
9.13                 0.918522453     -89.9059893
9.131                0.918302034     -90.0656072
9.132                0.918081019     -90.2256631
9.133                0.917859409     -90.3861582
9.134                0.917637205     -90.5470939
9.135                0.917414406     -90.7084712
9.136                0.917191012     -90.8702915
9.137                0.916967025     -91.0325561
9.138                0.916742443      -91.195266
9.139                0.916517269     -91.3584227
9.14                   0.9162915     -91.5220273
9.141                0.916065139     -91.6860811
9.142                0.915838186     -91.8505853
9.143                0.915610641     -92.0155412
9.144                0.915382504       -92.18095
9.145                0.915153776     -92.3468129
9.146                0.914924457     -92.5131312
9.147                0.914694549     -92.6799061
9.148                0.914464052     -92.8471389
9.149                0.914232965     -93.0148308
9.15                 0.914001291      -93.182983
9.151                0.913769029     -93.3515969
9.152                0.913536181     -93.5206735
9.153                0.913302747     -93.6902142
9.154                0.913068728     -93.8602202
9.155                0.912834124     -94.0306927
9.156                0.912598938      -94.201633
9.157                0.912363169     -94.3730422
9.158                0.912126818     -94.5449217
9.159                0.911889888     -94.7172727
9.16                 0.911652377     -94.8900963
9.161                0.911414289     -95.0633938
9.162                0.911175623     -95.2371665
9.163                0.910936381     -95.4114155
9.164                0.910696564     -95.5861422
9.165                0.910456173     -95.7613476
9.166                 0.91021521     -95.9370331
9.167                0.909973676     -96.1131998
9.168                0.909731572      -96.289849
9.169                0.909488899     -96.4669818
9.17                  0.90924566     -96.6445996
9.171                0.909001855     -96.8227034
9.172                0.908757486     -97.0012945
9.173                0.908512554     -97.1803742
9.174                0.908267062     -97.3599435
9.175                0.908021011     -97.5400038
9.176                0.907774402     -97.7205562
9.177                0.907527237     -97.9016019
9.178                0.907279518     -98.0831421
9.179                0.907031248      -98.265178
9.18                 0.906782427     -98.4477107
9.181                0.906533057     -98.6307416
9.182                0.906283142     -98.8142716
9.183                0.906032682     -98.9983021
9.184                0.905781679     -99.1828341
9.185                0.905530137     -99.3678689
9.186                0.905278056     -99.5534076
9.187                 0.90502544     -99.7394515
9.188                 0.90477229     -99.9260015
9.189                0.904518609     -100.113059
9.19                   0.9042644     -100.300625
9.191                0.904009664     -100.488701
9.192                0.903754404     -100.677287
9.193                0.903498622     -100.866386
9.194                0.903242322     -101.055997
9.195                0.902985506     -101.246123
9.196                0.902728176     -101.436764
9.197                0.902470336     -101.627922
9.198                0.902211988     -101.819597
9.199                0.901953134     -102.011791
9.2                  0.901693779     -102.204505
9.201                0.901433924      -102.39774
9.202                0.901173573     -102.591497
9.203                0.900912729     -102.785777
9.204                0.900651396     -102.980581
9.205                0.900389575      -103.17591
9.206                0.900127271     -103.371765
9.207                0.899864487     -103.568148
9.208                0.899601226      -103.76506
9.209                0.899337492     -103.962501
9.21                 0.899073288     -104.160472
9.211                0.898808618     -104.358975
9.212                0.898543486     -104.558011
9.213                0.898277894     -104.757581
9.214                0.898011847     -104.957685
9.215                0.897745349     -105.158324
9.216                0.897478404     -105.359501
9.217                0.897211015     -105.561215
9.218                0.896943186     -105.763468
9.219                0.896674922      -105.96626
9.22                 0.896406227     -106.169593
9.221                0.896137104     -106.373468
9.222                0.895867559     -106.577885
9.223                0.895597596     -106.782846
9.224                0.895327218     -106.988351
9.225                0.895056431     -107.194402
9.226                0.894785238     -107.400999
9.227                0.894513646     -107.608143
9.228                0.894241657     -107.815835
9.229                0.893969278     -108.024076
9.23                 0.893696512     -108.232868
9.231                0.893423365      -108.44221
9.232                0.893149842     -108.652104
9.233                0.892875947      -108.86255
9.234                0.892601687      -109.07355
9.235                0.892327065     -109.285104
9.236                0.892052088     -109.497213
9.237                 0.89177676     -109.709878
9.238                0.891501087       -109.9231
9.239                0.891225075     -110.136879
9.24                 0.890948729     -110.351216
9.241                0.890672054     -110.566113
9.242                0.890395057     -110.781569
9.243                0.890117743     -110.997586
9.244                0.889840117     -111.214165
9.245                0.889562187     -111.431305
9.246                0.889283958     -111.649008
9.247                0.889005435     -111.867275
9.248                0.888726626     -112.086106
9.249                0.888447536     -112.305502
9.25                 0.888168172     -112.525463
9.251                 0.88788854     -112.745991
9.252                0.887608646     -112.967085
9.253                0.887328498     -113.188747
9.254                0.887048101     -113.410977
9.255                0.886767462     -113.633776
9.256                0.886486589     -113.857144
9.257                0.886205488     -114.081082
9.258                0.885924166      -114.30559
9.259                 0.88564263      -114.53067
9.26                 0.885360887     -114.756321
9.261                0.885078945     -114.982544
9.262                 0.88479681      -115.20934
9.263                 0.88451449     -115.436708
9.264                0.884231993     -115.664651
9.265                0.883949326     -115.893167
9.266                0.883666496     -116.122258
9.267                0.883383511     -116.351923
9.268                0.883100379     -116.582164
9.269                0.882817109     -116.812981
9.27                 0.882533707     -117.044374
9.271                0.882250181     -117.276343
9.272                0.881966541     -117.508889
9.273                0.881682794     -117.742012
9.274                0.881398948     -117.975712
9.275                0.881115011     -118.209991
9.276                0.880830993     -118.444847
9.277                0.880546902     -118.680281
9.278                0.880262745     -118.916295
9.279                0.879978533     -119.152886
9.28                 0.879694273     -119.390057
9.281                0.879409975     -119.627807
9.282                0.879125647     -119.866136
9.283                0.878841299     -120.105045
9.284                 0.87855694     -120.344534
9.285                0.878272578     -120.584602
9.286                0.877988223      -120.82525
9.287                0.877703885     -121.066478
9.288                0.877419572     -121.308285
9.289                0.877135295     -121.550673
9.29                 0.876851063     -121.793641
9.291                0.876566886     -122.037189
9.292                0.876282773     -122.281317
9.293                0.875998734     -122.526024
9.294                 0.87571478     -122.771312
9.295                 0.87543092     -123.017179
9.296                0.875147164     -123.263626
9.297                0.874863523     -123.510653
9.298                0.874580007     -123.758259
9.299                0.874296626     -124.006444
9.3                  0.874013391     -124.255208
9.301                0.873730311     -124.504551
9.302                0.873447399     -124.754472
9.303                0.873164664     -125.004972
9.304                0.872882117      -125.25605
9.305                 0.87259977     -125.507705
9.306                0.872317632     -125.759938
9.307                0.872035715     -126.012747
9.308                0.871754031     -126.266133
9.309                0.871472589     -126.520096
9.31                 0.871191402     -126.774634
9.311                0.870910481     -127.029747
9.312                0.870629837     -127.285435
9.313                0.870349482     -127.541698
9.314                0.870069427     -127.798534
9.315                0.869789684     -128.055943
9.316                0.869510264     -128.313925
9.317                0.869231179     -128.572479
9.318                0.868952442     -128.831605
9.319                0.868674064     -129.091301
9.32                 0.868396056     -129.351567
9.321                0.868118432     -129.612402
9.322                0.867841203     -129.873806
9.323                0.867564382     -130.135778
9.324                 0.86728798     -130.398317
9.325                0.867012011     -130.661422
9.326                0.866736486     -130.925092
9.327                0.866461418     -131.189327
9.328                 0.86618682     -131.454125
9.329                0.865912703     -131.719486
9.33                 0.865639082     -131.985408
9.331                0.865365968     -132.251891
9.332                0.865093375     -132.518934
9.333                0.864821315     -132.786535
9.334                0.864549801     -133.054694
9.335                0.864278846     -133.323409
9.336                0.864008464      -133.59268
9.337                0.863738667     -133.862505
9.338                0.863469469     -134.132882
9.339                0.863200882     -134.403812
9.34                 0.862932921     -134.675291
9.341                0.862665598      -134.94732
9.342                0.862398927     -135.219897
9.343                0.862132921      -135.49302
9.344                0.861867594     -135.766689
9.345                0.861602959     -136.040901
9.346                0.861339031     -136.315655
9.347                0.861075821      -136.59095
9.348                0.860813345     -136.866785
9.349                0.860551617     -137.143157
9.35                 0.860290648     -137.420066
9.351                0.860030455     -137.697509
9.352                 0.85977105     -137.975485
9.353                0.859512447     -138.253993
9.354                0.859254661      -138.53303
9.355                0.858997705     -138.812595
9.356                0.858741593     -139.092687
9.357                0.858486339     -139.373303
9.358                0.858231958     -139.654441
9.359                0.857978464     -139.936101
9.36                  0.85772587     -140.218279
9.361                0.857474191     -140.500974
9.362                0.857223441     -140.784185
9.363                0.856973635     -141.067908
9.364                0.856724786     -141.352142
9.365                0.856476908     -141.636886
9.366                0.856230017     -141.922136
9.367                0.855984126     -142.207891
9.368                 0.85573925     -142.494149
9.369                0.855495403     -142.780908
9.37                 0.855252599     -143.068164
9.371                0.855010853     -143.355917
9.372                0.854770178     -143.644164
9.373                0.854530591     -143.932902
9.374                0.854292104     -144.222129
9.375                0.854054732     -144.511843
9.376                 0.85381849     -144.802041
9.377                0.853583392     -145.092722
9.378                0.853349453     -145.383881
9.379                0.853116686     -145.675518
9.38                 0.852885106     -145.967629
9.381                0.852654728     -146.260212
9.382                0.852425566     -146.553264
9.383                0.852197634     -146.846783
9.384                0.851970946     -147.140765
9.385                0.851745517     -147.435209
9.386                0.851521362     -147.730111
9.387                0.851298494     -148.025469
9.388                0.851076928      -148.32128
9.389                0.850856677      -148.61754
9.39                 0.850637757     -148.914248
9.391                0.850420182       -149.2114
9.392                0.850203964     -149.508993
9.393                 0.84998912     -149.807025
9.394                0.849775662     -150.105492
9.395                0.849563605     -150.404391
9.396                0.849352963     -150.703719
