! TOUCHSTONE file generated by CST DESIGN STUDIO
! Date and time: Tue Feb  4 18:22:08 2025
! Project name: C:\Work\MatlabApps\UnitCellOptimizationMatlab\CST\unitcell.cst
! Tree item: Tasks\Sweep1\SPara1\S-Parameters
! Header version: 2024
! Port assignment regex: !\s*Touchstone port\s*([0-9]+)\s*=\s*(CST MWS port|CST DES external port|CST DES block port)\s*(.+)\s* \(\"(.*)\"\)(\s*mode\s*([0-9]+))?.*
! Touchstone port assignment:
! Touchstone port 1 = CST DES external port 1 ("")
# GHz S MA R 50
9                    0.933952734     -82.9047103
9.001                0.933769638     -83.0452843
9.002                0.933585976     -83.1862412
9.003                0.933401748     -83.3275821
9.004                0.933216953     -83.4693082
9.005                0.933031589     -83.6114208
9.006                0.932845656      -83.753921
9.007                0.932659153       -83.89681
9.008                 0.93247208      -84.040089
9.009                0.932284435     -84.1837592
9.01                 0.932096217     -84.3278219
9.011                0.931907427     -84.4722782
9.012                0.931718062     -84.6171293
9.013                0.931528123     -84.7623765
9.014                0.931337608     -84.9080209
9.015                0.931146516     -85.0540638
9.016                0.930954848     -85.2005063
9.017                0.930762602     -85.3473498
9.018                0.930569778     -85.4945953
9.019                0.930376375     -85.6422442
9.02                 0.930182392     -85.7902976
9.021                0.929987829     -85.9387568
9.022                0.929792685      -86.087623
9.023                0.929596959     -86.2368974
9.024                0.929400651     -86.3865812
9.025                0.929203761     -86.5366757
9.026                0.929006287     -86.6871822
9.027                 0.92880823     -86.8381017
9.028                0.928609588     -86.9894357
9.029                0.928410361     -87.1411852
9.03                  0.92821055     -87.2933516
9.031                0.928010152      -87.445936
9.032                0.927809168     -87.5989398
9.033                0.927607598     -87.7523641
9.034                0.927405441     -87.9062102
9.035                0.927202696     -88.0604793
9.036                0.926999364     -88.2151728
9.037                0.926795444     -88.3702917
9.038                0.926590936     -88.5258374
9.039                0.926385838     -88.6818112
9.04                 0.926180152     -88.8382142
9.041                0.925973877     -88.9950477
9.042                0.925767013     -89.1523129
9.043                0.925559559     -89.3100112
9.044                0.925351515     -89.4681437
9.045                0.925142882     -89.6267117
9.046                0.924933658     -89.7857165
9.047                0.924723845     -89.9451593
9.048                0.924513441     -90.1050414
9.049                0.924302447      -90.265364
9.05                 0.924090863     -90.4261283
9.051                0.923878689     -90.5873357
9.052                0.923665924     -90.7489874
9.053                 0.92345257     -90.9110845
9.054                0.923238625     -91.0736285
9.055                 0.92302409     -91.2366205
9.056                0.922808966     -91.4000619
9.057                0.922593252     -91.5639537
9.058                0.922376949     -91.7282974
9.059                0.922160056     -91.8930942
9.06                 0.921942574     -92.0583452
9.061                0.921724504     -92.2240519
9.062                0.921505845     -92.3902153
9.063                0.921286599     -92.5568369
9.064                0.921066765     -92.7239177
9.065                0.920846343     -92.8914592
9.066                0.920625335     -93.0594625
9.067                 0.92040374     -93.2279289
9.068                 0.92018156     -93.3968597
9.069                0.919958794      -93.566256
9.07                 0.919735444     -93.7361192
9.071                 0.91951151     -93.9064505
9.072                0.919286992     -94.0772512
9.073                0.919061891     -94.2485224
9.074                0.918836208     -94.4202655
9.075                0.918609944     -94.5924816
9.076                0.918383099     -94.7651721
9.077                0.918155675     -94.9383381
9.078                0.917927671      -95.111981
9.079                 0.91769909     -95.2861019
9.08                 0.917469931     -95.4607021
9.081                0.917240196     -95.6357828
9.082                0.917009886     -95.8113453
9.083                0.916779002     -95.9873908
9.084                0.916547545     -96.1639205
9.085                0.916315516     -96.3409357
9.086                0.916082916     -96.5184376
9.087                0.915849747     -96.6964273
9.088                0.915616009     -96.8749062
9.089                0.915381705     -97.0538755
9.09                 0.915146834     -97.2333363
9.091                  0.9149114     -97.4132899
9.092                0.914675402     -97.5937375
9.093                0.914438842     -97.7746804
9.094                0.914201723     -97.9561196
9.095                0.913964045     -98.1380565
9.096                 0.91372581     -98.3204922
9.097                 0.91348702      -98.503428
9.098                0.913247677      -98.686865
9.099                0.913007781     -98.8708044
9.1                  0.912767335     -99.0552474
9.101                0.912526341     -99.2401952
9.102                0.912284801      -99.425649
9.103                0.912042716     -99.6116099
9.104                0.911800088     -99.7980792
9.105                 0.91155692      -99.985058
9.106                0.911313213     -100.172547
9.107                0.911068969     -100.360549
9.108                0.910824191     -100.549063
9.109                0.910578882     -100.738092
9.11                 0.910333042     -100.927635
9.111                0.910086674     -101.117696
9.112                0.909839782     -101.308273
9.113                0.909592366      -101.49937
9.114                0.909344431     -101.690986
9.115                0.909095977     -101.883124
9.116                0.908847008     -102.075783
9.117                0.908597526     -102.268966
9.118                0.908347535     -102.462673
9.119                0.908097036     -102.656906
9.12                 0.907846032     -102.851665
9.121                0.907594527     -103.046952
9.122                0.907342524     -103.242767
9.123                0.907090024     -103.439113
9.124                0.906837032     -103.635989
9.125                 0.90658355     -103.833397
9.126                0.906329581     -104.031338
9.127                0.906075129     -104.229814
9.128                0.905820197     -104.428824
9.129                0.905564788     -104.628371
9.13                 0.905308905     -104.828455
9.131                0.905052553     -105.029077
9.132                0.904795734     -105.230239
9.133                0.904538452     -105.431941
9.134                 0.90428071     -105.634184
9.135                0.904022513     -105.836969
9.136                0.903763864     -106.040298
9.137                0.903504767     -106.244171
9.138                0.903245225      -106.44859
9.139                0.902985244     -106.653554
9.14                 0.902724825     -106.859066
9.141                0.902463975     -107.065126
9.142                0.902202696     -107.271735
9.143                0.901940994     -107.478895
9.144                0.901678871     -107.686605
9.145                0.901416334     -107.894867
9.146                0.901153385     -108.103682
9.147                 0.90089003     -108.313051
9.148                0.900626273     -108.522974
9.149                0.900362119     -108.733453
9.15                 0.900097572     -108.944488
9.151                0.899832637      -109.15608
9.152                0.899567319     -109.368231
9.153                0.899301622      -109.58094
9.154                0.899035553     -109.794209
9.155                0.898769115     -110.008039
9.156                0.898502314      -110.22243
9.157                0.898235155     -110.437383
9.158                0.897967644       -110.6529
9.159                0.897699785      -110.86898
9.16                 0.897431584     -111.085624
9.161                0.897163047     -111.302834
9.162                0.896894178      -111.52061
9.163                0.896624985     -111.738953
9.164                0.896355471     -111.957863
9.165                0.896085644     -112.177341
9.166                0.895815509     -112.397388
9.167                0.895545071     -112.618004
9.168                0.895274338     -112.839191
9.169                0.895003314     -113.060949
9.17                 0.894732007     -113.283278
9.171                0.894460422     -113.506179
9.172                0.894188566     -113.729653
9.173                0.893916444     -113.953701
9.174                0.893644065     -114.178322
9.175                0.893371433     -114.403518
9.176                0.893098556     -114.629288
9.177                 0.89282544     -114.855635
9.178                0.892552093     -115.082557
9.179                 0.89227852     -115.310057
9.18                  0.89200473     -115.538133
9.181                0.891730729     -115.766787
9.182                0.891456524     -115.996019
9.183                0.891182122      -116.22583
9.184                0.890907531     -116.456219
9.185                0.890632757     -116.687189
9.186                0.890357809     -116.918737
9.187                0.890082694     -117.150866
9.188                 0.88980742     -117.383576
9.189                0.889531993     -117.616867
9.19                 0.889256423     -117.850738
9.191                0.888980716     -118.085192
9.192                0.888704881     -118.320227
9.193                0.888428926     -118.555844
9.194                0.888152859     -118.792044
9.195                0.887876687     -119.028827
9.196                 0.88760042     -119.266192
9.197                0.887324066     -119.504141
9.198                0.887047632     -119.742673
9.199                0.886771128     -119.981788
9.2                  0.886494562     -120.221487
9.201                0.886217943      -120.46177
9.202                0.885941279     -120.702637
9.203                 0.88566458     -120.944088
9.204                0.885387854     -121.186122
9.205                0.885111111     -121.428741
9.206                0.884834359     -121.671944
9.207                0.884557607     -121.915732
9.208                0.884280865     -122.160103
9.209                0.884004143     -122.405059
9.21                 0.883727449     -122.650598
9.211                0.883450794     -122.896722
9.212                0.883174186      -123.14343
9.213                0.882897635     -123.390722
9.214                0.882621152     -123.638597
9.215                0.882344745     -123.887056
9.216                0.882068426     -124.136098
9.217                0.881792203     -124.385723
9.218                0.881516088     -124.635931
9.219                0.881240089     -124.886722
9.22                 0.880964219     -125.138096
9.221                0.880688485     -125.390051
9.222                  0.8804129     -125.642589
9.223                0.880137474     -125.895708
9.224                0.879862217     -126.149408
9.225                 0.87958714     -126.403688
9.226                0.879312253     -126.658549
9.227                0.879037567      -126.91399
9.228                0.878763094     -127.170011
9.229                0.878488845      -127.42661
9.23                 0.878214829     -127.683788
9.231                0.877941059     -127.941543
9.232                0.877667545     -128.199876
9.233                  0.8773943     -128.458785
9.234                0.877121333     -128.718271
9.235                0.876848657     -128.978332
9.236                0.876576284     -129.238968
9.237                0.876304224     -129.500178
9.238                0.876032489     -129.761962
9.239                0.875761091     -130.024318
9.24                 0.875490042     -130.287245
9.241                0.875219354     -130.550744
9.242                0.874949039     -130.814813
9.243                0.874679108     -131.079452
9.244                0.874409573     -131.344659
9.245                0.874140448     -131.610433
9.246                0.873871743     -131.876774
9.247                0.873603472     -132.143681
9.248                0.873335647     -132.411152
9.249                0.873068279     -132.679187
9.25                 0.872801382     -132.947785
9.251                0.872534968     -133.216944
9.252                0.872269049     -133.486663
9.253                0.872003639     -133.756941
9.254                 0.87173875     -134.027778
9.255                0.871474394     -134.299171
9.256                0.871210585      -134.57112
9.257                0.870947335     -134.843623
9.258                0.870684658     -135.116679
9.259                0.870422566     -135.390287
9.26                 0.870161073     -135.664445
9.261                0.869900191     -135.939152
9.262                0.869639933     -136.214407
9.263                0.869380314     -136.490208
9.264                0.869121346     -136.766553
9.265                0.868863042     -137.043441
9.266                0.868605416     -137.320871
9.267                0.868348482     -137.598841
9.268                0.868092252     -137.877349
9.269                 0.86783674     -138.156394
9.27                  0.86758196     -138.435974
9.271                0.867327925     -138.716087
9.272                0.867074649     -138.996731
9.273                0.866822145     -139.277906
9.274                0.866570428     -139.559608
9.275                0.866319511     -139.841837
9.276                0.866069407      -140.12459
9.277                0.865820131     -140.407865
9.278                0.865571696     -140.691661
9.279                0.865324116     -140.975976
9.28                 0.865077405     -141.260806
9.281                0.864831577     -141.546152
9.282                0.864586646      -141.83201
9.283                0.864342626     -142.118378
9.284                 0.86409953     -142.405254
9.285                0.863857374     -142.692636
9.286                 0.86361617     -142.980522
9.287                0.863375932      -143.26891
9.288                0.863136676     -143.557797
9.289                0.862898414     -143.847181
9.29                 0.862661161     -144.137059
9.291                0.862424932      -144.42743
9.292                0.862189739     -144.718291
9.293                0.861955598     -145.009639
9.294                0.861722521     -145.301473
9.295                0.861490524     -145.593788
9.296                0.861259621     -145.886584
9.297                0.861029825     -146.179857
9.298                0.860801151     -146.473605
9.299                0.860573612     -146.767825
9.3                  0.860347223     -147.062515
9.301                0.860121998     -147.357671
9.302                0.859897951     -147.653292
9.303                0.859675096     -147.949373
9.304                0.859453447     -148.245913
9.305                0.859233017     -148.542909
9.306                0.859013822     -148.840357
9.307                0.858795875     -149.138256
9.308                0.858579189     -149.436601
9.309                0.858363779      -149.73539
9.31                 0.858149659     -150.034619
9.311                0.857936843     -150.334287
9.312                0.857725344      -150.63439
9.313                0.857515176     -150.934924
9.314                0.857306353     -151.235886
9.315                0.857098889     -151.537274
9.316                0.856892797     -151.839084
9.317                0.856688091     -152.141313
9.318                0.856484785     -152.443957
9.319                0.856282892     -152.747014
9.32                 0.856082425      -153.05048
9.321                0.855883399     -153.354351
9.322                0.855685826     -153.658624
9.323                0.855489721     -153.963296
9.324                0.855295095     -154.268364
9.325                0.855101963     -154.573823
9.326                0.854910337      -154.87967
9.327                0.854720231     -155.185902
9.328                0.854531658     -155.492515
9.329                0.854344631     -155.799505
9.33                 0.854159162     -156.106869
9.331                0.853975265     -156.414603
9.332                0.853792951     -156.722703
9.333                0.853612235     -157.031166
9.334                0.853433128     -157.339988
9.335                0.853255644     -157.649164
9.336                0.853079794     -157.958692
9.337                 0.85290559     -158.268566
9.338                0.852733046     -158.578784
9.339                0.852562173     -158.889342
9.34                 0.852392983     -159.200235
9.341                0.852225489     -159.511459
9.342                0.852059701      -159.82301
9.343                0.851895633     -160.134885
9.344                0.851733296     -160.447079
9.345                0.851572701     -160.759588
9.346                0.851413859     -161.072409
9.347                0.851256783     -161.385536
9.348                0.851101484     -161.698965
9.349                0.850947972     -162.012693
9.35                 0.850796258     -162.326715
9.351                0.850646354     -162.641027
9.352                0.850498271     -162.955625
9.353                0.850352019     -163.270504
9.354                0.850207608     -163.585659
9.355                 0.85006505     -163.901088
9.356                0.849924354     -164.216784
9.357                0.849785531     -164.532744
9.358                 0.84964859     -164.848963
9.359                0.849513542     -165.165438
9.36                 0.849380397     -165.482162
9.361                0.849249164     -165.799132
9.362                0.849119852     -166.116343
9.363                0.848992472     -166.433791
9.364                0.848867032     -166.751471
9.365                0.848743541     -167.069379
9.366                0.848622009     -167.387509
9.367                0.848502444     -167.705857
9.368                0.848384856     -168.024419
9.369                0.848269251      -168.34319
9.37                  0.84815564     -168.662165
9.371                0.848044029     -168.981339
9.372                0.847934428     -169.300708
9.373                0.847826844     -169.620266
9.374                0.847721285      -169.94001
9.375                0.847617758     -170.259934
9.376                0.847516271     -170.580033
9.377                0.847416831     -170.900303
9.378                0.847319446     -171.220738
9.379                0.847224122     -171.541335
9.38                 0.847130866     -171.862087
9.381                0.847039684     -172.182991
9.382                0.846950584      -172.50404
9.383                0.846863571     -172.825231
9.384                0.846778651     -173.146558
9.385                0.846695831     -173.468017
9.386                0.846615116     -173.789601
9.387                0.846536512     -174.111307
9.388                0.846460024      -174.43313
9.389                0.846385658     -174.755064
9.39                 0.846313418     -175.077104
9.391                0.846243309     -175.399245
9.392                0.846175337     -175.721483
9.393                0.846109505     -176.043812
9.394                0.846045818     -176.366227
9.395                 0.84598428     -176.688723
9.396                0.845924895     -177.011295
