! TOUCHSTONE file generated by CST DESIGN STUDIO
! Date and time: Tue Feb  4 16:48:27 2025
! Project name: C:\Work\MatlabApps\UnitCellOptimizationMatlab\CST\unitcell.cst
! Tree item: Tasks\Sweep1\SPara1\S-Parameters
! Header version: 2024
! Port assignment regex: !\s*Touchstone port\s*([0-9]+)\s*=\s*(CST MWS port|CST DES external port|CST DES block port)\s*(.+)\s* \(\"(.*)\"\)(\s*mode\s*([0-9]+))?.*
! Touchstone port assignment:
! Touchstone port 1 = CST DES external port 1 ("")
# GHz S MA R 50
9                    0.976631033     -70.5554532
9.001                0.976577146     -70.6692625
9.002                0.976522909     -70.7833732
9.003                0.976468323     -70.8977862
9.004                0.976413384     -71.0125025
9.005                0.976358092     -71.1275232
9.006                0.976302443     -71.2428493
9.007                0.976246438     -71.3584817
9.008                0.976190073     -71.4744215
9.009                0.976133347     -71.5906697
9.01                 0.976076259     -71.7072274
9.011                0.976018806     -71.8240954
9.012                0.975960987     -71.9412749
9.013                  0.9759028     -72.0587669
9.014                0.975844242     -72.1765723
9.015                0.975785314     -72.2946923
9.016                0.975726011     -72.4131279
9.017                0.975666334     -72.5318801
9.018                0.975606279       -72.65095
9.019                0.975545845     -72.7703385
9.02                 0.975485031     -72.8900468
9.021                0.975423833     -73.0100759
9.022                0.975362252     -73.1304268
9.023                0.975300284     -73.2511006
9.024                0.975237927     -73.3720984
9.025                0.975175181     -73.4934212
9.026                0.975112042     -73.6150701
9.027                 0.97504851     -73.7370461
9.028                0.974984582     -73.8593504
9.029                0.974920256     -73.9819839
9.03                  0.97485553     -74.1049478
9.031                0.974790403     -74.2282432
9.032                0.974724873      -74.351871
9.033                0.974658938     -74.4758325
9.034                0.974592595     -74.6001287
9.035                0.974525843     -74.7247607
9.036                 0.97445868     -74.8497295
9.037                0.974391103     -74.9750364
9.038                0.974323112     -75.1006823
9.039                0.974254704     -75.2266684
9.04                 0.974185877     -75.3529957
9.041                0.974116629     -75.4796655
9.042                0.974046958     -75.6066787
9.043                0.973976862     -75.7340365
9.044                 0.97390634     -75.8617401
9.045                0.973835388     -75.9897905
9.046                0.973764006     -76.1181889
9.047                0.973692191     -76.2469363
9.048                0.973619942      -76.376034
9.049                0.973547255      -76.505483
9.05                 0.973474129     -76.6352844
9.051                0.973400563     -76.7654395
9.052                0.973326554     -76.8959493
9.053                  0.9732521      -77.026815
9.054                0.973177199     -77.1580376
9.055                0.973101849     -77.2896185
9.056                0.973026048     -77.4215587
9.057                0.972949793     -77.5538593
9.058                0.972873084     -77.6865215
9.059                0.972795918     -77.8195465
9.06                 0.972718292     -77.9529354
9.061                0.972640205     -78.0866895
9.062                0.972561654     -78.2208097
9.063                0.972482638     -78.3552974
9.064                0.972403155     -78.4901536
9.065                0.972323202     -78.6253796
9.066                0.972242777     -78.7609764
9.067                0.972161878     -78.8969454
9.068                0.972080504     -79.0332877
9.069                0.971998651     -79.1700044
9.07                 0.971916319     -79.3070967
9.071                0.971833504     -79.4445658
9.072                0.971750205     -79.5824129
9.073                 0.97166642     -79.7206392
9.074                0.971582146     -79.8592459
9.075                0.971497381     -79.9982342
9.076                0.971412123     -80.1376052
9.077                0.971326371     -80.2773601
9.078                0.971240122     -80.4175003
9.079                0.971153373     -80.5580268
9.08                 0.971066124     -80.6989408
9.081                0.970978371     -80.8402436
9.082                0.970890112     -80.9819364
9.083                0.970801346     -81.1240204
9.084                 0.97071207     -81.2664967
9.085                0.970622282     -81.4093667
9.086                0.970531979     -81.5526315
9.087                0.970441161     -81.6962923
9.088                0.970349824     -81.8403504
9.089                0.970257967      -81.984807
9.09                 0.970165587     -82.1296633
9.091                0.970072683     -82.2749205
9.092                0.969979251     -82.4205799
9.093                0.969885291     -82.5666426
9.094                0.969790799     -82.7131099
9.095                0.969695773     -82.8599831
9.096                0.969600212     -83.0072634
9.097                0.969504114      -83.154952
9.098                0.969407476     -83.3030501
9.099                0.969310295      -83.451559
9.1                  0.969212571       -83.60048
9.101                  0.9691143     -83.7498142
9.102                0.969015481     -83.8995629
9.103                0.968916111     -84.0497273
9.104                0.968816189     -84.2003088
9.105                0.968715711     -84.3513084
9.106                0.968614677     -84.5027276
9.107                0.968513084     -84.6545675
9.108                0.968410929     -84.8068294
9.109                0.968308211     -84.9595145
9.11                 0.968204928     -85.1126241
9.111                0.968101077     -85.2661594
9.112                0.967996656     -85.4201218
9.113                0.967891663     -85.5745123
9.114                0.967786096     -85.7293324
9.115                0.967679953     -85.8845833
9.116                0.967573232     -86.0402661
9.117                 0.96746593     -86.1963822
9.118                0.967358046     -86.3529329
9.119                0.967249577     -86.5099193
9.12                 0.967140522     -86.6673428
9.121                0.967030878     -86.8252046
9.122                0.966920644      -86.983506
9.123                0.966809816     -87.1422482
9.124                0.966698393     -87.3014324
9.125                0.966586374     -87.4610601
9.126                0.966473755     -87.6211324
9.127                0.966360535     -87.7816505
9.128                0.966246712     -87.9426158
9.129                0.966132284     -88.1040295
9.13                 0.966017248     -88.2658929
9.131                0.965901603     -88.4282071
9.132                0.965785347     -88.5909736
9.133                0.965668477     -88.7541936
9.134                0.965550993     -88.9178683
9.135                 0.96543289     -89.0819989
9.136                0.965314169     -89.2465868
9.137                0.965194826     -89.4116332
9.138                 0.96507486     -89.5771393
9.139                0.964954269     -89.7431065
9.14                 0.964833051      -89.909536
9.141                0.964711204      -90.076429
9.142                0.964588725     -90.2437869
9.143                0.964465614     -90.4116108
9.144                0.964341868      -90.579902
9.145                0.964217485     -90.7486618
9.146                0.964092464     -90.9178914
9.147                0.963966802     -91.0875921
9.148                0.963840498     -91.2577651
9.149                 0.96371355     -91.4284118
9.15                 0.963585956     -91.5995333
9.151                0.963457714     -91.7711308
9.152                0.963328822     -91.9432057
9.153                0.963199279     -92.1157592
9.154                0.963069083     -92.2887925
9.155                0.962938232     -92.4623069
9.156                0.962806725     -92.6363036
9.157                0.962674559     -92.8107839
9.158                0.962541733      -92.985749
9.159                0.962408246        -93.1612
9.16                 0.962274095     -93.3371384
9.161                0.962139279     -93.5135652
9.162                0.962003796     -93.6904818
9.163                0.961867645     -93.8678893
9.164                0.961730824     -94.0457889
9.165                0.961593332      -94.224182
9.166                0.961455167     -94.4030696
9.167                0.961316327     -94.5824531
9.168                0.961176811     -94.7623337
9.169                0.961036617     -94.9427125
9.17                 0.960895745     -95.1235907
9.171                0.960754192     -95.3049696
9.172                0.960611957     -95.4868504
9.173                0.960469038     -95.6692343
9.174                0.960325435     -95.8521224
9.175                0.960181146     -96.0355159
9.176                0.960036169     -96.2194161
9.177                0.959890504     -96.4038241
9.178                0.959744148     -96.5887411
9.179                0.959597101     -96.7741683
9.18                 0.959449362     -96.9601068
9.181                0.959300929     -97.1465579
9.182                0.959151801     -97.3335226
9.183                0.959001977     -97.5210022
9.184                0.958851456     -97.7089978
9.185                0.958700236     -97.8975105
9.186                0.958548317     -98.0865415
9.187                0.958395698     -98.2760919
9.188                0.958242377     -98.4661629
9.189                0.958088354     -98.6567556
9.19                 0.957933627     -98.8478712
9.191                0.957778196     -99.0395106
9.192                 0.95762206     -99.2316752
9.193                0.957465218     -99.4243659
9.194                 0.95730767     -99.6175839
9.195                0.957149413     -99.8113302
9.196                0.956990448     -100.005606
9.197                0.956830775     -100.200412
9.198                0.956670391      -100.39575
9.199                0.956509297     -100.591621
9.2                  0.956347492     -100.788026
9.201                0.956184975     -100.984965
9.202                0.956021747      -101.18244
9.203                0.955857805     -101.380452
9.204                0.955693151     -101.579003
9.205                0.955527783     -101.778092
9.206                0.955361701     -101.977721
9.207                0.955194906     -102.177891
9.208                0.955027395     -102.378604
9.209                 0.95485917     -102.579859
9.21                  0.95469023     -102.781658
9.211                0.954520575     -102.984003
9.212                0.954350205     -103.186894
9.213                0.954179119     -103.390331
9.214                0.954007318     -103.594317
9.215                0.953834802     -103.798851
9.216                 0.95366157     -104.003936
9.217                0.953487623     -104.209571
9.218                0.953312961     -104.415758
9.219                0.953137585     -104.622498
9.22                 0.952961494     -104.829791
9.221                0.952784688     -105.037639
9.222                0.952607169     -105.246042
9.223                0.952428936     -105.455001
9.224                 0.95224999     -105.664518
9.225                0.952070332     -105.874592
9.226                0.951889961     -106.085226
9.227                 0.95170888     -106.296419
9.228                0.951527087     -106.508172
9.229                0.951344585     -106.720487
9.23                 0.951161373     -106.933364
9.231                0.950977453     -107.146804
9.232                0.950792825     -107.360808
9.233                0.950607491     -107.575376
9.234                0.950421451      -107.79051
9.235                0.950234706     -108.006209
9.236                0.950047259     -108.222476
9.237                0.949859109      -108.43931
9.238                0.949670258     -108.656712
9.239                0.949480707     -108.874683
9.24                 0.949290458     -109.093224
9.241                0.949099512     -109.312335
9.242                0.948907871     -109.532017
9.243                0.948715536      -109.75227
9.244                0.948522508     -109.973096
9.245                0.948328791     -110.194495
9.246                0.948134384     -110.416468
9.247                 0.94793929     -110.639014
9.248                0.947743511     -110.862135
9.249                0.947547049     -111.085832
9.25                 0.947349906     -111.310104
9.251                0.947152084     -111.534953
9.252                0.946953585     -111.760378
9.253                0.946754412     -111.986381
9.254                0.946554566     -112.212962
9.255                 0.94635405     -112.440122
9.256                0.946152866      -112.66786
9.257                0.945951018     -112.896178
9.258                0.945748507     -113.125075
9.259                0.945545336     -113.354553
9.26                 0.945341508     -113.584611
9.261                0.945137026      -113.81525
9.262                0.944931893     -114.046471
9.263                0.944726112     -114.278273
9.264                0.944519685     -114.510657
9.265                0.944312616     -114.743624
9.266                0.944104908     -114.977174
9.267                0.943896565     -115.211306
9.268                0.943687589     -115.446022
9.269                0.943477984     -115.681321
9.27                 0.943267754     -115.917204
9.271                0.943056903     -116.153671
9.272                0.942845433     -116.390722
9.273                 0.94263335     -116.628357
9.274                0.942420656     -116.866577
9.275                0.942207355     -117.105381
9.276                0.941993452     -117.344771
9.277                0.941778951     -117.584745
9.278                0.941563856     -117.825304
9.279                0.941348172     -118.066448
9.28                 0.941131902     -118.308177
9.281                0.940915051     -118.550491
9.282                0.940697624      -118.79339
9.283                0.940479625     -119.036874
9.284                0.940261059     -119.280943
9.285                0.940041931     -119.525598
9.286                0.939822246     -119.770837
9.287                0.939602009      -120.01666
9.288                0.939381225     -120.263069
9.289                0.939159899     -120.510062
9.29                 0.938938036     -120.757639
9.291                0.938715642       -121.0058
9.292                0.938492723     -121.254546
9.293                0.938269283     -121.503875
9.294                0.938045329     -121.753787
9.295                0.937820866     -122.004283
9.296                  0.9375959     -122.255361
9.297                0.937370438     -122.507022
9.298                0.937144484     -122.759265
9.299                0.936918046      -123.01209
9.3                  0.936691129     -123.265496
9.301                 0.93646374     -123.519483
9.302                0.936235886     -123.774051
9.303                0.936007572     -124.029199
9.304                0.935778806     -124.284926
9.305                0.935549593     -124.541232
9.306                0.935319942     -124.798117
9.307                0.935089859      -125.05558
9.308                 0.93485935      -125.31362
9.309                0.934628424     -125.572236
9.31                 0.934397087     -125.831429
9.311                0.934165347     -126.091197
9.312                 0.93393321      -126.35154
9.313                0.933700686     -126.612456
9.314                 0.93346778     -126.873946
9.315                0.933234501     -127.136008
9.316                0.933000857     -127.398642
9.317                0.932766856     -127.661846
9.318                0.932532505     -127.925621
9.319                0.932297813     -128.189964
9.32                 0.932062789     -128.454876
9.321                0.931827439     -128.720354
9.322                0.931591774     -128.986399
9.323                  0.9313558     -129.253009
9.324                0.931119528     -129.520183
9.325                0.930882965      -129.78792
9.326                0.930646121     -130.056219
9.327                0.930409005     -130.325079
9.328                0.930171624     -130.594499
9.329                 0.92993399     -130.864477
9.33                  0.92969611     -131.135012
9.331                0.929457995     -131.406104
9.332                0.929219653     -131.677751
9.333                0.928981094     -131.949951
9.334                0.928742328     -132.222703
9.335                0.928503365     -132.496006
9.336                0.928264214     -132.769859
9.337                0.928024885      -133.04426
9.338                0.927785389     -133.319207
9.339                0.927545735       -133.5947
9.34                 0.927305934     -133.870736
9.341                0.927065995     -134.147315
9.342                 0.92682593     -134.424434
9.343                0.926585749     -134.702092
9.344                0.926345463     -134.980288
9.345                0.926105082     -135.259019
9.346                0.925864617     -135.538284
9.347                0.925624078     -135.818082
9.348                0.925383478      -136.09841
9.349                0.925142827     -136.379267
9.35                 0.924902135     -136.660651
9.351                0.924661416      -136.94256
9.352                0.924420679     -137.224992
9.353                0.924179936     -137.507945
9.354                0.923939199     -137.791418
9.355                0.923698479     -138.075409
9.356                0.923457788     -138.359915
9.357                0.923217138     -138.644934
9.358                0.922976541     -138.930464
9.359                0.922736009     -139.216504
9.36                 0.922495554     -139.503051
9.361                0.922255187     -139.790102
9.362                0.922014921     -140.077657
9.363                0.921774769     -140.365711
9.364                0.921534743     -140.654264
9.365                0.921294855     -140.943313
9.366                0.921055118     -141.232856
9.367                0.920815544      -141.52289
9.368                0.920576146     -141.813412
9.369                0.920336938     -142.104421
9.37                 0.920097931     -142.395914
9.371                0.919859138     -142.687888
9.372                0.919620574     -142.980342
9.373                0.919382249     -143.273271
9.374                0.919144179     -143.566675
9.375                0.918906376     -143.860549
9.376                0.918668853     -144.154892
9.377                0.918431624     -144.449701
9.378                0.918194702     -144.744973
9.379                  0.9179581     -145.040705
9.38                 0.917721832     -145.336895
9.381                0.917485911      -145.63354
9.382                0.917250352     -145.930636
9.383                0.917015168     -146.228181
9.384                0.916780372     -146.526173
9.385                0.916545979     -146.824607
9.386                0.916312002     -147.123482
9.387                0.916078455     -147.422794
9.388                0.915845353     -147.722539
9.389                0.915612708     -148.022716
9.39                 0.915380536     -148.323321
9.391                0.915148849      -148.62435
9.392                0.914917664     -148.925801
9.393                0.914686992     -149.227671
9.394                 0.91445685     -149.529955
9.395                 0.91422725     -149.832651
9.396                0.913998208     -150.135756
