! TOUCHSTONE file generated by CST DESIGN STUDIO
! Date and time: Tue Feb  4 16:48:22 2025
! Project name: C:\Work\MatlabApps\UnitCellOptimizationMatlab\CST\unitcell.cst
! Tree item: Tasks\Sweep1\SPara1\S-Parameters
! Header version: 2024
! Port assignment regex: !\s*Touchstone port\s*([0-9]+)\s*=\s*(CST MWS port|CST DES external port|CST DES block port)\s*(.+)\s* \(\"(.*)\"\)(\s*mode\s*([0-9]+))?.*
! Touchstone port assignment:
! Touchstone port 1 = CST DES external port 1 ("")
# GHz S MA R 50
9                    0.974037285     -80.6362357
9.001                0.974018155     -80.7782772
9.002                0.973998409      -80.920727
9.003                0.973978046     -81.0635865
9.004                 0.97395706     -81.2068567
9.005                0.973935448     -81.3505388
9.006                0.973913206      -81.494634
9.007                 0.97389033     -81.6391435
9.008                0.973866816     -81.7840685
9.009                0.973842662     -81.9294102
9.01                 0.973817862     -82.0751697
9.011                0.973792412     -82.2213483
9.012                 0.97376631     -82.3679472
9.013                0.973739551     -82.5149674
9.014                0.973712132     -82.6624104
9.015                0.973684048     -82.8102771
9.016                0.973655296     -82.9585689
9.017                0.973625871     -83.1072869
9.018                0.973595771     -83.2564323
9.019                 0.97356499     -83.4060064
9.02                 0.973533526     -83.5560102
9.021                0.973501375     -83.7064451
9.022                0.973468532     -83.8573122
9.023                0.973434994     -84.0086128
9.024                0.973400757      -84.160348
9.025                0.973365818      -84.312519
9.026                0.973330171     -84.4651271
9.027                0.973293814     -84.6181734
9.028                0.973256743     -84.7716591
9.029                0.973218954     -84.9255856
9.03                 0.973180443     -85.0799539
9.031                0.973141207     -85.2347652
9.032                0.973101241     -85.3900209
9.033                0.973060541      -85.545722
9.034                0.973019105     -85.7018698
9.035                0.972976928     -85.8584655
9.036                0.972934006     -86.0155104
9.037                0.972890336     -86.1730055
9.038                0.972845913     -86.3309522
9.039                0.972800735     -86.4893517
9.04                 0.972754797      -86.648205
9.041                0.972708096     -86.8075136
9.042                0.972660628     -86.9672785
9.043                0.972612389     -87.1275009
9.044                0.972563376     -87.2881822
9.045                0.972513584     -87.4493234
9.046                 0.97246301     -87.6109258
9.047                0.972411651     -87.7729907
9.048                0.972359503     -87.9355191
9.049                0.972306561     -88.0985124
9.05                 0.972252823     -88.2619716
9.051                0.972198285     -88.4258981
9.052                0.972142943      -88.590293
9.053                0.972086793     -88.7551576
9.054                0.972029833      -88.920493
9.055                0.971972057     -89.0863004
9.056                0.971913464      -89.252581
9.057                0.971854048     -89.4193361
9.058                0.971793807     -89.5865668
9.059                0.971732738     -89.7542744
9.06                 0.971670836     -89.9224599
9.061                0.971608098     -90.0911247
9.062                 0.97154452     -90.2602699
9.063                  0.9714801     -90.4298967
9.064                0.971414833     -90.6000063
9.065                0.971348716     -90.7705999
9.066                0.971281747     -90.9416786
9.067                 0.97121392     -91.1132437
9.068                0.971145234     -91.2852964
9.069                0.971075684     -91.4578378
9.07                 0.971005267      -91.630869
9.071                0.970933981     -91.8043914
9.072                 0.97086182      -91.978406
9.073                0.970788784      -92.152914
9.074                0.970714867     -92.3279167
9.075                0.970640067     -92.5034151
9.076                0.970564381     -92.6794104
9.077                0.970487805     -92.8559038
9.078                0.970410336     -93.0328965
9.079                0.970331971     -93.2103897
9.08                 0.970252707     -93.3883844
9.081                0.970172541     -93.5668818
9.082                0.970091469     -93.7458831
9.083                 0.97000949     -93.9253895
9.084                0.969926598      -94.105402
9.085                0.969842793     -94.2859218
9.086                 0.96975807     -94.4669501
9.087                0.969672427      -94.648488
9.088                 0.96958586     -94.8305365
9.089                0.969498368      -95.013097
9.09                 0.969409946     -95.1961704
9.091                0.969320592     -95.3797579
9.092                0.969230304     -95.5638606
9.093                0.969139079     -95.7484796
9.094                0.969046913      -95.933616
9.095                0.968953804      -96.119271
9.096                 0.96885975     -96.3054456
9.097                0.968764748      -96.492141
9.098                0.968668795     -96.6793581
9.099                0.968571888     -96.8670982
9.1                  0.968474026     -97.0553622
9.101                0.968375205     -97.2441514
9.102                0.968275424     -97.4334666
9.103                0.968174679     -97.6233091
9.104                0.968072968     -97.8136798
9.105                0.967970289     -98.0045799
9.106                 0.96786664     -98.1960103
9.107                0.967762019     -98.3879722
9.108                0.967656422     -98.5804665
9.109                0.967549849     -98.7734944
9.11                 0.967442296     -98.9670567
9.111                0.967333762     -99.1611547
9.112                0.967224244     -99.3557892
9.113                0.967113741     -99.5509613
9.114                0.967002251      -99.746672
9.115                0.966889771     -99.9429222
9.116                  0.9667763     -100.139713
9.117                0.966661836     -100.337046
9.118                0.966546377     -100.534921
9.119                0.966429921     -100.733339
9.12                 0.966312467     -100.932302
9.121                0.966194013     -101.131811
9.122                0.966074558     -101.331865
9.123                0.965954099     -101.532468
9.124                0.965832636     -101.733618
9.125                0.965710167     -101.935318
9.126                 0.96558669     -102.137568
9.127                0.965462204     -102.340369
9.128                0.965336708     -102.543721
9.129                0.965210201     -102.747627
9.13                 0.965082682     -102.952087
9.131                0.964954148     -103.157101
9.132                  0.9648246      -103.36267
9.133                0.964694036     -103.568796
9.134                0.964562456     -103.775479
9.135                0.964429857     -103.982721
9.136                0.964296241     -104.190521
9.137                0.964161605     -104.398881
9.138                0.964025949     -104.607801
9.139                0.963889273     -104.817283
9.14                 0.963751575     -105.027327
9.141                0.963612856     -105.237934
9.142                0.963473115     -105.449104
9.143                0.963332351     -105.660839
9.144                0.963190564      -105.87314
9.145                0.963047754     -106.086006
9.146                 0.96290392     -106.299439
9.147                0.962759064     -106.513439
9.148                0.962613183     -106.728008
9.149                0.962466279     -106.943146
9.15                 0.962318352     -107.158853
9.151                0.962169401     -107.375131
9.152                0.962019427     -107.591979
9.153                 0.96186843     -107.809399
9.154                0.961716411     -108.027391
9.155                 0.96156337     -108.245956
9.156                0.961409308     -108.465095
9.157                0.961254224     -108.684808
9.158                 0.96109812     -108.905095
9.159                0.960940997     -109.125958
9.16                 0.960782855     -109.347397
9.161                0.960623696     -109.569412
9.162                0.960463519     -109.792004
9.163                0.960302327     -110.015174
9.164                 0.96014012     -110.238921
9.165                  0.9599769     -110.463248
9.166                0.959812668     -110.688153
9.167                0.959647425     -110.913638
9.168                0.959481172     -111.139702
9.169                0.959313913     -111.366348
9.17                 0.959145647     -111.593574
9.171                0.958976376     -111.821381
9.172                0.958806104      -112.04977
9.173                 0.95863483     -112.278741
9.174                0.958462559     -112.508295
9.175                 0.95828929     -112.738432
9.176                0.958115027     -112.969151
9.177                0.957939772     -113.200454
9.178                0.957763528     -113.432341
9.179                0.957586296     -113.664813
9.18                 0.957408079     -113.897868
9.181                 0.95722888     -114.131508
9.182                0.957048702     -114.365733
9.183                0.956867547     -114.600544
9.184                0.956685418     -114.835939
9.185                0.956502318      -115.07192
9.186                0.956318251     -115.308487
9.187                 0.95613322      -115.54564
9.188                0.955947227     -115.783379
9.189                0.955760277     -116.021704
9.19                 0.955572372     -116.260615
9.191                0.955383517     -116.500113
9.192                0.955193715     -116.740197
9.193                0.955002969     -116.980868
9.194                0.954811285     -117.222125
9.195                0.954618665     -117.463969
9.196                0.954425114     -117.706399
9.197                0.954230636     -117.949416
9.198                0.954035235     -118.193019
9.199                0.953838917     -118.437209
9.2                  0.953641684     -118.681985
9.201                0.953443543     -118.927347
9.202                0.953244497     -119.173295
9.203                0.953044551      -119.41983
9.204                0.952843711      -119.66695
9.205                0.952641982     -119.914655
9.206                0.952439368     -120.162947
9.207                0.952235875     -120.411823
9.208                0.952031509     -120.661284
9.209                0.951826274      -120.91133
9.21                 0.951620177      -121.16196
9.211                0.951413223     -121.413175
9.212                0.951205417     -121.664973
9.213                0.950996767     -121.917354
9.214                0.950787278     -122.170318
9.215                0.950576955     -122.423865
9.216                0.950365806     -122.677995
9.217                0.950153837     -122.932705
9.218                0.949941054     -123.187997
9.219                0.949727464      -123.44387
9.22                 0.949513073     -123.700323
9.221                0.949297889     -123.957356
9.222                0.949081918     -124.214967
9.223                0.948865168     -124.473158
9.224                0.948647645     -124.731926
9.225                0.948429357     -124.991271
9.226                0.948210311     -125.251193
9.227                0.947990516     -125.511691
9.228                0.947769978     -125.772764
9.229                0.947548705     -126.034411
9.23                 0.947326705     -126.296632
9.231                0.947103986     -126.559426
9.232                0.946880556     -126.822792
9.233                0.946656424      -127.08673
9.234                0.946431598     -127.351237
9.235                0.946206086     -127.616314
9.236                0.945979897      -127.88196
9.237                0.945753039     -128.148173
9.238                0.945525521     -128.414952
9.239                0.945297353     -128.682298
9.24                 0.945068543     -128.950208
9.241                0.944839101     -129.218681
9.242                0.944609035     -129.487717
9.243                0.944378355     -129.757314
9.244                0.944147071     -130.027471
9.245                0.943915191     -130.298187
9.246                0.943682727     -130.569461
9.247                0.943449688     -130.841292
9.248                0.943216083     -131.113678
9.249                0.942981923     -131.386618
9.25                 0.942747218     -131.660111
9.251                0.942511978     -131.934155
9.252                0.942276214     -132.208749
9.253                0.942039936     -132.483892
9.254                0.941803155     -132.759582
9.255                0.941565881     -133.035818
9.256                0.941328126     -133.312599
9.257                  0.9410899     -133.589922
9.258                0.940851215     -133.867786
9.259                0.940612082      -134.14619
9.26                 0.940372511     -134.425132
9.261                0.940132515      -134.70461
9.262                0.939892104     -134.984624
9.263                0.939651292      -135.26517
9.264                0.939410088     -135.546248
9.265                0.939168506     -135.827855
9.266                0.938926556      -136.10999
9.267                0.938684252     -136.392652
9.268                0.938441605     -136.675837
9.269                0.938198627     -136.959545
9.27                 0.937955332     -137.243773
9.271                 0.93771173      -137.52852
9.272                0.937467836     -137.813783
9.273                0.937223661     -138.099561
9.274                0.936979218     -138.385851
9.275                 0.93673452     -138.672651
9.276                 0.93648958      -138.95996
9.277                0.936244412     -139.247776
9.278                0.935999028     -139.536095
9.279                0.935753441     -139.824916
9.28                 0.935507665     -140.114237
9.281                0.935261713     -140.404055
9.282                0.935015599     -140.694369
9.283                0.934769337     -140.985175
9.284                0.934522939     -141.276472
9.285                 0.93427642     -141.568257
9.286                0.934029794     -141.860528
9.287                0.933783074     -142.153282
9.288                0.933536275     -142.446517
9.289                 0.93328941      -142.74023
9.29                 0.933042494     -143.034419
9.291                0.932795542     -143.329082
9.292                0.932548566     -143.624215
9.293                0.932301583     -143.919816
9.294                0.932054606     -144.215882
9.295                 0.93180765     -144.512411
9.296                0.931560729       -144.8094
9.297                0.931313858     -145.106847
9.298                0.931067052     -145.404747
9.299                0.930820326       -145.7031
9.3                  0.930573695     -146.001901
9.301                0.930327173     -146.301148
9.302                0.930080776     -146.600838
9.303                0.929834518     -146.900968
9.304                0.929588415     -147.201535
9.305                0.929342482     -147.502537
9.306                0.929096735     -147.803969
9.307                0.928851187     -148.105829
9.308                0.928605856     -148.408114
9.309                0.928360755     -148.710821
9.31                 0.928115902     -149.013947
9.311                 0.92787131     -149.317488
9.312                0.927626996     -149.621441
9.313                0.927382975     -149.925803
9.314                0.927139262     -150.230571
9.315                0.926895874     -150.535741
9.316                0.926652826      -150.84131
9.317                0.926410134     -151.147275
9.318                0.926167812     -151.453632
9.319                0.925925879     -151.760378
9.32                 0.925684347     -152.067509
9.321                0.925443235     -152.375022
9.322                0.925202557     -152.682913
9.323                 0.92496233     -152.991179
9.324                0.924722568     -153.299817
9.325                0.924483289     -153.608822
9.326                0.924244507     -153.918191
9.327                 0.92400624      -154.22792
9.328                0.923768502     -154.538006
9.329                0.923531309     -154.848445
9.33                 0.923294678     -155.159232
9.331                0.923058625     -155.470366
9.332                0.922823164     -155.781841
9.333                0.922588313     -156.093653
9.334                0.922354087     -156.405799
9.335                0.922120502     -156.718276
9.336                0.921887574     -157.031078
9.337                0.921655318     -157.344203
9.338                0.921423751     -157.657646
9.339                0.921192888     -157.971402
9.34                 0.920962745     -158.285469
9.341                0.920733338     -158.599843
9.342                0.920504683     -158.914518
9.343                0.920276795     -159.229491
9.344                 0.92004969     -159.544758
9.345                0.919823384     -159.860314
9.346                0.919597893     -160.176156
9.347                0.919373231     -160.492279
9.348                0.919149415      -160.80868
9.349                0.918926459     -161.125353
9.35                 0.918704381     -161.442295
9.351                0.918483194     -161.759501
9.352                0.918262914     -162.076967
9.353                0.918043557     -162.394688
9.354                0.917825137     -162.712661
9.355                0.917607671     -163.030881
9.356                0.917391173     -163.349344
9.357                0.917175658     -163.668044
9.358                0.916961141     -163.986978
9.359                0.916747637     -164.306141
9.36                 0.916535161     -164.625529
9.361                0.916323729     -164.945138
9.362                0.916113353     -165.264961
9.363                 0.91590405     -165.584996
9.364                0.915695834     -165.905238
9.365                0.915488719     -166.225682
9.366                 0.91528272     -166.546323
9.367                0.915077851     -166.867157
9.368                0.914874127     -167.188179
9.369                 0.91467156     -167.509384
9.37                 0.914470166     -167.830769
9.371                0.914269959     -168.152327
9.372                0.914070952     -168.474055
9.373                0.913873159     -168.795948
9.374                0.913676594     -169.118001
9.375                 0.91348127      -169.44021
9.376                0.913287201     -169.762569
9.377                  0.9130944     -170.085073
9.378                0.912902881     -170.407719
9.379                0.912712655     -170.730501
9.38                 0.912523738     -171.053415
9.381                 0.91233614     -171.376455
9.382                0.912149876     -171.699616
9.383                0.911964958     -172.022895
9.384                0.911781398     -172.346286
9.385                0.911599209     -172.669784
9.386                0.911418402     -172.993385
9.387                0.911238991     -173.317082
9.388                0.911060987     -173.640873
9.389                0.910884402     -173.964751
9.39                 0.910709248     -174.288712
9.391                0.910535536     -174.612751
9.392                0.910363279     -174.936863
9.393                0.910192486     -175.261043
9.394                 0.91002317     -175.585286
9.395                0.909855341     -175.909587
9.396                0.909689011     -176.233941
