! TOUCHSTONE file generated by CST DESIGN STUDIO
! Date and time: Tue Feb  4 16:48:26 2025
! Project name: C:\Work\MatlabApps\UnitCellOptimizationMatlab\CST\unitcell.cst
! Tree item: Tasks\Sweep1\SPara1\S-Parameters
! Header version: 2024
! Port assignment regex: !\s*Touchstone port\s*([0-9]+)\s*=\s*(CST MWS port|CST DES external port|CST DES block port)\s*(.+)\s* \(\"(.*)\"\)(\s*mode\s*([0-9]+))?.*
! Touchstone port assignment:
! Touchstone port 1 = CST DES external port 1 ("")
# GHz S MA R 50
9                    0.975746782     -73.8290237
9.001                0.975717711      -73.951961
9.002                0.975688133     -74.0752359
9.003                0.975658046     -74.1988495
9.004                0.975627445     -74.3228029
9.005                 0.97559633     -74.4470971
9.006                0.975564695     -74.5717332
9.007                 0.97553254     -74.6967121
9.008                0.975499859     -74.8220351
9.009                0.975466652      -74.947703
9.01                 0.975432914      -75.073717
9.011                0.975398644     -75.2000782
9.012                0.975363837     -75.3267876
9.013                0.975328491     -75.4538462
9.014                0.975292603     -75.5812552
9.015                0.975256171     -75.7090155
9.016                 0.97521919     -75.8371283
9.017                0.975181659     -75.9655947
9.018                0.975143573     -76.0944157
9.019                0.975104932     -76.2235924
9.02                  0.97506573     -76.3531259
9.021                0.975025965     -76.4830172
9.022                0.974985635     -76.6132675
9.023                0.974944737     -76.7438778
9.024                0.974903266     -76.8748493
9.025                0.974861221     -77.0061829
9.026                0.974818599     -77.1378799
9.027                0.974775396     -77.2699413
9.028                0.974731609     -77.4023681
9.029                0.974687236     -77.5351616
9.03                 0.974642273     -77.6683228
9.031                0.974596717     -77.8018528
9.032                0.974550566     -77.9357527
9.033                0.974503817     -78.0700236
9.034                0.974456466     -78.2046666
9.035                 0.97440851     -78.3396829
9.036                0.974359947     -78.4750736
9.037                0.974310773     -78.6108397
9.038                0.974260986     -78.7469824
9.039                0.974210582     -78.8835028
9.04                 0.974159559      -79.020402
9.041                0.974107913     -79.1576812
9.042                0.974055642     -79.2953415
9.043                0.974002741     -79.4333839
9.044                 0.97394921     -79.5718097
9.045                0.973895044       -79.71062
9.046                 0.97384024     -79.8498158
9.047                0.973784796     -79.9893984
9.048                0.973728708     -80.1293688
9.049                0.973671974     -80.2697282
9.05                  0.97361459     -80.4104778
9.051                0.973556553     -80.5516186
9.052                0.973497861     -80.6931519
9.053                0.973438511     -80.8350787
9.054                0.973378499     -80.9774002
9.055                0.973317823     -81.1201175
9.056                0.973256479     -81.2632319
9.057                0.973194465     -81.4067444
9.058                0.973131777     -81.5506562
9.059                0.973068413     -81.6949685
9.06                  0.97300437     -81.8396823
9.061                0.972939644     -81.9847989
9.062                0.972874234     -82.1303195
9.063                0.972808135      -82.276245
9.064                0.972741345     -82.4225769
9.065                0.972673861     -82.5693161
9.066                 0.97260568     -82.7164638
9.067                0.972536799     -82.8640213
9.068                0.972467215     -83.0119897
9.069                0.972396926       -83.16037
9.07                 0.972325928     -83.3091636
9.071                0.972254218     -83.4583716
9.072                0.972181794     -83.6079951
9.073                0.972108653     -83.7580352
9.074                0.972034791     -83.9084933
9.075                0.971960206     -84.0593704
9.076                0.971884896     -84.2106677
9.077                0.971808857     -84.3623864
9.078                0.971732086     -84.5145277
9.079                 0.97165458     -84.6670927
9.08                 0.971576338     -84.8200826
9.081                0.971497355     -84.9734985
9.082                0.971417629     -85.1273418
9.083                0.971337158     -85.2816134
9.084                0.971255938     -85.4363146
9.085                0.971173967     -85.5914467
9.086                0.971091242     -85.7470107
9.087                0.971007761     -85.9030078
9.088                0.970923519     -86.0594392
9.089                0.970838516     -86.2163061
9.09                 0.970752748     -86.3736097
9.091                0.970666212     -86.5313511
9.092                0.970578906     -86.6895316
9.093                0.970490826     -86.8481522
9.094                0.970401972     -87.0072142
9.095                0.970312339     -87.1667188
9.096                0.970221925     -87.3266671
9.097                0.970130727     -87.4870603
9.098                0.970038744     -87.6478996
9.099                0.969945971     -87.8091862
9.1                  0.969852408     -87.9709213
9.101                0.969758051     -88.1331059
9.102                0.969662897     -88.2957414
9.103                0.969566944     -88.4588288
9.104                0.969470191     -88.6223694
9.105                0.969372633     -88.7863643
9.106                0.969274269     -88.9508148
9.107                0.969175097     -89.1157219
9.108                0.969075113     -89.2810868
9.109                0.968974316     -89.4469108
9.11                 0.968872703      -89.613195
9.111                0.968770271     -89.7799405
9.112                0.968667019     -89.9471486
9.113                0.968562945     -90.1148204
9.114                0.968458044     -90.2829571
9.115                0.968352317     -90.4515598
9.116                 0.96824576     -90.6206297
9.117                 0.96813837      -90.790168
9.118                0.968030147     -90.9601758
9.119                0.967921087     -91.1306543
9.12                 0.967811189     -91.3016047
9.121                 0.96770045     -91.4730281
9.122                0.967588869     -91.6449257
9.123                0.967476442     -91.8172986
9.124                0.967363169      -91.990148
9.125                0.967249047      -92.163475
9.126                0.967134074     -92.3372809
9.127                0.967018249     -92.5115666
9.128                0.966901568     -92.6863334
9.129                0.966784031     -92.8615825
9.13                 0.966665635     -93.0373149
9.131                0.966546379     -93.2135318
9.132                0.966426261     -93.3902344
9.133                0.966305278     -93.5674238
9.134                 0.96618343      -93.745101
9.135                0.966060714     -93.9232673
9.136                0.965937129     -94.1019238
9.137                0.965812674     -94.2810715
9.138                0.965687345     -94.4607117
9.139                0.965561143     -94.6408454
9.14                 0.965434065     -94.8214738
9.141                 0.96530611     -95.0025979
9.142                0.965177276     -95.1842189
9.143                0.965047562     -95.3663378
9.144                0.964916967     -95.5489559
9.145                0.964785488     -95.7320741
9.146                0.964653126     -95.9156936
9.147                0.964519877     -96.0998154
9.148                0.964385742     -96.2844407
9.149                0.964250719     -96.4695706
9.15                 0.964114807      -96.655206
9.151                0.963978004     -96.8413482
9.152                 0.96384031     -97.0279981
9.153                0.963701723     -97.2151569
9.154                0.963562243     -97.4028256
9.155                0.963421868     -97.5910052
9.156                0.963280597     -97.7796968
9.157                0.963138431     -97.9689016
9.158                0.962995367     -98.1586204
9.159                0.962851404     -98.3488544
9.16                 0.962706544     -98.5396046
9.161                0.962560783      -98.730872
9.162                0.962414123     -98.9226576
9.163                0.962266561     -99.1149625
9.164                0.962118099     -99.3077877
9.165                0.961968734     -99.5011342
9.166                0.961818467      -99.695003
9.167                0.961667298     -99.8893951
9.168                0.961515225     -100.084312
9.169                0.961362248     -100.279753
9.17                 0.961208368     -100.475721
9.171                0.961053585     -100.672216
9.172                0.960897897      -100.86924
9.173                0.960741304     -101.066792
9.174                0.960583808     -101.264875
9.175                0.960425407     -101.463489
9.176                0.960266102     -101.662634
9.177                0.960105893     -101.862313
9.178                 0.95994478     -102.062526
9.179                0.959782763     -102.263273
9.18                 0.959619843     -102.464556
9.181                 0.95945602     -102.666376
9.182                0.959291294     -102.868733
9.183                0.959125666     -103.071629
9.184                0.958959136     -103.275064
9.185                0.958791706     -103.479039
9.186                0.958623374     -103.683555
9.187                0.958454143     -103.888614
9.188                0.958284013     -104.094215
9.189                0.958112985     -104.300359
9.19                 0.957941059     -104.507048
9.191                0.957768237     -104.714282
9.192                 0.95759452     -104.922063
9.193                0.957419909      -105.13039
9.194                0.957244405     -105.339265
9.195                0.957068008     -105.548688
9.196                0.956890722     -105.758661
9.197                0.956712546     -105.969184
9.198                0.956533483     -106.180257
9.199                0.956353533     -106.391882
9.2                  0.956172699      -106.60406
9.201                0.955990982      -106.81679
9.202                0.955808384     -107.030074
9.203                0.955624906     -107.243913
9.204                 0.95544055     -107.458307
9.205                0.955255319     -107.673257
9.206                0.955069215     -107.888763
9.207                0.954882238     -108.104826
9.208                0.954694393     -108.321448
9.209                 0.95450568     -108.538627
9.21                 0.954316103     -108.756367
9.211                0.954125663     -108.974665
9.212                0.953934363     -109.193524
9.213                0.953742206     -109.412945
9.214                0.953549194     -109.632926
9.215                 0.95335533      -109.85347
9.216                0.953160616     -110.074577
9.217                0.952965057     -110.296247
9.218                0.952768654     -110.518481
9.219                 0.95257141     -110.741279
9.22                 0.952373329     -110.964642
9.221                0.952174415      -111.18857
9.222                0.951974669     -111.413064
9.223                0.951774096     -111.638124
9.224                  0.9515727     -111.863751
9.225                0.951370483     -112.089946
9.226                0.951167449     -112.316708
9.227                0.950963602     -112.544038
9.228                0.950758946     -112.771936
9.229                0.950553485     -113.000404
9.23                 0.950347222      -113.22944
9.231                0.950140162     -113.459046
9.232                0.949932309     -113.689222
9.233                0.949723668     -113.919969
9.234                0.949514241     -114.151286
9.235                0.949304035     -114.383173
9.236                0.949093054     -114.615632
9.237                0.948881301     -114.848663
9.238                0.948668782     -115.082265
9.239                0.948455502     -115.316439
9.24                 0.948241466     -115.551185
9.241                0.948026678     -115.786503
9.242                0.947811144     -116.022394
9.243                0.947594869     -116.258857
9.244                0.947377857     -116.495893
9.245                0.947160116     -116.733503
9.246                0.946941649     -116.971685
9.247                0.946722463      -117.21044
9.248                0.946502563     -117.449769
9.249                0.946281955     -117.689671
9.25                 0.946060645     -117.930146
9.251                0.945838639     -118.171195
9.252                0.945615942     -118.412817
9.253                0.945392562     -118.655012
9.254                0.945168504     -118.897781
9.255                0.944943775     -119.141123
9.256                0.944718381     -119.385038
9.257                0.944492328     -119.629526
9.258                0.944265624     -119.874587
9.259                0.944038275     -120.120221
9.26                 0.943810289     -120.366428
9.261                0.943581671     -120.613207
9.262                0.943352429     -120.860559
9.263                 0.94312257     -121.108483
9.264                0.942892102     -121.356979
9.265                0.942661032     -121.606046
9.266                0.942429367     -121.855685
9.267                0.942197115     -122.105895
9.268                0.941964283     -122.356676
9.269                 0.94173088     -122.608027
9.27                 0.941496914     -122.859949
9.271                0.941262391      -123.11244
9.272                0.941027321       -123.3655
9.273                0.940791712     -123.619129
9.274                0.940555571     -123.873327
9.275                0.940318907     -124.128092
9.276                 0.94008173     -124.383425
9.277                0.939844047     -124.639325
9.278                0.939605866     -124.895792
9.279                0.939367198     -125.152824
9.28                 0.939128051     -125.410422
9.281                0.938888433     -125.668584
9.282                0.938648354      -125.92731
9.283                0.938407824     -126.186599
9.284                0.938166851     -126.446451
9.285                0.937925445     -126.706866
9.286                0.937683616     -126.967841
9.287                0.937441373     -127.229377
9.288                0.937198726     -127.491472
9.289                0.936955684     -127.754127
9.29                 0.936712258     -128.017339
9.291                0.936468458     -128.281109
9.292                0.936224294     -128.545435
9.293                0.935979776     -128.810316
9.294                0.935734914     -129.075752
9.295                0.935489719     -129.341741
9.296                0.935244202     -129.608283
9.297                0.934998372     -129.875376
9.298                0.934752242      -130.14302
9.299                0.934505821     -130.411213
9.3                  0.934259121     -130.679954
9.301                0.934012153     -130.949243
9.302                0.933764927     -131.219077
9.303                0.933517455     -131.489457
9.304                0.933269749      -131.76038
9.305                 0.93302182     -132.031846
9.306                0.932773678     -132.303852
9.307                0.932525337     -132.576399
9.308                0.932276807     -132.849484
9.309                0.932028101     -133.123106
9.31                  0.93177923     -133.397265
9.311                0.931530206     -133.671957
9.312                0.931281041     -133.947183
9.313                0.931031748      -134.22294
9.314                0.930782339     -134.499228
9.315                0.930532825     -134.776044
9.316                 0.93028322     -135.053387
9.317                0.930033536     -135.331255
9.318                0.929783786     -135.609647
9.319                0.929533982     -135.888562
9.32                 0.929284137     -136.167997
9.321                0.929034263     -136.447951
9.322                0.928784375     -136.728422
9.323                0.928534484     -137.009409
9.324                0.928284604     -137.290909
9.325                0.928034747     -137.572921
9.326                0.927784929     -137.855443
9.327                 0.92753516     -138.138474
9.328                0.927285456      -138.42201
9.329                0.927035829     -138.706051
9.33                 0.926786292     -138.990594
9.331                0.926536861     -139.275638
9.332                0.926287547      -139.56118
9.333                0.926038366     -139.847218
9.334                 0.92578933      -140.13375
9.335                0.925540453     -140.420775
9.336                0.925291751      -140.70829
9.337                0.925043236     -140.996292
9.338                0.924794922      -141.28478
9.339                0.924546824     -141.573751
9.34                 0.924298956     -141.863204
9.341                0.924051332     -142.153135
9.342                0.923803967     -142.443543
9.343                0.923556875     -142.734425
9.344                0.923310069     -143.025779
9.345                0.923063566     -143.317602
9.346                0.922817378     -143.609892
9.347                0.922571521     -143.902646
9.348                 0.92232601     -144.195863
9.349                0.922080858     -144.489539
9.35                 0.921836082     -144.783671
9.351                0.921591694     -145.078258
9.352                0.921347711     -145.373296
9.353                0.921104146     -145.668783
9.354                0.920861016     -145.964717
9.355                0.920618334     -146.261094
9.356                0.920376116     -146.557911
9.357                0.920134376     -146.855167
9.358                 0.91989313     -147.152857
9.359                0.919652392      -147.45098
9.36                 0.919412178     -147.749533
9.361                0.919172502     -148.048511
9.362                 0.91893338     -148.347914
9.363                0.918694827     -148.647737
9.364                0.918456857     -148.947977
9.365                0.918219487     -149.248632
9.366                 0.91798273     -149.549699
9.367                0.917746603     -149.851174
9.368                 0.91751112     -150.153054
9.369                0.917276297     -150.455336
9.37                 0.917042148     -150.758017
9.371                0.916808689     -151.061094
9.372                0.916575936     -151.364564
9.373                0.916343902     -151.668422
9.374                0.916112604     -151.972667
9.375                0.915882056     -152.277294
9.376                0.915652274       -152.5823
9.377                0.915423273     -152.887682
9.378                0.915195068     -153.193437
9.379                0.914967673      -153.49956
9.38                 0.914741105     -153.806049
9.381                0.914515379       -154.1129
9.382                0.914290508      -154.42011
9.383                0.914066509     -154.727674
9.384                0.913843396      -155.03559
9.385                0.913621185     -155.343853
9.386                 0.91339989      -155.65246
9.387                0.913179526     -155.961408
9.388                0.912960108     -156.270692
9.389                0.912741651      -156.58031
9.39                  0.91252417     -156.890256
9.391                 0.91230768     -157.200528
9.392                0.912092195     -157.511122
9.393                 0.91187773     -157.822033
9.394                0.911664299     -158.133258
9.395                0.911451918     -158.444793
9.396                  0.9112406     -158.756635
