! TOUCHSTONE file generated by CST DESIGN STUDIO
! Date and time: Tue Feb  4 17:24:02 2025
! Project name: C:\Work\MatlabApps\UnitCellOptimizationMatlab\CST\unitcell.cst
! Tree item: Tasks\Sweep1\SPara1\S-Parameters
! Header version: 2024
! Port assignment regex: !\s*Touchstone port\s*([0-9]+)\s*=\s*(CST MWS port|CST DES external port|CST DES block port)\s*(.+)\s* \(\"(.*)\"\)(\s*mode\s*([0-9]+))?.*
! Touchstone port assignment:
! Touchstone port 1 = CST DES external port 1 ("")
# GHz S MA R 50
9                    0.870359944      -101.27787
9.001                0.869977312     -101.485259
9.002                0.869593646     -101.693275
9.003                0.869208951     -101.901922
9.004                0.868823231       -102.1112
9.005                0.868436488     -102.321112
9.006                0.868048727     -102.531658
9.007                0.867659952     -102.742841
9.008                0.867270168     -102.954661
9.009                0.866879378     -103.167122
9.01                 0.866487588     -103.380223
9.011                0.866094802     -103.593967
9.012                0.865701024     -103.808356
9.013                0.865306259      -104.02339
9.014                0.864910513     -104.239071
9.015                 0.86451379     -104.455402
9.016                0.864116096     -104.672383
9.017                0.863717435     -104.890016
9.018                0.863317814     -105.108303
9.019                0.862917237     -105.327245
9.02                 0.862515711     -105.546843
9.021                0.862113241     -105.767099
9.022                0.861709833     -105.988015
9.023                0.861305494     -106.209592
9.024                0.860900228     -106.431831
9.025                0.860494043     -106.654734
9.026                0.860086946     -106.878303
9.027                0.859678941     -107.102538
9.028                0.859270038     -107.327442
9.029                0.858860241     -107.553015
9.03                 0.858449558     -107.779259
9.031                0.858037997     -108.006176
9.032                0.857625564     -108.233766
9.033                0.857212267     -108.462032
9.034                0.856798113     -108.690975
9.035                0.856383111     -108.920595
9.036                0.855967267     -109.150894
9.037                 0.85555059     -109.381874
9.038                0.855133087     -109.613536
9.039                0.854714768     -109.845881
9.04                  0.85429564     -110.078911
9.041                0.853875712     -110.312626
9.042                0.853454993     -110.547028
9.043                0.853033491     -110.782118
9.044                0.852611216     -111.017898
9.045                0.852188176     -111.254368
9.046                0.851764381     -111.491531
9.047                0.851339841     -111.729386
9.048                0.850914564     -111.967935
9.049                0.850488561      -112.20718
9.05                 0.850061841     -112.447121
9.051                0.849634415      -112.68776
9.052                0.849206293     -112.929098
9.053                0.848777485     -113.171135
9.054                0.848348001     -113.413873
9.055                0.847917853     -113.657313
9.056                0.847487051     -113.901456
9.057                0.847055606     -114.146303
9.058                0.846623529     -114.391855
9.059                0.846190833     -114.638112
9.06                 0.845757527     -114.885077
9.061                0.845323625     -115.132749
9.062                0.844889137      -115.38113
9.063                0.844454076     -115.630221
9.064                0.844018454     -115.880022
9.065                0.843582283     -116.130534
9.066                0.843145576     -116.381759
9.067                0.842708345     -116.633696
9.068                0.842270604     -116.886347
9.069                0.841832365     -117.139713
9.07                 0.841393641     -117.393794
9.071                0.840954446     -117.648591
9.072                0.840514794     -117.904105
9.073                0.840074698     -118.160336
9.074                0.839634172     -118.417286
9.075                 0.83919323     -118.674954
9.076                0.838751887     -118.933341
9.077                0.838310156     -119.192448
9.078                0.837868052     -119.452275
9.079                0.837425591     -119.712824
9.08                 0.836982786     -119.974094
9.081                0.836539654     -120.236086
9.082                0.836096209       -120.4988
9.083                0.835652467     -120.762237
9.084                0.835208444     -121.026397
9.085                0.834764155     -121.291281
9.086                0.834319616     -121.556889
9.087                0.833874844     -121.823221
9.088                0.833429855     -122.090278
9.089                0.832984665     -122.358059
9.09                 0.832539292     -122.626565
9.091                0.832093751     -122.895797
9.092                0.831648061     -123.165754
9.093                0.831202238     -123.436437
9.094                  0.8307563     -123.707845
9.095                0.830310265     -123.979979
9.096                0.829864149     -124.252839
9.097                0.829417972     -124.526424
9.098                0.828971751     -124.800735
9.099                0.828525505     -125.075772
9.1                  0.828079252     -125.351535
9.101                0.827633011     -125.628023
9.102                0.827186801     -125.905237
9.103                 0.82674064     -126.183175
9.104                0.826294548     -126.461839
9.105                0.825848544     -126.741227
9.106                0.825402648      -127.02134
9.107                 0.82495688     -127.302177
9.108                0.824511259     -127.583737
9.109                0.824065805     -127.866021
9.11                  0.82362054     -128.149028
9.111                0.823175482     -128.432757
9.112                0.822730653     -128.717209
9.113                0.822286073     -129.002381
9.114                0.821841764     -129.288274
9.115                0.821397746     -129.574888
9.116                0.820954041     -129.862221
9.117                 0.82051067     -130.150273
9.118                0.820067654     -130.439043
9.119                0.819625016      -130.72853
9.12                 0.819182776     -131.018734
9.121                0.818740959     -131.309653
9.122                0.818299584     -131.601287
9.123                0.817858676     -131.893635
9.124                0.817418255     -132.186695
9.125                0.816978346     -132.480467
9.126                0.816538971      -132.77495
9.127                0.816100152     -133.070143
9.128                0.815661913     -133.366044
9.129                0.815224277     -133.662652
9.13                 0.814787268     -133.959966
9.131                 0.81435091     -134.257985
9.132                0.813915224     -134.556707
9.133                0.813480237     -134.856132
9.134                0.813045971     -135.156256
9.135                0.812612451      -135.45708
9.136                0.812179701     -135.758602
9.137                0.811747745     -136.060819
9.138                0.811316608     -136.363731
9.139                0.810886315     -136.667335
9.14                 0.810456889     -136.971631
9.141                0.810028357     -137.276616
9.142                0.809600743     -137.582289
9.143                0.809174072     -137.888647
9.144                0.808748369     -138.195689
9.145                 0.80832366     -138.503413
9.146                 0.80789997     -138.811816
9.147                0.807477324     -139.120898
9.148                0.807055749     -139.430655
9.149                 0.80663527     -139.741086
9.15                 0.806215913     -140.052188
9.151                0.805797704      -140.36396
9.152                0.805380668     -140.676398
9.153                0.804964832     -140.989501
9.154                0.804550223     -141.303266
9.155                0.804136866     -141.617691
9.156                0.803724787     -141.932773
9.157                0.803314014      -142.24851
9.158                0.802904573     -142.564898
9.159                 0.80249649     -142.881937
9.16                 0.802089791     -143.199622
9.161                0.801684504     -143.517951
9.162                0.801280656     -143.836921
9.163                0.800878272      -144.15653
9.164                0.800477381     -144.476774
9.165                0.800078008     -144.797651
9.166                0.799680182     -145.119157
9.167                0.799283928      -145.44129
9.168                0.798889273     -145.764045
9.169                0.798496246     -146.087421
9.17                 0.798104872     -146.411414
9.171                 0.79771518     -146.736021
9.172                0.797327196     -147.061237
9.173                0.796940946     -147.387061
9.174                 0.79655646     -147.713488
9.175                0.796173762     -148.040515
9.176                0.795792882     -148.368138
9.177                0.795413845     -148.696355
9.178                0.795036679      -149.02516
9.179                0.794661411     -149.354551
9.18                 0.794288068     -149.684523
9.181                0.793916677     -150.015073
9.182                0.793547266     -150.346197
9.183                 0.79317986     -150.677891
9.184                0.792814488     -151.010152
9.185                0.792451177     -151.342974
9.186                0.792089952     -151.676354
9.187                0.791730842     -152.010288
9.188                0.791373872     -152.344771
9.189                0.791019069       -152.6798
9.19                 0.790666461      -153.01537
9.191                0.790316074     -153.351476
9.192                0.789967934     -153.688114
9.193                0.789622068     -154.025281
9.194                0.789278503      -154.36297
9.195                0.788937263     -154.701178
9.196                0.788598377       -155.0399
9.197                0.788261869     -155.379132
9.198                0.787927766     -155.718868
9.199                0.787596094     -156.059103
9.2                  0.787266879     -156.399834
9.201                0.786940145     -156.741055
9.202                 0.78661592     -157.082761
9.203                0.786294227     -157.424947
9.204                0.785975093     -157.767608
9.205                0.785658543     -158.110739
9.206                0.785344601     -158.454335
9.207                0.785033293     -158.798391
9.208                0.784724643     -159.142901
9.209                0.784418676      -159.48786
9.21                 0.784115416     -159.833263
9.211                0.783814887     -160.179104
9.212                0.783517114     -160.525378
9.213                 0.78322212     -160.872079
9.214                 0.78292993     -161.219202
9.215                0.782640565     -161.566742
9.216                0.782354051     -161.914692
9.217                0.782070409     -162.263047
9.218                0.781789664     -162.611801
9.219                0.781511837     -162.960949
9.22                 0.781236951     -163.310484
9.221                0.780965028     -163.660401
9.222                0.780696091     -164.010693
9.223                0.780430161     -164.361356
9.224                 0.78016726     -164.712382
9.225                 0.77990741     -165.063767
9.226                 0.77965063     -165.415503
9.227                0.779396943     -165.767584
9.228                0.779146369     -166.120005
9.229                0.778898928     -166.472759
9.23                 0.778654641     -166.825841
9.231                0.778413527     -167.179242
9.232                0.778175605     -167.532959
9.233                0.777940896     -167.886983
9.234                0.777709419     -168.241308
9.235                0.777481191     -168.595929
9.236                0.777256232     -168.950839
9.237                0.777034559      -169.30603
9.238                0.776816191     -169.661498
9.239                0.776601145     -170.017234
9.24                 0.776389439     -170.373233
9.241                0.776181089     -170.729487
9.242                0.775976112      -171.08599
9.243                0.775774525     -171.442736
9.244                0.775576344     -171.799717
9.245                0.775381584     -172.156928
9.246                 0.77519026      -172.51436
9.247                0.775002389     -172.872007
9.248                0.774817984     -173.229863
9.249                0.774637061      -173.58792
9.25                 0.774459632     -173.946172
9.251                0.774285712     -174.304611
9.252                0.774115315     -174.663231
9.253                0.773948453     -175.022025
9.254                0.773785139     -175.380985
9.255                0.773625386     -175.740105
9.256                0.773469205     -176.099377
9.257                0.773316609     -176.458795
9.258                0.773167607     -176.818351
9.259                0.773022212     -177.178039
9.26                 0.772880434     -177.537851
9.261                0.772742283     -177.897779
9.262                0.772607769     -178.257818
9.263                0.772476901     -178.617959
9.264                0.772349689     -178.978196
9.265                0.772226141     -179.338521
9.266                0.772106265     -179.698927
9.267                 0.77199007      179.940593
9.268                0.771877562      179.580046
9.269                 0.77176875       179.21944
9.27                  0.77166364      178.858782
9.271                0.771562238      178.498079
9.272                0.771464551      178.137339
9.273                0.771370584      177.776568
9.274                0.771280342      177.415774
9.275                 0.77119383      177.054965
9.276                0.771111053      176.694147
9.277                0.771032014      176.333328
9.278                0.770956718      175.972515
9.279                0.770885167      175.611715
9.28                 0.770817366      175.250936
9.281                0.770753315      174.890185
9.282                0.770693017      174.529469
9.283                0.770636475      174.168796
9.284                0.770583689      173.808173
9.285                0.770534659      173.447607
9.286                0.770489388      173.087105
9.287                0.770447875      172.726675
9.288                0.770410119      172.366323
9.289                 0.77037612      172.006058
9.29                 0.770345877      171.645886
9.291                0.770319389      171.285815
9.292                0.770296654      170.925851
9.293                0.770277669      170.566003
9.294                0.770262432      170.206276
9.295                 0.77025094      169.846679
9.296                 0.77024319      169.487218
9.297                0.770239178      169.127901
9.298                0.770238899      168.768735
9.299                 0.77024235      168.409726
9.3                  0.770249526      168.050882
9.301                 0.77026042       167.69221
9.302                0.770275028      167.333718
9.303                0.770293343      166.975411
9.304                 0.77031536      166.617297
9.305                0.770341071      166.259383
9.306                0.770370469      165.901676
9.307                0.770403547      165.544183
9.308                0.770440297       165.18691
9.309                0.770480711      164.829865
9.31                 0.770524779      164.473055
9.311                0.770572494      164.116486
9.312                0.770623846      163.760164
9.313                0.770678825      163.404098
9.314                0.770737422      163.048293
9.315                0.770799625      162.692756
9.316                0.770865425      162.337494
9.317                 0.77093481      161.982513
9.318                0.771007769      161.627821
9.319                 0.77108429      161.273423
9.32                 0.771164362      160.919326
9.321                0.771247972      160.565537
9.322                0.771335107      160.212062
9.323                0.771425755      159.858908
9.324                0.771519902       159.50608
9.325                0.771617534      159.153585
9.326                0.771718638       158.80143
9.327                0.771823199      158.449621
9.328                0.771931203      158.098163
9.329                0.772042636      157.747064
9.33                 0.772157481      157.396329
9.331                0.772275725      157.045964
9.332                 0.77239735      156.695976
9.333                0.772522341       156.34637
9.334                0.772650683      155.997152
9.335                0.772782357      155.648329
9.336                0.772917349      155.299906
9.337                 0.77305564      154.951889
9.338                0.773197213      154.604283
9.339                0.773342052      154.257095
9.34                 0.773490137      153.910331
9.341                0.773641451      153.563994
9.342                0.773795976      153.218093
9.343                0.773953694      152.872631
9.344                0.774114584      152.527615
9.345                 0.77427863      152.183049
9.346                0.774445811       151.83894
9.347                0.774616108      151.495293
9.348                0.774789501      151.152112
9.349                0.774965971      150.809404
9.35                 0.775145497      150.467172
9.351                0.775328059      150.125424
9.352                0.775513638      149.784162
9.353                0.775702211      149.443394
9.354                0.775893759      149.103123
9.355                0.776088261      148.763354
9.356                0.776285694      148.424093
9.357                0.776486039      148.085344
9.358                0.776689273      147.747113
9.359                0.776895375      147.409402
9.36                 0.777104323      147.072219
9.361                0.777316095      146.735566
9.362                0.777530668      146.399449
9.363                0.777748021      146.063871
9.364                0.777968132      145.728839
9.365                0.778190977      145.394355
9.366                0.778416534      145.060424
9.367                 0.77864478      144.727051
9.368                0.778875692       144.39424
9.369                0.779109248      144.061994
9.37                 0.779345423      143.730319
9.371                0.779584196      143.399218
9.372                0.779825542      143.068695
9.373                0.780069438      142.738753
9.374                 0.78031586      142.409398
9.375                0.780564785      142.080633
9.376                0.780816189      141.752461
9.377                0.781070049      141.424887
9.378                 0.78132634      141.097913
9.379                0.781585039      140.771545
9.38                 0.781846121      140.445784
9.381                0.782109563      140.120635
9.382                 0.78237534      139.796101
9.383                0.782643428      139.472186
9.384                0.782913803      139.148893
9.385                 0.78318644      138.826225
9.386                0.783461316      138.504185
9.387                0.783738406      138.182777
9.388                0.784017686      137.862003
9.389                0.784299131      137.541868
9.39                 0.784582716      137.222373
9.391                0.784868418      136.903522
9.392                0.785156212      136.585318
9.393                0.785446073      136.267763
9.394                0.785737977       135.95086
9.395                0.786031899      135.634613
9.396                0.786327815      135.319023
