! TOUCHSTONE file generated by CST DESIGN STUDIO
! Date and time: Tue Feb  4 17:24:18 2025
! Project name: C:\Work\MatlabApps\UnitCellOptimizationMatlab\CST\unitcell.cst
! Tree item: Tasks\Sweep1\SPara1\S-Parameters
! Header version: 2024
! Port assignment regex: !\s*Touchstone port\s*([0-9]+)\s*=\s*(CST MWS port|CST DES external port|CST DES block port)\s*(.+)\s* \(\"(.*)\"\)(\s*mode\s*([0-9]+))?.*
! Touchstone port assignment:
! Touchstone port 1 = CST DES external port 1 ("")
# GHz S MA R 50
9                    0.966637861     -42.3399469
9.001                0.966577332     -42.3898948
9.002                0.966516603     -42.4399356
9.003                0.966455671     -42.4900696
9.004                0.966394538     -42.5402971
9.005                0.966333202     -42.5906182
9.006                0.966271663     -42.6410334
9.007                 0.96620992     -42.6915427
9.008                0.966147973     -42.7421467
9.009                0.966085821     -42.7928454
9.01                 0.966023464     -42.8436391
9.011                0.965960901     -42.8945283
9.012                0.965898132      -42.945513
9.013                0.965835155     -42.9965936
9.014                0.965771971     -43.0477704
9.015                0.965708579     -43.0990437
9.016                0.965644979     -43.1504137
9.017                0.965581169     -43.2018807
9.018                0.965517149      -43.253445
9.019                0.965452919     -43.3051069
9.02                 0.965388478     -43.3568666
9.021                0.965323825     -43.4087245
9.022                0.965258961     -43.4606809
9.023                0.965193883     -43.5127359
9.024                0.965128593       -43.56489
9.025                0.965063088     -43.6171433
9.026                 0.96499737     -43.6694963
9.027                0.964931436     -43.7219491
9.028                0.964865286     -43.7745021
9.029                0.964798921     -43.8271556
9.03                 0.964732338     -43.8799098
9.031                0.964665538     -43.9327651
9.032                 0.96459852     -43.9857217
9.033                0.964531284       -44.03878
9.034                0.964463828     -44.0919402
9.035                0.964396153     -44.1452027
9.036                0.964328257     -44.1985677
9.037                 0.96426014     -44.2520356
9.038                0.964191801     -44.3056066
9.039                 0.96412324     -44.3592811
9.04                 0.964054456     -44.4130594
9.041                0.963985448     -44.4669417
9.042                0.963916216     -44.5209285
9.043                 0.96384676     -44.5750199
9.044                0.963777078     -44.6292163
9.045                 0.96370717      -44.683518
9.046                0.963637035     -44.7379253
9.047                0.963566672     -44.7924386
9.048                0.963496082     -44.8470581
9.049                0.963425263     -44.9017842
9.05                 0.963354215     -44.9566172
9.051                0.963282936     -45.0115574
9.052                0.963211427     -45.0666051
9.053                0.963139687     -45.1217607
9.054                0.963067715     -45.1770244
9.055                 0.96299551     -45.2323966
9.056                0.962923072     -45.2878776
9.057                0.962850399     -45.3434677
9.058                0.962777493     -45.3991673
9.059                 0.96270435     -45.4549768
9.06                 0.962630972     -45.5108963
9.061                0.962557357     -45.5669263
9.062                0.962483505      -45.623067
9.063                0.962409414     -45.6793189
9.064                0.962335085     -45.7356822
9.065                0.962260516     -45.7921573
9.066                0.962185708     -45.8487445
9.067                0.962110658     -45.9054442
9.068                0.962035366     -45.9622567
9.069                0.961959833     -46.0191823
9.07                 0.961884056     -46.0762214
9.071                0.961808036     -46.1333743
9.072                0.961731771     -46.1906414
9.073                0.961655261      -46.248023
9.074                0.961578505     -46.3055195
9.075                0.961501503     -46.3631311
9.076                0.961424253     -46.4208583
9.077                0.961346755     -46.4787015
9.078                0.961269008     -46.5366608
9.079                0.961191012     -46.5947368
9.08                 0.961112765     -46.6529298
9.081                0.961034268       -46.71124
9.082                0.960955518      -46.769668
9.083                0.960876516      -46.828214
9.084                0.960797261     -46.8868783
9.085                0.960717752     -46.9456615
9.086                0.960637987     -47.0045637
9.087                0.960557968     -47.0635855
9.088                0.960477692     -47.1227271
9.089                0.960397158     -47.1819889
9.09                 0.960316367     -47.2413712
9.091                0.960235317     -47.3008746
9.092                0.960154008     -47.3604992
9.093                0.960072439     -47.4202456
9.094                0.959990608      -47.480114
9.095                0.959908516     -47.5401049
9.096                0.959826161     -47.6002186
9.097                0.959743542     -47.6604554
9.098                0.959660659     -47.7208159
9.099                0.959577512     -47.7813003
9.1                  0.959494098     -47.8419091
9.101                0.959410418     -47.9026426
9.102                 0.95932647     -47.9635012
9.103                0.959242254     -48.0244852
9.104                0.959157769     -48.0855952
9.105                0.959073014     -48.1468314
9.106                0.958987988     -48.2081943
9.107                0.958902691     -48.2696843
9.108                0.958817121     -48.3313017
9.109                0.958731278     -48.3930469
9.11                  0.95864516     -48.4549204
9.111                0.958558768     -48.5169225
9.112                  0.9584721     -48.5790537
9.113                0.958385155     -48.6413143
9.114                0.958297933     -48.7037048
9.115                0.958210432     -48.7662254
9.116                0.958122652     -48.8288768
9.117                0.958034592     -48.8916592
9.118                0.957946251     -48.9545731
9.119                0.957857628     -49.0176188
9.12                 0.957768722     -49.0807968
9.121                0.957679533     -49.1441076
9.122                0.957590059     -49.2075514
9.123                0.957500299     -49.2711288
9.124                0.957410254     -49.3348402
9.125                0.957319921     -49.3986859
9.126                  0.9572293     -49.4626664
9.127                 0.95713839     -49.5267822
9.128                 0.95704719     -49.5910336
9.129                0.956955699      -49.655421
9.13                 0.956863917      -49.719945
9.131                0.956771841     -49.7846058
9.132                0.956679473     -49.8494041
9.133                0.956586809     -49.9143401
9.134                 0.95649385     -49.9794144
9.135                0.956400595     -50.0446273
9.136                0.956307043     -50.1099793
9.137                0.956213192     -50.1754708
9.138                0.956119042     -50.2411024
9.139                0.956024591     -50.3068743
9.14                  0.95592984     -50.3727871
9.141                0.955834786     -50.4388412
9.142                 0.95573943     -50.5050371
9.143                0.955643769     -50.5713752
9.144                0.955547804      -50.637856
9.145                0.955451532     -50.7044799
9.146                0.955354954     -50.7712473
9.147                0.955258067     -50.8381588
9.148                0.955160872     -50.9052147
9.149                0.955063367     -50.9724156
9.15                 0.954965551     -51.0397619
9.151                0.954867423     -51.1072541
9.152                0.954768982     -51.1748926
9.153                0.954670227     -51.2426779
9.154                0.954571157     -51.3106105
9.155                0.954471772     -51.3786908
9.156                0.954372069     -51.4469193
9.157                0.954272048     -51.5152965
9.158                0.954171709     -51.5838229
9.159                0.954071049     -51.6524989
9.16                 0.953970069     -51.7213251
9.161                0.953868766     -51.7903018
9.162                 0.95376714     -51.8594296
9.163                 0.95366519      -51.928709
9.164                0.953562915     -51.9981404
9.165                0.953460313     -52.0677244
9.166                0.953357384     -52.1374615
9.167                0.953254127      -52.207352
9.168                 0.95315054     -52.2773966
9.169                0.953046622     -52.3475957
9.17                 0.952942373     -52.4179498
9.171                0.952837792     -52.4884595
9.172                0.952732876     -52.5591251
9.173                0.952627626     -52.6299473
9.174                0.952522039     -52.7009265
9.175                0.952416116     -52.7720632
9.176                0.952309854      -52.843358
9.177                0.952203253     -52.9148114
9.178                0.952096312     -52.9864238
9.179                0.951989029     -53.0581958
9.18                 0.951881404      -53.130128
9.181                0.951773435     -53.2022207
9.182                0.951665121     -53.2744746
9.183                0.951556461     -53.3468902
9.184                0.951447454      -53.419468
9.185                0.951338098     -53.4922085
9.186                0.951228394     -53.5651122
9.187                0.951118338     -53.6381797
9.188                0.951007931     -53.7114116
9.189                0.950897171     -53.7848083
9.19                 0.950786057     -53.8583704
9.191                0.950674588     -53.9320985
9.192                0.950562763      -54.005993
9.193                 0.95045058     -54.0800545
9.194                0.950338038     -54.1542836
9.195                0.950225136     -54.2286809
9.196                0.950111874     -54.3032467
9.197                0.949998249     -54.3779819
9.198                 0.94988426     -54.4528867
9.199                0.949769907     -54.5279619
9.2                  0.949655188      -54.603208
9.201                0.949540102     -54.6786256
9.202                0.949424647     -54.7542151
9.203                0.949308824     -54.8299773
9.204                0.949192629     -54.9059126
9.205                0.949076062     -54.9820216
9.206                0.948959123     -55.0583048
9.207                0.948841808      -55.134763
9.208                0.948724119     -55.2113966
9.209                0.948606052     -55.2882062
9.21                 0.948487607     -55.3651924
9.211                0.948368782     -55.4423558
9.212                0.948249577     -55.5196969
9.213                0.948129991     -55.5972164
9.214                 0.94801002     -55.6749148
9.215                0.947889666     -55.7527928
9.216                0.947768925     -55.8308509
9.217                0.947647798     -55.9090897
9.218                0.947526282     -55.9875099
9.219                0.947404377      -56.066112
9.22                 0.947282081     -56.1448966
9.221                0.947159393     -56.2238643
9.222                0.947036311     -56.3030158
9.223                0.946912834     -56.3823516
9.224                0.946788961     -56.4618724
9.225                0.946664691     -56.5415788
9.226                0.946540022     -56.6214714
9.227                0.946414953     -56.7015508
9.228                0.946289483     -56.7818176
9.229                 0.94616361     -56.8622725
9.23                 0.946037333     -56.9429161
9.231                 0.94591065     -57.0237491
9.232                0.945783561     -57.1047719
9.233                0.945656063     -57.1859854
9.234                0.945528157     -57.2673901
9.235                0.945399839     -57.3489866
9.236                0.945271109     -57.4307757
9.237                0.945141966     -57.5127579
9.238                0.945012407     -57.5949339
9.239                0.944882433     -57.6773043
9.24                  0.94475204     -57.7598698
9.241                0.944621229     -57.8426311
9.242                0.944489997     -57.9255888
9.243                0.944358343     -58.0087436
9.244                0.944226266      -58.092096
9.245                0.944093765     -58.1756469
9.246                0.943960837     -58.2593968
9.247                0.943827482     -58.3433465
9.248                0.943693697     -58.4274965
9.249                0.943559483     -58.5118477
9.25                 0.943424837     -58.5964005
9.251                0.943289757     -58.6811558
9.252                0.943154243     -58.7661142
9.253                0.943018293     -58.8512765
9.254                0.942881906     -58.9366431
9.255                0.942745079      -59.022215
9.256                0.942607812     -59.1079927
9.257                0.942470103      -59.193977
9.258                0.942331951     -59.2801685
9.259                0.942193354      -59.366568
9.26                 0.942054311     -59.4531762
9.261                 0.94191482     -59.5399937
9.262                 0.94177488     -59.6270213
9.263                0.941634489     -59.7142596
9.264                0.941493646     -59.8017095
9.265                0.941352349     -59.8893716
9.266                0.941210598     -59.9772466
9.267                0.941068389     -60.0653353
9.268                0.940925722     -60.1536384
9.269                0.940782596     -60.2421565
9.27                 0.940639008     -60.3308905
9.271                0.940494958     -60.4198411
9.272                0.940350443      -60.509009
9.273                0.940205463     -60.5983949
9.274                0.940060015     -60.6879996
9.275                0.939914099     -60.7778239
9.276                0.939767712     -60.8678684
9.277                0.939620854     -60.9581339
9.278                0.939473521     -61.0486213
9.279                0.939325714     -61.1393311
9.28                 0.939177431     -61.2302643
9.281                0.939028669     -61.3214215
9.282                0.938879427     -61.4128035
9.283                0.938729705     -61.5044112
9.284                0.938579499     -61.5962451
9.285                0.938428809     -61.6883062
9.286                0.938277633     -61.7805953
9.287                 0.93812597     -61.8731129
9.288                0.937973818     -61.9658601
9.289                0.937821174     -62.0588375
9.29                 0.937668039     -62.1520459
9.291                 0.93751441     -62.2454862
9.292                0.937360285     -62.3391591
9.293                0.937205663     -62.4330654
9.294                0.937050542     -62.5272059
9.295                0.936894921     -62.6215814
9.296                0.936738798     -62.7161927
9.297                0.936582172     -62.8110407
9.298                 0.93642504     -62.9061261
9.299                0.936267402     -63.0014498
9.3                  0.936109255     -63.0970125
9.301                0.935950598     -63.1928152
9.302                0.935791429     -63.2888585
9.303                0.935631747     -63.3851434
9.304                 0.93547155     -63.4816707
9.305                0.935310837     -63.5784411
9.306                0.935149605     -63.6754556
9.307                0.934987853      -63.772715
9.308                 0.93482558     -63.8702201
9.309                0.934662783     -63.9679718
9.31                 0.934499462     -64.0659708
9.311                0.934335614     -64.1642182
9.312                0.934171238     -64.2627146
9.313                0.934006332     -64.3614611
9.314                0.933840894     -64.4604583
9.315                0.933674923     -64.5597073
9.316                0.933508418     -64.6592088
9.317                0.933341375     -64.7589638
9.318                0.933173795     -64.8589731
9.319                0.933005674     -64.9592375
9.32                 0.932837012      -65.059758
9.321                0.932667806     -65.1605355
9.322                0.932498055     -65.2615708
9.323                0.932327758     -65.3628649
9.324                0.932156912     -65.4644185
9.325                0.931985516     -65.5662327
9.326                0.931813568     -65.6683082
9.327                0.931641067     -65.7706461
9.328                 0.93146801     -65.8732472
9.329                0.931294396     -65.9761124
9.33                 0.931120224     -66.0792427
9.331                0.930945491     -66.1826389
9.332                0.930770196      -66.286302
9.333                0.930594338     -66.3902329
9.334                0.930417913     -66.4944325
9.335                0.930240922     -66.5989018
9.336                0.930063361     -66.7036416
9.337                 0.92988523      -66.808653
9.338                0.929706526     -66.9139368
9.339                0.929527248      -67.019494
9.34                 0.929347394     -67.1253256
9.341                0.929166963     -67.2314324
9.342                0.928985952     -67.3378155
9.343                 0.92880436     -67.4444758
9.344                0.928622185     -67.5514143
9.345                0.928439425     -67.6586318
9.346                 0.92825608     -67.7661295
9.347                0.928072146     -67.8739082
9.348                0.927887622     -67.9819689
9.349                0.927702507     -68.0903127
9.35                 0.927516798     -68.1989404
9.351                0.927330495     -68.3078531
9.352                0.927143595     -68.4170518
9.353                0.926956096     -68.5265373
9.354                0.926767997     -68.6363109
9.355                0.926579296     -68.7463733
9.356                0.926389991     -68.8567257
9.357                0.926200081      -68.967369
9.358                0.926009563     -69.0783043
9.359                0.925818437     -69.1895325
9.36                   0.9256267     -69.3010546
9.361                 0.92543435     -69.4128718
9.362                0.925241387      -69.524985
9.363                0.925047807     -69.6373951
9.364                 0.92485361     -69.7501034
9.365                0.924658793     -69.8631107
9.366                0.924463355     -69.9764182
9.367                0.924267294     -70.0900268
9.368                0.924070609     -70.2039376
9.369                0.923873297     -70.3181517
9.37                 0.923675357       -70.43267
9.371                0.923476788     -70.5474937
9.372                0.923277587     -70.6626238
9.373                0.923077752     -70.7780614
9.374                0.922877283     -70.8938075
9.375                0.922676177     -71.0098632
9.376                0.922474432     -71.1262296
9.377                0.922272047     -71.2429077
9.378                0.922069021     -71.3598986
9.379                 0.92186535     -71.4772034
9.38                 0.921661035     -71.5948232
9.381                0.921456072     -71.7127591
9.382                0.921250461     -71.8310121
9.383                0.921044199     -71.9495834
9.384                0.920837285      -72.068474
9.385                0.920629718     -72.1876851
9.386                0.920421494     -72.3072178
9.387                0.920212614     -72.4270731
9.388                0.920003075     -72.5472522
9.389                0.919792875     -72.6677562
9.39                 0.919582012     -72.7885862
9.391                0.919370486     -72.9097434
9.392                0.919158295     -73.0312289
9.393                0.918945435     -73.1530437
9.394                0.918731907     -73.2751891
9.395                0.918517709     -73.3976661
9.396                0.918302838      -73.520476
