! TOUCHSTONE file generated by CST DESIGN STUDIO
! Date and time: Tue Feb  4 17:13:58 2025
! Project name: C:\Work\MatlabApps\UnitCellOptimizationMatlab\CST\unitcell.cst
! Tree item: Tasks\Sweep1\SPara1\S-Parameters
! Header version: 2024
! Port assignment regex: !\s*Touchstone port\s*([0-9]+)\s*=\s*(CST MWS port|CST DES external port|CST DES block port)\s*(.+)\s* \(\"(.*)\"\)(\s*mode\s*([0-9]+))?.*
! Touchstone port assignment:
! Touchstone port 1 = CST DES external port 1 ("")
# GHz S MA R 50
9                    0.945737621     -61.5884003
9.001                0.945609192      -61.675514
9.002                0.945480351     -61.7628388
9.003                0.945351097     -61.8503755
9.004                 0.94522143     -61.9381249
9.005                0.945091346     -62.0260875
9.006                0.944960846     -62.1142641
9.007                0.944829927     -62.2026554
9.008                0.944698588     -62.2912621
9.009                0.944566828     -62.3800849
9.01                 0.944434645     -62.4691245
9.011                0.944302037     -62.5583817
9.012                0.944169004     -62.6478571
9.013                0.944035544     -62.7375515
9.014                0.943901655     -62.8274655
9.015                0.943767336        -62.9176
9.016                0.943632586     -63.0079557
9.017                0.943497402     -63.0985332
9.018                0.943361784     -63.1893333
9.019                 0.94322573     -63.2803568
9.02                 0.943089239     -63.3716043
9.021                0.942952308     -63.4630767
9.022                0.942814938     -63.5547746
9.023                0.942677125     -63.6466989
9.024                0.942538869     -63.7388502
9.025                0.942400168     -63.8312294
9.026                0.942261021      -63.923837
9.027                0.942121426     -64.0166741
9.028                0.941981382     -64.1097412
9.029                0.941840887     -64.2030391
9.03                 0.941699939     -64.2965687
9.031                0.941558538     -64.3903306
9.032                0.941416681     -64.4843257
9.033                0.941274367     -64.5785547
9.034                0.941131595     -64.6730185
9.035                0.940988363     -64.7677177
9.036                0.940844669     -64.8626531
9.037                0.940700513     -64.9578256
9.038                0.940555892     -65.0532359
9.039                0.940410805     -65.1488849
9.04                  0.94026525     -65.2447733
9.041                0.940119226     -65.3409018
9.042                0.939972731     -65.4372714
9.043                0.939825764     -65.5338828
9.044                0.939678324     -65.6307368
9.045                0.939530408     -65.7278343
9.046                0.939382015     -65.8251759
9.047                0.939233144     -65.9227627
9.048                0.939083793     -66.0205952
9.049                 0.93893396     -66.1186745
9.05                 0.938783644     -66.2170012
9.051                0.938632843     -66.3155763
9.052                0.938481557     -66.4144005
9.053                0.938329782     -66.5134747
9.054                0.938177518     -66.6127997
9.055                0.938024763     -66.7123764
9.056                0.937871516     -66.8122056
9.057                0.937717774     -66.9122881
9.058                0.937563537     -67.0126247
9.059                0.937408802     -67.1132164
9.06                 0.937253569      -67.214064
9.061                0.937097835     -67.3151683
9.062                0.936941599     -67.4165301
9.063                 0.93678486     -67.5181505
9.064                0.936627615     -67.6200301
9.065                0.936469863     -67.7221699
9.066                0.936311604     -67.8245707
9.067                0.936152834     -67.9272334
9.068                0.935993552      -68.030159
9.069                0.935833758     -68.1333481
9.07                 0.935673448     -68.2368019
9.071                0.935512623      -68.340521
9.072                0.935351279     -68.4445065
9.073                0.935189416     -68.5487592
9.074                0.935027031     -68.6532799
9.075                0.934864124     -68.7580697
9.076                0.934700692     -68.8631293
9.077                0.934536734     -68.9684597
9.078                0.934372249     -69.0740618
9.079                0.934207235     -69.1799366
9.08                 0.934041689     -69.2860848
9.081                0.933875611     -69.3925074
9.082                   0.933709     -69.4992054
9.083                0.933541852     -69.6061797
9.084                0.933374167     -69.7134311
9.085                0.933205944     -69.8209607
9.086                0.933037179     -69.9287693
9.087                0.932867873     -70.0368578
9.088                0.932698023     -70.1452273
9.089                0.932527628     -70.2538786
9.09                 0.932356685     -70.3628127
9.091                0.932185195     -70.4720306
9.092                0.932013154     -70.5815331
9.093                0.931840561     -70.6913212
9.094                0.931667414     -70.8013959
9.095                0.931493713     -70.9117582
9.096                0.931319455      -71.022409
9.097                0.931144639     -71.1333492
9.098                0.930969263     -71.2445799
9.099                0.930793326     -71.3561019
9.1                  0.930616826     -71.4679163
9.101                0.930439761     -71.5800241
9.102                0.930262129     -71.6924262
9.103                 0.93008393     -71.8051236
9.104                0.929905161     -71.9181174
9.105                0.929725822     -72.0314083
9.106                0.929545909     -72.1449976
9.107                0.929365422     -72.2588861
9.108                 0.92918436     -72.3730749
9.109                 0.92900272      -72.487565
9.11                 0.928820501     -72.6023573
9.111                0.928637701      -72.717453
9.112                0.928454319     -72.8328529
9.113                0.928270353     -72.9485581
9.114                0.928085802     -73.0645696
9.115                0.927900664     -73.1808884
9.116                0.927714937     -73.2975157
9.117                0.927528621     -73.4144523
9.118                0.927341712     -73.5316993
9.119                 0.92715421     -73.6492578
9.12                 0.926966114     -73.7671287
9.121                 0.92677742     -73.8853132
9.122                0.926588129     -74.0038122
9.123                0.926398239     -74.1226269
9.124                0.926207747     -74.2417582
9.125                0.926016653     -74.3612072
9.126                0.925824955      -74.480975
9.127                 0.92563265     -74.6010626
9.128                0.925439739     -74.7214711
9.129                0.925246219     -74.8422015
9.13                 0.925052089      -74.963255
9.131                0.924857346     -75.0846325
9.132                0.924661991     -75.2063352
9.133                 0.92446602     -75.3283641
9.134                0.924269433     -75.4507203
9.135                0.924072229     -75.5734049
9.136                0.923874405      -75.696419
9.137                 0.92367596     -75.8197637
9.138                0.923476892       -75.94344
9.139                0.923277201     -76.0674491
9.14                 0.923076885      -76.191792
9.141                0.922875942     -76.3164699
9.142                 0.92267437     -76.4414839
9.143                0.922472169      -76.566835
9.144                0.922269337     -76.6925244
9.145                0.922065872     -76.8185531
9.146                0.921861774     -76.9449224
9.147                 0.92165704     -77.0716334
9.148                0.921451668      -77.198687
9.149                0.921245659     -77.3260846
9.15                  0.92103901     -77.4538271
9.151                 0.92083172     -77.5819158
9.152                0.920623788     -77.7103517
9.153                0.920415211     -77.8391361
9.154                 0.92020599       -77.96827
9.155                0.919996122     -78.0977546
9.156                0.919785606     -78.2275911
9.157                0.919574441     -78.3577805
9.158                0.919362625     -78.4883241
9.159                0.919150157      -78.619223
9.16                 0.918937036     -78.7504783
9.161                 0.91872326     -78.8820912
9.162                0.918508829      -79.014063
9.163                 0.91829374     -79.1463947
9.164                0.918077994     -79.2790875
9.165                0.917861587     -79.4121426
9.166                 0.91764452     -79.5455612
9.167                 0.91742679     -79.6793444
9.168                0.917208397     -79.8134934
9.169                0.916989339     -79.9480095
9.17                 0.916769616     -80.0828938
9.171                0.916549226     -80.2181475
9.172                0.916328167     -80.3537717
9.173                0.916106439     -80.4897678
9.174                0.915884041     -80.6261368
9.175                0.915660971       -80.76288
9.176                0.915437228     -80.8999986
9.177                0.915212811     -81.0374938
9.178                 0.91498772     -81.1753667
9.179                0.914761952     -81.3136187
9.18                 0.914535507      -81.452251
9.181                0.914308384     -81.5912647
9.182                0.914080582      -81.730661
9.183                0.913852099     -81.8704412
9.184                0.913622935     -82.0106066
9.185                0.913393089     -82.1511583
9.186                 0.91316256     -82.2920976
9.187                0.912931346     -82.4334256
9.188                0.912699447     -82.5751438
9.189                0.912466862     -82.7172532
9.19                 0.912233591     -82.8597551
9.191                0.911999631     -83.0026508
9.192                0.911764982     -83.1459415
9.193                0.911529644     -83.2896284
9.194                0.911293616     -83.4337129
9.195                0.911056896     -83.5781961
9.196                0.910819484     -83.7230793
9.197                0.910581379     -83.8683638
9.198                 0.91034258     -84.0140508
9.199                0.910103088     -84.1601416
9.2                    0.9098629     -84.3066375
9.201                0.909622016     -84.4535396
9.202                0.909380436     -84.6008494
9.203                0.909138158      -84.748568
9.204                0.908895183     -84.8966968
9.205                 0.90865151     -85.0452369
9.206                0.908407137     -85.1941898
9.207                0.908162065     -85.3435565
9.208                0.907916293     -85.4933386
9.209                 0.90766982     -85.6435371
9.21                 0.907422646     -85.7941534
9.211                0.907174771     -85.9451889
9.212                0.906926193     -86.0966447
9.213                0.906676913     -86.2485221
9.214                 0.90642693     -86.4008225
9.215                0.906176244     -86.5535472
9.216                0.905924854     -86.7066974
9.217                 0.90567276     -86.8602745
9.218                0.905419962     -87.0142796
9.219                 0.90516646     -87.1687142
9.22                 0.904912253     -87.3235796
9.221                0.904657341      -87.478877
9.222                0.904401723     -87.6346077
9.223                0.904145401     -87.7907731
9.224                0.903888373     -87.9473744
9.225                0.903630639      -88.104413
9.226                  0.9033722     -88.2618901
9.227                0.903113055     -88.4198071
9.228                0.902853205     -88.5781653
9.229                0.902592648      -88.736966
9.23                 0.902331387     -88.8962105
9.231                 0.90206942     -89.0559002
9.232                0.901806747     -89.2160363
9.233                0.901543369     -89.3766201
9.234                0.901279287     -89.5376531
9.235                0.901014499     -89.6991364
9.236                0.900749007     -89.8610714
9.237                0.900482811     -90.0234595
9.238                 0.90021591     -90.1863019
9.239                0.899948306        -90.3496
9.24                 0.899679999     -90.5133551
9.241                0.899410989     -90.6775685
9.242                0.899141277     -90.8422415
9.243                0.898870863     -91.0073755
9.244                0.898599748     -91.1729718
9.245                0.898327932     -91.3390317
9.246                0.898055415     -91.5055565
9.247                  0.8977822     -91.6725475
9.248                0.897508286     -91.8400062
9.249                0.897233674     -92.0079337
9.25                 0.896958364     -92.1763315
9.251                0.896682358     -92.3452008
9.252                0.896405657     -92.5145429
9.253                0.896128261     -92.6843593
9.254                0.895850171     -92.8546512
9.255                0.895571389     -93.0254199
9.256                0.895291915     -93.1966668
9.257                0.895011751     -93.3683931
9.258                0.894730897     -93.5406002
9.259                0.894449354     -93.7132895
9.26                 0.894167125     -93.8864622
9.261                 0.89388421     -94.0601196
9.262                 0.89360061     -94.2342632
9.263                0.893316327     -94.4088941
9.264                0.893031362     -94.5840137
9.265                0.892745717     -94.7596233
9.266                0.892459393     -94.9357243
9.267                0.892172392     -95.1123179
9.268                0.891884715     -95.2894054
9.269                0.891596364     -95.4669882
9.27                  0.89130734     -95.6450676
9.271                0.891017646     -95.8236448
9.272                0.890727283     -96.0027213
9.273                0.890436254     -96.1822981
9.274                0.890144559     -96.3623768
9.275                0.889852201     -96.5429586
9.276                0.889559181     -96.7240447
9.277                0.889265503     -96.9056364
9.278                0.888971168     -97.0877352
9.279                0.888676178     -97.2703421
9.28                 0.888380536     -97.4534586
9.281                0.888084244      -97.637086
9.282                0.887787303     -97.8212254
9.283                0.887489717     -98.0058781
9.284                0.887191489     -98.1910456
9.285                0.886892619     -98.3767289
9.286                0.886593112     -98.5629294
9.287                 0.88629297     -98.7496484
9.288                0.885992195     -98.9368871
9.289                 0.88569079     -99.1246468
9.29                 0.885388759     -99.3129287
9.291                0.885086103     -99.5017341
9.292                0.884782826     -99.6910642
9.293                0.884478931     -99.8809203
9.294                0.884174422     -100.071304
9.295                  0.8838693     -100.262215
9.296                 0.88356357     -100.453657
9.297                0.883257235     -100.645629
9.298                0.882950297     -100.838134
9.299                0.882642761     -101.031172
9.3                   0.88233463     -101.224744
9.301                0.882025907     -101.418852
9.302                0.881716597     -101.613498
9.303                0.881406702     -101.808681
9.304                0.881096227     -102.004404
9.305                0.880785175     -102.200667
9.306                 0.88047355     -102.397472
9.307                0.880161357      -102.59482
9.308                0.879848599     -102.792712
9.309                0.879535281      -102.99115
9.31                 0.879221406     -103.190134
9.311                0.878906979     -103.389665
9.312                0.878592004     -103.589745
9.313                0.878276486     -103.790375
9.314                 0.87796043     -103.991556
9.315                0.877643839     -104.193289
9.316                0.877326718     -104.395576
9.317                0.877009073     -104.598417
9.318                0.876690907     -104.801813
9.319                0.876372226     -105.005766
9.32                 0.876053035     -105.210276
9.321                0.875733339     -105.415346
9.322                0.875413143     -105.620975
9.323                0.875092453     -105.827165
9.324                0.874771272     -106.033917
9.325                0.874449608     -106.241232
9.326                0.874127465     -106.449111
9.327                0.873804849     -106.657555
9.328                0.873481765     -106.866566
9.329                0.873158219     -107.076143
9.33                 0.872834218     -107.286289
9.331                0.872509766     -107.497004
9.332                 0.87218487     -107.708289
9.333                0.871859537     -107.920145
9.334                0.871533771     -108.132573
9.335                0.871207579     -108.345575
9.336                0.870880968      -108.55915
9.337                0.870553945       -108.7733
9.338                0.870226514     -108.988026
9.339                0.869898684      -109.20333
9.34                 0.869570461      -109.41921
9.341                0.869241851      -109.63567
9.342                0.868912862     -109.852709
9.343                  0.8685835     -110.070328
9.344                0.868253772     -110.288529
9.345                0.867923686     -110.507312
9.346                0.867593249     -110.726677
9.347                0.867262468     -110.946627
9.348                 0.86693135     -111.167161
9.349                0.866599904     -111.388281
9.35                 0.866268136     -111.609987
9.351                0.865936054     -111.832279
9.352                0.865603667      -112.05516
9.353                0.865270982     -112.278629
9.354                0.864938007     -112.502687
9.355                 0.86460475     -112.727336
9.356                0.864271219     -112.952575
9.357                0.863937423     -113.178405
9.358                 0.86360337     -113.404828
9.359                0.863269069     -113.631844
9.36                 0.862934527     -113.859452
9.361                0.862599755     -114.087655
9.362                 0.86226476     -114.316453
9.363                0.861929551     -114.545846
9.364                0.861594138     -114.775835
9.365                0.861258529      -115.00642
9.366                0.860922734     -115.237602
9.367                0.860586762     -115.469382
9.368                0.860250623     -115.701761
9.369                0.859914325     -115.934737
9.37                 0.859577878     -116.168313
9.371                0.859241293     -116.402489
9.372                0.858904578     -116.637265
9.373                0.858567745     -116.872641
9.374                0.858230802     -117.108618
9.375                 0.85789376     -117.345197
9.376                0.857556629     -117.582378
9.377                0.857219419      -117.82016
9.378                0.856882141     -118.058546
9.379                0.856544806     -118.297534
9.38                 0.856207423     -118.537125
9.381                0.855870004      -118.77732
9.382                 0.85553256     -119.018119
9.383                0.855195101     -119.259522
9.384                0.854857638     -119.501529
9.385                0.854520182      -119.74414
9.386                0.854182746     -119.987357
9.387                0.853845339     -120.231178
9.388                0.853507974     -120.475605
9.389                0.853170662     -120.720636
9.39                 0.852833415     -120.966273
9.391                0.852496244     -121.212516
9.392                0.852159162     -121.459364
9.393                0.851822179     -121.706817
9.394                0.851485309     -121.954876
9.395                0.851148563     -122.203541
9.396                0.850811954     -122.452812
