! TOUCHSTONE file generated by CST DESIGN STUDIO
! Date and time: Tue Feb  4 17:13:53 2025
! Project name: C:\Work\MatlabApps\UnitCellOptimizationMatlab\CST\unitcell.cst
! Tree item: Tasks\Sweep1\SPara1\S-Parameters
! Header version: 2024
! Port assignment regex: !\s*Touchstone port\s*([0-9]+)\s*=\s*(CST MWS port|CST DES external port|CST DES block port)\s*(.+)\s* \(\"(.*)\"\)(\s*mode\s*([0-9]+))?.*
! Touchstone port assignment:
! Touchstone port 1 = CST DES external port 1 ("")
# GHz S MA R 50
9                    0.926916716     -78.8774706
9.001                0.926711274     -79.0086657
9.002                0.926505181       -79.14022
9.003                0.926298435     -79.2721346
9.004                0.926091035     -79.4044107
9.005                0.925882979     -79.5370495
9.006                0.925674267     -79.6700522
9.007                0.925464895     -79.8034199
9.008                0.925254864     -79.9371538
9.009                0.925044172     -80.0712552
9.01                 0.924832816     -80.2057253
9.011                0.924620797     -80.3405652
9.012                0.924408113     -80.4757761
9.013                0.924194762     -80.6113592
9.014                0.923980743     -80.7473158
9.015                0.923766054     -80.8836471
9.016                0.923550695     -81.0203542
9.017                0.923334664     -81.1574384
9.018                 0.92311796     -81.2949009
9.019                0.922900582      -81.432743
9.02                 0.922682527     -81.5709658
9.021                0.922463796     -81.7095706
9.022                0.922244387     -81.8485586
9.023                0.922024298      -81.987931
9.024                0.921803528     -82.1276892
9.025                0.921582077     -82.2678342
9.026                0.921359943     -82.4083674
9.027                0.921137124     -82.5492901
9.028                0.920913621     -82.6906033
9.029                0.920689431     -82.8323085
9.03                 0.920464553     -82.9744068
9.031                0.920238987     -83.1168995
9.032                0.920012731     -83.2597878
9.033                0.919785785     -83.4030731
9.034                0.919558146     -83.5467566
9.035                0.919329815     -83.6908395
9.036                 0.91910079      -83.835323
9.037                 0.91887107     -83.9802086
9.038                0.918640654     -84.1254974
9.039                0.918409541     -84.2711908
9.04                 0.918177731     -84.4172899
9.041                0.917945222     -84.5637961
9.042                0.917712013     -84.7107106
9.043                0.917478104     -84.8580348
9.044                0.917243494     -85.0057699
9.045                0.917008181     -85.1539171
9.046                0.916772165     -85.3024779
9.047                0.916535445     -85.4514534
9.048                0.916298021     -85.6008451
9.049                0.916059891      -85.750654
9.05                 0.915821056     -85.9008817
9.051                0.915581513     -86.0515293
9.052                0.915341263     -86.2025982
9.053                0.915100304     -86.3540896
9.054                0.914858637     -86.5060049
9.055                 0.91461626     -86.6583453
9.056                0.914373173     -86.8111123
9.057                0.914129375      -86.964307
9.058                0.913884866     -87.1179308
9.059                0.913639645     -87.2719851
9.06                 0.913393711      -87.426471
9.061                0.913147065       -87.58139
9.062                0.912899705     -87.7367434
9.063                0.912651632     -87.8925325
9.064                0.912402845     -88.0487585
9.065                0.912153343     -88.2054229
9.066                0.911903126     -88.3625269
9.067                0.911652194     -88.5200719
9.068                0.911400546     -88.6780591
9.069                0.911148183       -88.83649
9.07                 0.910895104     -88.9953659
9.071                0.910641308      -89.154688
9.072                0.910386796     -89.3144577
9.073                0.910131568     -89.4746764
9.074                0.909875623     -89.6353453
9.075                0.909618961     -89.7964658
9.076                0.909361582     -89.9580393
9.077                0.909103486     -90.1200671
9.078                0.908844674     -90.2825504
9.079                0.908585145     -90.4454908
9.08                 0.908324899     -90.6088894
9.081                0.908063936     -90.7727476
9.082                0.907802257     -90.9370667
9.083                0.907539862     -91.1018482
9.084                 0.90727675     -91.2670933
9.085                0.907012923     -91.4328034
9.086                 0.90674838     -91.5989798
9.087                0.906483122     -91.7656239
9.088                0.906217149      -91.932737
9.089                0.905950462     -92.1003204
9.09                  0.90568306     -92.2683754
9.091                0.905414945     -92.4369036
9.092                0.905146117      -92.605906
9.093                0.904876577     -92.7753842
9.094                0.904606324     -92.9453394
9.095                 0.90433536      -93.115773
9.096                0.904063685     -93.2866863
9.097                0.903791301     -93.4580806
9.098                0.903518207     -93.6299574
9.099                0.903244405     -93.8023179
9.1                  0.902969896     -93.9751635
9.101                 0.90269468     -94.1484955
9.102                0.902418758     -94.3223152
9.103                0.902142131      -94.496624
9.104                  0.9018648     -94.6714233
9.105                0.901586767     -94.8467142
9.106                0.901308033     -95.0224983
9.107                0.901028598     -95.1987768
9.108                0.900748463      -95.375551
9.109                0.900467631     -95.5528223
9.11                 0.900186102      -95.730592
9.111                0.899903878     -95.9088614
9.112                0.899620959     -96.0876319
9.113                0.899337349     -96.2669047
9.114                0.899053047     -96.4466812
9.115                0.898768056     -96.6269627
9.116                0.898482377     -96.8077506
9.117                0.898196012     -96.9890461
9.118                0.897908962     -97.1708505
9.119                0.897621229     -97.3531652
9.12                 0.897332816     -97.5359915
9.121                0.897043724     -97.7193307
9.122                0.896753954      -97.903184
9.123                0.896463509     -98.0875528
9.124                0.896172391     -98.2724384
9.125                0.895880602      -98.457842
9.126                0.895588145      -98.643765
9.127                 0.89529502     -98.8302087
9.128                0.895001231     -99.0171743
9.129                 0.89470678     -99.2046631
9.13                 0.894411669     -99.3926764
9.131                0.894115901     -99.5812155
9.132                0.893819478     -99.7702816
9.133                0.893522403      -99.959876
9.134                0.893224678         -100.15
9.135                0.892926307     -100.340655
9.136                0.892627291     -100.531842
9.137                0.892327633     -100.723562
9.138                0.892027338     -100.915817
9.139                0.891726406     -101.108608
9.14                 0.891424843     -101.301936
9.141                0.891122649     -101.495802
9.142                 0.89081983     -101.690207
9.143                0.890516387     -101.885154
9.144                0.890212325     -102.080642
9.145                0.889907646     -102.276674
9.146                0.889602354      -102.47325
9.147                0.889296452     -102.670371
9.148                0.888989945      -102.86804
9.149                0.888682835     -103.066256
9.15                 0.888375126     -103.265022
9.151                0.888066822     -103.464337
9.152                0.887757928     -103.664205
9.153                0.887448446     -103.864625
9.154                0.887138381     -104.065599
9.155                0.886827737     -104.267128
9.156                0.886516518     -104.469214
9.157                0.886204728     -104.671856
9.158                0.885892372     -104.875057
9.159                0.885579453     -105.078818
9.16                 0.885265977     -105.283139
9.161                0.884951948     -105.488022
9.162                0.884637371     -105.693468
9.163                 0.88432225     -105.899479
9.164                0.884006589     -106.106054
9.165                0.883690395     -106.313195
9.166                0.883373671     -106.520904
9.167                0.883056423     -106.729181
9.168                0.882738655     -106.938027
9.169                0.882420374     -107.147444
9.17                 0.882101584     -107.357432
9.171                0.881782291     -107.567993
9.172                0.881462499     -107.779127
9.173                0.881142216     -107.990836
9.174                0.880821445     -108.203121
9.175                0.880500193     -108.415981
9.176                0.880178466      -108.62942
9.177                0.879856269     -108.843437
9.178                0.879533609     -109.058033
9.179                0.879210491      -109.27321
9.18                 0.878886922     -109.488968
9.181                0.878562908     -109.705309
9.182                0.878238454     -109.922232
9.183                0.877913568      -110.13974
9.184                0.877588257     -110.357833
9.185                0.877262525     -110.576512
9.186                0.876936381     -110.795777
9.187                0.876609831      -111.01563
9.188                0.876282882     -111.236072
9.189                0.875955541     -111.457102
9.19                 0.875627815     -111.678723
9.191                 0.87529971     -111.900935
9.192                0.874971235     -112.123739
9.193                0.874642396     -112.347135
9.194                0.874313202     -112.571125
9.195                0.873983659     -112.795709
9.196                0.873653775     -113.020887
9.197                0.873323558     -113.246662
9.198                0.872993015     -113.473032
9.199                0.872662156     -113.699999
9.2                  0.872330986     -113.927564
9.201                0.871999516     -114.155728
9.202                0.871667752      -114.38449
9.203                0.871335704     -114.613853
9.204                 0.87100338     -114.843815
9.205                0.870670787     -115.074378
9.206                0.870337936     -115.305543
9.207                0.870004833      -115.53731
9.208                0.869671489      -115.76968
9.209                0.869337913     -116.002653
9.21                 0.869004112      -116.23623
9.211                0.868670097     -116.470411
9.212                0.868335877     -116.705197
9.213                 0.86800146     -116.940588
9.214                0.867666857     -117.176584
9.215                0.867332077     -117.413187
9.216                0.866997129     -117.650397
9.217                0.866662023     -117.888214
9.218                 0.86632677     -118.126638
9.219                0.865991378      -118.36567
9.22                 0.865655859      -118.60531
9.221                0.865320222     -118.845558
9.222                0.864984477     -119.086416
9.223                0.864648635     -119.327882
9.224                0.864312707     -119.569958
9.225                0.863976702     -119.812644
9.226                0.863640632     -120.055939
9.227                0.863304507     -120.299845
9.228                0.862968338     -120.544361
9.229                0.862632137     -120.789488
9.23                 0.862295914     -121.035225
9.231                 0.86195968     -121.281573
9.232                0.861623448     -121.528532
9.233                0.861287227     -121.776102
9.234                0.860951031     -122.024283
9.235                0.860614869     -122.273075
9.236                0.860278755     -122.522478
9.237                0.859942699     -122.772493
9.238                0.859606715     -123.023119
9.239                0.859270813     -123.274356
9.24                 0.858935006     -123.526203
9.241                0.858599306     -123.778662
9.242                0.858263726     -124.031732
9.243                0.857928278     -124.285412
9.244                0.857592975     -124.539703
9.245                0.857257829     -124.794605
9.246                0.856922852     -125.050116
9.247                0.856588059     -125.306238
9.248                0.856253461     -125.562969
9.249                0.855919072     -125.820309
9.25                 0.855584905     -126.078259
9.251                0.855250973     -126.336817
9.252                 0.85491729     -126.595984
9.253                0.854583869     -126.855758
9.254                0.854250723      -127.11614
9.255                0.853917867     -127.377129
9.256                0.853585313     -127.638725
9.257                0.853253077     -127.900927
9.258                0.852921171     -128.163735
9.259                 0.85258961     -128.427148
9.26                 0.852258407     -128.691165
9.261                0.851927578     -128.955786
9.262                0.851597136      -129.22101
9.263                0.851267096     -129.486837
9.264                0.850937472     -129.753266
9.265                 0.85060828     -130.020296
9.266                0.850279532     -130.287926
9.267                0.849951245     -130.556156
9.268                0.849623434     -130.824984
9.269                0.849296112     -131.094411
9.27                 0.848969295     -131.364435
9.271                0.848642999     -131.635054
9.272                0.848317238     -131.906269
9.273                0.847992028     -132.178078
9.274                0.847667385     -132.450481
9.275                0.847343322     -132.723476
9.276                0.847019857     -132.997062
9.277                0.846697004     -133.271237
9.278                 0.84637478     -133.546002
9.279                0.846053199     -133.821355
9.28                 0.845732279     -134.097294
9.281                0.845412035     -134.373819
9.282                0.845092482     -134.650928
9.283                0.844773637     -134.928619
9.284                0.844455516     -135.206892
9.285                0.844138135     -135.485745
9.286                0.843821511     -135.765177
9.287                0.843505659     -136.045187
9.288                0.843190597     -136.325772
9.289                 0.84287634     -136.606931
9.29                 0.842562905     -136.888664
9.291                0.842250308     -137.170967
9.292                0.841938567     -137.453841
9.293                0.841627698     -137.737282
9.294                0.841317717      -138.02129
9.295                0.841008642     -138.305863
9.296                0.840700489     -138.590999
9.297                0.840393276     -138.876696
9.298                0.840087018     -139.162952
9.299                0.839781734     -139.449766
9.3                  0.839477439     -139.737135
9.301                0.839174152     -140.025059
9.302                 0.83887189     -140.313534
9.303                0.838570668     -140.602559
9.304                0.838270505     -140.892132
9.305                0.837971419     -141.182251
9.306                0.837673425     -141.472913
9.307                0.837376542     -141.764117
9.308                0.837080786     -142.055861
9.309                0.836786175     -142.348141
9.31                 0.836492727     -142.640957
9.311                0.836200459     -142.934305
9.312                0.835909388     -143.228183
9.313                0.835619532      -143.52259
9.314                0.835330907     -143.817522
9.315                0.835043533     -144.112977
9.316                0.834757425     -144.408954
9.317                0.834472602     -144.705448
9.318                 0.83418908     -145.002458
9.319                0.833906878     -145.299981
9.32                 0.833626014     -145.598015
9.321                0.833346503     -145.896557
9.322                0.833068365     -146.195603
9.323                0.832791616     -146.495152
9.324                0.832516274     -146.795201
9.325                0.832242356     -147.095747
9.326                 0.83196988     -147.396787
9.327                0.831698863     -147.698318
9.328                0.831429324     -148.000337
9.329                0.831161278     -148.302842
9.33                 0.830894743     -148.605829
9.331                0.830629738     -148.909295
9.332                0.830366278     -149.213237
9.333                0.830104383     -149.517653
9.334                0.829844067     -149.822538
9.335                 0.82958535      -150.12789
9.336                0.829328248     -150.433706
9.337                0.829072778     -150.739982
9.338                0.828818958     -151.046716
9.339                0.828566804     -151.353903
9.34                 0.828316334      -151.66154
9.341                0.828067564     -151.969624
9.342                0.827820512     -152.278152
9.343                0.827575193      -152.58712
9.344                0.827331626     -152.896524
9.345                0.827089827     -153.206361
9.346                0.826849812     -153.516628
9.347                0.826611598     -153.827321
9.348                0.826375201     -154.138435
9.349                0.826140639     -154.449968
9.35                 0.825907927     -154.761916
9.351                0.825677081     -155.074275
9.352                0.825448119     -155.387041
9.353                0.825221055      -155.70021
9.354                0.824995907     -156.013778
9.355                0.824772689     -156.327742
9.356                0.824551419     -156.642098
9.357                0.824332111     -156.956841
9.358                0.824114781     -157.271968
9.359                0.823899446     -157.587474
9.36                 0.823686119     -157.903356
9.361                0.823474818     -158.219609
9.362                0.823265556     -158.536229
9.363                0.823058349     -158.853212
9.364                0.822853213     -159.170554
9.365                0.822650162     -159.488251
9.366                 0.82244921     -159.806298
9.367                0.822250373      -160.12469
9.368                0.822053665     -160.443425
9.369                  0.8218591     -160.762496
9.37                 0.821666693     -161.081901
9.371                0.821476457     -161.401634
9.372                0.821288408      -161.72169
9.373                0.821102558     -162.042066
9.374                0.820918921     -162.362757
9.375                0.820737511     -162.683759
9.376                0.820558342     -163.005066
9.377                0.820381426     -163.326674
9.378                0.820206777     -163.648578
9.379                0.820034408     -163.970775
9.38                 0.819864331     -164.293258
9.381                0.819696559     -164.616024
9.382                0.819531105     -164.939067
9.383                0.819367981     -165.262383
9.384                0.819207199     -165.585967
9.385                0.819048771     -165.909814
9.386                0.818892709      -166.23392
9.387                0.818739025     -166.558278
9.388                0.818587729     -166.882886
9.389                0.818438834     -167.207736
9.39                  0.81829235     -167.532825
9.391                0.818148289     -167.858148
9.392                 0.81800666     -168.183699
9.393                0.817867475     -168.509474
9.394                0.817730744     -168.835467
9.395                0.817596477     -169.161674
9.396                0.817464683     -169.488088
