! TOUCHSTONE file generated by CST DESIGN STUDIO
! Date and time: Tue Feb  4 17:14:05 2025
! Project name: C:\Work\MatlabApps\UnitCellOptimizationMatlab\CST\unitcell.cst
! Tree item: Tasks\Sweep1\SPara1\S-Parameters
! Header version: 2024
! Port assignment regex: !\s*Touchstone port\s*([0-9]+)\s*=\s*(CST MWS port|CST DES external port|CST DES block port)\s*(.+)\s* \(\"(.*)\"\)(\s*mode\s*([0-9]+))?.*
! Touchstone port assignment:
! Touchstone port 1 = CST DES external port 1 ("")
# GHz S MA R 50
9                    0.964201199     -43.8449509
9.001                0.964139952     -43.8974174
9.002                0.964078531     -43.9499852
9.003                0.964016933     -44.0026547
9.004                0.963955159     -44.0554261
9.005                0.963893209     -44.1082997
9.006                 0.96383108     -44.1612758
9.007                0.963768774     -44.2143547
9.008                0.963706288     -44.2675368
9.009                0.963643623     -44.3208223
9.01                 0.963580778     -44.3742116
9.011                0.963517753     -44.4277048
9.012                0.963454546     -44.4813025
9.013                0.963391158     -44.5350048
9.014                0.963327586      -44.588812
9.015                0.963263832     -44.6427246
9.016                0.963199894     -44.6967427
9.017                0.963135772     -44.7508668
9.018                0.963071464      -44.805097
9.019                0.963006971     -44.8594338
9.02                 0.962942292     -44.9138775
9.021                0.962877425     -44.9684283
9.022                0.962812371     -45.0230866
9.023                0.962747129     -45.0778528
9.024                0.962681698      -45.132727
9.025                0.962616078     -45.1877097
9.026                0.962550267     -45.2428012
9.027                0.962484265     -45.2980018
9.028                0.962418072     -45.3533118
9.029                0.962351687     -45.4087316
9.03                 0.962285109     -45.4642614
9.031                0.962218337     -45.5199017
9.032                0.962151372     -45.5756527
9.033                0.962084211     -45.6315148
9.034                0.962016855     -45.6874883
9.035                0.961949303     -45.7435735
9.036                0.961881554     -45.7997708
9.037                0.961813607     -45.8560805
9.038                0.961745462      -45.912503
9.039                0.961677118     -45.9690385
9.04                 0.961608575     -46.0256875
9.041                0.961539831     -46.0824503
9.042                0.961470887     -46.1393271
9.043                 0.96140174     -46.1963185
9.044                0.961332391     -46.2534246
9.045                0.961262839     -46.3106459
9.046                0.961193084     -46.3679827
9.047                0.961123123     -46.4254353
9.048                0.961052958     -46.4830041
9.049                0.960982586     -46.5406895
9.05                 0.960912008     -46.5984918
9.051                0.960841223     -46.6564113
9.052                0.960770229     -46.7144484
9.053                0.960699027     -46.7726035
9.054                0.960627615      -46.830877
9.055                0.960555992     -46.8892691
9.056                0.960484159     -46.9477803
9.057                0.960412114     -47.0064108
9.058                0.960339856     -47.0651612
9.059                0.960267385     -47.1240317
9.06                   0.9601947     -47.1830227
9.061                0.960121801     -47.2421345
9.062                0.960048686     -47.3013676
9.063                0.959975354     -47.3607223
9.064                0.959901806      -47.420199
9.065                0.959828039      -47.479798
9.066                0.959754055     -47.5395198
9.067                0.959679851     -47.5993646
9.068                0.959605426      -47.659333
9.069                0.959530781     -47.7194252
9.07                 0.959455915     -47.7796416
9.071                0.959380826     -47.8399827
9.072                0.959305513     -47.9004487
9.073                0.959229977     -47.9610402
9.074                0.959154216     -48.0217574
9.075                0.959078229     -48.0826007
9.076                0.959002016     -48.1435706
9.077                0.958925576     -48.2046675
9.078                0.958848908     -48.2658916
9.079                0.958772011     -48.3272435
9.08                 0.958694885     -48.3887235
9.081                0.958617528      -48.450332
9.082                 0.95853994     -48.5120694
9.083                0.958462121     -48.5739361
9.084                0.958384068     -48.6359325
9.085                0.958305781      -48.698059
9.086                0.958227261      -48.760316
9.087                0.958148504     -48.8227039
9.088                0.958069512     -48.8852231
9.089                0.957990283     -48.9478741
9.09                 0.957910816     -49.0106572
9.091                 0.95783111     -49.0735728
9.092                0.957751165     -49.1366214
9.093                 0.95767098     -49.1998033
9.094                0.957590553     -49.2631191
9.095                0.957509885      -49.326569
9.096                0.957428973     -49.3901535
9.097                0.957347818     -49.4538731
9.098                0.957266418     -49.5177281
9.099                0.957184772      -49.581719
9.1                  0.957102881     -49.6458462
9.101                0.957020742     -49.7101102
9.102                0.956938355     -49.7745113
9.103                0.956855719     -49.8390499
9.104                0.956772833     -49.9037266
9.105                0.956689696     -49.9685417
9.106                0.956606308     -50.0334958
9.107                0.956522667     -50.0985891
9.108                0.956438773     -50.1638222
9.109                0.956354624     -50.2291954
9.11                 0.956270221     -50.2947093
9.111                0.956185561     -50.3603643
9.112                0.956100644     -50.4261608
9.113                0.956015469     -50.4920993
9.114                0.955930035     -50.5581801
9.115                0.955844342     -50.6244039
9.116                0.955758387     -50.6907709
9.117                0.955672172     -50.7572817
9.118                0.955585693     -50.8239367
9.119                0.955498951     -50.8907363
9.12                 0.955411945     -50.9576811
9.121                0.955324673     -51.0247715
9.122                0.955237135     -51.0920079
9.123                0.955149329     -51.1593909
9.124                0.955061256     -51.2269207
9.125                0.954972913     -51.2945981
9.126                  0.9548843     -51.3624233
9.127                0.954795416     -51.4303969
9.128                 0.95470626     -51.4985193
9.129                0.954616831     -51.5667911
9.13                 0.954527128     -51.6352127
9.131                0.954437149     -51.7037845
9.132                0.954346895      -51.772507
9.133                0.954256364     -51.8413808
9.134                0.954165556     -51.9104063
9.135                0.954074468      -51.979584
9.136                  0.9539831     -52.0489143
9.137                0.953891451     -52.1183978
9.138                0.953799521      -52.188035
9.139                0.953707307     -52.2578262
9.14                  0.95361481     -52.3277722
9.141                0.953522028     -52.3978732
9.142                 0.95342896     -52.4681299
9.143                0.953335604     -52.5385427
9.144                0.953241961     -52.6091121
9.145                0.953148029     -52.6798386
9.146                0.953053807     -52.7507228
9.147                0.952959294      -52.821765
9.148                0.952864489      -52.892966
9.149                 0.95276939      -52.964326
9.15                 0.952673998     -53.0358458
9.151                 0.95257831     -53.1075257
9.152                0.952482326     -53.1793662
9.153                0.952386044      -53.251368
9.154                0.952289464     -53.3235315
9.155                0.952192585     -53.3958573
9.156                0.952095405     -53.4683458
9.157                0.951997924     -53.5409977
9.158                 0.95190014     -53.6138133
9.159                0.951802052     -53.6867933
9.16                 0.951703659     -53.7599381
9.161                0.951604961     -53.8332484
9.162                0.951505955     -53.9067246
9.163                0.951406642     -53.9803673
9.164                0.951307019     -54.0541771
9.165                0.951207086     -54.1281543
9.166                0.951106841     -54.2022997
9.167                0.951006284     -54.2766138
9.168                0.950905414      -54.351097
9.169                0.950804229       -54.42575
9.17                 0.950702728     -54.5005733
9.171                 0.95060091     -54.5755674
9.172                0.950498774      -54.650733
9.173                0.950396319     -54.7260705
9.174                0.950293543     -54.8015805
9.175                0.950190446     -54.8772637
9.176                0.950087026     -54.9531204
9.177                0.949983283     -55.0291514
9.178                0.949879215     -55.1053572
9.179                 0.94977482     -55.1817383
9.18                 0.949670099     -55.2582954
9.181                0.949565049     -55.3350289
9.182                 0.94945967     -55.4119396
9.183                0.949353959     -55.4890278
9.184                0.949247917     -55.5662944
9.185                0.949141542     -55.6437397
9.186                0.949034833     -55.7213645
9.187                0.948927788     -55.7991692
9.188                0.948820407     -55.8771545
9.189                0.948712688      -55.955321
9.19                  0.94860463     -56.0336693
9.191                0.948496232     -56.1121999
9.192                0.948387493     -56.1909135
9.193                0.948278411     -56.2698107
9.194                0.948168985      -56.348892
9.195                0.948059214     -56.4281582
9.196                0.947949097     -56.5076097
9.197                0.947838632     -56.5872472
9.198                0.947727819     -56.6670712
9.199                0.947616656     -56.7470826
9.2                  0.947505142     -56.8272817
9.201                0.947393276     -56.9076693
9.202                0.947281056      -56.988246
9.203                0.947168481     -57.0690124
9.204                 0.94705555     -57.1499691
9.205                0.946942262     -57.2311168
9.206                0.946828615     -57.3124561
9.207                0.946714608     -57.3939876
9.208                 0.94660024     -57.4757119
9.209                 0.94648551     -57.5576298
9.21                 0.946370416     -57.6397418
9.211                0.946254958     -57.7220485
9.212                0.946139133     -57.8045507
9.213                0.946022941      -57.887249
9.214                 0.94590638      -57.970144
9.215                0.945789449     -58.0532364
9.216                0.945672146     -58.1365268
9.217                0.945554471     -58.2200159
9.218                0.945436422     -58.3037043
9.219                0.945317998     -58.3875928
9.22                 0.945199198     -58.4716819
9.221                0.945080019     -58.5559724
9.222                0.944960461     -58.6404649
9.223                0.944840523     -58.7251601
9.224                0.944720203     -58.8100586
9.225                  0.9445995     -58.8951612
9.226                0.944478413     -58.9804686
9.227                 0.94435694     -59.0659813
9.228                0.944235079     -59.1517001
9.229                0.944112831     -59.2376257
9.23                 0.943990192     -59.3237588
9.231                0.943867162        -59.4101
9.232                 0.94374374     -59.4966501
9.233                0.943619924     -59.5834097
9.234                0.943495713     -59.6703796
9.235                0.943371105     -59.7575605
9.236                  0.9432461      -59.844953
9.237                0.943120695     -59.9325579
9.238                0.942994889     -60.0203759
9.239                0.942868681     -60.1084077
9.24                  0.94274207      -60.196654
9.241                0.942615054     -60.2851155
9.242                0.942487632      -60.373793
9.243                0.942359803     -60.4626872
9.244                0.942231564     -60.5517988
9.245                0.942102915     -60.6411286
9.246                0.941973854     -60.7306772
9.247                 0.94184438     -60.8204454
9.248                0.941714492      -60.910434
9.249                0.941584187     -61.0006436
9.25                 0.941453466     -61.0910751
9.251                0.941322325     -61.1817292
9.252                0.941190764     -61.2726066
9.253                0.941058782     -61.3637081
9.254                0.940926376     -61.4550344
9.255                0.940793546     -61.5465863
9.256                 0.94066029     -61.6383646
9.257                0.940526607       -61.73037
9.258                0.940392495     -61.8226033
9.259                0.940257952     -61.9150652
9.26                 0.940122978     -62.0077565
9.261                0.939987571     -62.1006781
9.262                0.939851729     -62.1938306
9.263                0.939715452     -62.2872149
9.264                0.939578736     -62.3808317
9.265                0.939441582     -62.4746818
9.266                0.939303987     -62.5687661
9.267                0.939165951     -62.6630852
9.268                0.939027471     -62.7576401
9.269                0.938888546     -62.8524314
9.27                 0.938749175     -62.9474601
9.271                0.938609356     -63.0427268
9.272                0.938469088     -63.1382325
9.273                0.938328369     -63.2339779
9.274                0.938187198     -63.3299638
9.275                0.938045574      -63.426191
9.276                0.937903494     -63.5226605
9.277                0.937760957     -63.6193729
9.278                0.937617962     -63.7163291
9.279                0.937474508     -63.8135299
9.28                 0.937330592     -63.9109762
9.281                0.937186214     -64.0086688
9.282                0.937041371     -64.1066085
9.283                0.936896063     -64.2047963
9.284                0.936750288     -64.3032328
9.285                0.936604044      -64.401919
9.286                0.936457329     -64.5008557
9.287                0.936310143     -64.6000437
9.288                0.936162484      -64.699484
9.289                 0.93601435     -64.7991773
9.29                 0.935865739     -64.8991246
9.291                0.935716651     -64.9993266
9.292                0.935567083     -65.0997844
9.293                0.935417035     -65.2004986
9.294                0.935266504     -65.3014703
9.295                0.935115489     -65.4027002
9.296                0.934963989     -65.5041893
9.297                0.934812001     -65.6059384
9.298                0.934659525     -65.7079485
9.299                0.934506559     -65.8102204
9.3                  0.934353102      -65.912755
9.301                0.934199151     -66.0155531
9.302                0.934044705     -66.1186158
9.303                0.933889763     -66.2219439
9.304                0.933734324     -66.3255383
9.305                0.933578385     -66.4293999
9.306                0.933421945     -66.5335296
9.307                0.933265002     -66.6379283
9.308                0.933107556      -66.742597
9.309                0.932949604     -66.8475366
9.31                 0.932791145      -66.952748
9.311                0.932632177     -67.0582321
9.312                0.932472699     -67.1639898
9.313                 0.93231271     -67.2700221
9.314                0.932152207       -67.37633
9.315                0.931991189     -67.4829143
9.316                0.931829654      -67.589776
9.317                0.931667602     -67.6969161
9.318                 0.93150503     -67.8043354
9.319                0.931341937      -67.912035
9.32                 0.931178321     -68.0200158
9.321                0.931014181     -68.1282788
9.322                0.930849515     -68.2368249
9.323                0.930684322     -68.3456551
9.324                  0.9305186     -68.4547704
9.325                0.930352348     -68.5641717
9.326                0.930185563     -68.6738599
9.327                0.930018245     -68.7838362
9.328                0.929850392     -68.8941015
9.329                0.929682002     -69.0046567
9.33                 0.929513073     -69.1155029
9.331                0.929343605     -69.2266409
9.332                0.929173596      -69.338072
9.333                0.929003044     -69.4497969
9.334                0.928831947     -69.5618168
9.335                0.928660304     -69.6741326
9.336                0.928488114     -69.7867454
9.337                0.928315374     -69.8996561
9.338                0.928142084     -70.0128658
9.339                0.927968241     -70.1263755
9.34                 0.927793845     -70.2401862
9.341                0.927618894     -70.3542989
9.342                0.927443385     -70.4687147
9.343                0.927267318     -70.5834346
9.344                0.927090692     -70.6984596
9.345                0.926913503     -70.8137908
9.346                0.926735752     -70.9294293
9.347                0.926557436     -71.0453759
9.348                0.926378555     -71.1616319
9.349                0.926199105     -71.2781983
9.35                 0.926019087     -71.3950761
9.351                0.925838498     -71.5122663
9.352                0.925657336     -71.6297701
9.353                0.925475601     -71.7475885
9.354                0.925293291     -71.8657225
9.355                0.925110404     -71.9841734
9.356                0.924926939      -72.102942
9.357                0.924742894     -72.2220295
9.358                0.924558268      -72.341437
9.359                0.924373059     -72.4611656
9.36                 0.924187266     -72.5812164
9.361                0.924000888     -72.7015904
9.362                0.923813922     -72.8222887
9.363                0.923626368     -72.9433125
9.364                0.923438223     -73.0646628
9.365                0.923249487     -73.1863408
9.366                0.923060158     -73.3083476
9.367                0.922870234     -73.4306842
9.368                0.922679715     -73.5533519
9.369                0.922488598     -73.6763516
9.37                 0.922296882     -73.7996846
9.371                0.922104566     -73.9233519
9.372                0.921911648     -74.0473548
9.373                0.921718127     -74.1716943
9.374                0.921524001     -74.2963715
9.375                0.921329269     -74.4213876
9.376                 0.92113393     -74.5467438
9.377                0.920937983     -74.6724412
9.378                0.920741425     -74.7984809
9.379                0.920544255     -74.9248641
9.38                 0.920346473      -75.051592
9.381                0.920148076     -75.1786657
9.382                0.919949063     -75.3060863
9.383                0.919749433     -75.4338551
9.384                0.919549185     -75.5619732
9.385                0.919348318     -75.6904418
9.386                0.919146829      -75.819262
9.387                0.918944717     -75.9484351
9.388                0.918741982     -76.0779622
9.389                0.918538622     -76.2078445
9.39                 0.918334636     -76.3380832
9.391                0.918130021     -76.4686795
9.392                0.917924778     -76.5996345
9.393                0.917718905     -76.7309496
9.394                0.917512401     -76.8626258
9.395                0.917305263     -76.9946645
9.396                0.917097492     -77.1270667
