! TOUCHSTONE file generated by CST DESIGN STUDIO
! Date and time: Tue Feb  4 12:31:10 2025
! Project name: C:\Work\MatlabApps\UnitCellOptimizationMatlab\CST\unitcell.cst
! Tree item: Tasks\Sweep1\SPara1\S-Parameters
! Header version: 2024
! Port assignment regex: !\s*Touchstone port\s*([0-9]+)\s*=\s*(CST MWS port|CST DES external port|CST DES block port)\s*(.+)\s* \(\"(.*)\"\)(\s*mode\s*([0-9]+))?.*
! Touchstone port assignment:
! Touchstone port 1 = CST DES external port 1 ("")
# GHz S MA R 50
9                    0.989324007     -73.8215931
9.001                0.989299362      -73.930573
9.002                0.989274643     -74.0398161
9.003                 0.98924985     -74.1493231
9.004                0.989224983     -74.2590948
9.005                0.989200041      -74.369132
9.006                0.989175025     -74.4794354
9.007                0.989149934     -74.5900059
9.008                0.989124768     -74.7008443
9.009                0.989099527     -74.8119512
9.01                  0.98907421     -74.9233277
9.011                0.989048819     -75.0349743
9.012                0.989023351      -75.146892
9.013                0.988997808     -75.2590814
9.014                0.988972189     -75.3715436
9.015                0.988946494     -75.4842791
9.016                0.988920722     -75.5972889
9.017                0.988894874     -75.7105738
9.018                0.988868949     -75.8241345
9.019                0.988842948     -75.9379719
9.02                  0.98881687     -76.0520867
9.021                0.988790714     -76.1664799
9.022                0.988764481     -76.2811522
9.023                0.988738171     -76.3961044
9.024                0.988711783     -76.5113374
9.025                0.988685317      -76.626852
9.026                0.988658773      -76.742649
9.027                0.988632151     -76.8587292
9.028                0.988605451     -76.9750935
9.029                0.988578672     -77.0917427
9.03                 0.988551815     -77.2086776
9.031                0.988524878     -77.3258991
9.032                0.988497863     -77.4434079
9.033                0.988470769     -77.5612051
9.034                0.988443595     -77.6792913
9.035                0.988416343     -77.7976674
9.036                 0.98838901     -77.9163343
9.037                0.988361598     -78.0352928
9.038                0.988334106     -78.1545438
9.039                0.988306533     -78.2740881
9.04                 0.988278881     -78.3939265
9.041                0.988251148     -78.5140599
9.042                0.988223335     -78.6344893
9.043                0.988195441     -78.7552153
9.044                0.988167466     -78.8762389
9.045                 0.98813941      -78.997561
9.046                0.988111274     -79.1191823
9.047                0.988083055     -79.2411039
9.048                0.988054756     -79.3633264
9.049                0.988026375     -79.4858509
9.05                 0.987997912     -79.6086781
9.051                0.987969368     -79.7318089
9.052                0.987940741     -79.8552443
9.053                0.987912032      -79.978985
9.054                0.987883242      -80.103032
9.055                0.987854368     -80.2273861
9.056                0.987825412     -80.3520482
9.057                0.987796374     -80.4770192
9.058                0.987767253        -80.6023
9.059                0.987738049     -80.7278914
9.06                 0.987708761     -80.8537943
9.061                0.987679391     -80.9800097
9.062                0.987649937     -81.1065384
9.063                  0.9876204     -81.2333813
9.064                0.987590779     -81.3605392
9.065                0.987561075     -81.4880132
9.066                0.987531287      -81.615804
9.067                0.987501415     -81.7439125
9.068                0.987471458     -81.8723398
9.069                0.987441418     -82.0010866
9.07                 0.987411293     -82.1301538
9.071                0.987381084     -82.2595424
9.072                0.987350791     -82.3892533
9.073                0.987320413     -82.5192873
9.074                 0.98728995     -82.6496454
9.075                0.987259402     -82.7803284
9.076                0.987228769     -82.9113374
9.077                0.987198052     -83.0426731
9.078                0.987167249     -83.1743365
9.079                0.987136361     -83.3063286
9.08                 0.987105387     -83.4386501
9.081                0.987074329     -83.5713021
9.082                0.987043184     -83.7042854
9.083                0.987011954      -83.837601
9.084                0.986980638     -83.9712497
9.085                0.986949237     -84.1052326
9.086                0.986917749     -84.2395505
9.087                0.986886176     -84.3742042
9.088                0.986854517     -84.5091949
9.089                0.986822771     -84.6445233
9.09                 0.986790939     -84.7801905
9.091                0.986759021     -84.9161972
9.092                0.986727017     -85.0525445
9.093                0.986694926     -85.1892333
9.094                0.986662748     -85.3262645
9.095                0.986630484      -85.463639
9.096                0.986598134     -85.6013577
9.097                0.986565697     -85.7394216
9.098                0.986533173     -85.8778317
9.099                0.986500562     -86.0165888
9.1                  0.986467864     -86.1556939
9.101                 0.98643508     -86.2951479
9.102                0.986402208     -86.4349517
9.103                 0.98636925     -86.5751063
9.104                0.986336204     -86.7156127
9.105                0.986303071     -86.8564716
9.106                0.986269852     -86.9976842
9.107                0.986236545     -87.1392513
9.108                0.986203151     -87.2811738
9.109                0.986169669     -87.4234528
9.11                 0.986136101      -87.566089
9.111                0.986102445     -87.7090836
9.112                0.986068702     -87.8524373
9.113                0.986034871     -87.9961512
9.114                0.986000954     -88.1402262
9.115                0.985966948     -88.2846632
9.116                0.985932856     -88.4294632
9.117                0.985898676     -88.5746271
9.118                0.985864409     -88.7201558
9.119                0.985830055     -88.8660503
9.12                 0.985795613     -89.0123116
9.121                0.985761084     -89.1589405
9.122                0.985726468     -89.3059381
9.123                0.985691764     -89.4533052
9.124                0.985656973     -89.6010428
9.125                0.985622095     -89.7491518
9.126                0.985587129     -89.8976333
9.127                0.985552077      -90.046488
9.128                0.985516937      -90.195717
9.129                 0.98548171     -90.3453212
9.13                 0.985446396     -90.4953016
9.131                0.985410995      -90.645659
9.132                0.985375507     -90.7963945
9.133                0.985339932     -90.9475089
9.134                 0.98530427     -91.0990033
9.135                0.985268521     -91.2508784
9.136                0.985232686     -91.4031354
9.137                0.985196764     -91.5557751
9.138                0.985160755     -91.7087984
9.139                 0.98512466     -91.8622064
9.14                 0.985088478     -92.0159998
9.141                 0.98505221     -92.1701798
9.142                0.985015855     -92.3247471
9.143                0.984979415     -92.4797028
9.144                0.984942888     -92.6350478
9.145                0.984906275      -92.790783
9.146                0.984869577     -92.9469093
9.147                0.984832793     -93.1034276
9.148                0.984795923      -93.260339
9.149                0.984758967     -93.4176443
9.15                 0.984721926     -93.5753444
9.151                  0.9846848     -93.7334404
9.152                0.984647589      -93.891933
9.153                0.984610292     -94.0508233
9.154                0.984572911     -94.2101121
9.155                0.984535445     -94.3698004
9.156                0.984497895     -94.5298892
9.157                 0.98446026     -94.6903792
9.158                0.984422541     -94.8512714
9.159                0.984384738     -95.0125668
9.16                 0.984346851     -95.1742663
9.161                 0.98430888     -95.3363708
9.162                0.984270826     -95.4988811
9.163                0.984232689     -95.6617983
9.164                0.984194468     -95.8251231
9.165                0.984156164     -95.9888566
9.166                0.984117778     -96.1529995
9.167                 0.98407931     -96.3175529
9.168                0.984040759     -96.4825176
9.169                0.984002126     -96.6478945
9.17                 0.983963411     -96.8136846
9.171                0.983924614     -96.9798886
9.172                0.983885736     -97.1465075
9.173                0.983846778     -97.3135422
9.174                0.983807738     -97.4809936
9.175                0.983768618     -97.6488625
9.176                0.983729417     -97.8171498
9.177                0.983690137     -97.9858565
9.178                0.983650776     -98.1549833
9.179                0.983611336     -98.3245312
9.18                 0.983571817      -98.494501
9.181                 0.98353222     -98.6648936
9.182                0.983492543     -98.8357099
9.183                0.983452789     -99.0069507
9.184                0.983412956     -99.1786168
9.185                0.983373046     -99.3507092
9.186                0.983333058     -99.5232287
9.187                0.983292994     -99.6961761
9.188                0.983252853     -99.8695523
9.189                0.983212635     -100.043358
9.19                 0.983172342     -100.217594
9.191                0.983131974     -100.392262
9.192                 0.98309153     -100.567362
9.193                0.983051011     -100.742894
9.194                0.983010418     -100.918861
9.195                0.982969751     -101.095262
9.196                0.982929011     -101.272098
9.197                0.982888197     -101.449371
9.198                0.982847311      -101.62708
9.199                0.982806352     -101.805228
9.2                  0.982765321     -101.983814
9.201                0.982724219     -102.162839
9.202                0.982683046     -102.342305
9.203                0.982641802     -102.522212
9.204                0.982600488      -102.70256
9.205                0.982559105     -102.883351
9.206                0.982517652     -103.064586
9.207                0.982476131     -103.246264
9.208                0.982434541     -103.428387
9.209                0.982392884     -103.610956
9.21                  0.98235116     -103.793972
9.211                0.982309369     -103.977434
9.212                0.982267512     -104.161344
9.213                0.982225589     -104.345703
9.214                0.982183602     -104.530511
9.215                 0.98214155     -104.715769
9.216                0.982099434     -104.901478
9.217                0.982057254     -105.087638
9.218                0.982015012     -105.274251
9.219                0.981972708     -105.461316
9.22                 0.981930342     -105.648835
9.221                0.981887915     -105.836808
9.222                0.981845428     -106.025236
9.223                0.981802881      -106.21412
9.224                0.981760275      -106.40346
9.225                 0.98171761     -106.593257
9.226                0.981674887     -106.783512
9.227                0.981632108     -106.974225
9.228                0.981589272     -107.165396
9.229                 0.98154638     -107.357028
9.23                 0.981503433     -107.549119
9.231                0.981460431     -107.741671
9.232                0.981417376     -107.934685
9.233                0.981374267      -108.12816
9.234                0.981331107     -108.322099
9.235                0.981287895       -108.5165
9.236                0.981244631     -108.711365
9.237                0.981201318     -108.906695
9.238                0.981157956     -109.102489
9.239                0.981114545     -109.298749
9.24                 0.981071086     -109.495475
9.241                 0.98102758     -109.692668
9.242                0.980984028     -109.890327
9.243                0.980940431     -110.088455
9.244                0.980896789      -110.28705
9.245                0.980853104     -110.486115
9.246                0.980809375     -110.685648
9.247                0.980765605     -110.885651
9.248                0.980721793     -111.086125
9.249                0.980677941     -111.287069
9.25                  0.98063405     -111.488484
9.251                 0.98059012      -111.69037
9.252                0.980546152     -111.892729
9.253                0.980502148      -112.09556
9.254                0.980458108     -112.298864
9.255                0.980414034     -112.502641
9.256                0.980369925     -112.706893
9.257                0.980325783     -112.911618
9.258                 0.98028161     -113.116817
9.259                0.980237405     -113.322492
9.26                 0.980193171     -113.528642
9.261                0.980148907     -113.735267
9.262                0.980104616     -113.942369
9.263                0.980060297     -114.149947
9.264                0.980015952     -114.358001
9.265                0.979971583     -114.566533
9.266                 0.97992719     -114.775541
9.267                0.979882774     -114.985027
9.268                0.979838336     -115.194991
9.269                0.979793877     -115.405434
9.27                 0.979749399     -115.616354
9.271                0.979704903     -115.827753
9.272                0.979660389     -116.039631
9.273                0.979615859     -116.251989
9.274                0.979571314     -116.464825
9.275                0.979526755     -116.678141
9.276                0.979482184     -116.891937
9.277                0.979437601     -117.106212
9.278                0.979393007     -117.320968
9.279                0.979348404     -117.536203
9.28                 0.979303794      -117.75192
9.281                0.979259176     -117.968116
9.282                0.979214553     -118.184793
9.283                0.979169926     -118.401951
9.284                0.979125296      -118.61959
9.285                0.979080664     -118.837709
9.286                0.979036031     -119.056309
9.287                0.978991399     -119.275391
9.288                 0.97894677     -119.494953
9.289                0.978902143     -119.714996
9.29                 0.978857522      -119.93552
9.291                0.978812906     -120.156526
9.292                0.978768298     -120.378012
9.293                0.978723699     -120.599979
9.294                0.978679109     -120.822427
9.295                0.978634531     -121.045356
9.296                0.978589967     -121.268766
9.297                0.978545416     -121.492656
9.298                0.978500881     -121.717027
9.299                0.978456363     -121.941878
9.3                  0.978411863      -122.16721
9.301                0.978367384     -122.393022
9.302                0.978322926     -122.619313
9.303                0.978278491     -122.846085
9.304                 0.97823408     -123.073336
9.305                0.978189695     -123.301066
9.306                0.978145338     -123.529276
9.307                0.978101009     -123.757965
9.308                 0.97805671     -123.987132
9.309                0.978012444     -124.216777
9.31                 0.977968211     -124.446901
9.311                0.977924013     -124.677502
9.312                0.977879851     -124.908581
9.313                0.977835728     -125.140136
9.314                0.977791644     -125.372169
9.315                0.977747602     -125.604678
9.316                0.977703603     -125.837662
9.317                0.977659648     -126.071122
9.318                0.977615739     -126.305058
9.319                0.977571878     -126.539468
9.32                 0.977528066     -126.774352
9.321                0.977484306     -127.009709
9.322                0.977440598      -127.24554
9.323                0.977396945     -127.481844
9.324                0.977353348      -127.71862
9.325                0.977309808     -127.955867
9.326                0.977266329     -128.193585
9.327                 0.97722291     -128.431774
9.328                0.977179554     -128.670432
9.329                0.977136263      -128.90956
9.33                 0.977093039     -129.149156
9.331                0.977049883      -129.38922
9.332                0.977006796     -129.629751
9.333                0.976963782     -129.870749
9.334                0.976920841     -130.112212
9.335                0.976877975      -130.35414
9.336                0.976835186     -130.596533
9.337                0.976792477     -130.839389
9.338                0.976749848     -131.082708
9.339                0.976707301     -131.326488
9.34                 0.976664839      -131.57073
9.341                0.976622463     -131.815432
9.342                0.976580176     -132.060592
9.343                0.976537978     -132.306212
9.344                0.976495872     -132.552289
9.345                 0.97645386     -132.798822
9.346                0.976411943     -133.045811
9.347                0.976370124     -133.293254
9.348                0.976328404     -133.541151
9.349                0.976286786     -133.789501
9.35                  0.97624527     -134.038302
9.351                 0.97620386     -134.287553
9.352                0.976162557     -134.537254
9.353                0.976121363     -134.787403
9.354                 0.97608028     -135.037999
9.355                0.976039309     -135.289042
9.356                0.975998454     -135.540529
9.357                0.975957715      -135.79246
9.358                0.975917095     -136.044833
9.359                0.975876595     -136.297647
9.36                 0.975836219     -136.550902
9.361                0.975795967     -136.804595
9.362                0.975755842     -137.058725
9.363                0.975715845     -137.313292
9.364                0.975675979     -137.568293
9.365                0.975636246     -137.823728
9.366                0.975596647     -138.079595
9.367                0.975557185     -138.335892
9.368                0.975517862     -138.592619
9.369                0.975478679     -138.849773
9.37                  0.97543964     -139.107354
9.371                0.975400745     -139.365359
9.372                0.975361997     -139.623788
9.373                0.975323397     -139.882638
9.374                0.975284949     -140.141909
9.375                0.975246654     -140.401598
9.376                0.975208513     -140.661704
9.377                 0.97517053     -140.922226
9.378                0.975132705     -141.183161
9.379                0.975095042     -141.444509
9.38                 0.975057542     -141.706267
9.381                0.975020207     -141.968434
9.382                 0.97498304     -142.231007
9.383                0.974946042     -142.493986
9.384                0.974909215     -142.757369
9.385                0.974872562     -143.021153
9.386                0.974836084     -143.285336
9.387                0.974799784     -143.549918
9.388                0.974763663     -143.814896
9.389                0.974727725     -144.080268
9.39                  0.97469197     -144.346033
9.391                0.974656401     -144.612187
9.392                0.974621019     -144.878731
9.393                0.974585828      -145.14566
9.394                0.974550829     -145.412975
9.395                0.974516023     -145.680671
9.396                0.974481414     -145.948748
