! TOUCHSTONE file generated by CST DESIGN STUDIO
! Date and time: Tue Feb  4 12:31:13 2025
! Project name: C:\Work\MatlabApps\UnitCellOptimizationMatlab\CST\unitcell.cst
! Tree item: Tasks\Sweep1\SPara1\S-Parameters
! Header version: 2024
! Port assignment regex: !\s*Touchstone port\s*([0-9]+)\s*=\s*(CST MWS port|CST DES external port|CST DES block port)\s*(.+)\s* \(\"(.*)\"\)(\s*mode\s*([0-9]+))?.*
! Touchstone port assignment:
! Touchstone port 1 = CST DES external port 1 ("")
# GHz S MA R 50
9                    0.989727772     -71.8814971
9.001                 0.98970477     -71.9862619
9.002                0.989681699     -72.0912779
9.003                0.989658559     -72.1965457
9.004                0.989635349      -72.302066
9.005                0.989612069     -72.4078397
9.006                0.989588719     -72.5138675
9.007                0.989565299     -72.6201502
9.008                0.989541809     -72.7266885
9.009                0.989518248     -72.8334831
9.01                 0.989494617      -72.940535
9.011                0.989470915     -73.0478447
9.012                0.989447142     -73.1554131
9.013                0.989423297      -73.263241
9.014                0.989399382     -73.3713291
9.015                0.989375395     -73.4796783
9.016                0.989351336     -73.5882892
9.017                0.989327206     -73.6971627
9.018                0.989303003     -73.8062996
9.019                0.989278728     -73.9157006
9.02                 0.989254381     -74.0253665
9.021                0.989229962     -74.1352982
9.022                0.989205469     -74.2454963
9.023                0.989180904     -74.3559618
9.024                0.989156266     -74.4666953
9.025                0.989131555     -74.5776977
9.026                 0.98910677     -74.6889698
9.027                0.989081912     -74.8005125
9.028                 0.98905698     -74.9123264
9.029                0.989031974     -75.0244124
9.03                 0.989006894     -75.1367713
9.031                 0.98898174     -75.2494039
9.032                0.988956512      -75.362311
9.033                0.988931209     -75.4754935
9.034                0.988905832     -75.5889521
9.035                 0.98888038     -75.7026876
9.036                0.988854852      -75.816701
9.037                 0.98882925      -75.930993
9.038                0.988803572     -76.0455643
9.039                0.988777819      -76.160416
9.04                  0.98875199     -76.2755487
9.041                0.988726085     -76.3909633
9.042                0.988700104     -76.5066606
9.043                0.988674048     -76.6226415
9.044                0.988647914     -76.7389068
9.045                0.988621705     -76.8554573
9.046                0.988595419     -76.9722939
9.047                0.988569056     -77.0894175
9.048                0.988542616     -77.2068287
9.049                  0.9885161     -77.3245286
9.05                 0.988489506     -77.4425179
9.051                0.988462834     -77.5607974
9.052                0.988436086     -77.6793681
9.053                0.988409259     -77.7982308
9.054                0.988382355     -77.9173863
9.055                0.988355373     -78.0368355
9.056                0.988328312     -78.1565793
9.057                0.988301174     -78.2766184
9.058                0.988273957     -78.3969539
9.059                0.988246662     -78.5175864
9.06                 0.988219287     -78.6385169
9.061                0.988191835     -78.7597463
9.062                0.988164303     -78.8812754
9.063                0.988136692      -79.003105
9.064                0.988109002     -79.1252362
9.065                0.988081232     -79.2476696
9.066                0.988053383     -79.3704063
9.067                0.988025454      -79.493447
9.068                0.987997446     -79.6167926
9.069                0.987969357     -79.7404441
9.07                 0.987941189     -79.8644023
9.071                 0.98791294     -79.9886681
9.072                0.987884612     -80.1132424
9.073                0.987856202      -80.238126
9.074                0.987827712     -80.3633199
9.075                0.987799142     -80.4888249
9.076                0.987770491     -80.6146419
9.077                0.987741758     -80.7407719
9.078                0.987712945     -80.8672156
9.079                 0.98768405      -80.993974
9.08                 0.987655075     -81.1210481
9.081                0.987626018     -81.2484386
9.082                0.987596879     -81.3761465
9.083                0.987567659     -81.5041727
9.084                0.987538356     -81.6325181
9.085                0.987508973     -81.7611836
9.086                0.987479507     -81.8901701
9.087                0.987449959     -82.0194786
9.088                0.987420329     -82.1491098
9.089                0.987390616     -82.2790647
9.09                 0.987360821     -82.4093443
9.091                0.987330944     -82.5399495
9.092                0.987300984     -82.6708811
9.093                0.987270942       -82.80214
9.094                0.987240816     -82.9337273
9.095                0.987210608     -83.0656438
9.096                0.987180317     -83.1978903
9.097                0.987149943      -83.330468
9.098                0.987119486     -83.4633776
9.099                0.987088945     -83.5966201
9.1                  0.987058321     -83.7301963
9.101                0.987027614     -83.8641074
9.102                0.986996823     -83.9983541
9.103                0.986965949     -84.1329373
9.104                0.986934991     -84.2678581
9.105                0.986903949     -84.4031173
9.106                0.986872824     -84.5387159
9.107                0.986841615     -84.6746548
9.108                0.986810322      -84.810935
9.109                0.986778945     -84.9475573
9.11                 0.986747484     -85.0845227
9.111                0.986715938     -85.2218321
9.112                0.986684309     -85.3594865
9.113                0.986652596     -85.4974868
9.114                0.986620798      -85.635834
9.115                0.986588916     -85.7745289
9.116                0.986556949     -85.9135725
9.117                0.986524899     -86.0529659
9.118                0.986492763     -86.1927098
9.119                0.986460544     -86.3328052
9.12                 0.986428239     -86.4732532
9.121                0.986395851     -86.6140546
9.122                0.986363377     -86.7552103
9.123                0.986330819     -86.8967214
9.124                0.986298177     -87.0385887
9.125                 0.98626545     -87.1808132
9.126                0.986232638     -87.3233959
9.127                0.986199741     -87.4663376
9.128                 0.98616676     -87.6096394
9.129                0.986133694     -87.7533022
9.13                 0.986100543      -87.897327
9.131                0.986067307     -88.0417146
9.132                0.986033987      -88.186466
9.133                0.986000582     -88.3315823
9.134                0.985967092     -88.4770642
9.135                0.985933518     -88.6229129
9.136                0.985899859     -88.7691291
9.137                0.985866115      -88.915714
9.138                0.985832287     -89.0626683
9.139                0.985798373     -89.2099932
9.14                 0.985764376     -89.3576895
9.141                0.985730293     -89.5057581
9.142                0.985696126     -89.6542001
9.143                0.985661875     -89.8030164
9.144                0.985627539     -89.9522079
9.145                0.985593118     -90.1017755
9.146                0.985558613     -90.2517203
9.147                0.985524024     -90.4020432
9.148                 0.98548935     -90.5527451
9.149                0.985454593     -90.7038269
9.15                 0.985419751     -90.8552897
9.151                0.985384825     -91.0071343
9.152                0.985349814     -91.1593618
9.153                 0.98531472      -91.311973
9.154                0.985279542      -91.464969
9.155                 0.98524428     -91.6183506
9.156                0.985208935     -91.7721188
9.157                0.985173505     -91.9262745
9.158                0.985137992     -92.0808188
9.159                0.985102396     -92.2357524
9.16                 0.985066716     -92.3910765
9.161                0.985030954     -92.5467919
9.162                0.984995107     -92.7028995
9.163                0.984959178     -92.8594004
9.164                0.984923166     -93.0162954
9.165                0.984887072     -93.1735854
9.166                0.984850894     -93.3312715
9.167                0.984814634     -93.4893546
9.168                0.984778292     -93.6478355
9.169                0.984741868     -93.8067153
9.17                 0.984705361     -93.9659948
9.171                0.984668773      -94.125675
9.172                0.984632102     -94.2857568
9.173                0.984595351     -94.4462412
9.174                0.984558517     -94.6071291
9.175                0.984521603     -94.7684213
9.176                0.984484607     -94.9301189
9.177                0.984447531     -95.0922228
9.178                0.984410373     -95.2547338
9.179                0.984373136     -95.4176529
9.18                 0.984335817      -95.580981
9.181                0.984298419     -95.7447191
9.182                0.984260941     -95.9088679
9.183                0.984223384     -96.0734286
9.184                0.984185746     -96.2384019
9.185                 0.98414803     -96.4037887
9.186                0.984110235       -96.56959
9.187                 0.98407236     -96.7358068
9.188                0.984034408     -96.9024398
9.189                0.983996377     -97.0694899
9.19                 0.983958268     -97.2369582
9.191                0.983920081     -97.4048454
9.192                0.983881817     -97.5731525
9.193                0.983843476     -97.7418803
9.194                0.983805058     -97.9110298
9.195                0.983766563     -98.0806018
9.196                0.983727991     -98.2505971
9.197                0.983689344     -98.4210168
9.198                0.983650621     -98.5918616
9.199                0.983611823     -98.7631325
9.2                  0.983572949     -98.9348303
9.201                0.983534001     -99.1069558
9.202                0.983494979     -99.2795099
9.203                0.983455882     -99.4524935
9.204                0.983416711     -99.6259075
9.205                0.983377468     -99.7997527
9.206                0.983338151     -99.9740299
9.207                0.983298761      -100.14874
9.208                0.983259299     -100.323884
9.209                0.983219765     -100.499462
9.21                  0.98318016     -100.675476
9.211                0.983140484     -100.851926
9.212                0.983100736     -101.028813
9.213                0.983060919     -101.206138
9.214                0.983021031     -101.383902
9.215                0.982981075     -101.562105
9.216                0.982941049     -101.740749
9.217                0.982900954     -101.919833
9.218                0.982860791      -102.09936
9.219                0.982820561     -102.279329
9.22                 0.982780263     -102.459742
9.221                0.982739899     -102.640599
9.222                0.982699468     -102.821902
9.223                0.982658971      -103.00365
9.224                0.982618409     -103.185845
9.225                0.982577783     -103.368487
9.226                0.982537092     -103.551577
9.227                0.982496337     -103.735117
9.228                0.982455519     -103.919106
9.229                0.982414638     -104.103545
9.23                 0.982373695     -104.288436
9.231                 0.98233269     -104.473779
9.232                0.982291624     -104.659574
9.233                0.982250498     -104.845823
9.234                0.982209312     -105.032525
9.235                0.982168066     -105.219683
9.236                0.982126761     -105.407296
9.237                0.982085399     -105.595365
9.238                0.982043979     -105.783891
9.239                0.982002502     -105.972875
9.24                 0.981960968     -106.162317
9.241                0.981919379     -106.352218
9.242                0.981877735     -106.542579
9.243                0.981836036       -106.7334
9.244                0.981794284     -106.924682
9.245                0.981752479     -107.116425
9.246                0.981710621     -107.308631
9.247                0.981668711     -107.501299
9.248                0.981626751     -107.694432
9.249                 0.98158474     -107.888028
9.25                  0.98154268     -108.082089
9.251                0.981500571     -108.276615
9.252                0.981458414     -108.471607
9.253                 0.98141621     -108.667066
9.254                0.981373958     -108.862992
9.255                0.981331662     -109.059385
9.256                 0.98128932     -109.256247
9.257                0.981246933     -109.453578
9.258                0.981204504     -109.651378
9.259                0.981162031     -109.849648
9.26                 0.981119517     -110.048388
9.261                0.981076962     -110.247599
9.262                0.981034367     -110.447282
9.263                0.980991732     -110.647437
9.264                0.980949059     -110.848064
9.265                0.980906348     -111.049164
9.266                  0.9808636     -111.250738
9.267                0.980820817     -111.452785
9.268                0.980777998     -111.655307
9.269                0.980735146     -111.858304
9.27                  0.98069226     -112.061776
9.271                0.980649342     -112.265724
9.272                0.980606393     -112.470147
9.273                0.980563413     -112.675048
9.274                0.980520405     -112.880425
9.275                0.980477367      -113.08628
9.276                0.980434302     -113.292613
9.277                0.980391211     -113.499423
9.278                0.980348094     -113.706712
9.279                0.980304953      -113.91448
9.28                 0.980261789     -114.122727
9.281                0.980218602     -114.331454
9.282                0.980175393      -114.54066
9.283                0.980132165     -114.750346
9.284                0.980088917     -114.960513
9.285                0.980045651     -115.171161
9.286                0.980002368     -115.382289
9.287                0.979959069     -115.593899
9.288                0.979915755      -115.80599
9.289                0.979872427     -116.018563
9.29                 0.979829086     -116.231618
9.291                0.979785735     -116.445155
9.292                0.979742372     -116.659174
9.293                0.979699001     -116.873676
9.294                0.979655622     -117.088661
9.295                0.979612235     -117.304128
9.296                0.979568843     -117.520079
9.297                0.979525447     -117.736513
9.298                0.979482048      -117.95343
9.299                0.979438646      -118.17083
9.3                  0.979395244     -118.388714
9.301                0.979351842     -118.607082
9.302                0.979308442     -118.825933
9.303                0.979265045     -119.045269
9.304                0.979221652     -119.265087
9.305                0.979178265      -119.48539
9.306                0.979134885     -119.706177
9.307                0.979091513     -119.927447
9.308                0.979048151     -120.149202
9.309                  0.9790048      -120.37144
9.31                  0.97896146     -120.594162
9.311                0.978918135     -120.817367
9.312                0.978874824     -121.041056
9.313                 0.97883153     -121.265229
9.314                0.978788253     -121.489886
9.315                0.978744996     -121.715025
9.316                0.978701759     -121.940648
9.317                0.978658544     -122.166754
9.318                0.978615352     -122.393343
9.319                0.978572186     -122.620415
9.32                 0.978529045     -122.847969
9.321                0.978485933     -123.076006
9.322                 0.97844285     -123.304525
9.323                0.978399797     -123.533526
9.324                0.978356777     -123.763008
9.325                 0.97831379     -123.992972
9.326                0.978270839     -124.223417
9.327                0.978227925     -124.454343
9.328                0.978185049     -124.685749
9.329                0.978142213     -124.917635
9.33                 0.978099418     -125.150001
9.331                0.978056667     -125.382847
9.332                 0.97801396     -125.616172
9.333                0.977971299     -125.849975
9.334                0.977928686     -126.084256
9.335                0.977886123     -126.319015
9.336                 0.97784361     -126.554252
9.337                0.977801151     -126.789965
9.338                0.977758745     -127.026155
9.339                0.977716396     -127.262821
9.34                 0.977674104     -127.499961
9.341                0.977631872     -127.737577
9.342                0.977589701     -127.975667
9.343                0.977547592      -128.21423
9.344                0.977505548     -128.453267
9.345                 0.97746357     -128.692776
9.346                 0.97742166     -128.932756
9.347                 0.97737982     -129.173208
9.348                 0.97733805      -129.41413
9.349                0.977296354     -129.655522
9.35                 0.977254733     -129.897382
9.351                0.977213188     -130.139712
9.352                0.977171722     -130.382508
9.353                0.977130336     -130.625771
9.354                0.977089032     -130.869501
9.355                0.977047811     -131.113695
9.356                0.977006676     -131.358354
9.357                0.976965629     -131.603476
9.358                0.976924671     -131.849061
9.359                0.976883803     -132.095107
9.36                 0.976843029     -132.341614
9.361                0.976802349     -132.588581
9.362                0.976761766     -132.836007
9.363                0.976721282     -133.083891
9.364                0.976680897     -133.332232
9.365                0.976640615     -133.581029
9.366                0.976600437      -133.83028
9.367                0.976560365     -134.079986
9.368                0.976520401     -134.330144
9.369                0.976480547     -134.580753
9.37                 0.976440804     -134.831814
9.371                0.976401175     -135.083323
9.372                0.976361661     -135.335281
9.373                0.976322265     -135.587686
9.374                0.976282989     -135.840536
9.375                0.976243833     -136.093832
9.376                0.976204801      -136.34757
9.377                0.976165894     -136.601751
9.378                0.976127115     -136.856372
9.379                0.976088464     -137.111433
9.38                 0.976049945     -137.366933
9.381                0.976011559     -137.622868
9.382                0.975973308      -137.87924
9.383                0.975935194     -138.136045
9.384                0.975897219     -138.393283
9.385                0.975859385     -138.650952
9.386                0.975821694     -138.909051
9.387                0.975784149     -139.167578
9.388                 0.97574675     -139.426531
9.389                  0.9757095      -139.68591
9.39                 0.975672401     -139.945713
9.391                0.975635456     -140.205937
9.392                0.975598665     -140.466582
9.393                0.975562032     -140.727645
9.394                0.975525558     -140.989126
9.395                0.975489244     -141.251022
9.396                0.975453094     -141.513332
