! TOUCHSTONE file generated by CST DESIGN STUDIO
! Date and time: Tue Feb  4 16:21:47 2025
! Project name: C:\Work\MatlabApps\UnitCellOptimizationMatlab\CST\unitcell.cst
! Tree item: Tasks\Sweep1\SPara1\S-Parameters
! Header version: 2024
! Port assignment regex: !\s*Touchstone port\s*([0-9]+)\s*=\s*(CST MWS port|CST DES external port|CST DES block port)\s*(.+)\s* \(\"(.*)\"\)(\s*mode\s*([0-9]+))?.*
! Touchstone port assignment:
! Touchstone port 1 = CST DES external port 1 ("")
# GHz S MA R 50
9                     0.97448165     -75.0670309
9.001                0.974417987     -75.1824033
9.002                0.974354127     -75.2980661
9.003                0.974290069     -75.4140201
9.004                0.974225814     -75.5302664
9.005                 0.97416136     -75.6468058
9.006                0.974096707     -75.7636391
9.007                0.974031854     -75.8807673
9.008                0.973966802     -75.9981913
9.009                0.973901549      -76.115912
9.01                 0.973836096     -76.2339303
9.011                0.973770441     -76.3522472
9.012                0.973704584     -76.4708634
9.013                0.973638526       -76.58978
9.014                0.973572264     -76.7089979
9.015                0.973505799     -76.8285179
9.016                0.973439131      -76.948341
9.017                0.973372259     -77.0684682
9.018                0.973305182     -77.1889003
9.019                  0.9732379     -77.3096383
9.02                 0.973170412     -77.4306831
9.021                0.973102719     -77.5520356
9.022                0.973034819     -77.6736969
9.023                0.972966713     -77.7956677
9.024                0.972898399     -77.9179491
9.025                0.972829878     -78.0405419
9.026                0.972761148     -78.1634473
9.027                 0.97269221      -78.286666
9.028                0.972623063      -78.410199
9.029                0.972553707     -78.5340473
9.03                  0.97248414     -78.6582119
9.031                0.972414364     -78.7826936
9.032                0.972344376     -78.9074935
9.033                0.972274178     -79.0326124
9.034                0.972203767     -79.1580515
9.035                0.972133145     -79.2838115
9.036                0.972062311     -79.4098936
9.037                0.971991263     -79.5362986
9.038                0.971920003     -79.6630275
9.039                0.971848528     -79.7900813
9.04                  0.97177684     -79.9174609
9.041                0.971704937     -80.0451674
9.042                 0.97163282     -80.1732018
9.043                0.971560487     -80.3015649
9.044                0.971487939     -80.4302577
9.045                0.971415174     -80.5592814
9.046                0.971342193     -80.6886367
9.047                0.971268996     -80.8183248
9.048                0.971195581     -80.9483466
9.049                0.971121949     -81.0787031
9.05                 0.971048098     -81.2093953
9.051                 0.97097403     -81.3404241
9.052                0.970899743     -81.4717907
9.053                0.970825237     -81.6034959
9.054                0.970750511     -81.7355408
9.055                0.970675566     -81.8679263
9.056                0.970600401     -82.0006535
9.057                0.970525016     -82.1337234
9.058                 0.97044941      -82.267137
9.059                0.970373582     -82.4008953
9.06                 0.970297534     -82.5349992
9.061                0.970221263     -82.6694499
9.062                0.970144771     -82.8042483
9.063                0.970068056     -82.9393954
9.064                0.969991119     -83.0748922
9.065                0.969913959     -83.2107398
9.066                0.969836575     -83.3469392
9.067                0.969758968     -83.4834914
9.068                0.969681137     -83.6203974
9.069                0.969603082     -83.7576583
9.07                 0.969524803      -83.895275
9.071                0.969446299     -84.0332486
9.072                 0.96936757     -84.1715801
9.073                0.969288615     -84.3102706
9.074                0.969209436      -84.449321
9.075                 0.96913003     -84.5887324
9.076                0.969050399     -84.7285059
9.077                0.968970541     -84.8686424
9.078                0.968890457     -85.0091431
9.079                0.968810146     -85.1500089
9.08                 0.968729609     -85.2912408
9.081                0.968648844       -85.43284
9.082                0.968567852     -85.5748074
9.083                0.968486632     -85.7171441
9.084                0.968405185     -85.8598512
9.085                 0.96832351     -86.0029296
9.086                0.968241607     -86.1463804
9.087                0.968159475     -86.2902047
9.088                0.968077115     -86.4344035
9.089                0.967994526     -86.5789779
9.09                 0.967911709     -86.7239288
9.091                0.967828663     -86.8692575
9.092                0.967745387     -87.0149648
9.093                0.967661883     -87.1610518
9.094                0.967578149     -87.3075197
9.095                0.967494186     -87.4543694
9.096                0.967409993      -87.601602
9.097                 0.96732557     -87.7492185
9.098                0.967240918     -87.8972201
9.099                0.967156036     -88.0456077
9.1                  0.967070924     -88.1943824
9.101                0.966985582     -88.3435453
9.102                0.966900011     -88.4930975
9.103                0.966814209     -88.6430399
9.104                0.966728176     -88.7933736
9.105                0.966641914     -88.9440997
9.106                0.966555422     -89.0952193
9.107                0.966468699     -89.2467334
9.108                0.966381746      -89.398643
9.109                0.966294563     -89.5509493
9.11                 0.966207149     -89.7036532
9.111                0.966119506     -89.8567558
9.112                0.966031632     -90.0102583
9.113                0.965943528     -90.1641616
9.114                0.965855194     -90.3184668
9.115                 0.96576663      -90.473175
9.116                0.965677836     -90.6282872
9.117                0.965588813     -90.7838045
9.118                0.965499559     -90.9397279
9.119                0.965410076     -91.0960585
9.12                 0.965320363     -91.2527973
9.121                0.965230421     -91.4099455
9.122                0.965140249      -91.567504
9.123                0.965049848     -91.7254739
9.124                0.964959218     -91.8838563
9.125                 0.96486836     -92.0426523
9.126                0.964777272     -92.2018628
9.127                0.964685956     -92.3614889
9.128                0.964594412     -92.5215318
9.129                 0.96450264     -92.6819923
9.13                  0.96441064     -92.8428717
9.131                0.964318412     -93.0041709
9.132                0.964225957      -93.165891
9.133                0.964133275      -93.328033
9.134                0.964040366      -93.490598
9.135                 0.96394723     -93.6535871
9.136                0.963853869     -93.8170012
9.137                0.963760281     -93.9808414
9.138                0.963666467     -94.1451088
9.139                0.963572429     -94.3098044
9.14                 0.963478165     -94.4749292
9.141                0.963383677     -94.6404843
9.142                0.963288965     -94.8064707
9.143                0.963194029     -94.9728895
9.144                0.963098869     -95.1397416
9.145                0.963003487     -95.3070282
9.146                0.962907882     -95.4747502
9.147                0.962812055     -95.6429087
9.148                0.962716006     -95.8115047
9.149                0.962619736     -95.9805392
9.15                 0.962523246     -96.1500133
9.151                0.962426535     -96.3199279
9.152                0.962329605     -96.4902841
9.153                0.962232456     -96.6610829
9.154                0.962135088     -96.8323253
9.155                0.962037502     -97.0040124
9.156                0.961939699     -97.1761451
9.157                0.961841679     -97.3487244
9.158                0.961743443     -97.5217514
9.159                0.961644992      -97.695227
9.16                 0.961546326     -97.8691522
9.161                0.961447445     -98.0435281
9.162                0.961348352     -98.2183557
9.163                0.961249045     -98.3936358
9.164                0.961149526     -98.5693695
9.165                0.961049796     -98.7455579
9.166                0.960949855     -98.9222018
9.167                0.960849705     -99.0993022
9.168                0.960749346     -99.2768602
9.169                0.960648778     -99.4548766
9.17                 0.960548003     -99.6333525
9.171                0.960447022     -99.8122888
9.172                0.960345835     -99.9916865
9.173                0.960244443     -100.171547
9.174                0.960142847      -100.35187
9.175                0.960041048     -100.532657
9.176                0.959939047      -100.71391
9.177                0.959836846     -100.895629
9.178                0.959734444     -101.077815
9.179                0.959631843     -101.260468
9.18                 0.959529044     -101.443591
9.181                0.959426048     -101.627184
9.182                0.959322856     -101.811247
9.183                0.959219469     -101.995782
9.184                0.959115888     -102.180789
9.185                0.959012115      -102.36627
9.186                 0.95890815     -102.552225
9.187                0.958803995     -102.738656
9.188                0.958699651     -102.925563
9.189                0.958595118     -103.112946
9.19                 0.958490399     -103.300808
9.191                0.958385495     -103.489148
9.192                0.958280406     -103.677968
9.193                0.958175134     -103.867268
9.194                0.958069681      -104.05705
9.195                0.957964047     -104.247314
9.196                0.957858235     -104.438061
9.197                0.957752245     -104.629292
9.198                0.957646079     -104.821007
9.199                0.957539738     -105.013208
9.2                  0.957433224     -105.205895
9.201                0.957326538      -105.39907
9.202                0.957219682     -105.592732
9.203                0.957112657     -105.786883
9.204                0.957005465     -105.981524
9.205                0.956898107     -106.176655
9.206                0.956790585     -106.372277
9.207                0.956682901     -106.568391
9.208                0.956575056     -106.764997
9.209                0.956467052     -106.962097
9.21                 0.956358891     -107.159691
9.211                0.956250574     -107.357779
9.212                0.956142103     -107.556364
9.213                 0.95603348     -107.755444
9.214                0.955924706     -107.955022
9.215                0.955815784     -108.155097
9.216                0.955706715     -108.355671
9.217                0.955597501     -108.556744
9.218                0.955488145     -108.758316
9.219                0.955378647     -108.960389
9.22                  0.95526901     -109.162963
9.221                0.955159236     -109.366039
9.222                0.955049328     -109.569617
9.223                0.954939286     -109.773699
9.224                0.954829113     -109.978284
9.225                0.954718811     -110.183373
9.226                0.954608383     -110.388967
9.227                0.954497829     -110.595067
9.228                0.954387154     -110.801672
9.229                0.954276358     -111.008785
9.23                 0.954165444     -111.216404
9.231                0.954054414     -111.424532
9.232                0.953943271     -111.633167
9.233                0.953832017     -111.842312
9.234                0.953720653     -112.051966
9.235                0.953609184     -112.262129
9.236                 0.95349761     -112.472804
9.237                0.953385934     -112.683989
9.238                 0.95327416     -112.895685
9.239                0.953162288     -113.107893
9.24                 0.953050322     -113.320614
9.241                0.952938265     -113.533847
9.242                0.952826119     -113.747594
9.243                0.952713886     -113.961854
9.244                0.952601569     -114.176628
9.245                0.952489171     -114.391916
9.246                0.952376694      -114.60772
9.247                0.952264142     -114.824038
9.248                0.952151516     -115.040872
9.249                 0.95203882     -115.258222
9.25                 0.951926057     -115.476088
9.251                0.951813229     -115.694471
9.252                 0.95170034      -115.91337
9.253                0.951587391     -116.132787
9.254                0.951474387     -116.352721
9.255                0.951361329     -116.573173
9.256                0.951248222     -116.794142
9.257                0.951135068      -117.01563
9.258                0.951021869     -117.237636
9.259                 0.95090863     -117.460161
9.26                 0.950795353     -117.683205
9.261                0.950682042     -117.906768
9.262                0.950568699      -118.13085
9.263                0.950455328     -118.355451
9.264                0.950341932     -118.580572
9.265                0.950228515     -118.806213
9.266                0.950115079     -119.032373
9.267                0.950001628     -119.259053
9.268                0.949888165     -119.486252
9.269                0.949774694     -119.713972
9.27                 0.949661218     -119.942212
9.271                0.949547741     -120.170972
9.272                0.949434265     -120.400252
9.273                0.949320796     -120.630052
9.274                0.949207335     -120.860371
9.275                0.949093887     -121.091211
9.276                0.948980456     -121.322571
9.277                0.948867044     -121.554451
9.278                0.948753656      -121.78685
9.279                0.948640296     -122.019769
9.28                 0.948526966     -122.253208
9.281                0.948413671     -122.487166
9.282                0.948300415     -122.721644
9.283                0.948187202      -122.95664
9.284                0.948074034     -123.192155
9.285                0.947960917      -123.42819
9.286                0.947847854     -123.664742
9.287                0.947734849     -123.901813
9.288                0.947621906     -124.139401
9.289                0.947509029     -124.377508
9.29                 0.947396222     -124.616132
9.291                0.947283489     -124.855272
9.292                0.947170835      -125.09493
9.293                0.947058263     -125.335104
9.294                0.946945777     -125.575793
9.295                0.946833382     -125.816999
9.296                0.946721082     -126.058719
9.297                0.946608881     -126.300954
9.298                0.946496784     -126.543704
9.299                0.946384794     -126.786967
9.3                  0.946272916     -127.030744
9.301                0.946161155     -127.275033
9.302                0.946049515     -127.519834
9.303                   0.945938     -127.765148
9.304                0.945826614     -128.010972
9.305                0.945715363     -128.257306
9.306                 0.94560425     -128.504151
9.307                0.945493281     -128.751505
9.308                0.945382459     -128.999367
9.309                 0.94527179     -129.247737
9.31                 0.945161277     -129.496614
9.311                0.945050926     -129.745998
9.312                0.944940741     -129.995887
9.313                0.944830727     -130.246281
9.314                0.944720889      -130.49718
9.315                0.944611231     -130.748581
9.316                0.944501758     -131.000485
9.317                0.944392475     -131.252891
9.318                0.944283386     -131.505797
9.319                0.944174498     -131.759203
9.32                 0.944065813     -132.013108
9.321                0.943957338      -132.26751
9.322                0.943849077      -132.52241
9.323                0.943741035     -132.777805
9.324                0.943633217     -133.033695
9.325                0.943525628     -133.290079
9.326                0.943418274     -133.546956
9.327                0.943311158     -133.804324
9.328                0.943204286     -134.062183
9.329                0.943097664     -134.320532
9.33                 0.942991295     -134.579368
9.331                0.942885186     -134.838692
9.332                0.942779341     -135.098501
9.333                0.942673766     -135.358795
9.334                0.942568466     -135.619572
9.335                0.942463445     -135.880831
9.336                 0.94235871     -136.142571
9.337                0.942254265      -136.40479
9.338                0.942150115     -136.667487
9.339                0.942046266     -136.930661
9.34                 0.941942723     -137.194309
9.341                0.941839492     -137.458432
9.342                0.941736577     -137.723027
9.343                0.941633984     -137.988092
9.344                0.941531718     -138.253627
9.345                0.941429784      -138.51963
9.346                0.941328189     -138.786098
9.347                0.941226936     -139.053031
9.348                0.941126033     -139.320428
9.349                0.941025483     -139.588285
9.35                 0.940925292     -139.856602
9.351                0.940825467     -140.125377
9.352                0.940726011     -140.394608
9.353                0.940626931     -140.664294
9.354                0.940528232     -140.934432
9.355                 0.94042992     -141.205021
9.356                   0.940332      -141.47606
9.357                0.940234476     -141.747545
9.358                0.940137356     -142.019476
9.359                0.940040644      -142.29185
9.36                 0.939944346     -142.564666
9.361                0.939848466     -142.837922
9.362                0.939753012     -143.111615
9.363                0.939657988     -143.385743
9.364                0.939563399     -143.660305
9.365                0.939469251     -143.935299
9.366                0.939375551     -144.210721
9.367                0.939282302     -144.486572
9.368                0.939189511     -144.762847
9.369                0.939097182     -145.039545
9.37                 0.939005323     -145.316664
9.371                0.938913937     -145.594202
9.372                0.938823031     -145.872156
9.373                 0.93873261     -146.150524
9.374                0.938642679     -146.429303
9.375                0.938553244     -146.708493
9.376                0.938464311     -146.988089
9.377                0.938375884      -147.26809
9.378                 0.93828797     -147.548493
9.379                0.938200574     -147.829296
9.38                   0.9381137     -148.110497
9.381                0.938027355     -148.392093
9.382                0.937941544     -148.674081
9.383                0.937856273     -148.956459
9.384                0.937771546     -149.239224
9.385                0.937687369     -149.522374
9.386                0.937603748     -149.805906
9.387                0.937520687     -150.089818
9.388                0.937438193     -150.374107
9.389                 0.93735627      -150.65877
9.39                 0.937274924     -150.943804
9.391                 0.93719416     -151.229207
9.392                0.937113983     -151.514976
9.393                0.937034399     -151.801109
9.394                0.936955413     -152.087601
9.395                 0.93687703     -152.374452
9.396                0.936799255     -152.661657
