! TOUCHSTONE file generated by CST DESIGN STUDIO
! Date and time: Tue Feb  4 16:21:52 2025
! Project name: C:\Work\MatlabApps\UnitCellOptimizationMatlab\CST\unitcell.cst
! Tree item: Tasks\Sweep1\SPara1\S-Parameters
! Header version: 2024
! Port assignment regex: !\s*Touchstone port\s*([0-9]+)\s*=\s*(CST MWS port|CST DES external port|CST DES block port)\s*(.+)\s* \(\"(.*)\"\)(\s*mode\s*([0-9]+))?.*
! Touchstone port assignment:
! Touchstone port 1 = CST DES external port 1 ("")
# GHz S MA R 50
9                    0.975989817     -68.1055241
9.001                0.975934572     -68.2049391
9.002                0.975879154     -68.3045957
9.003                0.975823563     -68.4044945
9.004                0.975767797     -68.5046364
9.005                0.975711856     -68.6050222
9.006                 0.97565574     -68.7056525
9.007                0.975599448     -68.8065282
9.008                 0.97554298       -68.90765
9.009                0.975486335     -69.0090188
9.01                 0.975429513     -69.1106352
9.011                0.975372513     -69.2125001
9.012                0.975315334     -69.3146143
9.013                0.975257977     -69.4169785
9.014                0.975200441     -69.5195935
9.015                0.975142725     -69.6224601
9.016                0.975084828     -69.7255791
9.017                0.975026751     -69.8289513
9.018                0.974968493     -69.9325775
9.019                0.974910052     -70.0364585
9.02                  0.97485143      -70.140595
9.021                0.974792625      -70.244988
9.022                0.974733636     -70.3496381
9.023                0.974674464     -70.4545462
9.024                0.974615107     -70.5597132
9.025                0.974555566     -70.6651397
9.026                0.974495839     -70.7708267
9.027                0.974435927      -70.876775
9.028                0.974375828     -70.9829853
9.029                0.974315543     -71.0894586
9.03                  0.97425507     -71.1961955
9.031                 0.97419441      -71.303197
9.032                0.974133561     -71.4104639
9.033                0.974072524      -71.517997
9.034                0.974011297     -71.6257972
9.035                0.973949881     -71.7338652
9.036                0.973888274      -71.842202
9.037                0.973826477     -71.9508083
9.038                0.973764488      -72.059685
9.039                0.973702308     -72.1688329
9.04                 0.973639936      -72.278253
9.041                0.973577371      -72.387946
9.042                0.973514612     -72.4979129
9.043                 0.97345166     -72.6081544
9.044                0.973388514     -72.7186714
9.045                0.973325173     -72.8294648
9.046                0.973261638     -72.9405354
9.047                0.973197906     -73.0518842
9.048                0.973133978     -73.1635119
9.049                0.973069854     -73.2754195
9.05                 0.973005532     -73.3876078
9.051                0.972941013     -73.5000777
9.052                0.972876296     -73.6128301
9.053                0.972811381     -73.7258658
9.054                0.972746266     -73.8391858
9.055                0.972680952     -73.9527909
9.056                0.972615438      -74.066682
9.057                0.972549723       -74.18086
9.058                0.972483807     -74.2953258
9.059                 0.97241769     -74.4100803
9.06                 0.972351371     -74.5251244
9.061                 0.97228485     -74.6404589
9.062                0.972218126     -74.7560849
9.063                0.972151198     -74.8720031
9.064                0.972084067     -74.9882145
9.065                0.972016732       -75.10472
9.066                0.971949191     -75.2215206
9.067                0.971881446      -75.338617
9.068                0.971813495     -75.4560104
9.069                0.971745337     -75.5737014
9.07                 0.971676973     -75.6916912
9.071                0.971608403     -75.8099805
9.072                0.971539624     -75.9285704
9.073                0.971470638     -76.0474618
9.074                0.971401443     -76.1666555
9.075                0.971332039     -76.2861525
9.076                0.971262427     -76.4059538
9.077                0.971192604     -76.5260603
9.078                0.971122571     -76.6464729
9.079                0.971052327     -76.7671926
9.08                 0.970981873     -76.8882203
9.081                0.970911207     -77.0095569
9.082                0.970840329     -77.1312035
9.083                0.970769238     -77.2531609
9.084                0.970697935     -77.3754301
9.085                0.970626418     -77.4980121
9.086                0.970554688     -77.6209078
9.087                0.970482743     -77.7441182
9.088                0.970410584     -77.8676442
9.089                0.970338211     -77.9914868
9.09                 0.970265621      -78.115647
9.091                0.970192816     -78.2401257
9.092                0.970119795     -78.3649239
9.093                0.970046557     -78.4900426
9.094                0.969973102     -78.6154827
9.095                 0.96989943     -78.7412453
9.096                 0.96982554     -78.8673313
9.097                0.969751432     -78.9937417
9.098                0.969677105     -79.1204774
9.099                0.969602559     -79.2475395
9.1                  0.969527794     -79.3749289
9.101                0.969452809     -79.5026466
9.102                0.969377604     -79.6306937
9.103                0.969302178     -79.7590711
9.104                0.969226531     -79.8877798
9.105                0.969150664     -80.0168208
9.106                0.969074574     -80.1461951
9.107                0.968998263     -80.2759037
9.108                0.968921729     -80.4059476
9.109                0.968844973     -80.5363278
9.11                 0.968767993     -80.6670453
9.111                0.968690791     -80.7981011
9.112                0.968613364     -80.9294963
9.113                0.968535713     -81.0612319
9.114                0.968457838     -81.1933088
9.115                0.968379739      -81.325728
9.116                0.968301414     -81.4584907
9.117                0.968222864     -81.5915978
9.118                0.968144088     -81.7250503
9.119                0.968065086     -81.8588493
9.12                 0.967985858     -81.9929957
9.121                0.967906404     -82.1274907
9.122                0.967826722     -82.2623352
9.123                0.967746814     -82.3975303
9.124                0.967666678      -82.533077
9.125                0.967586314     -82.6689763
9.126                0.967505722     -82.8052293
9.127                0.967424902      -82.941837
9.128                0.967343853     -83.0788004
9.129                0.967262576     -83.2161206
9.13                 0.967181069     -83.3537987
9.131                0.967099333     -83.4918356
9.132                0.967017368     -83.6302324
9.133                0.966935173     -83.7689902
9.134                0.966852748       -83.90811
9.135                0.966770093     -84.0475928
9.136                0.966687207     -84.1874398
9.137                0.966604091     -84.3276519
9.138                0.966520743     -84.4682302
9.139                0.966437165     -84.6091758
9.14                 0.966353356     -84.7504896
9.141                0.966269315     -84.8921729
9.142                0.966185042     -85.0342266
9.143                0.966100538     -85.1766518
9.144                0.966015802     -85.3194495
9.145                0.965930834     -85.4626209
9.146                0.965845633     -85.6061669
9.147                0.965760201     -85.7500887
9.148                0.965674535     -85.8943872
9.149                0.965588637     -86.0390637
9.15                 0.965502507      -86.184119
9.151                0.965416143     -86.3295544
9.152                0.965329547     -86.4753709
9.153                0.965242717     -86.6215695
9.154                0.965155655     -86.7681513
9.155                0.965068359     -86.9151174
9.156                 0.96498083     -87.0624688
9.157                0.964893067     -87.2102067
9.158                0.964805071     -87.3583321
9.159                0.964716842      -87.506846
9.16                 0.964628379     -87.6557496
9.161                0.964539683     -87.8050439
9.162                0.964450753     -87.9547301
9.163                 0.96436159     -88.1048091
9.164                0.964272193     -88.2552821
9.165                0.964182562     -88.4061501
9.166                0.964092698     -88.5574142
9.167                0.964002601     -88.7090755
9.168                 0.96391227     -88.8611351
9.169                0.963821706      -89.013594
9.17                 0.963730909     -89.1664534
9.171                0.963639878     -89.3197143
9.172                0.963548614     -89.4733778
9.173                0.963457117     -89.6274449
9.174                0.963365387     -89.7819168
9.175                0.963273424     -89.9367945
9.176                0.963181228     -90.0920791
9.177                  0.9630888     -90.2477717
9.178                0.962996139     -90.4038734
9.179                0.962903246     -90.5603852
9.18                 0.962810121     -90.7173083
9.181                0.962716764     -90.8746436
9.182                0.962623175     -91.0323924
9.183                0.962529355     -91.1905556
9.184                0.962435303     -91.3491344
9.185                 0.96234102     -91.5081298
9.186                0.962246506     -91.6675428
9.187                0.962151761     -91.8273747
9.188                0.962056786     -91.9876264
9.189                0.961961581     -92.1482991
9.19                 0.961866146     -92.3093937
9.191                0.961770481     -92.4709115
9.192                0.961674588     -92.6328533
9.193                0.961578465     -92.7952204
9.194                0.961482114     -92.9580138
9.195                0.961385534     -93.1212346
9.196                0.961288727     -93.2848838
9.197                0.961191692     -93.4489625
9.198                 0.96109443     -93.6134718
9.199                0.960996942     -93.7784127
9.2                  0.960899227     -93.9437864
9.201                0.960801287     -94.1095938
9.202                0.960703121      -94.275836
9.203                 0.96060473     -94.4425141
9.204                0.960506115     -94.6096292
9.205                0.960407276     -94.7771822
9.206                0.960308214     -94.9451743
9.207                0.960208929     -95.1136066
9.208                0.960109421       -95.28248
9.209                0.960009692     -95.4517956
9.21                 0.959909741     -95.6215545
9.211                 0.95980957     -95.7917577
9.212                0.959709179     -95.9624063
9.213                0.959608568     -96.1335013
9.214                0.959507739     -96.3050437
9.215                0.959406692     -96.4770346
9.216                0.959305427      -96.649475
9.217                0.959203946     -96.8223659
9.218                0.959102248     -96.9957085
9.219                0.959000336     -97.1695036
9.22                 0.958898208     -97.3437524
9.221                0.958795867     -97.5184558
9.222                0.958693313     -97.6936148
9.223                0.958590547     -97.8692306
9.224                 0.95848757     -98.0453041
9.225                0.958384381     -98.2218363
9.226                0.958280984     -98.3988282
9.227                0.958177377     -98.5762808
9.228                0.958073562     -98.7541951
9.229                 0.95796954     -98.9325722
9.23                 0.957865312      -99.111413
9.231                0.957760879     -99.2907185
9.232                0.957656242     -99.4704896
9.233                0.957551402     -99.6507275
9.234                0.957446359      -99.831433
9.235                0.957341115     -100.012607
9.236                0.957235671     -100.194251
9.237                0.957130028     -100.376365
9.238                0.957024187     -100.558951
9.239                0.956918148     -100.742009
9.24                 0.956811915     -100.925541
9.241                0.956705486     -101.109547
9.242                0.956598864     -101.294029
9.243                 0.95649205     -101.478986
9.244                0.956385045     -101.664421
9.245                 0.95627785     -101.850335
9.246                0.956170466     -102.036727
9.247                0.956062896     -102.223599
9.248                0.955955139     -102.410952
9.249                0.955847197     -102.598787
9.25                 0.955739073     -102.787105
9.251                0.955630766     -102.975906
9.252                0.955522279     -103.165192
9.253                0.955413613     -103.354963
9.254                0.955304769      -103.54522
9.255                0.955195749     -103.735965
9.256                0.955086554     -103.927197
9.257                0.954977186     -104.118919
9.258                0.954867646      -104.31113
9.259                0.954757936     -104.503832
9.26                 0.954648058     -104.697025
9.261                0.954538013     -104.890711
9.262                0.954427802      -105.08489
9.263                0.954317428     -105.279563
9.264                0.954206892      -105.47473
9.265                0.954096196     -105.670393
9.266                0.953985341     -105.866552
9.267                0.953874329     -106.063209
9.268                0.953763163     -106.260364
9.269                0.953651843     -106.458017
9.27                 0.953540373      -106.65617
9.271                0.953428752     -106.854823
9.272                0.953316985     -107.053977
9.273                0.953205071     -107.253633
9.274                0.953093014     -107.453791
9.275                0.952980816     -107.654453
9.276                0.952868477     -107.855619
9.277                0.952756001     -108.057289
9.278                 0.95264339     -108.259465
9.279                0.952530644     -108.462147
9.28                 0.952417768     -108.665336
9.281                0.952304762     -108.869033
9.282                0.952191629     -109.073237
9.283                0.952078371     -109.277951
9.284                0.951964991     -109.483174
9.285                 0.95185149     -109.688907
9.286                0.951737871      -109.89515
9.287                0.951624136     -110.101906
9.288                0.951510288     -110.309173
9.289                0.951396329     -110.516953
9.29                  0.95128226     -110.725246
9.291                0.951168086     -110.934053
9.292                0.951053808     -111.143374
9.293                0.950939428      -111.35321
9.294                 0.95082495     -111.563562
9.295                0.950710375      -111.77443
9.296                0.950595706     -111.985814
9.297                0.950480947     -112.197715
9.298                0.950366099     -112.410134
9.299                0.950251165     -112.623071
9.3                  0.950136148     -112.836527
9.301                0.950021051     -113.050502
9.302                0.949905876     -113.264996
9.303                0.949790626      -113.48001
9.304                0.949675304     -113.695545
9.305                0.949559913     -113.911601
9.306                0.949444456     -114.128177
9.307                0.949328936     -114.345276
9.308                0.949213355     -114.562896
9.309                0.949097716     -114.781039
9.31                 0.948982024     -114.999705
9.311                 0.94886628     -115.218894
9.312                0.948750487     -115.438606
9.313                0.948634649     -115.658842
9.314                 0.94851877     -115.879602
9.315                0.948402851     -116.100887
9.316                0.948286897     -116.322696
9.317                 0.94817091      -116.54503
9.318                0.948054894     -116.767889
9.319                0.947938852     -116.991274
9.32                 0.947822787     -117.215184
9.321                0.947706703     -117.439621
9.322                0.947590604     -117.664583
9.323                0.947474492     -117.890071
9.324                0.947358371     -118.116086
9.325                0.947242244     -118.342628
9.326                0.947126116     -118.569696
9.327                0.947009989     -118.797291
9.328                0.946893867     -119.025413
9.329                0.946777755     -119.254062
9.33                 0.946661654     -119.483238
9.331                 0.94654557     -119.712941
9.332                0.946429506     -119.943171
9.333                0.946313465     -120.173928
9.334                0.946197451     -120.405213
9.335                0.946081469     -120.637024
9.336                0.945965522     -120.869363
9.337                0.945849613     -121.102229
9.338                0.945733748     -121.335622
9.339                0.945617929     -121.569541
9.34                 0.945502161     -121.803988
9.341                0.945386448     -122.038961
9.342                0.945270793     -122.274461
9.343                0.945155201     -122.510488
9.344                0.945039677      -122.74704
9.345                0.944924223     -122.984119
9.346                0.944808844     -123.221723
9.347                0.944693545     -123.459853
9.348                0.944578329     -123.698509
9.349                0.944463202     -123.937689
9.35                 0.944348166     -124.177394
9.351                0.944233227     -124.417624
9.352                0.944118389     -124.658378
9.353                0.944003656     -124.899656
9.354                0.943889033     -125.141458
9.355                0.943774523     -125.383782
9.356                0.943660133     -125.626629
9.357                0.943545865     -125.869999
9.358                0.943431725      -126.11389
9.359                0.943317717     -126.358302
9.36                 0.943203845     -126.603236
9.361                0.943090115      -126.84869
9.362                0.942976531     -127.094663
9.363                0.942863097     -127.341156
9.364                0.942749819     -127.588168
9.365                0.942636701     -127.835698
9.366                0.942523748     -128.083745
9.367                0.942410965     -128.332309
9.368                0.942298355      -128.58139
9.369                0.942185926     -128.830986
9.37                  0.94207368     -129.081097
9.371                0.941961623     -129.331721
9.372                0.941849761      -129.58286
9.373                0.941738097     -129.834511
9.374                0.941626637     -130.086673
9.375                0.941515387     -130.339347
9.376                 0.94140435     -130.592531
9.377                0.941293532     -130.846224
9.378                0.941182938     -131.100425
9.379                0.941072574     -131.355134
9.38                 0.940962443      -131.61035
9.381                0.940852552     -131.866071
9.382                0.940742906     -132.122297
9.383                 0.94063351     -132.379027
9.384                0.940524369     -132.636259
9.385                0.940415488     -132.893993
9.386                0.940306872     -133.152227
9.387                0.940198528     -133.410961
9.388                0.940090459     -133.670192
9.389                0.939982673     -133.929921
9.39                 0.939875172     -134.190146
9.391                0.939767965     -134.450866
9.392                0.939661054     -134.712079
9.393                0.939554447     -134.973785
9.394                0.939448148     -135.235982
9.395                0.939342163     -135.498668
9.396                0.939236498     -135.761843
