! TOUCHSTONE file generated by CST DESIGN STUDIO
! Date and time: Tue Feb  4 14:05:45 2025
! Project name: C:\Work\MatlabApps\UnitCellOptimizationMatlab\CST\unitcell.cst
! Tree item: Tasks\Sweep1\SPara1\S-Parameters
! Header version: 2024
! Port assignment regex: !\s*Touchstone port\s*([0-9]+)\s*=\s*(CST MWS port|CST DES external port|CST DES block port)\s*(.+)\s* \(\"(.*)\"\)(\s*mode\s*([0-9]+))?.*
! Touchstone port assignment:
! Touchstone port 1 = CST DES external port 1 ("")
# GHz S MA R 50
9                    0.981446044      -65.046367
9.001                0.981406966     -65.1379689
9.002                0.981367768      -65.229786
9.003                0.981328451     -65.3218192
9.004                0.981289014     -65.4140689
9.005                0.981249457      -65.506536
9.006                0.981209779      -65.599221
9.007                 0.98116998     -65.6921247
9.008                 0.98113006     -65.7852477
9.009                0.981090018     -65.8785907
9.01                 0.981049853     -65.9721543
9.011                0.981009567     -66.0659394
9.012                0.980969158     -66.1599465
9.013                0.980928625     -66.2541764
9.014                0.980887969     -66.3486297
9.015                0.980847189     -66.4433071
9.016                0.980806285     -66.5382093
9.017                0.980765257     -66.6333371
9.018                0.980724103     -66.7286911
9.019                0.980682824      -66.824272
9.02                  0.98064142     -66.9200806
9.021                0.980599889     -67.0161174
9.022                0.980558233     -67.1123834
9.023                0.980516449     -67.2088791
9.024                0.980474538     -67.3056052
9.025                  0.9804325     -67.4025626
9.026                0.980390334     -67.4997518
9.027                 0.98034804     -67.5971737
9.028                0.980305617     -67.6948289
9.029                0.980263065     -67.7927182
9.03                 0.980220384     -67.8908422
9.031                0.980177574     -67.9892018
9.032                0.980134633     -68.0877977
9.033                0.980091562     -68.1866305
9.034                0.980048361     -68.2857011
9.035                0.980005028     -68.3850101
9.036                0.979961564     -68.4845583
9.037                0.979917968     -68.5843465
9.038                0.979874239     -68.6843753
9.039                0.979830379     -68.7846456
9.04                 0.979786385     -68.8851581
9.041                0.979742258     -68.9859135
9.042                0.979697997     -69.0869126
9.043                0.979653603     -69.1881561
9.044                0.979609074     -69.2896449
9.045                 0.97956441     -69.3913796
9.046                0.979519611      -69.493361
9.047                0.979474677     -69.5955899
9.048                0.979429606     -69.6980671
9.049                  0.9793844     -69.8007933
9.05                 0.979339057     -69.9037693
9.051                0.979293577     -70.0069959
9.052                 0.97924796     -70.1104738
9.053                0.979202205     -70.2142039
9.054                0.979156313     -70.3181869
9.055                0.979110281     -70.4224235
9.056                0.979064111     -70.5269147
9.057                0.979017802     -70.6316611
9.058                0.978971354     -70.7366635
9.059                0.978924766     -70.8419228
9.06                 0.978878037     -70.9474398
9.061                0.978831168     -71.0532152
9.062                0.978784158     -71.1592498
9.063                0.978737007     -71.2655445
9.064                0.978689714        -71.3721
9.065                0.978642279     -71.4789172
9.066                0.978594701     -71.5859968
9.067                0.978546981     -71.6933397
9.068                0.978499118     -71.8009467
9.069                0.978451112     -71.9088186
9.07                 0.978402961     -72.0169562
9.071                0.978354667     -72.1253603
9.072                0.978306228     -72.2340318
9.073                0.978257644     -72.3429715
9.074                0.978208915     -72.4521801
9.075                 0.97816004     -72.5616587
9.076                0.978111019     -72.6714079
9.077                0.978061852     -72.7814286
9.078                0.978012539     -72.8917216
9.079                0.977963078     -73.0022878
9.08                  0.97791347      -73.113128
9.081                0.977863715     -73.2242431
9.082                0.977813811     -73.3356339
9.083                0.977763759     -73.4473013
9.084                0.977713558      -73.559246
9.085                0.977663208      -73.671469
9.086                0.977612709     -73.7839711
9.087                0.977562059     -73.8967532
9.088                 0.97751126     -74.0098161
9.089                 0.97746031     -74.1231607
9.09                  0.97740921     -74.2367878
9.091                0.977357958     -74.3506984
9.092                0.977306555     -74.4648932
9.093                0.977254999     -74.5793732
9.094                0.977203292     -74.6941391
9.095                0.977151432      -74.809192
9.096                 0.97709942     -74.9245327
9.097                0.977047254      -75.040162
9.098                0.976994934     -75.1560808
9.099                0.976942461     -75.2722901
9.1                  0.976889833     -75.3887906
9.101                0.976837051     -75.5055834
9.102                0.976784115     -75.6226692
9.103                0.976731023      -75.740049
9.104                0.976677775     -75.8577236
9.105                0.976624372      -75.975694
9.106                0.976570812     -76.0939611
9.107                0.976517096     -76.2125257
9.108                0.976463224     -76.3313888
9.109                0.976409194     -76.4505512
9.11                 0.976355007     -76.5700139
9.111                0.976300662     -76.6897778
9.112                0.976246159     -76.8098438
9.113                0.976191497     -76.9302128
9.114                0.976136678     -77.0508857
9.115                0.976081699     -77.1718635
9.116                 0.97602656      -77.293147
9.117                0.975971263     -77.4147371
9.118                0.975915805     -77.5366349
9.119                0.975860187     -77.6588413
9.12                 0.975804409      -77.781357
9.121                 0.97574847     -77.9041832
9.122                 0.97569237     -78.0273207
9.123                0.975636109     -78.1507704
9.124                0.975579686     -78.2745334
9.125                0.975523101     -78.3986104
9.126                0.975466354     -78.5230025
9.127                0.975409444     -78.6477107
9.128                0.975352372     -78.7727358
9.129                0.975295136     -78.8980788
9.13                 0.975237738     -79.0237406
9.131                0.975180176     -79.1497222
9.132                 0.97512245     -79.2760246
9.133                 0.97506456     -79.4026487
9.134                0.975006505     -79.5295954
9.135                0.974948286     -79.6568658
9.136                0.974889903     -79.7844607
9.137                0.974831354     -79.9123812
9.138                0.974772639     -80.0406282
9.139                0.974713759     -80.1692026
9.14                 0.974654714     -80.2981055
9.141                0.974595502     -80.4273378
9.142                0.974536124     -80.5569004
9.143                0.974476579     -80.6867944
9.144                0.974416867     -80.8170207
9.145                0.974356989     -80.9475803
9.146                0.974296943     -81.0784741
9.147                 0.97423673     -81.2097033
9.148                0.974176349     -81.3412686
9.149                  0.9741158     -81.4731712
9.15                 0.974055084     -81.6054119
9.151                0.973994198     -81.7379918
9.152                0.973933145     -81.8709119
9.153                0.973871923     -82.0041732
9.154                0.973810531     -82.1377766
9.155                0.973748971     -82.2717232
9.156                0.973687242     -82.4060139
9.157                0.973625343     -82.5406497
9.158                0.973563274     -82.6756316
9.159                0.973501036     -82.8109607
9.16                 0.973438627     -82.9466379
9.161                0.973376049     -83.0826642
9.162                  0.9733133     -83.2190406
9.163                0.973250381     -83.3557682
9.164                0.973187291     -83.4928479
9.165                0.973124031     -83.6302808
9.166                  0.9730606     -83.7680678
9.167                0.972996997       -83.90621
9.168                0.972933224     -84.0447083
9.169                0.972869279     -84.1835638
9.17                 0.972805163     -84.3227776
9.171                0.972740875     -84.4623505
9.172                0.972676416     -84.6022836
9.173                0.972611785      -84.742578
9.174                0.972546982     -84.8832347
9.175                0.972482008     -85.0242546
9.176                0.972416861     -85.1656389
9.177                0.972351542     -85.3073884
9.178                0.972286051     -85.4495043
9.179                0.972220388     -85.5919876
9.18                 0.972154553     -85.7348392
9.181                0.972088545     -85.8780603
9.182                0.972022364     -86.0216518
9.183                0.971956012     -86.1656148
9.184                0.971889486     -86.3099502
9.185                0.971822789     -86.4546592
9.186                0.971755918     -86.5997428
9.187                0.971688875     -86.7452019
9.188                 0.97162166     -86.8910376
9.189                0.971554271      -87.037251
9.19                 0.971486711      -87.183843
9.191                0.971418977     -87.3308147
9.192                0.971351071     -87.4781672
9.193                0.971282992     -87.6259015
9.194                0.971214741     -87.7740185
9.195                0.971146317     -87.9225194
9.196                 0.97107772     -88.0714052
9.197                0.971008952     -88.2206769
9.198                 0.97094001     -88.3703355
9.199                0.970870897     -88.5203821
9.2                  0.970801611     -88.6708177
9.201                0.970732152     -88.8216434
9.202                0.970662522     -88.9728602
9.203                0.970592719     -89.1244691
9.204                0.970522745     -89.2764712
9.205                0.970452599     -89.4288674
9.206                0.970382281     -89.5816589
9.207                0.970311791     -89.7348467
9.208                 0.97024113     -89.8884318
9.209                0.970170297     -90.0424153
9.21                 0.970099294     -90.1967981
9.211                0.970028119     -90.3515813
9.212                0.969956773      -90.506766
9.213                0.969885257     -90.6623532
9.214                 0.96981357      -90.818344
9.215                0.969741713     -90.9747393
9.216                0.969669685     -91.1315402
9.217                0.969597488     -91.2887477
9.218                0.969525121     -91.4463629
9.219                0.969452584     -91.6043868
9.22                 0.969379878     -91.7628205
9.221                0.969307004     -91.9216649
9.222                 0.96923396     -92.0809211
9.223                0.969160748     -92.2405901
9.224                0.969087367      -92.400673
9.225                0.969013819     -92.5611708
9.226                0.968940103     -92.7220845
9.227                 0.96886622     -92.8834151
9.228                 0.96879217     -93.0451637
9.229                0.968717953     -93.2073313
9.23                 0.968643569     -93.3699189
9.231                 0.96856902     -93.5329276
9.232                0.968494305     -93.6963583
9.233                0.968419425      -93.860212
9.234                 0.96834438     -94.0244899
9.235                 0.96826917     -94.1891929
9.236                0.968193796      -94.354322
9.237                0.968118259     -94.5198783
9.238                0.968042558     -94.6858627
9.239                0.967966695     -94.8522763
9.24                 0.967890669     -95.0191201
9.241                0.967814481      -95.186395
9.242                0.967738132     -95.3541021
9.243                0.967661621     -95.5222424
9.244                0.967584951     -95.6908169
9.245                 0.96750812     -95.8598266
9.246                 0.96743113     -96.0292725
9.247                0.967353981     -96.1991556
9.248                0.967276674     -96.3694768
9.249                0.967199209     -96.5402372
9.25                 0.967121586     -96.7114377
9.251                0.967043807     -96.8830794
9.252                0.966965873     -97.0551632
9.253                0.966887782     -97.2276901
9.254                0.966809537      -97.400661
9.255                0.966731138      -97.574077
9.256                0.966652585      -97.747939
9.257                0.966573879      -97.922248
9.258                0.966495022      -98.097005
9.259                0.966416012     -98.2722108
9.26                 0.966336852     -98.4478666
9.261                0.966257542     -98.6239731
9.262                0.966178083     -98.8005315
9.263                0.966098475     -98.9775425
9.264                 0.96601872     -99.1550073
9.265                0.965938817     -99.3329266
9.266                0.965858769     -99.5113015
9.267                0.965778575     -99.6901329
9.268                0.965698236     -99.8694217
9.269                0.965617754     -100.049169
9.27                 0.965537129     -100.229375
9.271                0.965456361     -100.410042
9.272                0.965375453      -100.59117
9.273                0.965294405     -100.772759
9.274                0.965213217     -100.954812
9.275                0.965131892     -101.137328
9.276                0.965050428      -101.32031
9.277                0.964968829     -101.503756
9.278                0.964887094     -101.687669
9.279                0.964805224      -101.87205
9.28                 0.964723221     -102.056899
9.281                0.964641086     -102.242217
9.282                 0.96455882     -102.428005
9.283                0.964476423     -102.614264
9.284                0.964393898     -102.800994
9.285                0.964311244     -102.988197
9.286                0.964228463     -103.175874
9.287                0.964145557     -103.364024
9.288                0.964062526      -103.55265
9.289                0.963979371     -103.741752
9.29                 0.963896095      -103.93133
9.291                0.963812697     -104.121386
9.292                 0.96372918     -104.311921
9.293                0.963645544     -104.502934
9.294                0.963561791     -104.694428
9.295                0.963477922     -104.886402
9.296                0.963393938     -105.078858
9.297                0.963309841     -105.271796
9.298                0.963225631     -105.465217
9.299                0.963141312     -105.659122
9.3                  0.963056883     -105.853511
9.301                0.962972346     -106.048386
9.302                0.962887703     -106.243747
9.303                0.962802954     -106.439595
9.304                0.962718102      -106.63593
9.305                0.962633149     -106.832754
9.306                0.962548094     -107.030067
9.307                0.962462941     -107.227869
9.308                 0.96237769     -107.426162
9.309                0.962292343     -107.624946
9.31                 0.962206902     -107.824222
9.311                0.962121368      -108.02399
9.312                0.962035743     -108.224251
9.313                0.961950029     -108.425006
9.314                0.961864226     -108.626255
9.315                0.961778338        -108.828
9.316                0.961692365      -109.03024
9.317                0.961606309     -109.232976
9.318                0.961520173      -109.43621
9.319                0.961433957      -109.63994
9.32                 0.961347664     -109.844169
9.321                0.961261296     -110.048897
9.322                0.961174853     -110.254124
9.323                0.961088339     -110.459851
9.324                0.961001755     -110.666078
9.325                0.960915103     -110.872806
9.326                0.960828385     -111.080036
9.327                0.960741602     -111.287767
9.328                0.960654757     -111.496001
9.329                0.960567852     -111.704738
9.33                 0.960480888     -111.913979
9.331                0.960393869     -112.123723
9.332                0.960306795     -112.333972
9.333                0.960219669     -112.544726
9.334                0.960132493     -112.755986
9.335                 0.96004527     -112.967751
9.336                   0.959958     -113.180022
9.337                0.959870687       -113.3928
9.338                0.959783333     -113.606085
9.339                 0.95969594     -113.819877
9.34                 0.959608509     -114.034178
9.341                0.959521045     -114.248986
9.342                0.959433547     -114.464303
9.343                 0.95934602     -114.680129
9.344                0.959258465     -114.896464
9.345                0.959170885     -115.113309
9.346                0.959083282     -115.330663
9.347                0.958995658     -115.548528
9.348                0.958908016     -115.766902
9.349                0.958820359     -115.985788
9.35                 0.958732688     -116.205185
9.351                0.958645007     -116.425092
9.352                0.958557317     -116.645511
9.353                0.958469622     -116.866442
9.354                0.958381924     -117.087884
9.355                0.958294225     -117.309839
9.356                0.958206528     -117.532305
9.357                0.958118837     -117.755284
9.358                0.958031152     -117.978775
9.359                0.957943478     -118.202779
9.36                 0.957855817     -118.427295
9.361                0.957768171     -118.652324
9.362                0.957680544     -118.877866
9.363                0.957592938     -119.103921
9.364                0.957505356     -119.330489
9.365                  0.9574178      -119.55757
9.366                0.957330275     -119.785164
9.367                0.957242781      -120.01327
9.368                0.957155323      -120.24189
9.369                0.957067904     -120.471023
9.37                 0.956980526     -120.700669
9.371                0.956893192     -120.930827
9.372                0.956805905     -121.161498
9.373                0.956718669     -121.392682
9.374                0.956631486     -121.624379
9.375                0.956544359     -121.856587
9.376                0.956457292     -122.089308
9.377                0.956370287     -122.322542
9.378                0.956283349     -122.556287
9.379                0.956196479     -122.790544
9.38                 0.956109681     -123.025312
9.381                0.956022958     -123.260592
9.382                0.955936314     -123.496382
9.383                0.955849752     -123.732684
9.384                0.955763275     -123.969496
9.385                0.955676886     -124.206818
9.386                0.955590589     -124.444649
9.387                0.955504386     -124.682991
9.388                0.955418283     -124.921841
9.389                 0.95533228       -125.1612
9.39                 0.955246383     -125.401068
9.391                0.955160595     -125.641443
9.392                0.955074919     -125.882326
9.393                0.954989358     -126.123715
9.394                0.954903916     -126.365612
9.395                0.954818597     -126.608014
9.396                0.954733404     -126.850922
