! TOUCHSTONE file generated by CST DESIGN STUDIO
! Date and time: Tue Feb  4 14:05:35 2025
! Project name: C:\Work\MatlabApps\UnitCellOptimizationMatlab\CST\unitcell.cst
! Tree item: Tasks\Sweep1\SPara1\S-Parameters
! Header version: 2024
! Port assignment regex: !\s*Touchstone port\s*([0-9]+)\s*=\s*(CST MWS port|CST DES external port|CST DES block port)\s*(.+)\s* \(\"(.*)\"\)(\s*mode\s*([0-9]+))?.*
! Touchstone port assignment:
! Touchstone port 1 = CST DES external port 1 ("")
# GHz S MA R 50
9                    0.980068605     -75.8303244
9.001                0.980020024     -75.9455271
9.002                0.979971295     -76.0610148
9.003                0.979922418     -76.1767883
9.004                0.979873393     -76.2928485
9.005                 0.97982422     -76.4091963
9.006                0.979774897     -76.5258325
9.007                0.979725425     -76.6427579
9.008                0.979675804     -76.7599735
9.009                0.979626033     -76.8774801
9.01                 0.979576111     -76.9952786
9.011                0.979526039     -77.1133698
9.012                0.979475816     -77.2317546
9.013                0.979425442     -77.3504339
9.014                0.979374916     -77.4694086
9.015                0.979324238     -77.5886795
9.016                0.979273408     -77.7082475
9.017                0.979222426     -77.8281135
9.018                 0.97917129     -77.9482783
9.019                0.979120002      -78.068743
9.02                  0.97906856     -78.1895082
9.021                0.979016965      -78.310575
9.022                0.978965215     -78.4319443
9.023                0.978913311     -78.5536168
9.024                0.978861252     -78.6755936
9.025                0.978809038     -78.7978754
9.026                0.978756669     -78.9204633
9.027                0.978704145     -79.0433581
9.028                0.978651464     -79.1665606
9.029                0.978598628     -79.2900719
9.03                 0.978545634     -79.4138928
9.031                0.978492485     -79.5380242
9.032                0.978439178     -79.6624671
9.033                0.978385713     -79.7872222
9.034                0.978332091     -79.9122907
9.035                0.978278311     -80.0376733
9.036                0.978224373      -80.163371
9.037                0.978170277     -80.2893846
9.038                0.978116021     -80.4157152
9.039                0.978061607     -80.5423637
9.04                 0.978007033     -80.6693309
9.041                  0.9779523     -80.7966177
9.042                0.977897407     -80.9242252
9.043                0.977842354     -81.0521543
9.044                 0.97778714     -81.1804058
9.045                0.977731766     -81.3089806
9.046                0.977676231     -81.4378799
9.047                0.977620535     -81.5671044
9.048                0.977564678     -81.6966551
9.049                0.977508658     -81.8265329
9.05                 0.977452477     -81.9567388
9.051                0.977396134     -82.0872738
9.052                0.977339629     -82.2181387
9.053                0.977282961     -82.3493345
9.054                 0.97722613     -82.4808621
9.055                0.977169136     -82.6127225
9.056                0.977111979     -82.7449167
9.057                0.977054658     -82.8774456
9.058                0.976997174     -83.0103101
9.059                0.976939525     -83.1435112
9.06                 0.976881713     -83.2770499
9.061                0.976823736     -83.4109271
9.062                0.976765595     -83.5451437
9.063                0.976707289     -83.6797007
9.064                0.976648818     -83.8145991
9.065                0.976590181     -83.9498399
9.066                 0.97653138     -84.0854239
9.067                0.976472413     -84.2213522
9.068                 0.97641328     -84.3576257
9.069                0.976353981     -84.4942454
9.07                 0.976294516     -84.6312123
9.071                0.976234886     -84.7685273
9.072                0.976175088     -84.9061913
9.073                0.976115124     -85.0442055
9.074                0.976054994     -85.1825706
9.075                0.975994696     -85.3212877
9.076                0.975934232     -85.4603579
9.077                  0.9758736     -85.5997819
9.078                0.975812801     -85.7395609
9.079                0.975751835     -85.8796958
9.08                 0.975690701     -86.0201875
9.081                  0.9756294     -86.1610371
9.082                 0.97556793     -86.3022455
9.083                0.975506293     -86.4438137
9.084                0.975444488     -86.5857427
9.085                0.975382514     -86.7280334
9.086                0.975320373     -86.8706869
9.087                0.975258063     -87.0137041
9.088                0.975195584      -87.157086
9.089                0.975132937     -87.3008336
9.09                 0.975070122     -87.4449479
9.091                0.975007138     -87.5894299
9.092                0.974943985     -87.7342804
9.093                0.974880663     -87.8795006
9.094                0.974817173     -88.0250915
9.095                0.974753514     -88.1710539
9.096                0.974689685     -88.3173889
9.097                0.974625688     -88.4640974
9.098                0.974561522     -88.6111806
9.099                0.974497187     -88.7586392
9.1                  0.974432683     -88.9064744
9.101                0.974368009     -89.0546872
9.102                0.974303167     -89.2032784
9.103                0.974238156     -89.3522491
9.104                0.974172975     -89.5016004
9.105                0.974107626      -89.651333
9.106                0.974042107     -89.8014482
9.107                 0.97397642     -89.9519468
9.108                0.973910564     -90.1028299
9.109                0.973844538     -90.2540983
9.11                 0.973778344     -90.4057532
9.111                0.973711981     -90.5577955
9.112                0.973645449     -90.7102262
9.113                0.973578749     -90.8630463
9.114                 0.97351188     -91.0162567
9.115                0.973444842     -91.1698585
9.116                0.973377636     -91.3238527
9.117                0.973310262     -91.4782402
9.118                0.973242719     -91.6330219
9.119                0.973175009      -91.788199
9.12                  0.97310713     -91.9437724
9.121                0.973039084     -92.0997431
9.122                0.972970869      -92.256112
9.123                0.972902488     -92.4128801
9.124                0.972833939     -92.5700484
9.125                0.972765222      -92.727618
9.126                0.972696339     -92.8855897
9.127                0.972627288     -93.0439646
9.128                0.972558071     -93.2027436
9.129                0.972488688     -93.3619278
9.13                 0.972419138      -93.521518
9.131                0.972349422     -93.6815153
9.132                 0.97227954     -93.8419207
9.133                0.972209493     -94.0027351
9.134                 0.97213928     -94.1639594
9.135                0.972068903     -94.3255947
9.136                 0.97199836      -94.487642
9.137                0.971927653     -94.6501021
9.138                0.971856781     -94.8129761
9.139                0.971785746      -94.976265
9.14                 0.971714547     -95.1399696
9.141                0.971643184      -95.304091
9.142                0.971571659     -95.4686301
9.143                0.971499971     -95.6335878
9.144                 0.97142812     -95.7989652
9.145                0.971356107     -95.9647632
9.146                0.971283933     -96.1309827
9.147                0.971211598     -96.2976247
9.148                0.971139101     -96.4646901
9.149                0.971066444     -96.6321799
9.15                 0.970993627      -96.800095
9.151                0.970920651     -96.9684364
9.152                0.970847515      -97.137205
9.153                 0.97077422     -97.3064017
9.154                0.970700767     -97.4760275
9.155                0.970627157     -97.6460834
9.156                0.970553389     -97.8165701
9.157                0.970479464     -97.9874887
9.158                0.970405382     -98.1588401
9.159                0.970331145     -98.3306252
9.16                 0.970256752     -98.5028449
9.161                0.970182205     -98.6755002
9.162                0.970107503     -98.8485919
9.163                0.970032648      -99.022121
9.164                 0.96995764     -99.1960884
9.165                0.969882479     -99.3704949
9.166                0.969807166     -99.5453415
9.167                0.969731702      -99.720629
9.168                0.969656087     -99.8963584
9.169                0.969580322     -100.072531
9.17                 0.969504408     -100.249146
9.171                0.969428345     -100.426207
9.172                0.969352134     -100.603712
9.173                0.969275775     -100.781664
9.174                0.969199271     -100.960063
9.175                 0.96912262      -101.13891
9.176                0.969045824     -101.318206
9.177                0.968968883     -101.497952
9.178                0.968891799     -101.678148
9.179                0.968814572     -101.858796
9.18                 0.968737203     -102.039896
9.181                0.968659693     -102.221449
9.182                0.968582043     -102.403456
9.183                0.968504252     -102.585917
9.184                0.968426323     -102.768835
9.185                0.968348257     -102.952208
9.186                0.968270053     -103.136039
9.187                0.968191713     -103.320328
9.188                0.968113238     -103.505076
9.189                0.968034628     -103.690283
9.19                 0.967955886     -103.875951
9.191                0.967877011      -104.06208
9.192                0.967798005     -104.248672
9.193                0.967718868     -104.435725
9.194                0.967639602     -104.623243
9.195                0.967560208     -104.811225
9.196                0.967480686     -104.999671
9.197                0.967401038     -105.188584
9.198                0.967321265     -105.377963
9.199                0.967241368      -105.56781
9.2                  0.967161349     -105.758125
9.201                0.967081207     -105.948908
9.202                0.967000945     -106.140161
9.203                0.966920563     -106.331884
9.204                0.966840063     -106.524078
9.205                0.966759445     -106.716744
9.206                0.966678712     -106.909882
9.207                0.966597864     -107.103493
9.208                0.966516903     -107.297578
9.209                0.966435829     -107.492137
9.21                 0.966354645     -107.687171
9.211                0.966273351     -107.882681
9.212                0.966191949     -108.078667
9.213                 0.96611044      -108.27513
9.214                0.966028826     -108.472071
9.215                0.965947107      -108.66949
9.216                0.965865285     -108.867388
9.217                0.965783362     -109.065766
9.218                 0.96570134     -109.264623
9.219                0.965619218     -109.463962
9.22                    0.965537     -109.663781
9.221                0.965454686     -109.864082
9.222                0.965372278     -110.064866
9.223                0.965289778     -110.266133
9.224                0.965207187     -110.467883
9.225                0.965124507     -110.670117
9.226                0.965041738     -110.872836
9.227                0.964958884      -111.07604
9.228                0.964875945      -111.27973
9.229                0.964792923     -111.483906
9.23                  0.96470982     -111.688568
9.231                0.964626637     -111.893718
9.232                0.964543377     -112.099355
9.233                0.964460041      -112.30548
9.234                 0.96437663     -112.512094
9.235                0.964293146     -112.719196
9.236                0.964209592     -112.926788
9.237                0.964125969      -113.13487
9.238                0.964042279     -113.343442
9.239                0.963958523     -113.552505
9.24                 0.963874704     -113.762058
9.241                0.963790824     -113.972103
9.242                0.963706884      -114.18264
9.243                0.963622886     -114.393669
9.244                0.963538833     -114.605191
9.245                0.963454725     -114.817205
9.246                0.963370566     -115.029712
9.247                0.963286358     -115.242713
9.248                0.963202101     -115.456207
9.249                  0.9631178     -115.670196
9.25                 0.963033454     -115.884679
9.251                0.962949067     -116.099656
9.252                0.962864641     -116.315128
9.253                0.962780178     -116.531095
9.254                 0.96269568     -116.747558
9.255                0.962611148     -116.964516
9.256                0.962526587     -117.181969
9.257                0.962441997     -117.399919
9.258                0.962357381     -117.618364
9.259                0.962272741     -117.837306
9.26                  0.96218808     -118.056744
9.261                0.962103399     -118.276678
9.262                0.962018702      -118.49711
9.263                 0.96193399     -118.718037
9.264                0.961849266     -118.939462
9.265                0.961764533     -119.161383
9.266                0.961679792     -119.383801
9.267                0.961595047     -119.606717
9.268                0.961510299     -119.830129
9.269                0.961425552     -120.054038
9.27                 0.961340807     -120.278444
9.271                0.961256067     -120.503348
9.272                0.961171335     -120.728748
9.273                0.961086614     -120.954645
9.274                0.961001906     -121.181039
9.275                0.960917213      -121.40793
9.276                0.960832539     -121.635317
9.277                0.960747886     -121.863201
9.278                0.960663256     -122.091582
9.279                0.960578653     -122.320459
9.28                 0.960494079     -122.549832
9.281                0.960409537     -122.779701
9.282                0.960325029     -123.010066
9.283                0.960240559     -123.240927
9.284                0.960156129     -123.472283
9.285                0.960071743     -123.704134
9.286                0.959987402      -123.93648
9.287                0.959903111     -124.169321
9.288                0.959818871     -124.402656
9.289                0.959734686     -124.636485
9.29                 0.959650558     -124.870808
9.291                0.959566492     -125.105624
9.292                0.959482489     -125.340933
9.293                0.959398552     -125.576735
9.294                0.959314686      -125.81303
9.295                0.959230892     -126.049816
9.296                0.959147174     -126.287093
9.297                0.959063535     -126.524862
9.298                0.958979978     -126.763121
9.299                0.958896507      -127.00187
9.3                  0.958813124     -127.241108
9.301                0.958729832     -127.480836
9.302                0.958646635     -127.721052
9.303                0.958563536     -127.961755
9.304                0.958480538     -128.202947
9.305                0.958397645     -128.444624
9.306                 0.95831486     -128.686788
9.307                0.958232185     -128.929438
9.308                0.958149625     -129.172572
9.309                0.958067183      -129.41619
9.31                 0.957984862     -129.660291
9.311                0.957902665     -129.904876
9.312                0.957820596     -130.149942
9.313                0.957738658     -130.395489
9.314                0.957656854     -130.641517
9.315                0.957575189     -130.888024
9.316                0.957493666     -131.135011
9.317                0.957412287     -131.382475
9.318                0.957331057     -131.630416
9.319                0.957249979     -131.878833
9.32                 0.957169056     -132.127726
9.321                0.957088293     -132.377093
9.322                0.957007692     -132.626933
9.323                0.956927258     -132.877246
9.324                0.956846993      -133.12803
9.325                0.956766902     -133.379285
9.326                0.956686988     -133.631009
9.327                0.956607254     -133.883201
9.328                0.956527705     -134.135861
9.329                0.956448344     -134.388986
9.33                 0.956369174     -134.642577
9.331                  0.9562902     -134.896632
9.332                0.956211425     -135.151149
9.333                0.956132853     -135.406128
9.334                0.956054488     -135.661567
9.335                0.955976332     -135.917466
9.336                0.955898391     -136.173822
9.337                0.955820668     -136.430635
9.338                0.955743166     -136.687903
9.339                0.955665889     -136.945624
9.34                 0.955588842     -137.203799
9.341                0.955512028     -137.462424
9.342                0.955435451       -137.7215
9.343                0.955359114     -137.981024
9.344                0.955283022     -138.240995
9.345                0.955207178     -138.501411
9.346                0.955131586     -138.762271
9.347                0.955056251     -139.023574
9.348                0.954981176     -139.285318
9.349                0.954906364     -139.547501
9.35                  0.95483182     -139.810122
9.351                0.954757548     -140.073179
9.352                0.954683552     -140.336671
9.353                0.954609835     -140.600595
9.354                0.954536401     -140.864951
9.355                0.954463255     -141.129737
9.356                  0.9543904      -141.39495
9.357                0.954317841      -141.66059
9.358                 0.95424558     -141.926654
9.359                0.954173623      -142.19314
9.36                 0.954101973     -142.460047
9.361                0.954030633     -142.727373
9.362                0.953959609     -142.995116
9.363                0.953888904     -143.263274
9.364                0.953818521     -143.531846
9.365                0.953748465     -143.800828
9.366                0.953678741      -144.07022
9.367                 0.95360935     -144.340019
9.368                0.953540299     -144.610224
9.369                 0.95347159     -144.880832
9.37                 0.953403228     -145.151841
9.371                0.953335217     -145.423249
9.372                 0.95326756     -145.695055
9.373                0.953200261     -145.967255
9.374                0.953133325     -146.239848
9.375                0.953066755     -146.512832
9.376                0.953000556     -146.786204
9.377                0.952934731     -147.059962
9.378                0.952869284     -147.334104
9.379                0.952804219     -147.608628
9.38                  0.95273954     -147.883531
9.381                0.952675252     -148.158811
9.382                0.952611356     -148.434466
9.383                0.952547859     -148.710494
9.384                0.952484763     -148.986891
9.385                0.952422073     -149.263656
9.386                0.952359792     -149.540786
9.387                0.952297925     -149.818278
9.388                0.952236474     -150.096131
9.389                0.952175445     -150.374341
9.39                  0.95211484     -150.652907
9.391                0.952054664     -150.931825
9.392                 0.95199492     -151.211093
9.393                0.951935612     -151.490708
9.394                0.951876744     -151.770669
9.395                 0.95181832     -152.050971
9.396                0.951760343     -152.331613
