! TOUCHSTONE file generated by CST DESIGN STUDIO
! Date and time: Tue Feb  4 14:05:43 2025
! Project name: C:\Work\MatlabApps\UnitCellOptimizationMatlab\CST\unitcell.cst
! Tree item: Tasks\Sweep1\SPara1\S-Parameters
! Header version: 2024
! Port assignment regex: !\s*Touchstone port\s*([0-9]+)\s*=\s*(CST MWS port|CST DES external port|CST DES block port)\s*(.+)\s* \(\"(.*)\"\)(\s*mode\s*([0-9]+))?.*
! Touchstone port assignment:
! Touchstone port 1 = CST DES external port 1 ("")
# GHz S MA R 50
9                     0.98120249     -66.8977963
9.001                0.981161732     -66.9931683
9.002                0.981120849     -67.0887667
9.003                0.981079841     -67.1845924
9.004                0.981038709     -67.2806459
9.005                 0.98099745     -67.3769281
9.006                0.980956066     -67.4734396
9.007                0.980914556     -67.5701812
9.008                0.980872918     -67.6671534
9.009                0.980831154     -67.7643572
9.01                 0.980789263     -67.8617931
9.011                0.980747243     -67.9594619
9.012                0.980705096     -68.0573643
9.013                 0.98066282      -68.155501
9.014                0.980620416     -68.2538728
9.015                0.980577882     -68.3524803
9.016                0.980535218     -68.4513244
9.017                0.980492425     -68.5504057
9.018                0.980449502      -68.649725
9.019                0.980406447      -68.749283
9.02                 0.980363262     -68.8490805
9.021                0.980319946     -68.9491181
9.022                0.980276498     -69.0493966
9.023                0.980232918     -69.1499169
9.024                0.980189205     -69.2506795
9.025                0.980145359     -69.3516854
9.026                0.980101381     -69.4529351
9.027                0.980057269     -69.5544295
9.028                0.980013023     -69.6561694
9.029                0.979968642     -69.7581554
9.03                 0.979924127     -69.8603884
9.031                0.979879478     -69.9628691
9.032                0.979834692     -70.0655982
9.033                0.979789771     -70.1685766
9.034                0.979744715      -70.271805
9.035                0.979699521     -70.3752842
9.036                0.979654191     -70.4790149
9.037                0.979608724      -70.582998
9.038                0.979563119     -70.6872342
9.039                0.979517376     -70.7917242
9.04                 0.979471495      -70.896469
9.041                0.979425476     -71.0014692
9.042                0.979379317     -71.1067256
9.043                 0.97933302     -71.2122391
9.044                0.979286582     -71.3180103
9.045                0.979240005     -71.4240402
9.046                0.979193287     -71.5303296
9.047                0.979146428     -71.6368791
9.048                0.979099429     -71.7436896
9.049                0.979052288      -71.850762
9.05                 0.979005005     -71.9580969
9.051                0.978957579     -72.0656953
9.052                0.978910012      -72.173558
9.053                0.978862301     -72.2816856
9.054                0.978814447     -72.3900792
9.055                 0.97876645     -72.4987394
9.056                0.978718308     -72.6076671
9.057                0.978670023     -72.7168632
9.058                0.978621592     -72.8263283
9.059                0.978573017     -72.9360635
9.06                 0.978524296     -73.0460694
9.061                0.978475429      -73.156347
9.062                0.978426417      -73.266897
9.063                0.978377258     -73.3777203
9.064                0.978327952     -73.4888177
9.065                0.978278499     -73.6001901
9.066                0.978228898     -73.7118383
9.067                 0.97817915     -73.8237632
9.068                0.978129253     -73.9359655
9.069                0.978079208     -74.0484462
9.07                 0.978029015     -74.1612061
9.071                0.977978672      -74.274246
9.072                0.977928179     -74.3875668
9.073                0.977877536     -74.5011694
9.074                0.977826744     -74.6150546
9.075                  0.9777758     -74.7292233
9.076                0.977724706     -74.8436763
9.077                0.977673461     -74.9584145
9.078                0.977622064     -75.0734388
9.079                0.977570515       -75.18875
9.08                 0.977518814      -75.304349
9.081                 0.97746696     -75.4202367
9.082                0.977414953      -75.536414
9.083                0.977362793     -75.6528817
9.084                 0.97731048     -75.7696407
9.085                0.977258012      -75.886692
9.086                0.977205391     -76.0040363
9.087                0.977152614     -76.1216746
9.088                0.977099683     -76.2396078
9.089                0.977046597     -76.3578367
9.09                 0.976993355     -76.4763623
9.091                0.976939958     -76.5951854
9.092                0.976886404     -76.7143069
9.093                0.976832694     -76.8337278
9.094                0.976778827      -76.953449
9.095                0.976724803     -77.0734712
9.096                0.976670621     -77.1937956
9.097                0.976616282     -77.3144229
9.098                0.976561785      -77.435354
9.099                 0.97650713       -77.55659
9.1                  0.976452316     -77.6781316
9.101                0.976397343     -77.7999799
9.102                0.976342211     -77.9221357
9.103                0.976286919     -78.0445999
9.104                0.976231468     -78.1673735
9.105                0.976175856     -78.2904574
9.106                0.976120084     -78.4138525
9.107                0.976064152     -78.5375598
9.108                0.976008058     -78.6615801
9.109                0.975951803     -78.7859145
9.11                 0.975895387     -78.9105638
9.111                0.975838809      -79.035529
9.112                0.975782069      -79.160811
9.113                0.975725167     -79.2864108
9.114                0.975668102     -79.4123292
9.115                0.975610874     -79.5385674
9.116                0.975553483     -79.6651261
9.117                0.975495928     -79.7920063
9.118                 0.97543821      -79.919209
9.119                0.975380329     -80.0467352
9.12                 0.975322283     -80.1745857
9.121                0.975264072     -80.3027616
9.122                0.975205697     -80.4312638
9.123                0.975147157     -80.5600933
9.124                0.975088452      -80.689251
9.125                0.975029581     -80.8187378
9.126                0.974970545     -80.9485548
9.127                0.974911343     -81.0787029
9.128                0.974851975     -81.2091831
9.129                0.974792441     -81.3399963
9.13                  0.97473274     -81.4711435
9.131                0.974672873     -81.6026257
9.132                0.974612838     -81.7344439
9.133                0.974552637      -81.866599
9.134                0.974492268      -81.999092
9.135                0.974431731     -82.1319238
9.136                0.974371027     -82.2650956
9.137                0.974310155     -82.3986082
9.138                0.974249115     -82.5324626
9.139                0.974187906     -82.6666599
9.14                 0.974126529     -82.8012009
9.141                0.974064983     -82.9360867
9.142                0.974003268     -83.0713183
9.143                0.973941385     -83.2068967
9.144                0.973879332     -83.3428228
9.145                 0.97381711     -83.4790977
9.146                0.973754718     -83.6157223
9.147                0.973692156     -83.7526976
9.148                0.973629425     -83.8900247
9.149                0.973566524     -84.0277045
9.15                 0.973503453      -84.165738
9.151                0.973440211     -84.3041263
9.152                0.973376799     -84.4428703
9.153                0.973313217      -84.581971
9.154                0.973249464     -84.7214295
9.155                 0.97318554     -84.8612467
9.156                0.973121446     -85.0014237
9.157                 0.97305718     -85.1419614
9.158                0.972992744     -85.2828609
9.159                0.972928136     -85.4241232
9.16                 0.972863357     -85.5657492
9.161                0.972798407     -85.7077401
9.162                0.972733286     -85.8500967
9.163                0.972667993     -85.9928202
9.164                0.972602529     -86.1359115
9.165                0.972536893     -86.2793717
9.166                0.972471085     -86.4232017
9.167                0.972405106     -86.5674026
9.168                0.972338955     -86.7119754
9.169                0.972272632     -86.8569211
9.17                 0.972206138     -87.0022408
9.171                0.972139472     -87.1479354
9.172                0.972072634      -87.294006
9.173                0.972005624     -87.4404536
9.174                0.971938442     -87.5872792
9.175                0.971871089     -87.7344838
9.176                0.971803563     -87.8820685
9.177                0.971735866     -88.0300343
9.178                0.971667997     -88.1783821
9.179                0.971599957     -88.3271131
9.18                 0.971531745     -88.4762283
9.181                0.971463361     -88.6257286
9.182                0.971394805     -88.7756152
9.183                0.971326078     -88.9258889
9.184                 0.97125718     -89.0765509
9.185                 0.97118811     -89.2276022
9.186                0.971118869     -89.3790438
9.187                0.971049456     -89.5308766
9.188                0.970979873     -89.6831019
9.189                0.970910118     -89.8357205
9.19                 0.970840193     -89.9887335
9.191                0.970770096     -90.1421419
9.192                0.970699829     -90.2959468
9.193                0.970629392     -90.4501492
9.194                0.970558784       -90.60475
9.195                0.970488006     -90.7597504
9.196                0.970417058     -90.9151513
9.197                 0.97034594     -91.0709537
9.198                0.970274653     -91.2271588
9.199                0.970203196     -91.3837675
9.2                  0.970131569     -91.5407808
9.201                0.970059774     -91.6981997
9.202                0.969987809     -91.8560253
9.203                0.969915676     -92.0142587
9.204                0.969843375     -92.1729007
9.205                0.969770905     -92.3319525
9.206                0.969698268      -92.491415
9.207                0.969625462     -92.6512892
9.208                 0.96955249     -92.8115763
9.209                 0.96947935     -92.9722771
9.21                 0.969406044     -93.1333928
9.211                0.969332571     -93.2949243
9.212                0.969258932     -93.4568726
9.213                0.969185127     -93.6192387
9.214                0.969111156     -93.7820238
9.215                0.969037021     -93.9452286
9.216                 0.96896272     -94.1088544
9.217                0.968888256      -94.272902
9.218                0.968813627     -94.4373725
9.219                0.968738834     -94.6022668
9.22                 0.968663878     -94.7675861
9.221                 0.96858876     -94.9333312
9.222                0.968513479     -95.0995032
9.223                0.968438035      -95.266103
9.224                0.968362431     -95.4331317
9.225                0.968286665     -95.6005903
9.226                0.968210739     -95.7684797
9.227                0.968134653      -95.936801
9.228                0.968058406      -96.105555
9.229                0.967982001     -96.2747429
9.23                 0.967905438     -96.4443655
9.231                0.967828716     -96.6144239
9.232                0.967751836      -96.784919
9.233                  0.9676748     -96.9558518
9.234                0.967597607     -97.1272233
9.235                0.967520259     -97.2990344
9.236                0.967442755     -97.4712861
9.237                0.967365097     -97.6439795
9.238                0.967287284     -97.8171153
9.239                0.967209319     -97.9906946
9.24                   0.9671312     -98.1647184
9.241                 0.96705293     -98.3391876
9.242                0.966974508     -98.5141031
9.243                0.966895936     -98.6894659
9.244                0.966817213     -98.8652769
9.245                0.966738342     -99.0415371
9.246                0.966659322     -99.2182474
9.247                0.966580154     -99.3954087
9.248                0.966500839      -99.573022
9.249                0.966421378     -99.7510881
9.25                 0.966341772     -99.9296081
9.251                0.966262021     -100.108583
9.252                0.966182126     -100.288013
9.253                0.966102088       -100.4679
9.254                0.966021908     -100.648244
9.255                0.965941587     -100.829047
9.256                0.965861126     -101.010309
9.257                0.965780525     -101.192031
9.258                0.965699785     -101.374214
9.259                0.965618908     -101.556858
9.26                 0.965537895     -101.739966
9.261                0.965456745     -101.923537
9.262                0.965375461     -102.107573
9.263                0.965294044     -102.292074
9.264                0.965212493     -102.477042
9.265                0.965130811     -102.662476
9.266                0.965048999     -102.848379
9.267                0.964967056      -103.03475
9.268                0.964884986     -103.221591
9.269                0.964802788     -103.408902
9.27                 0.964720463     -103.596685
9.271                0.964638014     -103.784939
9.272                0.964555441     -103.973667
9.273                0.964472744     -104.162868
9.274                0.964389927     -104.352544
9.275                0.964306988     -104.542695
9.276                0.964223931     -104.733322
9.277                0.964140756     -104.924426
9.278                0.964057464     -105.116008
9.279                0.963974056     -105.308068
9.28                 0.963890535     -105.500607
9.281                  0.9638069     -105.693626
9.282                0.963723155     -105.887126
9.283                0.963639299     -106.081108
9.284                0.963555334     -106.275571
9.285                0.963471262     -106.470518
9.286                0.963387084     -106.665948
9.287                0.963302802     -106.861862
9.288                0.963218416     -107.058262
9.289                0.963133929     -107.255147
9.29                 0.963049342     -107.452518
9.291                0.962964656     -107.650377
9.292                0.962879873     -107.848724
9.293                0.962794995     -108.047559
9.294                0.962710023     -108.246883
9.295                0.962624958     -108.446697
9.296                0.962539802     -108.647001
9.297                0.962454558     -108.847797
9.298                0.962369226     -109.049084
9.299                0.962283808     -109.250863
9.3                  0.962198306     -109.453136
9.301                0.962112722     -109.655902
9.302                0.962027057     -109.859161
9.303                0.961941313     -110.062916
9.304                0.961855491     -110.267166
9.305                0.961769595     -110.471911
9.306                0.961683625     -110.677153
9.307                0.961597583     -110.882892
9.308                0.961511472     -111.089129
9.309                0.961425293     -111.295863
9.31                 0.961339047     -111.503095
9.311                0.961252738     -111.710827
9.312                0.961166366     -111.919058
9.313                0.961079934     -112.127789
9.314                0.960993444     -112.337021
9.315                0.960906898     -112.546753
9.316                0.960820298     -112.756986
9.317                0.960733645     -112.967722
9.318                0.960646943     -113.178959
9.319                0.960560193     -113.390699
9.32                 0.960473397     -113.602942
9.321                0.960386557     -113.815689
9.322                0.960299676     -114.028939
9.323                0.960212755     -114.242693
9.324                0.960125798     -114.456952
9.325                0.960038806     -114.671716
9.326                0.959951781     -114.886984
9.327                0.959864726     -115.102758
9.328                0.959777643     -115.319038
9.329                0.959690535     -115.535824
9.33                 0.959603403     -115.753117
9.331                0.959516251     -115.970916
9.332                 0.95942908     -116.189222
9.333                0.959341893     -116.408035
9.334                0.959254692     -116.627355
9.335                 0.95916748     -116.847183
9.336                 0.95908026     -117.067518
9.337                0.958993034     -117.288362
9.338                0.958905804     -117.509713
9.339                0.958818573     -117.731573
9.34                 0.958731343     -117.953941
9.341                0.958644118     -118.176818
9.342                  0.9585569     -118.400204
9.343                0.958469691     -118.624098
9.344                0.958382495     -118.848501
9.345                0.958295313     -119.073413
9.346                0.958208149     -119.298833
9.347                0.958121005     -119.524763
9.348                0.958033885     -119.751202
9.349                 0.95794679      -119.97815
9.35                 0.957859724     -120.205607
9.351                 0.95777269     -120.433573
9.352                 0.95768569     -120.662048
9.353                0.957598728     -120.891032
9.354                0.957511806     -121.120524
9.355                0.957424927     -121.350526
9.356                0.957338095     -121.581036
9.357                0.957251311     -121.812054
9.358                 0.95716458     -122.043581
9.359                0.957077904     -122.275617
9.36                 0.956991286      -122.50816
9.361                 0.95690473     -122.741211
9.362                0.956818238      -122.97477
9.363                0.956731814     -123.208836
9.364                 0.95664546      -123.44341
9.365                 0.95655918      -123.67849
9.366                0.956472978     -123.914077
9.367                0.956386855      -124.15017
9.368                0.956300816      -124.38677
9.369                0.956214864     -124.623875
9.37                 0.956129002     -124.861486
9.371                0.956043233     -125.099601
9.372                0.955957561     -125.338222
9.373                0.955871989     -125.577346
9.374                 0.95578652     -125.816974
9.375                0.955701159     -126.057106
9.376                0.955615907      -126.29774
9.377                0.955530769     -126.538877
9.378                0.955445748     -126.780516
9.379                0.955360847     -127.022656
9.38                  0.95527607     -127.265297
9.381                0.955191421     -127.508438
9.382                0.955106903     -127.752079
9.383                 0.95502252     -127.996219
9.384                0.954938275     -128.240857
9.385                0.954854171     -128.485993
9.386                0.954770213     -128.731627
9.387                0.954686404     -128.977757
9.388                0.954602748     -129.224382
9.389                0.954519248     -129.471503
9.39                 0.954435908     -129.719118
9.391                0.954352731     -129.967226
9.392                0.954269722     -130.215827
9.393                0.954186885      -130.46492
9.394                0.954104222     -130.714504
9.395                0.954021738     -130.964578
9.396                0.953939437     -131.215142
