! TOUCHSTONE file generated by CST DESIGN STUDIO
! Date and time: Tue Feb  4 14:05:34 2025
! Project name: C:\Work\MatlabApps\UnitCellOptimizationMatlab\CST\unitcell.cst
! Tree item: Tasks\Sweep1\SPara1\S-Parameters
! Header version: 2024
! Port assignment regex: !\s*Touchstone port\s*([0-9]+)\s*=\s*(CST MWS port|CST DES external port|CST DES block port)\s*(.+)\s* \(\"(.*)\"\)(\s*mode\s*([0-9]+))?.*
! Touchstone port assignment:
! Touchstone port 1 = CST DES external port 1 ("")
# GHz S MA R 50
9                    0.979866911     -77.4894174
9.001                0.979816934     -77.6085656
9.002                0.979766806     -77.7280102
9.003                0.979716527     -77.8477522
9.004                0.979666096     -77.9677926
9.005                0.979615514     -78.0881321
9.006                0.979564779     -78.2087716
9.007                0.979513891     -78.3297121
9.008                0.979462851     -78.4509544
9.009                0.979411657     -78.5724994
9.01                  0.97936031      -78.694348
9.011                0.979308809     -78.8165011
9.012                0.979257154     -78.9389596
9.013                0.979205345     -79.0617244
9.014                0.979153381     -79.1847964
9.015                0.979101261     -79.3081765
9.016                0.979048987     -79.4318655
9.017                0.978996556     -79.5558645
9.018                 0.97894397     -79.6801742
9.019                0.978891228     -79.8047957
9.02                 0.978838329     -79.9297297
9.021                0.978785273     -80.0549773
9.022                0.978732061     -80.1805394
9.023                 0.97867869     -80.3064168
9.024                0.978625163     -80.4326104
9.025                0.978571477     -80.5591213
9.026                0.978517633     -80.6859503
9.027                0.978463631     -80.8130983
9.028                 0.97840947     -80.9405662
9.029                0.978355149     -81.0683551
9.03                  0.97830067     -81.1964657
9.031                0.978246031     -81.3248991
9.032                0.978191232     -81.4536561
9.033                0.978136273     -81.5827378
9.034                0.978081154     -81.7121449
9.035                0.978025874     -81.8418786
9.036                0.977970433     -81.9719396
9.037                0.977914832     -82.1023289
9.038                0.977859069     -82.2330476
9.039                0.977803144     -82.3640964
9.04                 0.977747057     -82.4954764
9.041                0.977690809     -82.6271886
9.042                0.977634398     -82.7592337
9.043                0.977577825     -82.8916129
9.044                0.977521089     -83.0243269
9.045                 0.97746419     -83.1573769
9.046                0.977407128     -83.2907637
9.047                0.977349902     -83.4244883
9.048                0.977292513     -83.5585517
9.049                 0.97723496     -83.6929547
9.05                 0.977177243     -83.8276984
9.051                0.977119362     -83.9627837
9.052                0.977061316     -84.0982116
9.053                0.977003106      -84.233983
9.054                0.976944731     -84.3700989
9.055                0.976886191     -84.5065603
9.056                0.976827486      -84.643368
9.057                0.976768615     -84.7805232
9.058                0.976709579     -84.9180267
9.059                0.976650378     -85.0558795
9.06                  0.97659101     -85.1940825
9.061                0.976531476     -85.3326368
9.062                0.976471777     -85.4715434
9.063                 0.97641191     -85.6108031
9.064                0.976351878     -85.7504169
9.065                0.976291679     -85.8903859
9.066                0.976231313      -86.030711
9.067                 0.97617078     -86.1713932
9.068                 0.97611008     -86.3124334
9.069                0.976049213     -86.4538326
9.07                 0.975988178     -86.5955919
9.071                0.975926977     -86.7377121
9.072                0.975865607     -86.8801943
9.073                 0.97580407     -87.0230394
9.074                0.975742366     -87.1662484
9.075                0.975680494     -87.3098223
9.076                0.975618453     -87.4537621
9.077                0.975556245     -87.5980688
9.078                0.975493869     -87.7427432
9.079                0.975431324     -87.8877865
9.08                 0.975368612     -88.0331996
9.081                0.975305731     -88.1789835
9.082                0.975242682     -88.3251392
9.083                0.975179464     -88.4716676
9.084                0.975116078     -88.6185697
9.085                0.975052524     -88.7658466
9.086                0.974988801     -88.9134991
9.087                 0.97492491     -89.0615284
9.088                 0.97486085     -89.2099353
9.089                0.974796622     -89.3587209
9.09                 0.974732225     -89.5078861
9.091                0.974667659      -89.657432
9.092                0.974602925     -89.8073595
9.093                0.974538023     -89.9576696
9.094                0.974472952     -90.1083632
9.095                0.974407712     -90.2594415
9.096                0.974342304     -90.4109053
9.097                0.974276728     -90.5627556
9.098                0.974210983     -90.7149935
9.099                 0.97414507     -90.8676199
9.1                  0.974078989     -91.0206358
9.101                 0.97401274     -91.1740422
9.102                0.973946322       -91.32784
9.103                0.973879737     -91.4820303
9.104                0.973812983      -91.636614
9.105                0.973746062     -91.7915921
9.106                0.973678973     -91.9469657
9.107                0.973611717     -92.1027356
9.108                0.973544293     -92.2589029
9.109                0.973476701     -92.4154685
9.11                 0.973408943     -92.5724334
9.111                0.973341017     -92.7297986
9.112                0.973272925     -92.8875651
9.113                0.973204665     -93.0457339
9.114                 0.97313624     -93.2043058
9.115                0.973067648      -93.363282
9.116                0.972998889     -93.5226634
9.117                0.972929965     -93.6824509
9.118                0.972860875     -93.8426455
9.119                0.972791619     -94.0032482
9.12                 0.972722198       -94.16426
9.121                0.972652612     -94.3256818
9.122                0.972582861     -94.4875146
9.123                0.972512945     -94.6497594
9.124                0.972442865     -94.8124171
9.125                0.972372621     -94.9754886
9.126                0.972302214     -95.1389751
9.127                0.972231642     -95.3028773
9.128                0.972160908     -95.4671963
9.129                0.972090011      -95.631933
9.13                 0.972018951     -95.7970883
9.131                0.971947729     -95.9626633
9.132                0.971876345     -96.1286589
9.133                0.971804799      -96.295076
9.134                0.971733093     -96.4619155
9.135                0.971661226     -96.6291785
9.136                0.971589198     -96.7968658
9.137                 0.97151701     -96.9649784
9.138                0.971444663     -97.1335172
9.139                0.971372156     -97.3024832
9.14                 0.971299491     -97.4718773
9.141                0.971226668     -97.6417004
9.142                0.971153687     -97.8119535
9.143                0.971080548     -97.9826374
9.144                0.971007253     -98.1537531
9.145                0.970933801     -98.3253016
9.146                0.970860193     -98.4972836
9.147                 0.97078643     -98.6697002
9.148                0.970712512     -98.8425523
9.149                 0.97063844     -99.0158407
9.15                 0.970564213     -99.1895664
9.151                0.970489834     -99.3637302
9.152                0.970415302     -99.5383331
9.153                0.970340619      -99.713376
9.154                0.970265783     -99.8888596
9.155                0.970190797     -100.064785
9.156                0.970115661     -100.241153
9.157                0.970040375     -100.417965
9.158                 0.96996494      -100.59522
9.159                0.969889357     -100.772922
9.16                 0.969813627     -100.951069
9.161                0.969737749     -101.129663
9.162                0.969661726     -101.308705
9.163                0.969585557     -101.488196
9.164                0.969509243     -101.668136
9.165                0.969432786     -101.848527
9.166                0.969356185     -102.029368
9.167                0.969279442     -102.210662
9.168                0.969202557     -102.392409
9.169                0.969125532      -102.57461
9.17                 0.969048366     -102.757265
9.171                0.968971062     -102.940375
9.172                0.968893619     -103.123942
9.173                0.968816039     -103.307965
9.174                0.968738322     -103.492447
9.175                 0.96866047     -103.677387
9.176                0.968582483     -103.862786
9.177                0.968504362     -104.048645
9.178                0.968426108     -104.234966
9.179                0.968347723     -104.421748
9.18                 0.968269206     -104.608993
9.181                 0.96819056       -104.7967
9.182                0.968111785     -104.984872
9.183                0.968032882     -105.173509
9.184                0.967953852     -105.362611
9.185                0.967874697      -105.55218
9.186                0.967795416     -105.742215
9.187                0.967716013     -105.932718
9.188                0.967636486      -106.12369
9.189                0.967556839     -106.315131
9.19                 0.967477071     -106.507041
9.191                0.967397184     -106.699423
9.192                0.967317179     -106.892275
9.193                0.967237058     -107.085599
9.194                0.967156821     -107.279396
9.195                0.967076469     -107.473667
9.196                0.966996005     -107.668411
9.197                0.966915429      -107.86363
9.198                0.966834743     -108.059324
9.199                0.966753948     -108.255494
9.2                  0.966673044     -108.452141
9.201                0.966592035     -108.649265
9.202                 0.96651092     -108.846866
9.203                0.966429701     -109.044946
9.204                 0.96634838     -109.243505
9.205                0.966266958     -109.442544
9.206                0.966185437     -109.642062
9.207                0.966103817     -109.842062
9.208                0.966022101     -110.042543
9.209                 0.96594029     -110.243506
9.21                 0.965858385     -110.444951
9.211                0.965776389     -110.646879
9.212                0.965694301     -110.849291
9.213                0.965612125     -111.052186
9.214                0.965529861     -111.255567
9.215                0.965447512     -111.459432
9.216                0.965365078     -111.663783
9.217                0.965282562      -111.86862
9.218                0.965199965     -112.073943
9.219                0.965117289     -112.279754
9.22                 0.965034536     -112.486051
9.221                0.964951706     -112.692837
9.222                0.964868803     -112.900111
9.223                0.964785828     -113.107874
9.224                0.964702782     -113.316126
9.225                0.964619667     -113.524867
9.226                0.964536486     -113.734099
9.227                 0.96445324     -113.943821
9.228                0.964369931     -114.154033
9.229                 0.96428656     -114.364736
9.23                 0.964203131     -114.575931
9.231                0.964119643     -114.787618
9.232                0.964036101     -114.999797
9.233                0.963952505     -115.212468
9.234                0.963868858     -115.425631
9.235                0.963785161     -115.639288
9.236                0.963701417     -115.853438
9.237                0.963617627     -116.068081
9.238                0.963533795     -116.283219
9.239                0.963449921      -116.49885
9.24                 0.963366008     -116.714975
9.241                0.963282058     -116.931595
9.242                0.963198074     -117.148709
9.243                0.963114057     -117.366319
9.244                 0.96303001     -117.584423
9.245                0.962945934     -117.803022
9.246                0.962861833     -118.022117
9.247                0.962777708     -118.241707
9.248                0.962693562     -118.461793
9.249                0.962609397     -118.682374
9.25                 0.962525216     -118.903452
9.251                 0.96244102     -119.125025
9.252                0.962356812     -119.347093
9.253                0.962272595     -119.569658
9.254                 0.96218837     -119.792719
9.255                0.962104141     -120.016276
9.256                 0.96201991     -120.240329
9.257                 0.96193568     -120.464878
9.258                0.961851452     -120.689922
9.259                0.961767229     -120.915463
9.26                 0.961683015       -121.1415
9.261                0.961598811     -121.368032
9.262                 0.96151462     -121.595061
9.263                0.961430445     -121.822584
9.264                0.961346288     -122.050604
9.265                0.961262153     -122.279118
9.266                0.961178041     -122.508128
9.267                0.961093955     -122.737634
9.268                0.961009899     -122.967633
9.269                0.960925874     -123.198128
9.27                 0.960841885     -123.429117
9.271                0.960757932     -123.660601
9.272                 0.96067402     -123.892578
9.273                0.960590152     -124.125049
9.274                0.960506329     -124.358013
9.275                0.960422555     -124.591471
9.276                0.960338832     -124.825422
9.277                0.960255165     -125.059865
9.278                0.960171555       -125.2948
9.279                0.960088006     -125.530227
9.28                  0.96000452     -125.766145
9.281                  0.9599211     -126.002554
9.282                0.959837751     -126.239454
9.283                0.959754474     -126.476844
9.284                0.959671272     -126.714723
9.285                 0.95958815     -126.953092
9.286                0.959505109      -127.19195
9.287                0.959422153     -127.431295
9.288                0.959339286     -127.671128
9.289                0.959256509     -127.911449
9.29                 0.959173828     -128.152255
9.291                0.959091243     -128.393548
9.292                 0.95900876     -128.635326
9.293                0.958926381     -128.877589
9.294                0.958844109     -129.120335
9.295                0.958761948     -129.363565
9.296                0.958679901     -129.607278
9.297                0.958597972     -129.851472
9.298                0.958516162     -130.096148
9.299                0.958434477     -130.341304
9.3                   0.95835292      -130.58694
9.301                0.958271492     -130.833054
9.302                  0.9581902     -131.079647
9.303                0.958109044     -131.326717
9.304                 0.95802803     -131.574263
9.305                 0.95794716     -131.822285
9.306                0.957866438     -132.070781
9.307                0.957785867     -132.319751
9.308                0.957705452     -132.569194
9.309                0.957625194     -132.819109
9.31                 0.957545099     -133.069494
9.311                0.957465169     -133.320349
9.312                0.957385409     -133.571673
9.313                0.957305821     -133.823465
9.314                0.957226409     -134.075723
9.315                0.957147177     -134.328447
9.316                0.957068129     -134.581635
9.317                0.956989268     -134.835287
9.318                0.956910598     -135.089401
9.319                0.956832122     -135.343975
9.32                 0.956753844      -135.59901
9.321                0.956675768     -135.854503
9.322                0.956597898     -136.110454
9.323                0.956520237      -136.36686
9.324                0.956442789     -136.623721
9.325                0.956365558     -136.881036
9.326                0.956288547     -137.138803
9.327                 0.95621176      -137.39702
9.328                0.956135202     -137.655687
9.329                0.956058875     -137.914802
9.33                 0.955982784     -138.174363
9.331                0.955906933      -138.43437
9.332                0.955831324      -138.69482
9.333                0.955755963     -138.955712
9.334                0.955680853     -139.217045
9.335                0.955605997     -139.478816
9.336                  0.9555314     -139.741026
9.337                0.955457065     -140.003671
9.338                0.955382997      -140.26675
9.339                0.955309199     -140.530262
9.34                 0.955235675     -140.794205
9.341                0.955162429     -141.058577
9.342                0.955089464     -141.323377
9.343                0.955016786     -141.588603
9.344                0.954944397     -141.854253
9.345                0.954872301     -142.120325
9.346                0.954800503     -142.386818
9.347                0.954729006     -142.653729
9.348                0.954657814     -142.921057
9.349                0.954586932       -143.1888
9.35                 0.954516362     -143.456956
9.351                 0.95444611     -143.725523
9.352                0.954376178       -143.9945
9.353                0.954306571     -144.263884
9.354                0.954237293     -144.533672
9.355                0.954168348     -144.803865
9.356                0.954099739     -145.074458
9.357                 0.95403147      -145.34545
9.358                0.953963546      -145.61684
9.359                 0.95389597     -145.888624
9.36                 0.953828747     -146.160801
9.361                0.953761879     -146.433369
9.362                0.953695372     -146.706325
9.363                0.953629228     -146.979667
9.364                0.953563453     -147.253393
9.365                0.953498049     -147.527501
9.366                 0.95343302     -147.801989
9.367                0.953368371     -148.076853
9.368                0.953304106     -148.352093
9.369                0.953240227     -148.627704
9.37                  0.95317674     -148.903686
9.371                0.953113648     -149.180036
9.372                0.953050954     -149.456751
9.373                0.952988663     -149.733829
9.374                0.952926779     -150.011267
9.375                0.952865304     -150.289063
9.376                0.952804244     -150.567214
9.377                0.952743601     -150.845719
9.378                 0.95268338     -151.124573
9.379                0.952623585     -151.403775
9.38                 0.952564218     -151.683322
9.381                0.952505285     -151.963212
9.382                0.952446788     -152.243442
9.383                0.952388731     -152.524008
9.384                0.952331118      -152.80491
9.385                0.952273953     -153.086142
9.386                 0.95221724     -153.367704
9.387                0.952160981     -153.649592
9.388                0.952105181     -153.931804
9.389                0.952049843     -154.214336
9.39                 0.951994971     -154.497186
9.391                0.951940568     -154.780351
9.392                0.951886639     -155.063828
9.393                0.951833186     -155.347614
9.394                0.951780212     -155.631706
9.395                0.951727723     -155.916102
9.396                 0.95167572     -156.200798
