! TOUCHSTONE file generated by CST DESIGN STUDIO
! Date and time: Tue Feb  4 13:02:16 2025
! Project name: C:\Work\MatlabApps\UnitCellOptimizationMatlab\CST\unitcell.cst
! Tree item: Tasks\Sweep1\SPara1\S-Parameters
! Header version: 2024
! Port assignment regex: !\s*Touchstone port\s*([0-9]+)\s*=\s*(CST MWS port|CST DES external port|CST DES block port)\s*(.+)\s* \(\"(.*)\"\)(\s*mode\s*([0-9]+))?.*
! Touchstone port assignment:
! Touchstone port 1 = CST DES external port 1 ("")
# GHz S MA R 50
9                    0.887669436     -81.6683778
9.001                0.887334296     -81.8134236
9.002                0.886998056     -81.9588924
9.003                0.886660714     -82.1047856
9.004                0.886322268     -82.2511047
9.005                0.885982715     -82.3978512
9.006                0.885642055     -82.5450265
9.007                0.885300284     -82.6926321
9.008                0.884957402     -82.8406695
9.009                0.884613406     -82.9891403
9.01                 0.884268294     -83.1380458
9.011                0.883922064     -83.2873876
9.012                0.883574715     -83.4371672
9.013                0.883226245     -83.5873861
9.014                0.882876652     -83.7380459
9.015                0.882525934     -83.8891479
9.016                 0.88217409     -84.0406938
9.017                0.881821119     -84.1926851
9.018                0.881467017     -84.3451232
9.019                0.881111784     -84.4980097
9.02                 0.880755418     -84.6513462
9.021                0.880397918     -84.8051342
9.022                0.880039282     -84.9593752
9.023                0.879679509     -85.1140707
9.024                0.879318597     -85.2692223
9.025                0.878956545     -85.4248316
9.026                0.878593351        -85.5809
9.027                0.878229015     -85.7374292
9.028                0.877863534     -85.8944207
9.029                0.877496908     -86.0518761
9.03                 0.877129135     -86.2097969
9.031                0.876760215     -86.3681848
9.032                0.876390145     -86.5270411
9.033                0.876018926     -86.6863677
9.034                0.875646555     -86.8461659
9.035                0.875273032     -87.0064374
9.036                0.874898357     -87.1671838
9.037                0.874522527     -87.3284067
9.038                0.874145542     -87.4901076
9.039                0.873767402     -87.6522882
9.04                 0.873388105       -87.81495
9.041                0.873007651     -87.9780946
9.042                0.872626039     -88.1417237
9.043                0.872243269     -88.3058388
9.044                0.871859339     -88.4704415
9.045                 0.87147425     -88.6355335
9.046                   0.871088     -88.8011163
9.047                0.870700589     -88.9671916
9.048                0.870312018      -89.133761
9.049                0.869922285      -89.300826
9.05                  0.86953139     -89.4683884
9.051                0.869139333     -89.6364497
9.052                0.868746114     -89.8050115
9.053                0.868351732     -89.9740756
9.054                0.867956188     -90.1436434
9.055                0.867559482     -90.3137167
9.056                0.867161613      -90.484297
9.057                0.866762582      -90.655386
9.058                0.866362388     -90.8269854
9.059                0.865961033     -90.9990968
9.06                 0.865558516     -91.1717217
9.061                0.865154837     -91.3448619
9.062                0.864749997      -91.518519
9.063                0.864343997     -91.6926947
9.064                0.863936837     -91.8673905
9.065                0.863528517     -92.0426081
9.066                0.863119039     -92.2183492
9.067                0.862708402     -92.3946155
9.068                0.862296608     -92.5714085
9.069                0.861883658     -92.7487299
9.07                 0.861469552     -92.9265814
9.071                0.861054292     -93.1049646
9.072                0.860637878     -93.2838812
9.073                0.860220311     -93.4633329
9.074                0.859801594     -93.6433212
9.075                0.859381726     -93.8238478
9.076                 0.85896071     -94.0049145
9.077                0.858538547     -94.1865228
9.078                0.858115239     -94.3686745
9.079                0.857690786     -94.5513711
9.08                 0.857265191     -94.7346143
9.081                0.856838455     -94.9184058
9.082                0.856410581     -95.1027472
9.083                0.855981569     -95.2876403
9.084                0.855551423     -95.4730866
9.085                0.855120144     -95.6590878
9.086                0.854687734     -95.8456455
9.087                0.854254195     -96.0327615
9.088                0.853819531     -96.2204374
9.089                0.853383743     -96.4086748
9.09                 0.852946833     -96.5974754
9.091                0.852508805     -96.7868408
9.092                0.852069661     -96.9767727
9.093                0.851629404     -97.1672728
9.094                0.851188036     -97.3583426
9.095                0.850745561     -97.5499839
9.096                0.850301981     -97.7421982
9.097                0.849857301     -97.9349873
9.098                0.849411522     -98.1283527
9.099                0.848964649     -98.3222962
9.1                  0.848516684     -98.5168193
9.101                0.848067632     -98.7119237
9.102                0.847617496      -98.907611
9.103                 0.84716628     -99.1038828
9.104                0.846713987     -99.3007409
9.105                0.846260622     -99.4981867
9.106                0.845806188      -99.696222
9.107                 0.84535069     -99.8948483
9.108                0.844894132     -100.094067
9.109                0.844436518     -100.293881
9.11                 0.843977853      -100.49429
9.111                0.843518141     -100.695297
9.112                0.843057388     -100.896902
9.113                0.842595597     -101.099109
9.114                0.842132775     -101.301918
9.115                0.841668925     -101.505331
9.116                0.841204053     -101.709349
9.117                0.840738165     -101.913974
9.118                0.840271265     -102.119208
9.119                 0.83980336     -102.325052
9.12                 0.839334454     -102.531508
9.121                0.838864554     -102.738578
9.122                0.838393666     -102.946262
9.123                0.837921795     -103.154563
9.124                0.837448947     -103.363482
9.125                 0.83697513      -103.57302
9.126                0.836500348      -103.78318
9.127                 0.83602461     -103.993962
9.128                0.835547921     -104.205369
9.129                0.835070288     -104.417401
9.13                 0.834591718      -104.63006
9.131                0.834112218     -104.843348
9.132                0.833631796     -105.057267
9.133                0.833150458     -105.271817
9.134                0.832668211        -105.487
9.135                0.832185065     -105.702818
9.136                0.831701026     -105.919272
9.137                0.831216101     -106.136363
9.138                  0.8307303     -106.354094
9.139                 0.83024363     -106.572465
9.14                   0.8297561     -106.791479
9.141                0.829267717     -107.011135
9.142                0.828778491     -107.231437
9.143                 0.82828843     -107.452384
9.144                0.827797543     -107.673979
9.145                0.827305839     -107.896224
9.146                0.826813327     -108.119118
9.147                0.826320016     -108.342664
9.148                0.825825916     -108.566864
9.149                0.825331037     -108.791718
9.15                 0.824835388     -109.017228
9.151                0.824338979     -109.243394
9.152                 0.82384182      -109.47022
9.153                0.823343922     -109.697705
9.154                0.822845294     -109.925851
9.155                0.822345948      -110.15466
9.156                0.821845893     -110.384132
9.157                0.821345142     -110.614269
9.158                0.820843704     -110.845072
9.159                0.820341591     -111.076542
9.16                 0.819838814     -111.308682
9.161                0.819335385      -111.54149
9.162                0.818831316      -111.77497
9.163                0.818326617     -112.009122
9.164                0.817821302     -112.243948
9.165                0.817315383     -112.479447
9.166                0.816808871     -112.715623
9.167                0.816301779     -112.952475
9.168                 0.81579412     -113.190005
9.169                0.815285906     -113.428214
9.17                 0.814777152     -113.667103
9.171                0.814267869     -113.906673
9.172                0.813758071     -114.146925
9.173                0.813247772      -114.38786
9.174                0.812736985      -114.62948
9.175                0.812225724     -114.871784
9.176                0.811714004     -115.114775
9.177                0.811201837     -115.358453
9.178                 0.81068924     -115.602818
9.179                0.810176226     -115.847873
9.18                  0.80966281     -116.093617
9.181                0.809149007     -116.340053
9.182                0.808634833     -116.587179
9.183                0.808120301     -116.834999
9.184                0.807605428     -117.083511
9.185                 0.80709023     -117.332717
9.186                0.806574722     -117.582619
9.187                 0.80605892     -117.833216
9.188                0.805542841     -118.084509
9.189                  0.8050265     -118.336499
9.19                 0.804509914     -118.589187
9.191                0.803993101     -118.842573
9.192                0.803476076     -119.096659
9.193                0.802958857     -119.351444
9.194                0.802441462      -119.60693
9.195                0.801923907     -119.863116
9.196                 0.80140621     -120.120004
9.197                0.800888389     -120.377594
9.198                0.800370462     -120.635886
9.199                0.799852448     -120.894881
9.2                  0.799334364      -121.15458
9.201                0.798816229     -121.414983
9.202                0.798298062     -121.676089
9.203                0.797779881     -121.937901
9.204                0.797261707     -122.200418
9.205                0.796743557     -122.463639
9.206                0.796225452     -122.727567
9.207                0.795707411       -122.9922
9.208                0.795189454      -123.25754
9.209                  0.7946716     -123.523586
9.21                 0.794153871     -123.790339
9.211                0.793636286     -124.057798
9.212                0.793118867     -124.325964
9.213                0.792601633     -124.594837
9.214                0.792084605     -124.864418
9.215                0.791567805     -125.134705
9.216                0.791051254     -125.405699
9.217                0.790534973     -125.677401
9.218                0.790018985     -125.949809
9.219                 0.78950331     -126.222925
9.22                  0.78898797     -126.496747
9.221                0.788472988     -126.771276
9.222                0.787958387     -127.046511
9.223                0.787444188     -127.322452
9.224                0.786930414       -127.5991
9.225                0.786417088     -127.876453
9.226                0.785904233     -128.154512
9.227                0.785391872     -128.433275
9.228                0.784880029     -128.712743
9.229                0.784368727     -128.992916
9.23                 0.783857989     -129.273792
9.231                 0.78334784     -129.555372
9.232                0.782838303     -129.837654
9.233                0.782329402     -130.120638
9.234                0.781821163     -130.404324
9.235                0.781313608     -130.688711
9.236                0.780806764     -130.973798
9.237                0.780300654     -131.259584
9.238                0.779795304     -131.546069
9.239                0.779290739     -131.833252
9.24                 0.778786983     -132.121132
9.241                0.778284063     -132.409708
9.242                0.777782004      -132.69898
9.243                 0.77728083     -132.988945
9.244                 0.77678057     -133.279604
9.245                0.776281247     -133.570956
9.246                0.775782889     -133.862998
9.247                0.775285521      -134.15573
9.248                0.774789169     -134.449151
9.249                0.774293862      -134.74326
9.25                 0.773799624     -135.038055
9.251                0.773306482     -135.333535
9.252                0.772814465     -135.629699
9.253                0.772323597     -135.926545
9.254                0.771833907     -136.224072
9.255                0.771345423     -136.522279
9.256                 0.77085817     -136.821163
9.257                0.770372177     -137.120723
9.258                0.769887471     -137.420958
9.259                0.769404079     -137.721866
9.26                 0.768922031     -138.023446
9.261                0.768441352     -138.325695
9.262                0.767962072     -138.628611
9.263                0.767484219     -138.932194
9.264                 0.76700782      -139.23644
9.265                0.766532903     -139.541349
9.266                0.766059498     -139.846917
9.267                0.765587633     -140.153144
9.268                0.765117335     -140.460026
9.269                0.764648634     -140.767562
9.27                 0.764181558      -141.07575
9.271                0.763716136     -141.384586
9.272                0.763252396      -141.69407
9.273                0.762790368     -142.004199
9.274                 0.76233008      -142.31497
9.275                0.761871561      -142.62638
9.276                 0.76141484     -142.938428
9.277                0.760959946     -143.251111
9.278                0.760506908     -143.564426
9.279                0.760055756      -143.87837
9.28                 0.759606518     -144.192942
9.281                0.759159224     -144.508137
9.282                0.758713902     -144.823954
9.283                0.758270583     -145.140389
9.284                0.757829294      -145.45744
9.285                0.757390066     -145.775103
9.286                0.756952927     -146.093376
9.287                0.756517908     -146.412255
9.288                0.756085036     -146.731738
9.289                0.755654342     -147.051821
9.29                 0.755225854       -147.3725
9.291                0.754799602     -147.693774
9.292                0.754375615     -148.015638
9.293                0.753953922     -148.338089
9.294                0.753534552     -148.661123
9.295                0.753117535     -148.984738
9.296                0.752702899     -149.308929
9.297                0.752290674     -149.633693
9.298                0.751880888     -149.959027
9.299                0.751473571     -150.284926
9.3                  0.751068751     -150.611386
9.301                0.750666457     -150.938405
9.302                0.750266719     -151.265978
9.303                0.749869563     -151.594101
9.304                 0.74947502      -151.92277
9.305                0.749083118     -152.251982
9.306                0.748693885     -152.581732
9.307                 0.74830735     -152.912015
9.308                 0.74792354     -153.242829
9.309                0.747542485     -153.574168
9.31                 0.747164211     -153.906029
9.311                0.746788748     -154.238406
9.312                0.746416122     -154.571296
9.313                0.746046362     -154.904694
9.314                0.745679495     -155.238596
9.315                0.745315549     -155.572997
9.316                0.744954551     -155.907892
9.317                0.744596527     -156.243277
9.318                0.744241506     -156.579147
9.319                0.743889514     -156.915497
9.32                 0.743540578     -157.252323
9.321                0.743194724     -157.589619
9.322                0.742851978     -157.927381
9.323                0.742512368     -158.265604
9.324                0.742175918     -158.604283
9.325                0.741842656     -158.943412
9.326                0.741512605     -159.282986
9.327                0.741185793     -159.623001
9.328                0.740862244     -159.963451
9.329                0.740541983     -160.304331
9.33                 0.740225036     -160.645636
9.331                0.739911426      -160.98736
9.332                0.739601179     -161.329497
9.333                0.739294318     -161.672043
9.334                0.738990868     -162.014991
9.335                0.738690852     -162.358337
9.336                0.738394294     -162.702075
9.337                0.738101216     -163.046198
9.338                0.737811643     -163.390702
9.339                0.737525597      -163.73558
9.34                   0.7372431     -164.080827
9.341                0.736964175     -164.426437
9.342                0.736688843     -164.772404
9.343                0.736417126     -165.118722
9.344                0.736149046     -165.465386
9.345                0.735884624     -165.812389
9.346                0.735623881     -166.159724
9.347                0.735366837     -166.507387
9.348                0.735113512     -166.855371
9.349                0.734863927      -167.20367
9.35                 0.734618101     -167.552278
9.351                0.734376054     -167.901188
9.352                0.734137804     -168.250394
9.353                0.733903371      -168.59989
9.354                0.733672772     -168.949669
9.355                0.733446026     -169.299725
9.356                0.733223151     -169.650053
9.357                0.733004163     -170.000644
9.358                0.732789081     -170.351493
9.359                 0.73257792     -170.702593
9.36                 0.732370698     -171.053938
9.361                0.732167429     -171.405521
9.362                0.731968131     -171.757336
9.363                0.731772818     -172.109375
9.364                0.731581505     -172.461633
9.365                0.731394206     -172.814102
9.366                0.731210937     -173.166776
9.367                0.731031711     -173.519648
9.368                0.730856541     -173.872711
9.369                0.730685441     -174.225958
9.37                 0.730518422     -174.579383
9.371                0.730355499     -174.932979
9.372                0.730196682     -175.286739
9.373                0.730041984     -175.640655
9.374                0.729891414     -175.994722
9.375                0.729744985     -176.348931
9.376                0.729602707     -176.703277
9.377                0.729464589     -177.057752
9.378                0.729330641     -177.412349
9.379                0.729200873     -177.767061
9.38                 0.729075293     -178.121882
9.381                 0.72895391     -178.476803
9.382                0.728836732     -178.831818
9.383                0.728723765     -179.186921
9.384                0.728615018     -179.542103
9.385                0.728510498     -179.897358
9.386                 0.72841021      179.747321
9.387                 0.72831416      179.391942
9.388                0.728222354      179.036512
9.389                0.728134797      178.681037
9.39                 0.728051495      178.325525
9.391                 0.72797245      177.969983
9.392                0.727897667      177.614418
9.393                0.727827149      177.258837
9.394                0.727760899      176.903248
9.395                0.727698921      176.547657
9.396                0.727641215      176.192073
