! TOUCHSTONE file generated by CST DESIGN STUDIO
! Date and time: Tue Feb  4 13:02:20 2025
! Project name: C:\Work\MatlabApps\UnitCellOptimizationMatlab\CST\unitcell.cst
! Tree item: Tasks\Sweep1\SPara1\S-Parameters
! Header version: 2024
! Port assignment regex: !\s*Touchstone port\s*([0-9]+)\s*=\s*(CST MWS port|CST DES external port|CST DES block port)\s*(.+)\s* \(\"(.*)\"\)(\s*mode\s*([0-9]+))?.*
! Touchstone port assignment:
! Touchstone port 1 = CST DES external port 1 ("")
# GHz S MA R 50
9                    0.936302985     -57.9814823
9.001                0.936150007     -58.0619422
9.002                0.935996524     -58.1425942
9.003                0.935842536     -58.2234391
9.004                 0.93568804     -58.3044773
9.005                0.935533034     -58.3857095
9.006                0.935377518     -58.4671365
9.007                0.935221488     -58.5487588
9.008                0.935064943     -58.6305771
9.009                0.934907882     -58.7125921
9.01                 0.934750301     -58.7948044
9.011                  0.9345922     -58.8772146
9.012                0.934433577     -58.9598235
9.013                0.934274429     -59.0426316
9.014                0.934114754     -59.1256398
9.015                0.933954552     -59.2088485
9.016                0.933793819     -59.2922586
9.017                0.933632555     -59.3758706
9.018                0.933470756     -59.4596853
9.019                0.933308422     -59.5437034
9.02                 0.933145549     -59.6279254
9.021                0.932982137     -59.7123522
9.022                0.932818184     -59.7969843
9.023                0.932653686     -59.8818225
9.024                0.932488643     -59.9668675
9.025                0.932323053       -60.05212
9.026                0.932156912     -60.1375806
9.027                0.931990221     -60.2232502
9.028                0.931822976     -60.3091292
9.029                0.931655175     -60.3952186
9.03                 0.931486817     -60.4815189
9.031                0.931317899      -60.568031
9.032                 0.93114842     -60.6547555
9.033                0.930978378     -60.7416931
9.034                 0.93080777     -60.8288445
9.035                0.930636594     -60.9162105
9.036                0.930464849     -61.0037919
9.037                0.930292533     -61.0915892
9.038                0.930119642     -61.1796033
9.039                0.929946176     -61.2678349
9.04                 0.929772133     -61.3562848
9.041                 0.92959751     -61.4449536
9.042                0.929422304     -61.5338421
9.043                0.929246515     -61.6229511
9.044                 0.92907014     -61.7122813
9.045                0.928893177     -61.8018334
9.046                0.928715624     -61.8916083
9.047                0.928537479     -61.9816066
9.048                0.928358739     -62.0718292
9.049                0.928179403     -62.1622767
9.05                 0.927999469       -62.25295
9.051                0.927818934     -62.3438498
9.052                0.927637796      -62.434977
9.053                0.927456054     -62.5263322
9.054                0.927273704     -62.6179162
9.055                0.927090746     -62.7097298
9.056                0.926907176     -62.8017739
9.057                0.926722993     -62.8940492
9.058                0.926538194     -62.9865564
9.059                0.926352778     -63.0792964
9.06                 0.926166742       -63.17227
9.061                0.925980084      -63.265478
9.062                0.925792801     -63.3589211
9.063                0.925604893     -63.4526002
9.064                0.925416356     -63.5465161
9.065                0.925227188     -63.6406695
9.066                0.925037388     -63.7350614
9.067                0.924846953     -63.8296925
9.068                 0.92465588     -63.9245636
9.069                0.924464168     -64.0196756
9.07                 0.924271814     -64.1150293
9.071                0.924078816     -64.2106255
9.072                0.923885173     -64.3064651
9.073                0.923690881     -64.4025488
9.074                0.923495938     -64.4988775
9.075                0.923300343     -64.5954521
9.076                0.923104093     -64.6922734
9.077                0.922907186     -64.7893423
9.078                0.922709619     -64.8866596
9.079                0.922511391     -64.9842261
9.08                 0.922312499     -65.0820427
9.081                 0.92211294     -65.1801103
9.082                0.921912713     -65.2784298
9.083                0.921711816     -65.3770019
9.084                0.921510245     -65.4758276
9.085                0.921307999     -65.5749078
9.086                0.921105076     -65.6742433
9.087                0.920901473      -65.773835
9.088                0.920697188     -65.8736838
9.089                0.920492218     -65.9737905
9.09                 0.920286562     -66.0741561
9.091                0.920080217     -66.1747815
9.092                 0.91987318     -66.2756675
9.093                 0.91966545      -66.376815
9.094                0.919457025      -66.478225
9.095                0.919247901     -66.5798984
9.096                0.919038076      -66.681836
9.097                0.918827549     -66.7840388
9.098                0.918616317     -66.8865077
9.099                0.918404377     -66.9892437
9.1                  0.918191728     -67.0922475
9.101                0.917978366     -67.1955202
9.102                 0.91776429     -67.2990627
9.103                0.917549498      -67.402876
9.104                0.917333986     -67.5069609
9.105                0.917117753     -67.6113184
9.106                0.916900796     -67.7159494
9.107                0.916683113     -67.8208549
9.108                0.916464702     -67.9260359
9.109                 0.91624556     -68.0314933
9.11                 0.916025684      -68.137228
9.111                0.915805073      -68.243241
9.112                0.915583725     -68.3495333
9.113                0.915361636     -68.4561059
9.114                0.915138805     -68.5629596
9.115                0.914915229     -68.6700956
9.116                0.914690905     -68.7775147
9.117                0.914465832     -68.8852179
9.118                0.914240007     -68.9932063
9.119                0.914013427     -69.1014808
9.12                 0.913786091     -69.2100424
9.121                0.913557996     -69.3188921
9.122                0.913329139      -69.428031
9.123                0.913099518     -69.5374599
9.124                0.912869131     -69.6471799
9.125                0.912637976     -69.7571921
9.126                0.912406049     -69.8674974
9.127                 0.91217335     -69.9780969
9.128                0.911939874     -70.0889915
9.129                0.911705621     -70.2001824
9.13                 0.911470586     -70.3116704
9.131                 0.91123477     -70.4234567
9.132                0.910998168     -70.5355423
9.133                0.910760778     -70.6479283
9.134                0.910522598     -70.7606156
9.135                0.910283626     -70.8736053
9.136                 0.91004386     -70.9868985
9.137                0.909803296     -71.1004962
9.138                0.909561933     -71.2143995
9.139                0.909319768     -71.3286094
9.14                 0.909076799     -71.4431271
9.141                0.908833023     -71.5579535
9.142                0.908588439     -71.6730897
9.143                0.908343043     -71.7885369
9.144                0.908096833      -71.904296
9.145                0.907849808     -72.0203682
9.146                0.907601964     -72.1367546
9.147                  0.9073533     -72.2534562
9.148                0.907103812     -72.3704742
9.149                0.906853499     -72.4878096
9.15                 0.906602358     -72.6054636
9.151                0.906350387     -72.7234372
9.152                0.906097584     -72.8417315
9.153                0.905843946     -72.9603477
9.154                 0.90558947     -73.0792869
9.155                0.905334156     -73.1985502
9.156                0.905077999     -73.3181388
9.157                0.904820998     -73.4380536
9.158                0.904563151      -73.558296
9.159                0.904304455      -73.678867
9.16                 0.904044909     -73.7997677
9.161                0.903784508     -73.9209993
9.162                0.903523252      -74.042563
9.163                0.903261138     -74.1644598
9.164                0.902998164      -74.286691
9.165                0.902734328     -74.4092577
9.166                0.902469626      -74.532161
9.167                0.902204057     -74.6554022
9.168                0.901937619     -74.7789824
9.169                 0.90167031     -74.9029027
9.17                 0.901402126     -75.0271644
9.171                0.901133067     -75.1517685
9.172                0.900863129     -75.2767164
9.173                 0.90059231     -75.4020092
9.174                0.900320609      -75.527648
9.175                0.900048022     -75.6536341
9.176                0.899774549     -75.7799687
9.177                0.899500186      -75.906653
9.178                0.899224931     -76.0336881
9.179                0.898948782     -76.1610753
9.18                 0.898671737     -76.2888158
9.181                0.898393795     -76.4169108
9.182                0.898114951     -76.5453616
9.183                0.897835206     -76.6741693
9.184                0.897554556     -76.8033352
9.185                0.897272999     -76.9328605
9.186                0.896990533     -77.0627464
9.187                0.896707156     -77.1929943
9.188                0.896422866     -77.3236052
9.189                0.896137661     -77.4545806
9.19                 0.895851539     -77.5859216
9.191                0.895564497     -77.7176294
9.192                0.895276534     -77.8497054
9.193                0.894987648     -77.9821508
9.194                0.894697836     -78.1149669
9.195                0.894407097     -78.2481549
9.196                0.894115429     -78.3817161
9.197                0.893822829     -78.5156517
9.198                0.893529296     -78.6499631
9.199                0.893234828     -78.7846516
9.2                  0.892939422     -78.9197184
9.201                0.892643078     -79.0551648
9.202                0.892345792     -79.1909921
9.203                0.892047563     -79.3272016
9.204                0.891748389     -79.4637947
9.205                0.891448269     -79.6007725
9.206                  0.8911472     -79.7381365
9.207                0.890845181     -79.8758878
9.208                 0.89054221      -80.014028
9.209                0.890238285     -80.1525582
9.21                 0.889933404     -80.2914797
9.211                0.889627565      -80.430794
9.212                0.889320767     -80.5705024
9.213                0.889013009      -80.710606
9.214                0.888704288     -80.8511065
9.215                0.888394602     -80.9920049
9.216                 0.88808395     -81.1333027
9.217                0.887772331     -81.2750013
9.218                0.887459743      -81.417102
9.219                0.887146184     -81.5596061
9.22                 0.886831652      -81.702515
9.221                0.886516147       -81.84583
9.222                0.886199666     -81.9895526
9.223                0.885882208      -82.133684
9.224                0.885563772     -82.2782257
9.225                0.885244355      -82.423179
9.226                0.884923958     -82.5685453
9.227                0.884602578      -82.714326
9.228                0.884280213     -82.8605224
9.229                0.883956863      -83.007136
9.23                 0.883632527     -83.1541682
9.231                0.883307202     -83.3016202
9.232                0.882980888     -83.4494936
9.233                0.882653583     -83.5977897
9.234                0.882325287     -83.7465099
9.235                0.881995997     -83.8956557
9.236                0.881665714     -84.0452283
9.237                0.881334435     -84.1952294
9.238                0.881002159     -84.3456601
9.239                0.880668886     -84.4965221
9.24                 0.880334615     -84.6478166
9.241                0.879999344     -84.7995452
9.242                0.879663073     -84.9517092
9.243                  0.8793258       -85.10431
9.244                0.878987524     -85.2573492
9.245                0.878648246      -85.410828
9.246                0.878307963     -85.5647481
9.247                0.877966676     -85.7191107
9.248                0.877624383     -85.8739174
9.249                0.877281083     -86.0291695
9.25                 0.876936777     -86.1848686
9.251                0.876591462     -86.3410161
9.252                0.876245139     -86.4976134
9.253                0.875897808      -86.654662
9.254                0.875549466     -86.8121634
9.255                0.875200115     -86.9701189
9.256                0.874849753     -87.1285301
9.257                 0.87449838     -87.2873984
9.258                0.874145996     -87.4467254
9.259                  0.8737926     -87.6065123
9.26                 0.873438192     -87.7667609
9.261                0.873082772     -87.9274724
9.262                 0.87272634     -88.0886483
9.263                0.872368895     -88.2502903
9.264                0.872010436     -88.4123996
9.265                0.871650966     -88.5749779
9.266                0.871290482     -88.7380266
9.267                0.870928985     -88.9015471
9.268                0.870566475      -89.065541
9.269                0.870202953     -89.2300098
9.27                 0.869838418     -89.3949549
9.271                 0.86947287     -89.5603778
9.272                0.869106311     -89.7262801
9.273                0.868738739     -89.8926631
9.274                0.868370156     -90.0595285
9.275                0.868000562     -90.2268777
9.276                0.867629957     -90.3947122
9.277                0.867258341     -90.5630335
9.278                0.866885717     -90.7318431
9.279                0.866512083     -90.9011425
9.28                  0.86613744     -91.0709332
9.281                0.865761791     -91.2412168
9.282                0.865385134     -91.4119947
9.283                0.865007471     -91.5832684
9.284                0.864628803     -91.7550394
9.285                0.864249131     -91.9273093
9.286                0.863868456     -92.1000796
9.287                0.863486778     -92.2733517
9.288                  0.8631041     -92.4471272
9.289                0.862720422     -92.6214076
9.29                 0.862335745     -92.7961944
9.291                0.861950071     -92.9714891
9.292                0.861563402     -93.1472932
9.293                0.861175738     -93.3236082
9.294                0.860787081     -93.5004357
9.295                0.860397433     -93.6777771
9.296                0.860006795      -93.855634
9.297                0.859615169     -94.0340079
9.298                0.859222557     -94.2129003
9.299                0.858828961     -94.3923127
9.3                  0.858434382     -94.5722467
9.301                0.858038824     -94.7527036
9.302                0.857642286     -94.9336851
9.303                0.857244773     -95.1151927
9.304                0.856846286     -95.2972278
9.305                0.856446826     -95.4797919
9.306                0.856046398     -95.6628867
9.307                0.855645003     -95.8465135
9.308                0.855242643      -96.030674
9.309                0.854839322     -96.2153695
9.31                 0.854435041     -96.4006016
9.311                0.854029804     -96.5863718
9.312                0.853623614     -96.7726817
9.313                0.853216473     -96.9595326
9.314                0.852808384     -97.1469261
9.315                 0.85239935     -97.3348637
9.316                0.851989376     -97.5233469
9.317                0.851578463     -97.7123772
9.318                0.851166615     -97.9019561
9.319                0.850753835      -98.092085
9.32                 0.850340128     -98.2827654
9.321                0.849925497     -98.4739989
9.322                0.849509944     -98.6657869
9.323                0.849093475     -98.8581309
9.324                0.848676093     -99.0510323
9.325                0.848257801     -99.2444927
9.326                0.847838604     -99.4385135
9.327                0.847418507     -99.6330961
9.328                0.846997513     -99.8282421
9.329                0.846575626     -100.023953
9.33                 0.846152851      -100.22023
9.331                0.845729193     -100.417075
9.332                0.845304655     -100.614488
9.333                0.844879244     -100.812473
9.334                0.844452963     -101.011029
9.335                0.844025818     -101.210159
9.336                0.843597813     -101.409864
9.337                0.843168954     -101.610145
9.338                0.842739246     -101.811004
9.339                0.842308693     -102.012442
9.34                 0.841877303     -102.214461
9.341                0.841445079     -102.417061
9.342                0.841012028     -102.620245
9.343                0.840578156     -102.824014
9.344                0.840143468     -103.028369
9.345                 0.83970797     -103.233312
9.346                0.839271669     -103.438843
9.347                 0.83883457     -103.644965
9.348                 0.83839668     -103.851679
9.349                0.837958005     -104.058985
9.35                 0.837518551     -104.266886
9.351                0.837078327     -104.475383
9.352                0.836637337     -104.684477
9.353                0.836195589     -104.894169
9.354                 0.83575309     -105.104461
9.355                0.835309847     -105.315354
9.356                0.834865867     -105.526849
9.357                0.834421158     -105.738949
9.358                0.833975727     -105.951653
9.359                0.833529581     -106.164963
9.36                 0.833082729     -106.378881
9.361                0.832635178     -106.593408
9.362                0.832186936     -106.808545
9.363                0.831738011     -107.024294
9.364                0.831288411     -107.240655
9.365                0.830838145      -107.45763
9.366                0.830387221     -107.675219
9.367                0.829935648     -107.893426
9.368                0.829483434     -108.112249
9.369                0.829030588     -108.331692
9.37                 0.828577119     -108.551754
9.371                0.828123037     -108.772437
9.372                 0.82766835     -108.993743
9.373                0.827213068     -109.215672
9.374                0.826757201     -109.438226
9.375                0.826300757     -109.661405
9.376                0.825843747     -109.885211
9.377                0.825386181     -110.109645
9.378                0.824928069     -110.334708
9.379                 0.82446942     -110.560401
9.38                 0.824010245     -110.786725
9.381                0.823550555     -111.013681
9.382                0.823090361     -111.241271
9.383                0.822629672     -111.469495
9.384                  0.8221685     -111.698355
9.385                0.821706856     -111.927851
9.386                0.821244751     -112.157984
9.387                0.820782196     -112.388755
9.388                0.820319203     -112.620166
9.389                0.819855783     -112.852217
9.39                 0.819391948     -113.084909
9.391                 0.81892771     -113.318244
9.392                0.818463081     -113.552221
9.393                0.817998073     -113.786842
9.394                0.817532699     -114.022108
9.395                 0.81706697      -114.25802
9.396                  0.8166009     -114.494579
