! TOUCHSTONE file generated by CST DESIGN STUDIO
! Date and time: Tue Feb  4 13:02:18 2025
! Project name: C:\Work\MatlabApps\UnitCellOptimizationMatlab\CST\unitcell.cst
! Tree item: Tasks\Sweep1\SPara1\S-Parameters
! Header version: 2024
! Port assignment regex: !\s*Touchstone port\s*([0-9]+)\s*=\s*(CST MWS port|CST DES external port|CST DES block port)\s*(.+)\s* \(\"(.*)\"\)(\s*mode\s*([0-9]+))?.*
! Touchstone port assignment:
! Touchstone port 1 = CST DES external port 1 ("")
# GHz S MA R 50
9                    0.907005033     -72.5189579
9.001                0.906743396     -72.6370946
9.002                0.906480864     -72.7555563
9.003                0.906217437     -72.8743443
9.004                 0.90595311     -72.9934597
9.005                0.905687881     -73.1129037
9.006                0.905421748     -73.2326774
9.007                0.905154707      -73.352782
9.008                0.904886757     -73.4732187
9.009                0.904617895     -73.5939886
9.01                 0.904348117     -73.7150928
9.011                0.904077422     -73.8365327
9.012                0.903805806     -73.9583093
9.013                0.903533268     -74.0804238
9.014                0.903259804     -74.2028775
9.015                0.902985411     -74.3256715
9.016                0.902710088      -74.448807
9.017                0.902433832     -74.5722852
9.018                0.902156639     -74.6961074
9.019                0.901878508     -74.8202747
9.02                 0.901599436     -74.9447883
9.021                 0.90131942     -75.0696495
9.022                0.901038458     -75.1948595
9.023                0.900756546     -75.3204195
9.024                0.900473684     -75.4463308
9.025                0.900189867     -75.5725945
9.026                0.899905093      -75.699212
9.027                0.899619361     -75.8261844
9.028                0.899332666      -75.953513
9.029                0.899045008     -76.0811991
9.03                 0.898756382     -76.2092438
9.031                0.898466788     -76.3376485
9.032                0.898176221     -76.4664145
9.033                0.897884681     -76.5955429
9.034                0.897592163     -76.7250351
9.035                0.897298666     -76.8548923
9.036                0.897004188     -76.9851159
9.037                0.896708725      -77.115707
9.038                0.896412276      -77.246667
9.039                0.896114838     -77.3779971
9.04                 0.895816408     -77.5096988
9.041                0.895516985     -77.6417731
9.042                0.895216565     -77.7742216
9.043                0.894915146     -77.9070453
9.044                0.894612726     -78.0402458
9.045                0.894309303     -78.1738242
9.046                0.894004874      -78.307782
9.047                0.893699437     -78.4421203
9.048                 0.89339299     -78.5768406
9.049                0.893085529     -78.7119442
9.05                 0.892777054     -78.8474324
9.051                0.892467561     -78.9833065
9.052                0.892157048     -79.1195679
9.053                0.891845514     -79.2562179
9.054                0.891532955     -79.3932579
9.055                 0.89121937     -79.5306893
9.056                0.890904757     -79.6685133
9.057                0.890589112     -79.8067313
9.058                0.890272435     -79.9453448
9.059                0.889954723      -80.084355
9.06                 0.889635973     -80.2237634
9.061                0.889316184     -80.3635713
9.062                0.888995353     -80.5037801
9.063                0.888673479     -80.6443912
9.064                0.888350559      -80.785406
9.065                0.888026592     -80.9268258
9.066                0.887701575      -81.068652
9.067                0.887375506     -81.2108861
9.068                0.887048383     -81.3535295
9.069                0.886720205     -81.4965835
9.07                 0.886390969     -81.6400495
9.071                0.886060674     -81.7839291
9.072                0.885729317     -81.9282235
9.073                0.885396897     -82.0729342
9.074                0.885063412     -82.2180627
9.075                0.884728859     -82.3636103
9.076                0.884393238     -82.5095785
9.077                0.884056547     -82.6559688
9.078                0.883718783     -82.8027825
9.079                0.883379945     -82.9500211
9.08                 0.883040031      -83.097686
9.081                 0.88269904     -83.2457788
9.082                 0.88235697     -83.3943007
9.083                0.882013819     -83.5432534
9.084                0.881669586     -83.6926382
9.085                0.881324269     -83.8424567
9.086                0.880977867     -83.9927102
9.087                0.880630378     -84.1434002
9.088                  0.8802818     -84.2945283
9.089                0.879932133     -84.4460959
9.09                 0.879581374     -84.5981044
9.091                0.879229523     -84.7505554
9.092                0.878876578     -84.9034504
9.093                0.878522538     -85.0567907
9.094                0.878167402      -85.210578
9.095                0.877811167     -85.3648136
9.096                0.877453834     -85.5194992
9.097                  0.8770954     -85.6746361
9.098                0.876735866      -85.830226
9.099                0.876375229     -85.9862702
9.1                  0.876013488     -86.1427704
9.101                0.875650643      -86.299728
9.102                0.875286692     -86.4571445
9.103                0.874921636     -86.6150215
9.104                0.874555471     -86.7733604
9.105                0.874188199     -86.9321629
9.106                0.873819817     -87.0914303
9.107                0.873450326     -87.2511643
9.108                0.873079724     -87.4113664
9.109                0.872708011      -87.572038
9.11                 0.872335186     -87.7331808
9.111                0.871961249     -87.8947963
9.112                0.871586198      -88.056886
9.113                0.871210033     -88.2194514
9.114                0.870832755     -88.3824942
9.115                0.870454362     -88.5460157
9.116                0.870074854     -88.7100177
9.117                 0.86969423     -88.8745016
9.118                0.869312491      -89.039469
9.119                0.868929636     -89.2049215
9.12                 0.868545665     -89.3708605
9.121                0.868160578     -89.5372877
9.122                0.867774374     -89.7042046
9.123                0.867387054     -89.8716128
9.124                0.866998618     -90.0395139
9.125                0.866609065     -90.2079093
9.126                0.866218396     -90.3768008
9.127                0.865826611     -90.5461897
9.128                 0.86543371     -90.7160778
9.129                0.865039694     -90.8864666
9.13                 0.864644563     -91.0573576
9.131                0.864248316     -91.2287525
9.132                0.863850956     -91.4006527
9.133                0.863452481     -91.5730599
9.134                0.863052893     -91.7459757
9.135                0.862652193     -91.9194016
9.136                 0.86225038     -92.0933392
9.137                0.861847457     -92.2677901
9.138                0.861443423     -92.4427559
9.139                0.861038279     -92.6182381
9.14                 0.860632027     -92.7942384
9.141                0.860224667     -92.9707582
9.142                0.859816201     -93.1477993
9.143                0.859406629     -93.3253631
9.144                0.858995953     -93.5034513
9.145                0.858584174     -93.6820654
9.146                0.858171294     -93.8612071
9.147                0.857757313     -94.0408778
9.148                0.857342233     -94.2210792
9.149                0.856926057     -94.4018129
9.15                 0.856508785     -94.5830804
9.151                0.856090419     -94.7648834
9.152                 0.85567096     -94.9472234
9.153                0.855250412     -95.1301019
9.154                0.854828775     -95.3135206
9.155                0.854406052     -95.4974811
9.156                0.853982244     -95.6819849
9.157                0.853557354     -95.8670336
9.158                0.853131384     -96.0526287
9.159                0.852704337     -96.2387719
9.16                 0.852276214     -96.4254647
9.161                0.851847018     -96.6127087
9.162                0.851416751     -96.8005054
9.163                0.850985417     -96.9888564
9.164                0.850553018     -97.1777633
9.165                0.850119556     -97.3672277
9.166                0.849685035      -97.557251
9.167                0.849249457     -97.7478349
9.168                0.848812825      -97.938981
9.169                0.848375143     -98.1306906
9.17                 0.847936414     -98.3229655
9.171                 0.84749664     -98.5158071
9.172                0.847055826      -98.709217
9.173                0.846613974     -98.9031968
9.174                0.846171089     -99.0977479
9.175                0.845727173     -99.2928719
9.176                0.845282231     -99.4885703
9.177                0.844836266     -99.6848447
9.178                0.844389282     -99.8816966
9.179                0.843941283     -100.079127
9.18                 0.843492273     -100.277139
9.181                0.843042256     -100.475732
9.182                0.842591236     -100.674909
9.183                0.842139218     -100.874671
9.184                0.841686206     -101.075019
9.185                0.841232205     -101.275955
9.186                0.840777218     -101.477481
9.187                0.840321251     -101.679597
9.188                0.839864308     -101.882306
9.189                0.839406394     -102.085609
9.19                 0.838947514     -102.289507
9.191                0.838487673     -102.494001
9.192                0.838026875     -102.699094
9.193                0.837565127     -102.904787
9.194                0.837102433      -103.11108
9.195                0.836638798     -103.317976
9.196                0.836174228     -103.525475
9.197                0.835708728      -103.73358
9.198                0.835242304     -103.942292
9.199                0.834774961     -104.151611
9.2                  0.834306705      -104.36154
9.201                0.833837541     -104.572079
9.202                0.833367475     -104.783231
9.203                0.832896513     -104.994996
9.204                0.832424661     -105.207375
9.205                0.831951925     -105.420371
9.206                 0.83147831     -105.633983
9.207                0.831003823     -105.848215
9.208                0.830528468     -106.063066
9.209                0.830052254     -106.278538
9.21                 0.829575184     -106.494633
9.211                0.829097266     -106.711352
9.212                0.828618506     -106.928695
9.213                0.828138909     -107.146664
9.214                0.827658481      -107.36526
9.215                0.827177228     -107.584485
9.216                0.826695157      -107.80434
9.217                0.826212272     -108.024825
9.218                 0.82572858     -108.245942
9.219                0.825244086     -108.467692
9.22                 0.824758796     -108.690075
9.221                0.824272715     -108.913094
9.222                0.823785848      -109.13675
9.223                0.823298201     -109.361042
9.224                0.822809777     -109.585972
9.225                0.822320582     -109.811542
9.226                 0.82183062     -110.037752
9.227                0.821339895     -110.264603
9.228                0.820848409     -110.492096
9.229                0.820356167     -110.720232
9.23                 0.819863172     -110.949011
9.231                0.819369424     -111.178436
9.232                0.818874926     -111.408506
9.233                0.818379679     -111.639223
9.234                0.817883682     -111.870587
9.235                0.817386936     -112.102599
9.236                0.816889438     -112.335259
9.237                0.816391186      -112.56857
9.238                0.815892177     -112.802531
9.239                0.815392405     -113.037143
9.24                 0.814891864     -113.272407
9.241                0.814390546     -113.508324
9.242                0.813888442     -113.744895
9.243                 0.81338554      -113.98212
9.244                0.812881827         -114.22
9.245                0.812377287     -114.458537
9.246                0.811871901     -114.697731
9.247                0.811365648     -114.937583
9.248                0.810858505     -115.178095
9.249                0.810350443     -115.419268
9.25                 0.809841433     -115.661103
9.251                0.809331438     -115.903603
9.252                0.808820421     -116.146769
9.253                0.808308338     -116.390604
9.254                0.807795141     -116.635111
9.255                0.807280779     -116.880292
9.256                0.806765193     -117.126152
9.257                0.806248324     -117.372696
9.258                0.805730104     -117.619929
9.259                0.805210467     -117.867858
9.26                  0.80468934      -118.11649
9.261                0.804166653     -118.365835
9.262                0.803642335     -118.615904
9.263                0.803116323     -118.866708
9.264                0.802588561     -119.118264
9.265                0.802059011     -119.370588
9.266                0.801527657       -119.6237
9.267                0.800994514     -119.877621
9.268                0.800459643     -120.132378
9.269                0.799923159     -120.387996
9.27                 0.799385249     -120.644506
9.271                0.798846185     -120.901936
9.272                 0.79830634     -121.160317
9.273                0.797766196     -121.419676
9.274                0.797226352     -121.680037
9.275                 0.79668752     -121.941417
9.276                 0.79615051     -122.203823
9.277                0.795616199      -122.46725
9.278                0.795085486     -122.731679
9.279                0.794559236     -122.997074
9.28                 0.794038216     -123.263384
9.281                0.793523025     -123.530546
9.282                0.793014048     -123.798485
9.283                0.792511416     -124.067122
9.284                0.792015001      -124.33638
9.285                0.791524432     -124.606186
9.286                 0.79103914     -124.876478
9.287                0.790558412     -125.147207
9.288                0.790081456     -125.418339
9.289                0.789607462     -125.689856
9.29                 0.789135649     -125.961752
9.291                0.788665306     -126.234031
9.292                0.788195817     -126.506708
9.293                0.787726667     -126.779802
9.294                0.787257446     -127.053336
9.295                0.786787843     -127.327336
9.296                0.786317636     -127.601826
9.297                0.785846676     -127.876832
9.298                 0.78537488     -128.152376
9.299                0.784902212     -128.428481
9.3                  0.784428678     -128.705164
9.301                0.783954311     -128.982442
9.302                0.783479168     -129.260331
9.303                0.783003321     -129.538843
9.304                0.782526851      -129.81799
9.305                0.782049847     -130.097779
9.306                0.781572398      -130.37822
9.307                0.781094599     -130.659318
9.308                 0.78061654     -130.941078
9.309                0.780138311     -131.223506
9.31                     0.77966     -131.506604
9.311                 0.77918169     -131.790376
9.312                0.778703464     -132.074823
9.313                0.778225399     -132.359947
9.314                 0.77774757     -132.645748
9.315                0.777270046     -132.932229
9.316                0.776792897     -133.219388
9.317                0.776316187     -133.507226
9.318                0.775839977     -133.795743
9.319                0.775364327     -134.084939
9.32                 0.774889294     -134.374812
9.321                0.774414932     -134.665362
9.322                0.773941293     -134.956588
9.323                0.773468428     -135.248489
9.324                0.772996384     -135.541063
9.325                0.772525209      -135.83431
9.326                0.772054948     -136.128227
9.327                0.771585644     -136.422814
9.328                0.771117341     -136.718069
9.329                0.770650079      -137.01399
9.33                   0.7701839     -137.310576
9.331                0.769718842     -137.607825
9.332                0.769254945     -137.905734
9.333                0.768792245     -138.204303
9.334                0.768330781     -138.503528
9.335                0.767870588     -138.803409
9.336                0.767411701     -139.103943
9.337                0.766954158     -139.405128
9.338                0.766497991     -139.706963
9.339                0.766043236     -140.009444
9.34                 0.765589926     -140.312569
9.341                0.765138095     -140.616337
9.342                0.764687775     -140.920745
9.343                0.764239001     -141.225791
9.344                0.763791803     -141.531472
9.345                0.763346214     -141.837786
9.346                0.762902267     -142.144731
9.347                0.762459992     -142.452303
9.348                0.762019423     -142.760501
9.349                0.761580588     -143.069321
9.35                 0.761143521     -143.378762
9.351                0.760708252      -143.68882
9.352                0.760274811     -143.999492
9.353                0.759843229     -144.310777
9.354                0.759413537      -144.62267
9.355                0.758985765      -144.93517
9.356                0.758559944     -145.248273
9.357                0.758136103     -145.561975
9.358                0.757714272     -145.876276
9.359                0.757294481      -146.19117
9.36                  0.75687676     -146.506655
9.361                0.756461139     -146.822728
9.362                0.756047647     -147.139386
9.363                0.755636314     -147.456625
9.364                0.755227168     -147.774443
9.365                 0.75482024     -148.092835
9.366                0.754415557     -148.411798
9.367                 0.75401315     -148.731329
9.368                0.753613047     -149.051425
9.369                0.753215277     -149.372082
9.37                 0.752819869     -149.693295
9.371                0.752426851     -150.015063
9.372                0.752036252      -150.33738
9.373                  0.7516481     -150.660243
9.374                0.751262423     -150.983649
9.375                 0.75087925     -151.307594
9.376                0.750498609     -151.632073
9.377                0.750120527     -151.957082
9.378                0.749745033     -152.282619
9.379                0.749372155     -152.608678
9.38                 0.749001919     -152.935256
9.381                0.748634353     -153.262348
9.382                0.748269485     -153.589951
9.383                0.747907342      -153.91806
9.384                 0.74754795      -154.24667
9.385                0.747191338     -154.575778
9.386                0.746837531     -154.905379
9.387                0.746486556     -155.235469
9.388                0.746138441     -155.566043
9.389                 0.74579321     -155.897096
9.39                  0.74545089     -156.228625
9.391                0.745111508     -156.560624
9.392                0.744775089     -156.893089
9.393                0.744441659     -157.226015
9.394                0.744111243     -157.559397
9.395                0.743783866     -157.893231
9.396                0.743459555     -158.227511
