! TOUCHSTONE file generated by CST DESIGN STUDIO
! Date and time: Tue Feb  4 13:02:22 2025
! Project name: C:\Work\MatlabApps\UnitCellOptimizationMatlab\CST\unitcell.cst
! Tree item: Tasks\Sweep1\SPara1\S-Parameters
! Header version: 2024
! Port assignment regex: !\s*Touchstone port\s*([0-9]+)\s*=\s*(CST MWS port|CST DES external port|CST DES block port)\s*(.+)\s* \(\"(.*)\"\)(\s*mode\s*([0-9]+))?.*
! Touchstone port assignment:
! Touchstone port 1 = CST DES external port 1 ("")
# GHz S MA R 50
9                    0.946915617     -52.2780909
9.001                0.946799231     -52.3458716
9.002                0.946682475     -52.4138025
9.003                 0.94656535     -52.4818839
9.004                0.946447853     -52.5501164
9.005                0.946329982     -52.6185004
9.006                0.946211737     -52.6870365
9.007                0.946093117      -52.755725
9.008                0.945974119     -52.8245665
9.009                0.945854742     -52.8935615
9.01                 0.945734986     -52.9627104
9.011                0.945614849     -53.0320138
9.012                0.945494328     -53.1014721
9.013                0.945373424     -53.1710859
9.014                0.945252134     -53.2408556
9.015                0.945130457     -53.3107818
9.016                0.945008392     -53.3808649
9.017                0.944885938     -53.4511054
9.018                0.944763092     -53.5215039
9.019                0.944639853     -53.5920608
9.02                 0.944516221     -53.6627767
9.021                0.944392193     -53.7336521
9.022                0.944267768     -53.8046875
9.023                0.944142945     -53.8758833
9.024                0.944017722     -53.9472402
9.025                0.943892098     -54.0187586
9.026                0.943766072     -54.0904391
9.027                0.943639641     -54.1622822
9.028                0.943512805     -54.2342883
9.029                0.943385561     -54.3064581
9.03                 0.943257909     -54.3787921
9.031                0.943129847     -54.4512907
9.032                0.943001373     -54.5239546
9.033                0.942872487     -54.5967842
9.034                0.942743185     -54.6697802
9.035                0.942613468     -54.7429429
9.036                0.942483333      -54.816273
9.037                0.942352779     -54.8897711
9.038                0.942221805     -54.9634376
9.039                0.942090408     -55.0372731
9.04                 0.941958588     -55.1112782
9.041                0.941826342     -55.1854534
9.042                 0.94169367     -55.2597993
9.043                0.941560569     -55.3343164
9.044                0.941427039     -55.4090052
9.045                0.941293077     -55.4838664
9.046                0.941158682     -55.5589005
9.047                0.941023852     -55.6341081
9.048                0.940888586     -55.7094896
9.049                0.940752883     -55.7850458
9.05                  0.94061674     -55.8607772
9.051                0.940480157     -55.9366843
9.052                 0.94034313     -56.0127677
9.053                 0.94020566      -56.089028
9.054                0.940067744     -56.1654658
9.055                0.939929381     -56.2420816
9.056                0.939790568     -56.3188761
9.057                0.939651305     -56.3958498
9.058                 0.93951159     -56.4730033
9.059                0.939371421     -56.5503373
9.06                 0.939230797     -56.6278522
9.061                0.939089715     -56.7055487
9.062                0.938948174     -56.7834274
9.063                0.938806173     -56.8614889
9.064                 0.93866371     -56.9397338
9.065                0.938520783     -57.0181626
9.066                0.938377391     -57.0967761
9.067                0.938233531     -57.1755748
9.068                0.938089202     -57.2545593
9.069                0.937944403     -57.3337303
9.07                 0.937799132     -57.4130883
9.071                0.937653387      -57.492634
9.072                0.937507166      -57.572368
9.073                0.937360467     -57.6522909
9.074                 0.93721329     -57.7324033
9.075                0.937065632     -57.8127059
9.076                0.936917491     -57.8931993
9.077                0.936768866     -57.9738841
9.078                0.936619755      -58.054761
9.079                0.936470156     -58.1358306
9.08                 0.936320067     -58.2170935
9.081                0.936169487     -58.2985505
9.082                0.936018414      -58.380202
9.083                0.935866847     -58.4620489
9.084                0.935714782     -58.5440917
9.085                 0.93556222      -58.626331
9.086                0.935409157     -58.7087676
9.087                0.935255592     -58.7914021
9.088                0.935101523     -58.8742351
9.089                0.934946949     -58.9572674
9.09                 0.934791867     -59.0404995
9.091                0.934636276     -59.1239322
9.092                0.934480174     -59.2075661
9.093                 0.93432356     -59.2914019
9.094                 0.93416643     -59.3754403
9.095                0.934008784     -59.4596819
9.096                 0.93385062     -59.5441274
9.097                0.933691935     -59.6287776
9.098                0.933532729      -59.713633
9.099                0.933372998     -59.7986944
9.1                  0.933212742     -59.8839625
9.101                0.933051958      -59.969438
9.102                0.932890645     -60.0551215
9.103                  0.9327288     -60.1410138
9.104                0.932566422     -60.2271155
9.105                0.932403509     -60.3134274
9.106                0.932240058     -60.3999502
9.107                0.932076069     -60.4866845
9.108                0.931911539     -60.5736312
9.109                0.931746466     -60.6607909
9.11                 0.931580848     -60.7481643
9.111                0.931414684     -60.8357521
9.112                0.931247971     -60.9235551
9.113                0.931080707      -61.011574
9.114                0.930912891     -61.0998096
9.115                0.930744521     -61.1882625
9.116                0.930575595     -61.2769334
9.117                 0.93040611     -61.3658232
9.118                0.930236065     -61.4549326
9.119                0.930065458     -61.5442623
9.12                 0.929894286      -61.633813
9.121                0.929722549     -61.7235856
9.122                0.929550243     -61.8135807
9.123                0.929377367     -61.9037991
9.124                 0.92920392     -61.9942415
9.125                0.929029898     -62.0849088
9.126                  0.9288553     -62.1758017
9.127                0.928680124     -62.2669209
9.128                0.928504368     -62.3582673
9.129                0.928328029     -62.4498415
9.13                 0.928151107     -62.5416444
9.131                0.927973598     -62.6336768
9.132                0.927795502     -62.7259394
9.133                0.927616815     -62.8184329
9.134                0.927437535     -62.9111583
9.135                0.927257662     -63.0041162
9.136                0.927077192     -63.0973076
9.137                0.926896124      -63.190733
9.138                0.926714455     -63.2843935
9.139                0.926532184     -63.3782897
9.14                 0.926349308     -63.4724224
9.141                0.926165826     -63.5667926
9.142                0.925981735     -63.6614009
9.143                0.925797033     -63.7562482
9.144                0.925611718     -63.8513354
9.145                0.925425789     -63.9466631
9.146                0.925239242     -64.0422324
9.147                0.925052076     -64.1380439
9.148                0.924864289     -64.2340985
9.149                0.924675878      -64.330397
9.15                 0.924486842     -64.4269403
9.151                0.924297179     -64.5237292
9.152                0.924106885     -64.6207646
9.153                 0.92391596     -64.7180472
9.154                0.923724401      -64.815578
9.155                0.923532206     -64.9133578
9.156                0.923339373     -65.0113874
9.157                0.923145899     -65.1096677
9.158                0.922951783     -65.2081996
9.159                0.922757022     -65.3069839
9.16                 0.922561614     -65.4060215
9.161                0.922365558     -65.5053132
9.162                 0.92216885     -65.6048599
9.163                0.921971489     -65.7046626
9.164                0.921773473      -65.804722
9.165                0.921574799     -65.9050391
9.166                0.921375466     -66.0056147
9.167                 0.92117547     -66.1064498
9.168                0.920974811     -66.2075452
9.169                0.920773485     -66.3089018
9.17                 0.920571491     -66.4105205
9.171                0.920368826     -66.5124023
9.172                0.920165488     -66.6145479
9.173                0.919961476     -66.7169584
9.174                0.919756786     -66.8196347
9.175                0.919551417     -66.9225776
9.176                0.919345366     -67.0257881
9.177                0.919138631      -67.129267
9.178                0.918931211     -67.2330154
9.179                0.918723102     -67.3370341
9.18                 0.918514303     -67.4413242
9.181                0.918304811     -67.5458864
9.182                0.918094624     -67.6507218
9.183                 0.91788374     -67.7558312
9.184                0.917672157     -67.8612157
9.185                0.917459873     -67.9668762
9.186                0.917246885     -68.0728136
9.187                0.917033191      -68.179029
9.188                0.916818789     -68.2855231
9.189                0.916603676     -68.3922971
9.19                 0.916387851     -68.4993519
9.191                0.916171311     -68.6066884
9.192                0.915954054     -68.7143076
9.193                0.915736078     -68.8222105
9.194                 0.91551738     -68.9303981
9.195                0.915297958     -69.0388713
9.196                0.915077811     -69.1476312
9.197                0.914856935     -69.2566787
9.198                0.914635329     -69.3660148
9.199                 0.91441299     -69.4756405
9.2                  0.914189916     -69.5855569
9.201                0.913966105     -69.6957649
9.202                0.913741555     -69.8062655
9.203                0.913516263     -69.9170597
9.204                0.913290227     -70.0281486
9.205                0.913063445     -70.1395332
9.206                0.912835915     -70.2512144
9.207                0.912607634     -70.3631934
9.208                  0.9123786     -70.4754711
9.209                0.912148812     -70.5880486
9.21                 0.911918266     -70.7009269
9.211                 0.91168696      -70.814107
9.212                0.911454893       -70.92759
9.213                0.911222062      -71.041377
9.214                0.910988464      -71.155469
9.215                0.910754098     -71.2698669
9.216                0.910518962      -71.384572
9.217                0.910283052     -71.4995853
9.218                0.910046368     -71.6149077
9.219                0.909808906     -71.7305405
9.22                 0.909570665     -71.8464846
9.221                0.909331642     -71.9627411
9.222                0.909091834     -72.0793112
9.223                0.908851241     -72.1961958
9.224                0.908609859     -72.3133961
9.225                0.908367687     -72.4309132
9.226                0.908124722     -72.5487481
9.227                0.907880962      -72.666902
9.228                0.907636404      -72.785376
9.229                0.907391048     -72.9041711
9.23                 0.907144889     -73.0232885
9.231                0.906897927     -73.1427292
9.232                0.906650159     -73.2624944
9.233                0.906401583     -73.3825853
9.234                0.906152197     -73.5030029
9.235                0.905901998     -73.6237483
9.236                0.905650984     -73.7448227
9.237                0.905399154     -73.8662273
9.238                0.905146504     -73.9879631
9.239                0.904893034     -74.1100313
9.24                  0.90463874      -74.232433
9.241                0.904383621     -74.3551694
9.242                0.904127675     -74.4782417
9.243                0.903870898     -74.6016509
9.244                 0.90361329     -74.7253983
9.245                0.903354849      -74.849485
9.246                0.903095571     -74.9739122
9.247                0.902835455      -75.098681
9.248                0.902574499     -75.2237926
9.249                0.902312701     -75.3492483
9.25                 0.902050059     -75.4750491
9.251                 0.90178657     -75.6011963
9.252                0.901522233      -75.727691
9.253                0.901257045     -75.8545344
9.254                0.900991005     -75.9817278
9.255                 0.90072411     -76.1092723
9.256                0.900456359     -76.2371692
9.257                0.900187749     -76.3654196
9.258                0.899918278     -76.4940247
9.259                0.899647945     -76.6229858
9.26                 0.899376747      -76.752304
9.261                0.899104683     -76.8819807
9.262                 0.89883175      -77.012017
9.263                0.898557947     -77.1424141
9.264                0.898283271     -77.2731733
9.265                0.898007721     -77.4042958
9.266                0.897731295     -77.5357829
9.267                0.897453991     -77.6676358
9.268                0.897175806     -77.7998557
9.269                 0.89689674     -77.9324439
9.27                  0.89661679     -78.0654016
9.271                0.896335954     -78.1987301
9.272                0.896054231     -78.3324306
9.273                0.895771618     -78.4665045
9.274                0.895488115      -78.600953
9.275                0.895203718     -78.7357773
9.276                0.894918426     -78.8709787
9.277                0.894632239     -79.0065586
9.278                0.894345152     -79.1425181
9.279                0.894057166     -79.2788586
9.28                 0.893768278     -79.4155813
9.281                0.893478487     -79.5526876
9.282                0.893187791     -79.6901787
9.283                0.892896188     -79.8280559
9.284                0.892603676     -79.9663206
9.285                0.892310254     -80.1049741
9.286                0.892015921     -80.2440175
9.287                0.891720674     -80.3834524
9.288                0.891424513     -80.5232799
9.289                0.891127435     -80.6635013
9.29                 0.890829439     -80.8041182
9.291                0.890530523     -80.9451316
9.292                0.890230687      -81.086543
9.293                0.889929927     -81.2283537
9.294                0.889628244      -81.370565
9.295                0.889325636     -81.5131783
9.296                0.889022101     -81.6561949
9.297                0.888717637     -81.7996162
9.298                0.888412244     -81.9434434
9.299                 0.88810592      -82.087678
9.3                  0.887798664     -82.2323213
9.301                0.887490474     -82.3773747
9.302                0.887181349     -82.5228394
9.303                0.886871288      -82.668717
9.304                0.886560289     -82.8150087
9.305                0.886248352     -82.9617159
9.306                0.885935476       -83.10884
9.307                0.885621658     -83.2563823
9.308                0.885306898     -83.4043443
9.309                0.884991196     -83.5527273
9.31                 0.884674549     -83.7015327
9.311                0.884356956     -83.8507619
9.312                0.884038418     -84.0004163
9.313                0.883718932     -84.1504973
9.314                0.883398498     -84.3010062
9.315                0.883077114     -84.4519445
9.316                0.882754781     -84.6033135
9.317                0.882431497     -84.7551147
9.318                0.882107261     -84.9073495
9.319                0.881782072     -85.0600192
9.32                  0.88145593     -85.2131254
9.321                0.881128834     -85.3666693
9.322                0.880800783     -85.5206525
9.323                0.880471777     -85.6750763
9.324                0.880141815     -85.8299422
9.325                0.879810895     -85.9852515
9.326                0.879479019     -86.1410058
9.327                0.879146185     -86.2972064
9.328                0.878812392     -86.4538547
9.329                0.878477641     -86.6109523
9.33                 0.878141931     -86.7685005
9.331                0.877805261     -86.9265008
9.332                0.877467631     -87.0849546
9.333                0.877129041     -87.2438634
9.334                 0.87678949     -87.4032285
9.335                0.876448979     -87.5630515
9.336                0.876107506     -87.7233338
9.337                0.875765073     -87.8840769
9.338                0.875421679     -88.0452821
9.339                0.875077323      -88.206951
9.34                 0.874732006      -88.369085
9.341                0.874385728     -88.5316855
9.342                0.874038489     -88.6947541
9.343                0.873690289     -88.8582922
9.344                0.873341128     -89.0223012
9.345                0.872991006     -89.1867826
9.346                0.872639924     -89.3517378
9.347                0.872287883     -89.5171685
9.348                0.871934881     -89.6830759
9.349                 0.87158092     -89.8494616
9.35                    0.871226     -90.0163271
9.351                0.870870122     -90.1836738
9.352                0.870513286     -90.3515031
9.353                0.870155493     -90.5198167
9.354                0.869796743     -90.6886159
9.355                0.869437037     -90.8579022
9.356                0.869076377     -91.0276771
9.357                0.868714762     -91.1979421
9.358                0.868352194     -91.3686986
9.359                0.867988673     -91.5399482
9.36                 0.867624201     -91.7116923
9.361                0.867258778     -91.8839324
9.362                0.866892406       -92.05667
9.363                0.866525086     -92.2299065
9.364                0.866156818     -92.4036435
9.365                0.865787605     -92.5778824
9.366                0.865417448     -92.7526248
9.367                0.865046348      -92.927872
9.368                0.864674306     -93.1036256
9.369                0.864301324      -93.279887
9.37                 0.863927404     -93.4566578
9.371                0.863552547     -93.6339395
9.372                0.863176755     -93.8117334
9.373                0.862800029     -93.9900411
9.374                0.862422372     -94.1688641
9.375                0.862043786     -94.3482039
9.376                0.861664272     -94.5280619
9.377                0.861283832     -94.7084396
9.378                0.860902469     -94.8893385
9.379                0.860520185     -95.0707601
9.38                 0.860136982     -95.2527059
9.381                0.859752862     -95.4351773
9.382                0.859367828     -95.6181758
9.383                0.858981882     -95.8017029
9.384                0.858595026       -95.98576
9.385                0.858207265     -96.1703487
9.386                0.857818599     -96.3554704
9.387                0.857429032     -96.5411266
9.388                0.857038567     -96.7273187
9.389                0.856647206     -96.9140482
9.39                 0.856254953     -97.1013165
9.391                0.855861811     -97.2891252
9.392                0.855467782     -97.4774757
9.393                0.855072871     -97.6663695
9.394                 0.85467708     -97.8558079
9.395                0.854280413     -98.0457925
9.396                0.853882873     -98.2363247
