! TOUCHSTONE file generated by CST DESIGN STUDIO
! Date and time: Tue Feb  4 13:02:19 2025
! Project name: C:\Work\MatlabApps\UnitCellOptimizationMatlab\CST\unitcell.cst
! Tree item: Tasks\Sweep1\SPara1\S-Parameters
! Header version: 2024
! Port assignment regex: !\s*Touchstone port\s*([0-9]+)\s*=\s*(CST MWS port|CST DES external port|CST DES block port)\s*(.+)\s* \(\"(.*)\"\)(\s*mode\s*([0-9]+))?.*
! Touchstone port assignment:
! Touchstone port 1 = CST DES external port 1 ("")
# GHz S MA R 50
9                    0.923143046     -64.6719893
9.001                0.922942122     -64.7689534
9.002                0.922740516     -64.8661666
9.003                0.922538227     -64.9636296
9.004                0.922335251     -65.0613435
9.005                0.922131586      -65.159309
9.006                0.921927229      -65.257527
9.007                0.921722179     -65.3559985
9.008                0.921516434     -65.4547242
9.009                0.921309989      -65.553705
9.01                 0.921102844     -65.6529419
9.011                0.920894996     -65.7524358
9.012                0.920686442     -65.8521874
9.013                0.920477181     -65.9521978
9.014                0.920267209     -66.0524678
9.015                0.920056524     -66.1529982
9.016                0.919845124     -66.2537901
9.017                0.919633006     -66.3548444
9.018                0.919420168     -66.4561618
9.019                0.919206608     -66.5577434
9.02                 0.918992323     -66.6595901
9.021                 0.91877731     -66.7617028
9.022                0.918561568     -66.8640823
9.023                0.918345093     -66.9667297
9.024                0.918127884     -67.0696459
9.025                0.917909937     -67.1728318
9.026                0.917691251     -67.2762883
9.027                0.917471823     -67.3800164
9.028                 0.91725165     -67.4840171
9.029                0.917030731     -67.5882912
9.03                 0.916809061     -67.6928398
9.031                 0.91658664     -67.7976637
9.032                0.916363465     -67.9027641
9.033                0.916139532     -68.0081417
9.034                0.915914841     -68.1137976
9.035                0.915689387     -68.2197327
9.036                0.915463169     -68.3259481
9.037                0.915236184     -68.4324446
9.038                 0.91500843     -68.5392234
9.039                0.914779904     -68.6462853
9.04                 0.914550604     -68.7536313
9.041                0.914320527     -68.8612625
9.042                 0.91408967     -68.9691798
9.043                0.913858032     -69.0773843
9.044                 0.91362561     -69.1858769
9.045                  0.9133924     -69.2946587
9.046                0.913158402     -69.4037306
9.047                0.912923611     -69.5130936
9.048                0.912688026     -69.6227489
9.049                0.912451645     -69.7326974
9.05                 0.912214464     -69.8429401
9.051                0.911976481      -69.953478
9.052                0.911737693     -70.0643122
9.053                0.911498099     -70.1754438
9.054                0.911257695     -70.2868737
9.055                 0.91101648      -70.398603
9.056                 0.91077445     -70.5106328
9.057                0.910531603     -70.6229641
9.058                0.910287936     -70.7355979
9.059                0.910043448     -70.8485353
9.06                 0.909798135     -70.9617774
9.061                0.909551994     -71.0753253
9.062                0.909305025     -71.1891799
9.063                0.909057223     -71.3033424
9.064                0.908808587     -71.4178139
9.065                0.908559113     -71.5325954
9.066                  0.9083088     -71.6476881
9.067                0.908057645     -71.7630929
9.068                0.907805645      -71.878811
9.069                0.907552798     -71.9948435
9.07                 0.907299101     -72.1111916
9.071                0.907044552     -72.2278562
9.072                0.906789149     -72.3448385
9.073                0.906532888     -72.4621396
9.074                0.906275768     -72.5797606
9.075                0.906017785     -72.6977027
9.076                0.905758938     -72.8159669
9.077                0.905499223     -72.9345544
9.078                0.905238639     -73.0534663
9.079                0.904977183     -73.1727038
9.08                 0.904714852      -73.292268
9.081                0.904451644       -73.41216
9.082                0.904187557      -73.532381
9.083                0.903922587      -73.652932
9.084                0.903656733     -73.7738144
9.085                0.903389992     -73.8950292
9.086                0.903122362     -74.0165775
9.087                 0.90285384     -74.1384607
9.088                0.902584423     -74.2606797
9.089                0.902314109     -74.3832358
9.09                 0.902042897     -74.5061302
9.091                0.901770782     -74.6293641
9.092                0.901497764     -74.7529385
9.093                0.901223839     -74.8768548
9.094                0.900949005     -75.0011141
9.095                 0.90067326     -75.1257176
9.096                0.900396601     -75.2506665
9.097                0.900119026      -75.375962
9.098                0.899840532     -75.5016053
9.099                0.899561118     -75.6275976
9.1                   0.89928078     -75.7539401
9.101                0.898999517     -75.8806341
9.102                0.898717325     -76.0076808
9.103                0.898434204     -76.1350813
9.104                0.898150149      -76.262837
9.105                 0.89786516      -76.390949
9.106                0.897579233     -76.5194187
9.107                0.897292366     -76.6482471
9.108                0.897004558     -76.7774357
9.109                0.896715805     -76.9069856
9.11                 0.896426106      -77.036898
9.111                0.896135458     -77.1671743
9.112                0.895843859     -77.2978157
9.113                0.895551307     -77.4288235
9.114                0.895257799     -77.5601989
9.115                0.894963333     -77.6919432
9.116                0.894667908     -77.8240576
9.117                 0.89437152     -77.9565436
9.118                0.894074167     -78.0894022
9.119                0.893775849     -78.2226349
9.12                 0.893476561     -78.3562429
9.121                0.893176303     -78.4902275
9.122                0.892875071     -78.6245901
9.123                0.892572864     -78.7593318
9.124                 0.89226968     -78.8944541
9.125                0.891965517     -79.0299581
9.126                0.891660372     -79.1658454
9.127                0.891354244      -79.302117
9.128                0.891047131     -79.4387745
9.129                0.890739029      -79.575819
9.13                 0.890429938      -79.713252
9.131                0.890119856     -79.8510748
9.132                 0.88980878     -79.9892886
9.133                0.889496708     -80.1278949
9.134                0.889183639      -80.266895
9.135                0.888869571     -80.4062901
9.136                0.888554501     -80.5460818
9.137                0.888238428     -80.6862713
9.138                 0.88792135       -80.82686
9.139                0.887603265     -80.9678492
9.14                 0.887284172     -81.1092403
9.141                0.886964067     -81.2510347
9.142                0.886642951     -81.3932338
9.143                 0.88632082     -81.5358389
9.144                0.885997674     -81.6788514
9.145                 0.88567351     -81.8222727
9.146                0.885348327     -81.9661041
9.147                0.885022123     -82.1103472
9.148                0.884694896     -82.2550032
9.149                0.884366645     -82.4000735
9.15                 0.884037368     -82.5455596
9.151                0.883707064     -82.6914628
9.152                0.883375731     -82.8377846
9.153                0.883043367     -82.9845264
9.154                0.882709972     -83.1316896
9.155                0.882375543     -83.2792755
9.156                0.882040079     -83.4272857
9.157                0.881703579     -83.5757215
9.158                0.881366041     -83.7245844
9.159                0.881027465     -83.8738758
9.16                 0.880687848     -84.0235971
9.161                0.880347189     -84.1737498
9.162                0.880005487     -84.3243353
9.163                0.879662741      -84.475355
9.164                 0.87931895     -84.6268105
9.165                0.878974112      -84.778703
9.166                0.878628227     -84.9310342
9.167                0.878281293     -85.0838054
9.168                0.877933308     -85.2370181
9.169                0.877584273     -85.3906738
9.17                 0.877234186     -85.5447739
9.171                0.876883047     -85.6993199
9.172                0.876530853     -85.8543132
9.173                0.876177604     -86.0097554
9.174                  0.8758233     -86.1656479
9.175                 0.87546794     -86.3219922
9.176                0.875111522     -86.4787898
9.177                0.874754047     -86.6360421
9.178                0.874395512     -86.7937506
9.179                0.874035919     -86.9519168
9.18                 0.873675265     -87.1105423
9.181                0.873313551     -87.2696284
9.182                0.872950776     -87.4291768
9.183                0.872586939     -87.5891888
9.184                 0.87222204     -87.7496661
9.185                0.871856079       -87.91061
9.186                0.871489055     -88.0720222
9.187                0.871120967      -88.233904
9.188                0.870751816     -88.3962571
9.189                0.870381602     -88.5590829
9.19                 0.870010323     -88.7223829
9.191                0.869637981     -88.8861588
9.192                0.869264574     -89.0504118
9.193                0.868890103     -89.2151437
9.194                0.868514568     -89.3803559
9.195                0.868137969       -89.54605
9.196                0.867760305     -89.7122274
9.197                0.867381578     -89.8788897
9.198                0.867001788     -90.0460384
9.199                0.866620933     -90.2136751
9.2                  0.866239016     -90.3818013
9.201                0.865856036     -90.5504184
9.202                0.865471994     -90.7195282
9.203                 0.86508689      -90.889132
9.204                0.864700724     -91.0592315
9.205                0.864313498     -91.2298281
9.206                0.863925212     -91.4009234
9.207                0.863535866      -91.572519
9.208                0.863145462     -91.7446164
9.209                0.862754001     -91.9172171
9.21                 0.862361482     -92.0903227
9.211                0.861967907     -92.2639347
9.212                0.861573278     -92.4380547
9.213                0.861177595     -92.6126842
9.214                0.860780859     -92.7878248
9.215                0.860383071      -92.963478
9.216                0.859984234     -93.1396453
9.217                0.859584348     -93.3163284
9.218                0.859183414     -93.4935287
9.219                0.858781434     -93.6712479
9.22                  0.85837841     -93.8494874
9.221                0.857974343     -94.0282488
9.222                0.857569235     -94.2075337
9.223                0.857163087     -94.3873436
9.224                0.856755902     -94.5676801
9.225                0.856347682     -94.7485447
9.226                0.855938428      -94.929939
9.227                0.855528142     -95.1118644
9.228                0.855116826     -95.2943227
9.229                0.854704484     -95.4773153
9.23                 0.854291116     -95.6608437
9.231                0.853876726     -95.8449095
9.232                0.853461316     -96.0295143
9.233                0.853044888     -96.2146596
9.234                0.852627444      -96.400347
9.235                0.852208989     -96.5865779
9.236                0.851789524      -96.773354
9.237                0.851369052     -96.9606768
9.238                0.850947576     -97.1485478
9.239                  0.8505251     -97.3369685
9.24                 0.850101625     -97.5259405
9.241                0.849677156     -97.7154653
9.242                0.849251696     -97.9055445
9.243                0.848825248     -98.0961796
9.244                0.848397816     -98.2873721
9.245                0.847969403     -98.4791236
9.246                0.847540012     -98.6714355
9.247                0.847109648     -98.8643094
9.248                0.846678314     -99.0577468
9.249                0.846246015     -99.2517492
9.25                 0.845812754     -99.4463182
9.251                0.845378535     -99.6414552
9.252                0.844943363     -99.8371618
9.253                0.844507242     -100.033439
9.254                0.844070176      -100.23029
9.255                 0.84363217     -100.427714
9.256                0.843193228     -100.625714
9.257                0.842753356     -100.824291
9.258                0.842312557     -101.023446
9.259                0.841870838     -101.223182
9.26                 0.841428202     -101.423498
9.261                0.840984656     -101.624398
9.262                0.840540204     -101.825883
9.263                0.840094851     -102.027953
9.264                0.839648604     -102.230611
9.265                0.839201467     -102.433857
9.266                0.838753447     -102.637694
9.267                0.838304548     -102.842122
9.268                0.837854778     -103.047144
9.269                0.837404142      -103.25276
9.27                 0.836952647     -103.458972
9.271                0.836500297     -103.665782
9.272                0.836047101      -103.87319
9.273                0.835593063     -104.081199
9.274                0.835138192     -104.289809
9.275                0.834682493     -104.499023
9.276                0.834225974     -104.708841
9.277                0.833768641     -104.919265
9.278                0.833310502     -105.130296
9.279                0.832851563     -105.341936
9.28                 0.832391833     -105.554185
9.281                0.831931318     -105.767046
9.282                0.831470026      -105.98052
9.283                0.831007965     -106.194608
9.284                0.830545142     -106.409311
9.285                0.830081566     -106.624631
9.286                0.829617245     -106.840568
9.287                0.829152187     -107.057125
9.288                0.828686399     -107.274303
9.289                0.828219892     -107.492102
9.29                 0.827752673     -107.710525
9.291                0.827284752     -107.929572
9.292                0.826816136     -108.149245
9.293                0.826346835     -108.369545
9.294                0.825876859     -108.590472
9.295                0.825406216      -108.81203
9.296                0.824934916     -109.034218
9.297                0.824462968     -109.257038
9.298                0.823990383      -109.48049
9.299                 0.82351717     -109.704577
9.3                  0.823043339       -109.9293
9.301                0.822568901     -110.154659
9.302                0.822093865     -110.380656
9.303                0.821618242     -110.607291
9.304                0.821142042     -110.834567
9.305                0.820665277     -111.062484
9.306                0.820187957     -111.291043
9.307                0.819710093     -111.520245
9.308                0.819231697     -111.750092
9.309                0.818752779     -111.980584
9.31                 0.818273352     -112.211723
9.311                0.817793426     -112.443509
9.312                0.817313013     -112.675943
9.313                0.816832126     -112.909028
9.314                0.816350777     -113.142762
9.315                0.815868977     -113.377149
9.316                0.815386739     -113.612188
9.317                0.814904076      -113.84788
9.318                   0.814421     -114.084227
9.319                0.813937524     -114.321229
9.32                 0.813453661     -114.558887
9.321                0.812969424     -114.797202
9.322                0.812484827     -115.036175
9.323                0.811999883     -115.275807
9.324                0.811514606     -115.516098
9.325                0.811029008      -115.75705
9.326                0.810543106     -115.998664
9.327                0.810056911     -116.240939
9.328                0.809570439     -116.483877
9.329                0.809083705     -116.727478
9.33                 0.808596722     -116.971744
9.331                0.808109505     -117.216675
9.332                0.807622069     -117.462271
9.333                 0.80713443     -117.708533
9.334                0.806646602     -117.955463
9.335                0.806158602      -118.20306
9.336                0.805670443     -118.451325
9.337                0.805182143     -118.700259
9.338                0.804693716     -118.949862
9.339                 0.80420518     -119.200135
9.34                  0.80371655     -119.451078
9.341                0.803227842     -119.702693
9.342                0.802739073     -119.954978
9.343                 0.80225026     -120.207935
9.344                0.801761419     -120.461565
9.345                0.801272568     -120.715867
9.346                0.800783723     -120.970842
9.347                0.800294903      -121.22649
9.348                0.799806123     -121.482812
9.349                0.799317403     -121.739808
9.35                  0.79882876     -121.997478
9.351                0.798340211     -122.255822
9.352                0.797851776     -122.514842
9.353                0.797363472     -122.774536
9.354                0.796875317     -123.034905
9.355                0.796387331      -123.29595
9.356                0.795899531      -123.55767
9.357                0.795411938     -123.820065
9.358                0.794924569     -124.083136
9.359                0.794437445     -124.346883
9.36                 0.793950585     -124.611305
9.361                0.793464008     -124.876402
9.362                0.792977733     -125.142176
9.363                0.792491782     -125.408624
9.364                0.792006173     -125.675748
9.365                0.791520928     -125.943548
9.366                0.791036065     -126.212022
9.367                0.790551607     -126.481171
9.368                0.790067573     -126.750995
9.369                0.789583984     -127.021493
9.37                 0.789100861     -127.292666
9.371                0.788618226     -127.564512
9.372                0.788136099     -127.837031
9.373                0.787654502     -128.110224
9.374                0.787173456     -128.384089
9.375                0.786692984     -128.658626
9.376                0.786213106     -128.933836
9.377                0.785733846     -129.209716
9.378                0.785255224     -129.486267
9.379                0.784777263     -129.763488
9.38                 0.784299986     -130.041378
9.381                0.783823416     -130.319937
9.382                0.783347574     -130.599164
9.383                0.782872483     -130.879059
9.384                0.782398167      -131.15962
9.385                0.781924649     -131.440847
9.386                0.781451951     -131.722739
9.387                0.780980097     -132.005295
9.388                0.780509111     -132.288514
9.389                0.780039016     -132.572396
9.39                 0.779569836     -132.856938
9.391                0.779101594     -133.142141
9.392                0.778634315     -133.428003
9.393                0.778168023     -133.714523
9.394                0.777702741       -134.0017
9.395                0.777238494     -134.289533
9.396                0.776775307      -134.57802
