! TOUCHSTONE file generated by CST DESIGN STUDIO
! Date and time: Tue Feb  4 12:36:25 2025
! Project name: C:\Work\MatlabApps\UnitCellOptimizationMatlab\CST\unitcell.cst
! Tree item: Tasks\Sweep1\SPara1\S-Parameters
! Header version: 2024
! Port assignment regex: !\s*Touchstone port\s*([0-9]+)\s*=\s*(CST MWS port|CST DES external port|CST DES block port)\s*(.+)\s* \(\"(.*)\"\)(\s*mode\s*([0-9]+))?.*
! Touchstone port assignment:
! Touchstone port 1 = CST DES external port 1 ("")
# GHz S MA R 50
9                    0.988615505      -78.771023
9.001                0.988587411     -78.8910578
9.002                0.988559235     -79.0113864
9.003                0.988530974     -79.1320096
9.004                 0.98850263     -79.2529283
9.005                0.988474202     -79.3741434
9.006                0.988445689     -79.4956555
9.007                0.988417092     -79.6174657
9.008                0.988388411     -79.7395748
9.009                0.988359645     -79.8619836
9.01                 0.988330795     -79.9846929
9.011                0.988301859     -80.1077037
9.012                0.988272838     -80.2310167
9.013                0.988243732     -80.3546329
9.014                0.988214541     -80.4785531
9.015                0.988185264     -80.6027781
9.016                0.988155901     -80.7273088
9.017                0.988126453     -80.8521462
9.018                0.988096918     -80.9772909
9.019                0.988067297      -81.102744
9.02                  0.98803759     -81.2285063
9.021                0.988007797     -81.3545786
9.022                0.987977917     -81.4809618
9.023                 0.98794795     -81.6076569
9.024                0.987917896     -81.7346646
9.025                0.987887756     -81.8619858
9.026                0.987857528     -81.9896215
9.027                0.987827213     -82.1175725
9.028                 0.98779681     -82.2458396
9.029                 0.98776632     -82.3744238
9.03                 0.987735742      -82.503326
9.031                0.987705076      -82.632547
9.032                0.987674323     -82.7620877
9.033                0.987643481     -82.8919489
9.034                0.987612551     -83.0221317
9.035                0.987581533     -83.1526369
9.036                0.987550426     -83.2834653
9.037                0.987519231     -83.4146178
9.038                0.987487947     -83.5460954
9.039                0.987456574      -83.677899
9.04                 0.987425113     -83.8100293
9.041                0.987393562     -83.9424874
9.042                0.987361922     -84.0752742
9.043                0.987330193     -84.2083904
9.044                0.987298375     -84.3418371
9.045                0.987266467     -84.4756151
9.046                0.987234469     -84.6097253
9.047                0.987202382     -84.7441686
9.048                0.987170205      -84.878946
9.049                0.987137938     -85.0140582
9.05                 0.987105582     -85.1495064
9.051                0.987073135     -85.2852912
9.052                0.987040598     -85.4214137
9.053                0.987007971     -85.5578748
9.054                0.986975253     -85.6946753
9.055                0.986942446     -85.8318162
9.056                0.986909547     -85.9692984
9.057                0.986876558     -86.1071227
9.058                0.986843479     -86.2452902
9.059                0.986810308     -86.3838017
9.06                 0.986777047     -86.5226581
9.061                0.986743696     -86.6618603
9.062                0.986710253     -86.8014093
9.063                0.986676719     -86.9413059
9.064                0.986643094     -87.0815512
9.065                0.986609378     -87.2221459
9.066                0.986575571     -87.3630911
9.067                0.986541673     -87.5043876
9.068                0.986507683     -87.6460363
9.069                0.986473603     -87.7880382
9.07                  0.98643943     -87.9303942
9.071                0.986405167     -88.0731052
9.072                0.986370812     -88.2161721
9.073                0.986336365     -88.3595958
9.074                0.986301827     -88.5033773
9.075                0.986267198     -88.6475175
9.076                0.986232477     -88.7920173
9.077                0.986197664     -88.9368776
9.078                 0.98616276     -89.0820994
9.079                0.986127764     -89.2276835
9.08                 0.986092677     -89.3736308
9.081                0.986057497     -89.5199424
9.082                0.986022227     -89.6666191
9.083                0.985986864     -89.8136619
9.084                 0.98595141     -89.9610716
9.085                0.985915864     -90.1088491
9.086                0.985880227     -90.2569955
9.087                0.985844498     -90.4055116
9.088                0.985808677     -90.5543984
9.089                0.985772765     -90.7036567
9.09                 0.985736761     -90.8532875
9.091                0.985700666     -91.0032917
9.092                0.985664479     -91.1536702
9.093                  0.9856282     -91.3044239
9.094                 0.98559183     -91.4555538
9.095                0.985555369     -91.6070608
9.096                0.985518816     -91.7589457
9.097                0.985482172     -91.9112096
9.098                0.985445437     -92.0638532
9.099                0.985408611     -92.2168777
9.1                  0.985371693     -92.3702837
9.101                0.985334684     -92.5240723
9.102                0.985297584     -92.6782444
9.103                0.985260393     -92.8328009
9.104                0.985223112     -92.9877427
9.105                0.985185739     -93.1430707
9.106                0.985148276     -93.2987858
9.107                0.985110722      -93.454889
9.108                0.985073078      -93.611381
9.109                0.985035343      -93.768263
9.11                 0.984997518     -93.9255356
9.111                0.984959603     -94.0831999
9.112                0.984921598     -94.2412568
9.113                0.984883502     -94.3997071
9.114                0.984845317     -94.5585518
9.115                0.984807042     -94.7177917
9.116                0.984768678     -94.8774278
9.117                0.984730224     -95.0374609
9.118                 0.98469168      -95.197892
9.119                0.984653048     -95.3587218
9.12                 0.984614326     -95.5199515
9.121                0.984575516     -95.6815817
9.122                0.984536617     -95.8436134
9.123                 0.98449763     -96.0060475
9.124                0.984458554     -96.1688849
9.125                 0.98441939     -96.3321264
9.126                0.984380138      -96.495773
9.127                0.984340798     -96.6598254
9.128                 0.98430137     -96.8242847
9.129                0.984261856     -96.9891516
9.13                 0.984222254      -97.154427
9.131                0.984182565     -97.3201118
9.132                0.984142789     -97.4862069
9.133                0.984102927     -97.6527132
9.134                0.984062979     -97.8196314
9.135                0.984022944     -97.9869624
9.136                0.983982824     -98.1547072
9.137                0.983942618     -98.3228665
9.138                0.983902327     -98.4914413
9.139                0.983861951     -98.6604323
9.14                  0.98382149     -98.8298404
9.141                0.983780944     -98.9996664
9.142                0.983740315     -99.1699112
9.143                0.983699601     -99.3405757
9.144                0.983658804     -99.5116606
9.145                0.983617924     -99.6831668
9.146                 0.98357696     -99.8550952
9.147                0.983535914     -100.027446
9.148                0.983494785     -100.200221
9.149                0.983453575     -100.373421
9.15                 0.983412282     -100.547046
9.151                0.983370909     -100.721097
9.152                0.983329454     -100.895575
9.153                0.983287918     -101.070481
9.154                0.983246303     -101.245816
9.155                0.983204607      -101.42158
9.156                0.983162832     -101.597774
9.157                0.983120978     -101.774399
9.158                0.983079044     -101.951456
9.159                0.983037033     -102.128946
9.16                 0.982994943     -102.306869
9.161                0.982952776     -102.485226
9.162                0.982910532     -102.664017
9.163                0.982868211     -102.843245
9.164                0.982825814     -103.022908
9.165                0.982783341     -103.203009
9.166                0.982740793     -103.383548
9.167                 0.98269817     -103.564525
9.168                0.982655472     -103.745942
9.169                  0.9826127     -103.927798
9.17                 0.982569855     -104.110096
9.171                0.982526937     -104.292835
9.172                0.982483947     -104.476016
9.173                0.982440884      -104.65964
9.174                 0.98239775     -104.843708
9.175                0.982354545      -105.02822
9.176                 0.98231127     -105.213178
9.177                0.982267925     -105.398581
9.178                0.982224511      -105.58443
9.179                0.982181027     -105.770726
9.18                 0.982137476     -105.957471
9.181                0.982093857     -106.144663
9.182                0.982050172     -106.332305
9.183                0.982006419     -106.520397
9.184                0.981962601     -106.708939
9.185                0.981918718     -106.897932
9.186                0.981874771     -107.087376
9.187                0.981830759     -107.277273
9.188                0.981786684     -107.467623
9.189                0.981742547     -107.658426
9.19                 0.981698347     -107.849684
9.191                0.981654086     -108.041396
9.192                0.981609765     -108.233563
9.193                0.981565384     -108.426186
9.194                0.981520943     -108.619266
9.195                0.981476444     -108.812803
9.196                0.981431887     -109.006798
9.197                0.981387274      -109.20125
9.198                0.981342603     -109.396162
9.199                0.981297877     -109.591532
9.2                  0.981253097     -109.787363
9.201                0.981208262     -109.983653
9.202                0.981163374     -110.180405
9.203                0.981118434     -110.377618
9.204                0.981073441     -110.575292
9.205                0.981028398     -110.773429
9.206                0.980983305     -110.972029
9.207                0.980938163     -111.171092
9.208                0.980892972     -111.370619
9.209                0.980847733      -111.57061
9.21                 0.980802448     -111.771065
9.211                0.980757117     -111.971986
9.212                0.980711741     -112.173372
9.213                0.980666321     -112.375224
9.214                0.980620858     -112.577542
9.215                0.980575352     -112.780327
9.216                0.980529805      -112.98358
9.217                0.980484218     -113.187299
9.218                0.980438591     -113.391487
9.219                0.980392926     -113.596143
9.22                 0.980347223     -113.801267
9.221                0.980301484      -114.00686
9.222                0.980255709     -114.212923
9.223                0.980209899     -114.419455
9.224                0.980164056     -114.626457
9.225                 0.98011818     -114.833929
9.226                0.980072272     -115.041872
9.227                0.980026334     -115.250285
9.228                0.979980367     -115.459169
9.229                0.979934371     -115.668525
9.23                 0.979888348     -115.878352
9.231                0.979842299     -116.088651
9.232                0.979796224     -116.299422
9.233                0.979750126     -116.510665
9.234                0.979704004      -116.72238
9.235                0.979657861     -116.934568
9.236                0.979611697     -117.147228
9.237                0.979565513     -117.360362
9.238                0.979519311     -117.573968
9.239                0.979473092     -117.788048
9.24                 0.979426857     -118.002601
9.241                0.979380607     -118.217627
9.242                0.979334344     -118.433127
9.243                0.979288068     -118.649101
9.244                0.979241781     -118.865548
9.245                0.979195484     -119.082469
9.246                0.979149179     -119.299863
9.247                0.979102866     -119.517732
9.248                0.979056547     -119.736074
9.249                0.979010223      -119.95489
9.25                 0.978963896      -120.17418
9.251                0.978917566     -120.393944
9.252                0.978871236     -120.614181
9.253                0.978824906     -120.834893
9.254                0.978778578     -121.056078
9.255                0.978732253     -121.277736
9.256                0.978685932     -121.499868
9.257                0.978639618     -121.722474
9.258                0.978593311     -121.945552
9.259                0.978547012     -122.169104
9.26                 0.978500723     -122.393129
9.261                0.978454446     -122.617627
9.262                0.978408182     -122.842597
9.263                0.978361932      -123.06804
9.264                0.978315699     -123.293955
9.265                0.978269482     -123.520343
9.266                0.978223284     -123.747202
9.267                0.978177107     -123.974532
9.268                0.978130951     -124.202334
9.269                0.978084819     -124.430607
9.27                 0.978038711     -124.659351
9.271                 0.97799263     -124.888564
9.272                0.977946577     -125.118248
9.273                0.977900553     -125.348402
9.274                0.977854561     -125.579025
9.275                0.977808601     -125.810117
9.276                0.977762675     -126.041677
9.277                0.977716785     -126.273706
9.278                0.977670932     -126.506202
9.279                0.977625118     -126.739166
9.28                 0.977579346     -126.972596
9.281                0.977533615     -127.206493
9.282                0.977487928     -127.440855
9.283                0.977442287     -127.675683
9.284                0.977396694     -127.910975
9.285                0.977351149     -128.146732
9.286                0.977305655     -128.382952
9.287                0.977260213     -128.619635
9.288                0.977214826     -128.856781
9.289                0.977169494     -129.094388
9.29                  0.97712422     -129.332457
9.291                0.977079005     -129.570986
9.292                0.977033852     -129.809975
9.293                0.976988761     -130.049422
9.294                0.976943735     -130.289329
9.295                0.976898775     -130.529693
9.296                0.976853883     -130.770514
9.297                0.976809061     -131.011791
9.298                0.976764312     -131.253523
9.299                0.976719635      -131.49571
9.3                  0.976675034      -131.73835
9.301                0.976630511     -131.981444
9.302                0.976586067     -132.224989
9.303                0.976541703     -132.468985
9.304                0.976497423     -132.713432
9.305                0.976453227     -132.958328
9.306                0.976409118     -133.203672
9.307                0.976365097     -133.449463
9.308                0.976321166     -133.695701
9.309                0.976277328     -133.942384
9.31                 0.976233585     -134.189512
9.311                0.976189937     -134.437083
9.312                0.976146387     -134.685096
9.313                0.976102938      -134.93355
9.314                 0.97605959     -135.182444
9.315                0.976016346     -135.431777
9.316                0.975973208     -135.681547
9.317                0.975930178     -135.931755
9.318                0.975887258     -136.182397
9.319                0.975844449     -136.433474
9.32                 0.975801754     -136.684984
9.321                0.975759175     -136.936925
9.322                0.975716713     -137.189297
9.323                0.975674371     -137.442098
9.324                0.975632151     -137.695327
9.325                0.975590055     -137.948983
9.326                0.975548084     -138.203063
9.327                0.975506242     -138.457567
9.328                0.975464529     -138.712494
9.329                0.975422947     -138.967841
9.33                   0.9753815     -139.223608
9.331                0.975340189     -139.479793
9.332                0.975299015     -139.736395
9.333                0.975257982     -139.993412
9.334                 0.97521709     -140.250842
9.335                0.975176343     -140.508684
9.336                0.975135742     -140.766936
9.337                0.975095289     -141.025598
9.338                0.975054987     -141.284666
9.339                0.975014836     -141.544141
9.34                 0.974974841     -141.804019
9.341                0.974935001     -142.064299
9.342                0.974895321      -142.32498
9.343                0.974855801      -142.58606
9.344                0.974816443     -142.847536
9.345                0.974777251     -143.109408
9.346                0.974738225     -143.371674
9.347                0.974699369     -143.634332
9.348                0.974660683     -143.897379
9.349                0.974622171     -144.160814
9.35                 0.974583834     -144.424636
9.351                0.974545674     -144.688842
9.352                0.974507694      -144.95343
9.353                0.974469895     -145.218399
9.354                 0.97443228     -145.483746
9.355                 0.97439485      -145.74947
9.356                0.974357608     -146.015568
9.357                0.974320556     -146.282039
9.358                0.974283696      -146.54888
9.359                 0.97424703      -146.81609
9.36                  0.97421056     -147.083665
9.361                0.974174288     -147.351605
9.362                0.974138216     -147.619908
9.363                0.974102347      -147.88857
9.364                0.974066682     -148.157589
9.365                0.974031223     -148.426965
9.366                0.973995973     -148.696693
9.367                0.973960933     -148.966773
9.368                0.973926106     -149.237201
9.369                0.973891493     -149.507976
9.37                 0.973857097     -149.779096
9.371                 0.97382292     -150.050557
9.372                0.973788963     -150.322358
9.373                0.973755229     -150.594496
9.374                 0.97372172     -150.866968
9.375                0.973688438     -151.139774
9.376                0.973655384     -151.412909
9.377                0.973622561     -151.686372
9.378                0.973589971      -151.96016
9.379                0.973557616      -152.23427
9.38                 0.973525497     -152.508701
9.381                0.973493617     -152.783449
9.382                0.973461978     -153.058512
9.383                0.973430581     -153.333887
9.384                0.973399429     -153.609572
9.385                0.973368523     -153.885565
9.386                0.973337866     -154.161862
9.387                0.973307459     -154.438461
9.388                0.973277304      -154.71536
9.389                0.973247403     -154.992555
9.39                 0.973217759     -155.270043
9.391                0.973188372     -155.547823
9.392                0.973159245     -155.825892
9.393                 0.97313038     -156.104246
9.394                0.973101778     -156.382883
9.395                0.973073442       -156.6618
9.396                0.973045372     -156.940994
