! TOUCHSTONE file generated by CST DESIGN STUDIO
! Date and time: Tue Feb  4 12:36:30 2025
! Project name: C:\Work\MatlabApps\UnitCellOptimizationMatlab\CST\unitcell.cst
! Tree item: Tasks\Sweep1\SPara1\S-Parameters
! Header version: 2024
! Port assignment regex: !\s*Touchstone port\s*([0-9]+)\s*=\s*(CST MWS port|CST DES external port|CST DES block port)\s*(.+)\s* \(\"(.*)\"\)(\s*mode\s*([0-9]+))?.*
! Touchstone port assignment:
! Touchstone port 1 = CST DES external port 1 ("")
# GHz S MA R 50
9                    0.989155662     -76.2480271
9.001                0.989129794     -76.3621662
9.002                0.989103848     -76.4765824
9.003                0.989077825     -76.5912766
9.004                0.989051724     -76.7062494
9.005                0.989025546     -76.8215018
9.006                 0.98899929     -76.9370346
9.007                0.988972955     -77.0528485
9.008                0.988946542     -77.1689444
9.009                0.988920051     -77.2853231
9.01                 0.988893481     -77.4019854
9.011                0.988866833     -77.5189322
9.012                0.988840105     -77.6361643
9.013                0.988813299     -77.7536824
9.014                0.988786413     -77.8714875
9.015                0.988759448     -77.9895804
9.016                0.988732403     -78.1079618
9.017                0.988705278     -78.2266327
9.018                0.988678074     -78.3455938
9.019                 0.98865079      -78.464846
9.02                 0.988623425     -78.5843902
9.021                 0.98859598     -78.7042271
9.022                0.988568454     -78.8243576
9.023                0.988540848     -78.9447826
9.024                0.988513161      -79.065503
9.025                0.988485393     -79.1865194
9.026                0.988457544     -79.3078329
9.027                0.988429613     -79.4294442
9.028                0.988401601     -79.5513542
9.029                0.988373508     -79.6735638
9.03                 0.988345332     -79.7960738
9.031                0.988317075     -79.9188851
9.032                0.988288736     -80.0419985
9.033                0.988260315     -80.1654148
9.034                0.988231811     -80.2891351
9.035                0.988203225       -80.41316
9.036                0.988174557     -80.5374905
9.037                0.988145806     -80.6621275
9.038                0.988116971     -80.7870718
9.039                0.988088054     -80.9123242
9.04                 0.988059054     -81.0378857
9.041                 0.98802997     -81.1637572
9.042                0.988000803     -81.2899394
9.043                0.987971553     -81.4164333
9.044                0.987942219     -81.5432397
9.045                0.987912801     -81.6703596
9.046                0.987883299     -81.7977938
9.047                0.987853713     -81.9255431
9.048                0.987824043     -82.0536086
9.049                0.987794288      -82.181991
9.05                 0.987764449     -82.3106912
9.051                0.987734526     -82.4397101
9.052                0.987704518     -82.5690487
9.053                0.987674425     -82.6987077
9.054                0.987644248     -82.8286882
9.055                0.987613985     -82.9589909
9.056                0.987583638     -83.0896168
9.057                0.987553205     -83.2205668
9.058                0.987522686     -83.3518417
9.059                0.987492083     -83.4834425
9.06                 0.987461394     -83.6153701
9.061                0.987430619     -83.7476253
9.062                0.987399758      -83.880209
9.063                0.987368812     -84.0131222
9.064                 0.98733778     -84.1463658
9.065                0.987306661     -84.2799406
9.066                0.987275457     -84.4138476
9.067                0.987244166     -84.5480877
9.068                0.987212789     -84.6826617
9.069                0.987181326     -84.8175706
9.07                 0.987149777     -84.9528153
9.071                 0.98711814     -85.0883967
9.072                0.987086417     -85.2243158
9.073                0.987054608     -85.3605733
9.074                0.987022711     -85.4971702
9.075                0.986990728     -85.6341076
9.076                0.986958658     -85.7713861
9.077                0.986926501     -85.9090069
9.078                0.986894257     -86.0469707
9.079                0.986861926     -86.1852785
9.08                 0.986829507     -86.3239312
9.081                0.986797002     -86.4629298
9.082                0.986764409     -86.6022751
9.083                0.986731728     -86.7419681
9.084                0.986698961     -86.8820097
9.085                0.986666106     -87.0224008
9.086                0.986633163     -87.1631423
9.087                0.986600133     -87.3042352
9.088                0.986567015     -87.4456804
9.089                 0.98653381     -87.5874787
9.09                 0.986500517     -87.7296311
9.091                0.986467136     -87.8721386
9.092                0.986433668     -88.0150021
9.093                0.986400112     -88.1582224
9.094                0.986366468     -88.3018006
9.095                0.986332737     -88.4457374
9.096                0.986298917      -88.590034
9.097                 0.98626501     -88.7346911
9.098                0.986231015     -88.8797097
9.099                0.986196932     -89.0250907
9.1                  0.986162762     -89.1708351
9.101                0.986128503     -89.3169438
9.102                0.986094157     -89.4634177
9.103                0.986059723     -89.6102577
9.104                0.986025201     -89.7574647
9.105                0.985990592     -89.9050398
9.106                0.985955894     -90.0529837
9.107                0.985921109     -90.2012975
9.108                0.985886236      -90.349982
9.109                0.985851276     -90.4990382
9.11                 0.985816227      -90.648467
9.111                0.985781091     -90.7982694
9.112                0.985745868     -90.9484462
9.113                0.985710557     -91.0989983
9.114                0.985675158     -91.2499268
9.115                0.985639672     -91.4012324
9.116                0.985604098     -91.5529163
9.117                0.985568438     -91.7049791
9.118                0.985532689      -91.857422
9.119                0.985496854     -92.0102458
9.12                 0.985460931     -92.1634513
9.121                0.985424922     -92.3170397
9.122                0.985388825     -92.4710117
9.123                0.985352642     -92.6253682
9.124                0.985316371     -92.7801103
9.125                0.985280014     -92.9352388
9.126                 0.98524357     -93.0907546
9.127                 0.98520704     -93.2466586
9.128                0.985170423     -93.4029518
9.129                0.985133719     -93.5596351
9.13                  0.98509693     -93.7167094
9.131                0.985060054     -93.8741755
9.132                0.985023093     -94.0320344
9.133                0.984986045     -94.1902871
9.134                0.984948912     -94.3489343
9.135                0.984911693     -94.5079771
9.136                0.984874389     -94.6674162
9.137                0.984836999     -94.8272527
9.138                0.984799524     -94.9874874
9.139                0.984761965     -95.1481213
9.14                  0.98472432     -95.3091551
9.141                0.984686591     -95.4705899
9.142                0.984648777     -95.6324265
9.143                0.984610879     -95.7946657
9.144                0.984572896     -95.9573086
9.145                 0.98453483     -96.1203559
9.146                 0.98449668     -96.2838086
9.147                0.984458446     -96.4476676
9.148                0.984420129     -96.6119336
9.149                0.984381729     -96.7766077
9.15                 0.984343246     -96.9416907
9.151                 0.98430468     -97.1071834
9.152                0.984266031     -97.2730868
9.153                0.984227301     -97.4394017
9.154                0.984188488      -97.606129
9.155                0.984149593     -97.7732695
9.156                0.984110617     -97.9408241
9.157                 0.98407156     -98.1087937
9.158                0.984032422     -98.2771792
9.159                0.983993202     -98.4459813
9.16                 0.983953903     -98.6152009
9.161                0.983914523      -98.784839
9.162                0.983875063     -98.9548963
9.163                0.983835524     -99.1253736
9.164                0.983795905     -99.2962719
9.165                0.983756207      -99.467592
9.166                0.983716431     -99.6393346
9.167                0.983676576     -99.8115007
9.168                0.983636643      -99.984091
9.169                0.983596633     -100.157106
9.17                 0.983556544     -100.330548
9.171                0.983516379     -100.504416
9.172                0.983476138     -100.678711
9.173                 0.98343582     -100.853435
9.174                0.983395425     -101.028588
9.175                0.983354956     -101.204171
9.176                0.983314411     -101.380185
9.177                0.983273791      -101.55663
9.178                0.983233097     -101.733508
9.179                0.983192329     -101.910819
9.18                 0.983151487     -102.088564
9.181                0.983110572     -102.266743
9.182                0.983069584     -102.445358
9.183                0.983028524     -102.624409
9.184                0.982987392     -102.803897
9.185                0.982946188     -102.983823
9.186                0.982904914     -103.164187
9.187                0.982863569     -103.344991
9.188                0.982822153     -103.526234
9.189                0.982780669     -103.707919
9.19                 0.982739115     -103.890045
9.191                0.982697492     -104.072613
9.192                0.982655802     -104.255624
9.193                0.982614043     -104.439078
9.194                0.982572218     -104.622977
9.195                0.982530326     -104.807321
9.196                0.982488368     -104.992111
9.197                0.982446345     -105.177348
9.198                0.982404256     -105.363031
9.199                0.982362104     -105.549163
9.2                  0.982319887     -105.735743
9.201                0.982277607     -105.922772
9.202                0.982235265     -106.110251
9.203                0.982192861     -106.298181
9.204                0.982150395     -106.486562
9.205                0.982107868     -106.675394
9.206                0.982065281      -106.86468
9.207                0.982022635     -107.054418
9.208                0.981979929      -107.24461
9.209                0.981937165     -107.435257
9.21                 0.981894344     -107.626358
9.211                0.981851466     -107.817915
9.212                0.981808531     -108.009929
9.213                0.981765541     -108.202399
9.214                0.981722495     -108.395326
9.215                0.981679396     -108.588712
9.216                0.981636243     -108.782556
9.217                0.981593037     -108.976859
9.218                0.981549779     -109.171622
9.219                 0.98150647     -109.366845
9.22                 0.981463111     -109.562529
9.221                0.981419701     -109.758675
9.222                0.981376243     -109.955282
9.223                0.981332736     -110.152351
9.224                0.981289181     -110.349883
9.225                0.981245581     -110.547879
9.226                0.981201934     -110.746338
9.227                0.981158242     -110.945262
9.228                0.981114506     -111.144651
9.229                0.981070726     -111.344504
9.23                 0.981026904     -111.544824
9.231                0.980983041      -111.74561
9.232                0.980939136     -111.946862
9.233                0.980895192     -112.148582
9.234                0.980851209     -112.350769
9.235                0.980807187     -112.553423
9.236                0.980763128     -112.756547
9.237                0.980719033     -112.960138
9.238                0.980674903     -113.164199
9.239                0.980630738     -113.368729
9.24                  0.98058654     -113.573729
9.241                0.980542309       -113.7792
9.242                0.980498046      -113.98514
9.243                0.980453753     -114.191552
9.244                0.980409431     -114.398435
9.245                 0.98036508     -114.605789
9.246                0.980320701     -114.813615
9.247                0.980276296     -115.021912
9.248                0.980231865     -115.230683
9.249                 0.98018741     -115.439926
9.25                 0.980142932     -115.649641
9.251                0.980098431      -115.85983
9.252                0.980053909     -116.070492
9.253                0.980009367     -116.281628
9.254                0.979964805     -116.493237
9.255                0.979920226      -116.70532
9.256                 0.97987563     -116.917878
9.257                0.979831018     -117.130909
9.258                0.979786392     -117.344416
9.259                0.979741753     -117.558396
9.26                 0.979697101     -117.772852
9.261                0.979652438     -117.987783
9.262                0.979607766     -118.203188
9.263                0.979563084     -118.419069
9.264                0.979518396     -118.635424
9.265                0.979473701     -118.852255
9.266                0.979429001     -119.069562
9.267                0.979384297     -119.287343
9.268                0.979339591       -119.5056
9.269                0.979294884     -119.724333
9.27                 0.979250176     -119.943541
9.271                 0.97920547     -120.163224
9.272                0.979160767     -120.383383
9.273                0.979116068     -120.604017
9.274                0.979071374     -120.825127
9.275                0.979026687     -121.046711
9.276                0.978982007     -121.268771
9.277                0.978937337     -121.491306
9.278                0.978892678     -121.714316
9.279                 0.97884803     -121.937801
9.28                 0.978803397     -122.161761
9.281                0.978758778     -122.386195
9.282                0.978714175     -122.611104
9.283                 0.97866959     -122.836486
9.284                0.978625024     -123.062343
9.285                0.978580478     -123.288674
9.286                0.978535955     -123.515478
9.287                0.978491455     -123.742756
9.288                 0.97844698     -123.970507
9.289                0.978402531      -124.19873
9.29                  0.97835811     -124.427426
9.291                0.978313719     -124.656595
9.292                0.978269359     -124.886235
9.293                0.978225031     -125.116347
9.294                0.978180737      -125.34693
9.295                0.978136479     -125.577984
9.296                0.978092258     -125.809509
9.297                0.978048075     -126.041503
9.298                0.978003933     -126.273968
9.299                0.977959833     -126.506901
9.3                  0.977915776     -126.740303
9.301                0.977871764     -126.974174
9.302                0.977827799     -127.208512
9.303                0.977783883     -127.443318
9.304                0.977740016      -127.67859
9.305                0.977696201     -127.914329
9.306                0.977652439     -128.150533
9.307                0.977608732     -128.387202
9.308                0.977565082     -128.624336
9.309                 0.97752149     -128.861934
9.31                 0.977477958     -129.099995
9.311                0.977434487     -129.338519
9.312                0.977391081     -129.577504
9.313                0.977347739     -129.816951
9.314                0.977304464     -130.056859
9.315                0.977261258     -130.297226
9.316                0.977218123     -130.538052
9.317                0.977175059     -130.779337
9.318                 0.97713207     -131.021079
9.319                0.977089156     -131.263278
9.32                  0.97704632     -131.505933
9.321                0.977003563     -131.749043
9.322                0.976960887     -131.992607
9.323                0.976918294     -132.236625
9.324                0.976875786     -132.481095
9.325                0.976833365     -132.726016
9.326                0.976791032     -132.971389
9.327                0.976748789      -133.21721
9.328                0.976706638     -133.463481
9.329                0.976664582     -133.710199
9.33                 0.976622621     -133.957364
9.331                0.976580758     -134.204975
9.332                0.976538995      -134.45303
9.333                0.976497333     -134.701529
9.334                0.976455775      -134.95047
9.335                0.976414322     -135.199852
9.336                0.976372976     -135.449675
9.337                0.976331739     -135.699937
9.338                0.976290613     -135.950636
9.339                0.976249601     -136.201772
9.34                 0.976208703     -136.453344
9.341                0.976167923     -136.705349
9.342                0.976127261     -136.957788
9.343                 0.97608672     -137.210658
9.344                0.976046301     -137.463959
9.345                0.976006008     -137.717689
9.346                0.975965841     -137.971846
9.347                0.975925802      -138.22643
9.348                0.975885895     -138.481438
9.349                 0.97584612      -138.73687
9.35                 0.975806479     -138.992724
9.351                0.975766975     -139.248999
9.352                 0.97572761     -139.505693
9.353                0.975688386     -139.762805
9.354                0.975649303     -140.020332
9.355                0.975610366     -140.278275
9.356                0.975571575      -140.53663
9.357                0.975532933     -140.795397
9.358                0.975494441     -141.054574
9.359                0.975456102     -141.314159
9.36                 0.975417918      -141.57415
9.361                0.975379891     -141.834547
9.362                0.975342022     -142.095347
9.363                0.975304314     -142.356548
9.364                0.975266768     -142.618149
9.365                0.975229388     -142.880149
9.366                0.975192174     -143.142544
9.367                0.975155129     -143.405334
9.368                0.975118255     -143.668517
9.369                0.975081554      -143.93209
9.37                 0.975045028     -144.196053
9.371                0.975008678     -144.460402
9.372                0.974972508     -144.725137
9.373                0.974936519     -144.990255
9.374                0.974900713     -145.255754
9.375                0.974865092     -145.521632
9.376                0.974829658     -145.787888
9.377                0.974794413     -146.054519
9.378                 0.97475936     -146.321524
9.379                0.974724499     -146.588899
9.38                 0.974689834     -146.856644
9.381                0.974655366     -147.124756
9.382                0.974621097     -147.393232
9.383                0.974587029     -147.662072
9.384                0.974553165     -147.931272
9.385                0.974519506      -148.20083
9.386                0.974486054     -148.470745
9.387                0.974452811     -148.741013
9.388                 0.97441978     -149.011633
9.389                0.974386962     -149.282603
9.39                 0.974354359      -149.55392
9.391                0.974321973     -149.825581
9.392                0.974289806     -150.097585
9.393                 0.97425786      -150.36993
9.394                0.974226138     -150.642611
9.395                 0.97419464     -150.915629
9.396                 0.97416337     -151.188979
