! TOUCHSTONE file generated by CST DESIGN STUDIO
! Date and time: Tue Feb  4 12:36:37 2025
! Project name: C:\Work\MatlabApps\UnitCellOptimizationMatlab\CST\unitcell.cst
! Tree item: Tasks\Sweep1\SPara1\S-Parameters
! Header version: 2024
! Port assignment regex: !\s*Touchstone port\s*([0-9]+)\s*=\s*(CST MWS port|CST DES external port|CST DES block port)\s*(.+)\s* \(\"(.*)\"\)(\s*mode\s*([0-9]+))?.*
! Touchstone port assignment:
! Touchstone port 1 = CST DES external port 1 ("")
# GHz S MA R 50
9                    0.990093369     -71.6300814
9.001                0.990071395     -71.7340338
9.002                0.990049355     -71.8382342
9.003                0.990027248     -71.9426836
9.004                0.990005074     -72.0473825
9.005                0.989982833     -72.1523318
9.006                0.989960525     -72.2575322
9.007                0.989938149     -72.3629845
9.008                0.989915705     -72.4686894
9.009                0.989893194     -72.5746476
9.01                 0.989870615       -72.68086
9.011                0.989847967     -72.7873272
9.012                0.989825252     -72.8940501
9.013                0.989802467     -73.0010294
9.014                0.989779614     -73.1082658
9.015                0.989756693     -73.2157602
9.016                0.989733702     -73.3235133
9.017                0.989710642     -73.4315258
9.018                0.989687513     -73.5397986
9.019                0.989664315     -73.6483323
9.02                 0.989641047     -73.7571279
9.021                0.989617709      -73.866186
9.022                0.989594301     -73.9755075
9.023                0.989570823     -74.0850931
9.024                0.989547275     -74.1949436
9.025                0.989523656     -74.3050599
9.026                0.989499967     -74.4154426
9.027                0.989476207     -74.5260925
9.028                0.989452376     -74.6370106
9.029                0.989428474     -74.7481975
9.03                 0.989404501      -74.859654
9.031                0.989380457      -74.971381
9.032                0.989356341     -75.0833793
9.033                0.989332153     -75.1956496
9.034                0.989307893     -75.3081927
9.035                0.989283562     -75.4210095
9.036                0.989259158     -75.5341008
9.037                0.989234682     -75.6474674
9.038                0.989210133     -75.7611101
9.039                0.989185512     -75.8750296
9.04                 0.989160818     -75.9892269
9.041                0.989136051     -76.1037027
9.042                0.989111211     -76.2184579
9.043                0.989086298     -76.3334932
9.044                0.989061311     -76.4488096
9.045                0.989036251     -76.5644077
9.046                0.989011117     -76.6802885
9.047                0.988985909     -76.7964528
9.048                0.988960628     -76.9129014
9.049                0.988935272     -77.0296351
9.05                 0.988909842     -77.1466548
9.051                0.988884337     -77.2639613
9.052                0.988858758     -77.3815554
9.053                0.988833104      -77.499438
9.054                0.988807376       -77.61761
9.055                0.988781572     -77.7360721
9.056                0.988755693     -77.8548252
9.057                0.988729739     -77.9738702
9.058                0.988703709     -78.0932079
9.059                0.988677604     -78.2128391
9.06                 0.988651423     -78.3327648
9.061                0.988625167     -78.4529857
9.062                0.988598834     -78.5735027
9.063                0.988572425     -78.6943167
9.064                 0.98854594     -78.8154285
9.065                0.988519379      -78.936839
9.066                0.988492741     -79.0585491
9.067                0.988466026     -79.1805596
9.068                0.988439235     -79.3028714
9.069                0.988412367     -79.4254853
9.07                 0.988385421     -79.5484022
9.071                0.988358399     -79.6716231
9.072                0.988331299     -79.7951487
9.073                0.988304122     -79.9189799
9.074                0.988276867     -80.0431177
9.075                0.988249535     -80.1675628
9.076                0.988222125     -80.2923162
9.077                0.988194637     -80.4173788
9.078                0.988167071     -80.5427514
9.079                0.988139427     -80.6684349
9.08                 0.988111704     -80.7944302
9.081                0.988083904     -80.9207381
9.082                0.988056024     -81.0473597
9.083                0.988028067     -81.1742957
9.084                 0.98800003     -81.3015471
9.085                0.987971915     -81.4291147
9.086                0.987943721     -81.5569995
9.087                0.987915447     -81.6852023
9.088                0.987887095      -81.813724
9.089                0.987858664     -81.9425656
9.09                 0.987830153     -82.0717279
9.091                0.987801562     -82.2012118
9.092                0.987772893     -82.3310183
9.093                0.987744143     -82.4611482
9.094                0.987715314     -82.5916024
9.095                0.987686405     -82.7223819
9.096                0.987657416     -82.8534876
9.097                0.987628347     -82.9849203
9.098                0.987599199      -83.116681
9.099                 0.98756997     -83.2487705
9.1                   0.98754066     -83.3811899
9.101                0.987511271       -83.51394
9.102                0.987481801     -83.6470217
9.103                 0.98745225      -83.780436
9.104                0.987422619     -83.9141837
9.105                0.987392908     -84.0482659
9.106                0.987363115     -84.1826833
9.107                0.987333242     -84.3174369
9.108                0.987303288     -84.4525277
9.109                0.987273254     -84.5879565
9.11                 0.987243138     -84.7237244
9.111                0.987212941     -84.8598321
9.112                0.987182663     -84.9962807
9.113                0.987152304     -85.1330711
9.114                0.987121864     -85.2702041
9.115                0.987091343     -85.4076808
9.116                 0.98706074      -85.545502
9.117                0.987030056     -85.6836687
9.118                0.986999291     -85.8221819
9.119                0.986968444     -85.9610423
9.12                 0.986937516     -86.1002511
9.121                0.986906506     -86.2398091
9.122                0.986875414     -86.3797172
9.123                0.986844241     -86.5199763
9.124                0.986812987     -86.6605875
9.125                0.986781651     -86.8015517
9.126                0.986750233     -86.9428697
9.127                0.986718734     -87.0845426
9.128                0.986687153     -87.2265712
9.129                 0.98665549     -87.3689566
9.13                 0.986623745     -87.5116995
9.131                0.986591919     -87.6548011
9.132                0.986560011     -87.7982621
9.133                0.986528021     -87.9420837
9.134                 0.98649595     -88.0862666
9.135                0.986463796     -88.2308119
9.136                0.986431561     -88.3757204
9.137                0.986399245     -88.5209932
9.138                0.986366846     -88.6666311
9.139                0.986334366     -88.8126351
9.14                 0.986301804     -88.9590062
9.141                0.986269161     -89.1057453
9.142                0.986236436     -89.2528533
9.143                0.986203629     -89.4003312
9.144                0.986170741     -89.5481799
9.145                0.986137771     -89.6964003
9.146                 0.98610472     -89.8449935
9.147                0.986071587     -89.9939603
9.148                0.986038373     -90.1433016
9.149                0.986005077     -90.2930185
9.15                   0.9859717     -90.4431119
9.151                0.985938242     -90.5935827
9.152                0.985904703     -90.7444318
9.153                0.985871082     -90.8956602
9.154                0.985837381     -91.0472689
9.155                0.985803598     -91.1992587
9.156                0.985769735     -91.3516306
9.157                 0.98573579     -91.5043856
9.158                0.985701765     -91.6575246
9.159                0.985667659     -91.8110484
9.16                 0.985633473     -91.9649582
9.161                0.985599206     -92.1192547
9.162                0.985564859      -92.273939
9.163                0.985530431      -92.429012
9.164                0.985495923     -92.5844745
9.165                0.985461335     -92.7403276
9.166                0.985426667     -92.8965722
9.167                 0.98539192     -93.0532091
9.168                0.985357092     -93.2102394
9.169                0.985322185      -93.367664
9.17                 0.985287199     -93.5254837
9.171                0.985252133     -93.6836996
9.172                0.985216988     -93.8423125
9.173                0.985181764     -94.0013234
9.174                0.985146461     -94.1607332
9.175                 0.98511108     -94.3205428
9.176                0.985075619     -94.4807531
9.177                0.985040081     -94.6413651
9.178                0.985004464     -94.8023796
9.179                0.984968769     -94.9637977
9.18                 0.984932997     -95.1256201
9.181                0.984897147     -95.2878479
9.182                0.984861219     -95.4504819
9.183                0.984825214      -95.613523
9.184                0.984789132     -95.7769722
9.185                0.984752973     -95.9408303
9.186                0.984716737     -96.1050983
9.187                0.984680425      -96.269777
9.188                0.984644037     -96.4348674
9.189                0.984607572     -96.6003704
9.19                 0.984571032     -96.7662868
9.191                0.984534417     -96.9326176
9.192                0.984497726     -97.0993636
9.193                 0.98446096     -97.2665257
9.194                0.984424119     -97.4341048
9.195                0.984387204     -97.6021019
9.196                0.984350215     -97.7705177
9.197                0.984313152     -97.9393531
9.198                0.984276015     -98.1086091
9.199                0.984238805     -98.2782865
9.2                  0.984201521     -98.4483862
9.201                0.984164165      -98.618909
9.202                0.984126737     -98.7898558
9.203                0.984089236     -98.9612274
9.204                0.984051663     -99.1330248
9.205                0.984014019     -99.3052488
9.206                0.983976304     -99.4779002
9.207                0.983938518     -99.6509799
9.208                0.983900661     -99.8244887
9.209                0.983862734     -99.9984275
9.21                 0.983824737     -100.172797
9.211                0.983786671     -100.347598
9.212                0.983748536     -100.522832
9.213                0.983710332     -100.698499
9.214                 0.98367206       -100.8746
9.215                 0.98363372     -101.051136
9.216                0.983595312     -101.228108
9.217                0.983556838     -101.405516
9.218                0.983518296     -101.583362
9.219                0.983479689     -101.761646
9.22                 0.983441015     -101.940369
9.221                0.983402276     -102.119532
9.222                0.983363472     -102.299135
9.223                0.983324604     -102.479179
9.224                0.983285672     -102.659666
9.225                0.983246675     -102.840596
9.226                0.983207616     -103.021969
9.227                0.983168494     -103.203786
9.228                 0.98312931     -103.386049
9.229                0.983090065     -103.568758
9.23                 0.983050758     -103.751914
9.231                 0.98301139     -103.935517
9.232                0.982971962     -104.119568
9.233                0.982932475     -104.304068
9.234                0.982892929     -104.489018
9.235                0.982853324     -104.674418
9.236                0.982813661     -104.860269
9.237                 0.98277394     -105.046572
9.238                0.982734163     -105.233327
9.239                 0.98269433     -105.420536
9.24                  0.98265444     -105.608199
9.241                0.982614496     -105.796316
9.242                0.982574497     -105.984889
9.243                0.982534444     -106.173917
9.244                0.982494338     -106.363402
9.245                0.982454179     -106.553344
9.246                0.982413969     -106.743745
9.247                0.982373706     -106.934604
9.248                0.982333393     -107.125922
9.249                 0.98229303       -107.3177
9.25                 0.982252618     -107.509938
9.251                0.982212157     -107.702638
9.252                0.982171647     -107.895799
9.253                0.982131091     -108.089423
9.254                0.982090487     -108.283509
9.255                0.982049838      -108.47806
9.256                0.982009144     -108.673074
9.257                0.981968405     -108.868553
9.258                0.981927622     -109.064497
9.259                0.981886796     -109.260907
9.26                 0.981845928     -109.457783
9.261                0.981805019     -109.655127
9.262                0.981764069     -109.852938
9.263                0.981723079     -110.051216
9.264                 0.98168205     -110.249964
9.265                0.981640982      -110.44918
9.266                0.981599877     -110.648866
9.267                0.981558736     -110.849021
9.268                0.981517558     -111.049648
9.269                0.981476346     -111.250745
9.27                   0.9814351     -111.452314
9.271                 0.98139382     -111.654354
9.272                0.981352508     -111.856867
9.273                0.981311164     -112.059853
9.274                 0.98126979     -112.263312
9.275                0.981228386     -112.467244
9.276                0.981186953     -112.671651
9.277                0.981145493     -112.876532
9.278                0.981104005     -113.081887
9.279                0.981062492     -113.287718
9.28                 0.981020953     -113.494025
9.281                0.980979391     -113.700807
9.282                0.980937805     -113.908066
9.283                0.980896198     -114.115801
9.284                0.980854569     -114.324014
9.285                 0.98081292     -114.532703
9.286                0.980771252      -114.74187
9.287                0.980729566     -114.951515
9.288                0.980687863     -115.161638
9.289                0.980646144      -115.37224
9.29                  0.98060441      -115.58332
9.291                0.980562662     -115.794879
9.292                0.980520901     -116.006917
9.293                0.980479129     -116.219435
9.294                0.980437346     -116.432432
9.295                0.980395554     -116.645909
9.296                0.980353753     -116.859866
9.297                0.980311945     -117.074303
9.298                0.980270131      -117.28922
9.299                0.980228312     -117.504618
9.3                  0.980186489     -117.720496
9.301                0.980144664     -117.936855
9.302                0.980102837     -118.153695
9.303                 0.98006101     -118.371016
9.304                0.980019185     -118.588818
9.305                0.979977361     -118.807101
9.306                 0.97993554     -119.025865
9.307                0.979893725      -119.24511
9.308                0.979851915     -119.464837
9.309                0.979810112     -119.685045
9.31                 0.979768318     -119.905734
9.311                0.979726534     -120.126904
9.312                 0.97968476     -120.348555
9.313                0.979642999     -120.570688
9.314                0.979601252     -120.793302
9.315                0.979559519     -121.016397
9.316                0.979517803     -121.239973
9.317                0.979476104     -121.464029
9.318                0.979434424     -121.688567
9.319                0.979392765     -121.913585
9.32                 0.979351127     -122.139084
9.321                0.979309512     -122.365063
9.322                0.979267922     -122.591522
9.323                0.979226357     -122.818461
9.324                 0.97918482      -123.04588
9.325                0.979143312     -123.273778
9.326                0.979101833     -123.502156
9.327                0.979060387     -123.731013
9.328                0.979018973     -123.960349
9.329                0.978977594     -124.190163
9.33                  0.97893625     -124.420455
9.331                0.978894945     -124.651226
9.332                0.978853678     -124.882473
9.333                0.978812451     -125.114199
9.334                0.978771267     -125.346401
9.335                0.978730126     -125.579079
9.336                 0.97868903     -125.812234
9.337                0.978647981     -126.045864
9.338                 0.97860698     -126.279969
9.339                0.978566028      -126.51455
9.34                 0.978525128     -126.749604
9.341                0.978484281     -126.985133
9.342                0.978443488     -127.221134
9.343                0.978402751     -127.457609
9.344                0.978362072     -127.694555
9.345                0.978321452     -127.931974
9.346                0.978280893     -128.169863
9.347                0.978240397     -128.408223
9.348                0.978199964     -128.647053
9.349                0.978159598     -128.886352
9.35                 0.978119299      -129.12612
9.351                0.978079069     -129.366356
9.352                0.978038911     -129.607059
9.353                0.977998824     -129.848228
9.354                0.977958812     -130.089864
9.355                0.977918876     -130.331964
9.356                0.977879018     -130.574529
9.357                0.977839239     -130.817557
9.358                0.977799541     -131.061048
9.359                0.977759926     -131.305001
9.36                 0.977720395     -131.549415
9.361                0.977680952     -131.794289
9.362                0.977641596     -132.039623
9.363                 0.97760233     -132.285415
9.364                0.977563155     -132.531664
9.365                0.977524075      -132.77837
9.366                0.977485089     -133.025532
9.367                0.977446201     -133.273148
9.368                0.977407411     -133.521217
9.369                0.977368722      -133.76974
9.37                 0.977330136     -134.018713
9.371                0.977291654     -134.268138
9.372                0.977253278     -134.518011
9.373                 0.97721501     -134.768333
9.374                0.977176852     -135.019102
9.375                0.977138806     -135.270317
9.376                0.977100873     -135.521977
9.377                0.977063056      -135.77408
9.378                0.977025356     -136.026626
9.379                0.976987775     -136.279613
9.38                 0.976950315      -136.53304
9.381                0.976912978     -136.786905
9.382                0.976875766     -137.041208
9.383                 0.97683868     -137.295947
9.384                0.976801723     -137.551121
9.385                0.976764897     -137.806728
9.386                0.976728203     -138.062767
9.387                0.976691643     -138.319236
9.388                 0.97665522     -138.576135
9.389                0.976618934     -138.833461
9.39                 0.976582789     -139.091213
9.391                0.976546786      -139.34939
9.392                0.976510926      -139.60799
9.393                0.976475213     -139.867012
9.394                0.976439647     -140.126454
9.395                 0.97640423     -140.386315
9.396                0.976368966     -140.646592
