! TOUCHSTONE file generated by CST DESIGN STUDIO
! Date and time: Tue Feb  4 12:36:31 2025
! Project name: C:\Work\MatlabApps\UnitCellOptimizationMatlab\CST\unitcell.cst
! Tree item: Tasks\Sweep1\SPara1\S-Parameters
! Header version: 2024
! Port assignment regex: !\s*Touchstone port\s*([0-9]+)\s*=\s*(CST MWS port|CST DES external port|CST DES block port)\s*(.+)\s* \(\"(.*)\"\)(\s*mode\s*([0-9]+))?.*
! Touchstone port assignment:
! Touchstone port 1 = CST DES external port 1 ("")
# GHz S MA R 50
9                    0.989344506     -75.3441883
9.001                0.989319431     -75.4562821
9.002                0.989294281     -75.5686472
9.003                0.989269055     -75.6812844
9.004                0.989243754     -75.7941944
9.005                0.989218377     -75.9073781
9.006                0.989192924     -76.0208362
9.007                0.989167395     -76.1345697
9.008                 0.98914179     -76.2485791
9.009                0.989116108     -76.3628655
9.01                  0.98909035     -76.4774296
9.011                0.989064515     -76.5922721
9.012                0.989038603      -76.707394
9.013                0.989012614     -76.8227959
9.014                0.988986548     -76.9384788
9.015                0.988960404     -77.0544435
9.016                0.988934183     -77.1706908
9.017                0.988907884     -77.2872214
9.018                0.988881508     -77.4040363
9.019                0.988855053     -77.5211362
9.02                  0.98882852      -77.638522
9.021                0.988801909     -77.7561945
9.022                0.988775219     -77.8741545
9.023                0.988748451     -77.9924029
9.024                0.988721603     -78.1109405
9.025                0.988694677     -78.2297682
9.026                0.988667672     -78.3488867
9.027                0.988640587     -78.4682969
9.028                0.988613423     -78.5879996
9.029                0.988586179     -78.7079958
9.03                 0.988558856     -78.8282862
9.031                0.988531452     -78.9488717
9.032                0.988503969     -79.0697531
9.033                0.988476406     -79.1909314
9.034                0.988448762     -79.3124072
9.035                0.988421037     -79.4341815
9.036                0.988393232     -79.5562552
9.037                0.988365347     -79.6786291
9.038                 0.98833738      -79.801304
9.039                0.988309332     -79.9242809
9.04                 0.988281203     -80.0475605
9.041                0.988252993     -80.1711438
9.042                0.988224701     -80.2950315
9.043                0.988196328     -80.4192247
9.044                0.988167873      -80.543724
9.045                0.988139336     -80.6685305
9.046                0.988110717      -80.793645
9.047                0.988082016     -80.9190683
9.048                0.988053233     -81.0448013
9.049                0.988024367     -81.1708449
9.05                 0.987995419        -81.2972
9.051                0.987966388     -81.4238674
9.052                0.987937274      -81.550848
9.053                0.987908077     -81.6781428
9.054                0.987878798     -81.8057526
9.055                0.987849435     -81.9336782
9.056                0.987819989     -82.0619206
9.057                0.987790459     -82.1904806
9.058                0.987760847     -82.3193591
9.059                 0.98773115     -82.4485571
9.06                  0.98770137     -82.5780754
9.061                0.987671506     -82.7079149
9.062                0.987641558     -82.8380764
9.063                0.987611526      -82.968561
9.064                0.987581409     -83.0993694
9.065                0.987551209     -83.2305027
9.066                0.987520924     -83.3619616
9.067                0.987490555      -83.493747
9.068                0.987460101       -83.62586
9.069                0.987429562     -83.7583013
9.07                 0.987398939     -83.8910719
9.071                0.987368231     -84.0241727
9.072                0.987337438     -84.1576045
9.073                 0.98730656     -84.2913684
9.074                0.987275597     -84.4254652
9.075                0.987244548     -84.5598957
9.076                0.987213415      -84.694661
9.077                0.987182196     -84.8297619
9.078                0.987150891     -84.9651993
9.079                0.987119501     -85.1009742
9.08                 0.987088026     -85.2370874
9.081                0.987056464     -85.3735399
9.082                0.987024817     -85.5103326
9.083                0.986993085     -85.6474664
9.084                0.986961266     -85.7849422
9.085                0.986929361     -85.9227609
9.086                0.986897371     -86.0609235
9.087                0.986865294     -86.1994309
9.088                0.986833131     -86.3382839
9.089                0.986800883     -86.4774835
9.09                 0.986768548     -86.6170307
9.091                0.986736126     -86.7569263
9.092                0.986703619     -86.8971713
9.093                0.986671025     -87.0377666
9.094                0.986638344     -87.1787131
9.095                0.986605578     -87.3200117
9.096                0.986572724     -87.4616634
9.097                0.986539785      -87.603669
9.098                0.986506759     -87.7460296
9.099                0.986473646      -87.888746
9.1                  0.986440447     -88.0318192
9.101                0.986407161       -88.17525
9.102                0.986373788     -88.3190395
9.103                0.986340329     -88.4631885
9.104                0.986306783     -88.6076979
9.105                0.986273151     -88.7525688
9.106                0.986239432      -88.897802
9.107                0.986205627     -89.0433984
9.108                0.986171734      -89.189359
9.109                0.986137755     -89.3356846
9.11                  0.98610369     -89.4823763
9.111                0.986069538      -89.629435
9.112                0.986035299     -89.7768616
9.113                0.986000974     -89.9246569
9.114                0.985966562      -90.072822
9.115                0.985932064     -90.2213578
9.116                0.985897479     -90.3702651
9.117                0.985862808      -90.519545
9.118                 0.98582805     -90.6691983
9.119                0.985793206     -90.8192259
9.12                 0.985758275     -90.9696289
9.121                0.985723259     -91.1204081
9.122                0.985688156     -91.2715644
9.123                0.985652966     -91.4230989
9.124                0.985617691     -91.5750123
9.125                 0.98558233     -91.7273056
9.126                0.985546882     -91.8799798
9.127                0.985511349     -92.0330357
9.128                 0.98547573     -92.1864743
9.129                0.985440025     -92.3402965
9.13                 0.985404234     -92.4945033
9.131                0.985368358     -92.6490955
9.132                0.985332396     -92.8040741
9.133                0.985296349       -92.95944
9.134                0.985260216      -93.115194
9.135                0.985223998     -93.2713372
9.136                0.985187696     -93.4278705
9.137                0.985151308     -93.5847946
9.138                0.985114835     -93.7421107
9.139                0.985078278     -93.8998195
9.14                 0.985041636      -94.057922
9.141                0.985004909     -94.2164191
9.142                0.984968098     -94.3753117
9.143                0.984931203     -94.5346007
9.144                0.984894224      -94.694287
9.145                0.984857161     -94.8543715
9.146                0.984820014     -95.0148552
9.147                0.984782784     -95.1757389
9.148                 0.98474547     -95.3370235
9.149                0.984708073     -95.4987099
9.15                 0.984670592      -95.660799
9.151                0.984633029     -95.8232918
9.152                0.984595384      -95.986189
9.153                0.984557655     -96.1494916
9.154                0.984519845     -96.3132006
9.155                0.984481952     -96.4773166
9.156                0.984443978     -96.6418408
9.157                0.984405922     -96.8067738
9.158                0.984367784     -96.9721167
9.159                0.984329565     -97.1378703
9.16                 0.984291265     -97.3040354
9.161                0.984252884     -97.4706129
9.162                0.984214423     -97.6376038
9.163                0.984175882     -97.8050089
9.164                 0.98413726      -97.972829
9.165                0.984098559      -98.141065
9.166                0.984059779     -98.3097177
9.167                0.984020919     -98.4787881
9.168                 0.98398198     -98.6482769
9.169                0.983942962     -98.8181851
9.17                 0.983903867     -98.9885135
9.171                0.983864693     -99.1592629
9.172                0.983825441     -99.3304341
9.173                0.983786112     -99.5020281
9.174                0.983746706     -99.6740456
9.175                0.983707223     -99.8464875
9.176                0.983667664     -100.019355
9.177                0.983628029     -100.192648
9.178                0.983588317     -100.366368
9.179                0.983548531     -100.540515
9.18                 0.983508669     -100.715091
9.181                0.983468733     -100.890097
9.182                0.983428722     -101.065532
9.183                0.983388637     -101.241399
9.184                0.983348479     -101.417697
9.185                0.983308248     -101.594427
9.186                0.983267944     -101.771591
9.187                0.983227567     -101.949189
9.188                0.983187119     -102.127222
9.189                0.983146599     -102.305691
9.19                 0.983106008     -102.484596
9.191                0.983065346     -102.663938
9.192                0.983024614     -102.843718
9.193                0.982983813     -103.023937
9.194                0.982942942     -103.204595
9.195                0.982902002     -103.385694
9.196                0.982860994     -103.567233
9.197                0.982819918     -103.749215
9.198                0.982778775     -103.931638
9.199                0.982737565     -104.114505
9.2                  0.982696288     -104.297816
9.201                0.982654946     -104.481571
9.202                0.982613538     -104.665772
9.203                0.982572066     -104.850419
9.204                0.982530529     -105.035512
9.205                0.982488929     -105.221053
9.206                0.982447266     -105.407042
9.207                 0.98240554      -105.59348
9.208                0.982363752     -105.780368
9.209                0.982321902     -105.967705
9.21                 0.982279992     -106.155494
9.211                0.982238021     -106.343734
9.212                0.982195991     -106.532426
9.213                0.982153902     -106.721571
9.214                0.982111755      -106.91117
9.215                 0.98206955     -107.101222
9.216                0.982027287     -107.291729
9.217                0.981984969     -107.482692
9.218                0.981942594     -107.674111
9.219                0.981900165     -107.865986
9.22                 0.981857681     -108.058318
9.221                0.981815143     -108.251108
9.222                0.981772552     -108.444357
9.223                0.981729909     -108.638064
9.224                0.981687214     -108.832231
9.225                0.981644469     -109.026858
9.226                0.981601673     -109.221946
9.227                0.981558828     -109.417495
9.228                0.981515934     -109.613505
9.229                0.981472993     -109.809978
9.23                 0.981430004     -110.006914
9.231                0.981386969     -110.204313
9.232                0.981343888     -110.402175
9.233                0.981300763     -110.600502
9.234                0.981257594     -110.799294
9.235                0.981214382     -110.998551
9.236                0.981171127     -111.198274
9.237                0.981127831     -111.398463
9.238                0.981084495     -111.599119
9.239                0.981041118     -111.800242
9.24                 0.980997703     -112.001832
9.241                0.980954251      -112.20389
9.242                0.980910761     -112.406417
9.243                0.980867234     -112.609413
9.244                0.980823673     -112.812877
9.245                0.980780078     -113.016812
9.246                0.980736449     -113.221216
9.247                0.980692787     -113.426091
9.248                0.980649094     -113.631436
9.249                0.980605371     -113.837253
9.25                 0.980561618      -114.04354
9.251                0.980517837       -114.2503
9.252                0.980474028     -114.457532
9.253                0.980430192     -114.665235
9.254                0.980386331     -114.873412
9.255                0.980342446     -115.082062
9.256                0.980298537     -115.291184
9.257                0.980254605     -115.500781
9.258                0.980210653     -115.710851
9.259                 0.98016668     -115.921395
9.26                 0.980122688     -116.132413
9.261                0.980078678     -116.343905
9.262                0.980034651     -116.555872
9.263                0.979990608     -116.768314
9.264                 0.97994655     -116.981231
9.265                0.979902479     -117.194623
9.266                0.979858395     -117.408491
9.267                  0.9798143     -117.622834
9.268                0.979770195     -117.837652
9.269                0.979726081     -118.052946
9.27                 0.979681959     -118.268717
9.271                 0.97963783     -118.484963
9.272                0.979593697     -118.701685
9.273                0.979549559     -118.918883
9.274                0.979505418     -119.136557
9.275                0.979461276     -119.354707
9.276                0.979417133     -119.573334
9.277                0.979372991     -119.792437
9.278                0.979328852     -120.012016
9.279                0.979284715     -120.232071
9.28                 0.979240584     -120.452603
9.281                0.979196459      -120.67361
9.282                0.979152341     -120.895094
9.283                0.979108231     -121.117054
9.284                0.979064132      -121.33949
9.285                0.979020045     -121.562401
9.286                 0.97897597     -121.785788
9.287                0.978931909     -122.009651
9.288                0.978887864      -122.23399
9.289                0.978843836     -122.458803
9.29                 0.978799826     -122.684092
9.291                0.978755836     -122.909856
9.292                0.978711867     -123.136095
9.293                0.978667921     -123.362808
9.294                0.978623999     -123.589995
9.295                0.978580102     -123.817657
9.296                0.978536233     -124.045792
9.297                0.978492392     -124.274401
9.298                0.978448581     -124.503483
9.299                0.978404802     -124.733038
9.3                  0.978361056     -124.963066
9.301                0.978317344     -125.193566
9.302                0.978273669     -125.424537
9.303                0.978230031      -125.65598
9.304                0.978186432     -125.887895
9.305                0.978142874      -126.12028
9.306                0.978099359     -126.353135
9.307                0.978055887      -126.58646
9.308                0.978012461     -126.820255
9.309                0.977969083     -127.054518
9.31                 0.977925753      -127.28925
9.311                0.977882473     -127.524449
9.312                0.977839245     -127.760116
9.313                0.977796072      -127.99625
9.314                0.977752953      -128.23285
9.315                0.977709892     -128.469916
9.316                0.977666889     -128.707447
9.317                0.977623946     -128.945442
9.318                0.977581066       -129.1839
9.319                 0.97753825     -129.422822
9.32                 0.977495499     -129.662207
9.321                0.977452815     -129.902053
9.322                  0.9774102      -130.14236
9.323                0.977367656     -130.383128
9.324                0.977325184     -130.624355
9.325                0.977282786     -130.866041
9.326                0.977240465     -131.108185
9.327                0.977198221     -131.350786
9.328                0.977156057     -131.593843
9.329                0.977113974     -131.837356
9.33                 0.977071974     -132.081323
9.331                0.977030059     -132.325745
9.332                0.976988231     -132.570619
9.333                0.976946491     -132.815945
9.334                0.976904842     -133.061722
9.335                0.976863285     -133.307949
9.336                0.976821822     -133.554625
9.337                0.976780455     -133.801749
9.338                0.976739186      -134.04932
9.339                0.976698017     -134.297337
9.34                 0.976656949     -134.545799
9.341                0.976615984     -134.794705
9.342                0.976575125     -135.044053
9.343                0.976534373     -135.293843
9.344                 0.97649373     -135.544073
9.345                0.976453199     -135.794743
9.346                 0.97641278     -136.045851
9.347                0.976372476     -136.297395
9.348                0.976332289     -136.549376
9.349                 0.97629222      -136.80179
9.35                 0.976252272     -137.054638
9.351                0.976212447     -137.307917
9.352                0.976172746     -137.561627
9.353                0.976133172     -137.815766
9.354                0.976093726     -138.070333
9.355                0.976054411     -138.325326
9.356                0.976015228     -138.580745
9.357                 0.97597618     -138.836587
9.358                0.975937267     -139.092851
9.359                0.975898493     -139.349536
9.36                  0.97585986      -139.60664
9.361                0.975821368     -139.864161
9.362                0.975783021     -140.122099
9.363                 0.97574482     -140.380452
9.364                0.975706768     -140.639217
9.365                0.975668865     -140.898394
9.366                0.975631115     -141.157981
9.367                0.975593519     -141.417976
9.368                0.975556079     -141.678377
9.369                0.975518798     -141.939184
9.37                 0.975481677     -142.200393
9.371                0.975444718     -142.462004
9.372                0.975407923     -142.724015
9.373                0.975371295     -142.986424
9.374                0.975334835     -143.249228
9.375                0.975298545     -143.512427
9.376                0.975262428     -143.776019
9.377                0.975226485     -144.040001
9.378                0.975190718     -144.304372
9.379                 0.97515513      -144.56913
9.38                 0.975119722     -144.834272
9.381                0.975084497     -145.099798
9.382                0.975049455     -145.365705
9.383                0.975014601     -145.631991
9.384                0.974979934     -145.898653
9.385                0.974945458     -146.165691
9.386                0.974911175     -146.433102
9.387                0.974877086     -146.700883
9.388                0.974843193     -146.969034
9.389                0.974809499     -147.237551
9.39                 0.974776005     -147.506432
9.391                0.974742713     -147.775676
9.392                0.974709626      -148.04528
9.393                0.974676745     -148.315242
9.394                0.974644073     -148.585559
9.395                0.974611611     -148.856231
9.396                0.974579361     -149.127253
