! TOUCHSTONE file generated by CST DESIGN STUDIO
! Date and time: Wed Feb  5 13:43:24 2025
! Project name: C:\Work\MatlabApps\UnitCellOptimizationMatlab\CST\unitcell.cst
! Tree item: Tasks\Sweep1\SPara1\S-Parameters
! Header version: 2024
! Port assignment regex: !\s*Touchstone port\s*([0-9]+)\s*=\s*(CST MWS port|CST DES external port|CST DES block port)\s*(.+)\s* \(\"(.*)\"\)(\s*mode\s*([0-9]+))?.*
! Touchstone port assignment:
! Touchstone port 1 = CST DES external port 1 ("")
# GHz S MA R 50
9                    0.961543283     -55.7780203
9.001                0.961465998     -55.8517893
9.002                0.961388475     -55.9257228
9.003                0.961310716     -55.9998214
9.004                0.961232718     -56.0740857
9.005                0.961154482      -56.148516
9.006                0.961076005      -56.223113
9.007                0.960997288     -56.2978771
9.008                 0.96091833      -56.372809
9.009                0.960839129      -56.447909
9.01                 0.960759685     -56.5231778
9.011                0.960679998     -56.5986159
9.012                0.960600066     -56.6742237
9.013                0.960519888     -56.7500019
9.014                0.960439464      -56.825951
9.015                0.960358793     -56.9020714
9.016                0.960277874     -56.9783638
9.017                0.960196706     -57.0548287
9.018                0.960115288     -57.1314666
9.019                 0.96003362     -57.2082781
9.02                   0.9599517     -57.2852637
9.021                0.959869529      -57.362424
9.022                0.959787104     -57.4397595
9.023                0.959704426     -57.5172708
9.024                0.959621492     -57.5949584
9.025                0.959538304     -57.6728229
9.026                0.959454858     -57.7508648
9.027                0.959371156     -57.8290847
9.028                0.959287195     -57.9074832
9.029                0.959202976     -57.9860609
9.03                 0.959118496     -58.0648182
9.031                0.959033756     -58.1437558
9.032                0.958948754     -58.2228742
9.033                0.958863489      -58.302174
9.034                0.958777961     -58.3816559
9.035                0.958692169     -58.4613202
9.036                0.958606112     -58.5411678
9.037                0.958519789      -58.621199
9.038                0.958433199     -58.7014146
9.039                0.958346341      -58.781815
9.04                 0.958259214      -58.862401
9.041                0.958171818     -58.9431729
9.042                0.958084151     -59.0241316
9.043                0.957996213     -59.1052775
9.044                0.957908003     -59.1866113
9.045                 0.95781952     -59.2681335
9.046                0.957730762     -59.3498447
9.047                 0.95764173     -59.4317456
9.048                0.957552421     -59.5138368
9.049                0.957462836     -59.5961188
9.05                 0.957372973     -59.6785923
9.051                0.957282831     -59.7612579
9.052                 0.95719241     -59.8441162
9.053                0.957101708     -59.9271678
9.054                0.957010725     -60.0104133
9.055                 0.95691946     -60.0938533
9.056                0.956827911     -60.1774886
9.057                0.956736078     -60.2613196
9.058                 0.95664396      -60.345347
9.059                0.956551556     -60.4295715
9.06                 0.956458865     -60.5139937
9.061                0.956365886     -60.5986142
9.062                0.956272618     -60.6834336
9.063                 0.95617906     -60.7684526
9.064                0.956085212     -60.8536719
9.065                0.955991071      -60.939092
9.066                0.955896638     -61.0247136
9.067                0.955801912     -61.1105374
9.068                 0.95570689      -61.196564
9.069                0.955611573     -61.2827941
9.07                  0.95551596     -61.3692283
9.071                0.955420049     -61.4558672
9.072                 0.95532384     -61.5427116
9.073                0.955227331      -61.629762
9.074                0.955130522     -61.7170193
9.075                0.955033412     -61.8044839
9.076                0.954935999     -61.8921566
9.077                0.954838283     -61.9800381
9.078                0.954740262      -62.068129
9.079                0.954641936       -62.15643
9.08                 0.954543304     -62.2449418
9.081                0.954444365      -62.333665
9.082                0.954345118     -62.4226004
9.083                0.954245561     -62.5117486
9.084                0.954145694     -62.6011103
9.085                0.954045516     -62.6906862
9.086                0.953945025      -62.780477
9.087                0.953844222     -62.8704834
9.088                0.953743104     -62.9607061
9.089                0.953641671     -63.0511457
9.09                 0.953539922     -63.1418031
9.091                0.953437856     -63.2326788
9.092                0.953335471     -63.3237736
9.093                0.953232767     -63.4150882
9.094                0.953129743     -63.5066233
9.095                0.953026398     -63.5983797
9.096                 0.95292273     -63.6903579
9.097                0.952818739     -63.7825589
9.098                0.952714424     -63.8749832
9.099                0.952609784     -63.9676316
9.1                  0.952504817     -64.0605049
9.101                0.952399523     -64.1536037
9.102                  0.9522939     -64.2469288
9.103                0.952187948     -64.3404809
9.104                0.952081666     -64.4342608
9.105                0.951975052     -64.5282691
9.106                0.951868105     -64.6225067
9.107                0.951760825     -64.7169743
9.108                0.951653211     -64.8116726
9.109                0.951545261     -64.9066024
9.11                 0.951436974     -65.0017644
9.111                 0.95132835     -65.0971594
9.112                0.951219386     -65.1927881
9.113                0.951110083     -65.2886513
9.114                 0.95100044     -65.3847498
9.115                0.950890454     -65.4810843
9.116                0.950780126     -65.5776555
9.117                0.950669453     -65.6744644
9.118                0.950558436     -65.7715115
9.119                0.950447072     -65.8687978
9.12                 0.950335362     -65.9663239
9.121                0.950223303     -66.0640907
9.122                0.950110895     -66.1620989
9.123                0.949998137     -66.2603494
9.124                0.949885027     -66.3588429
9.125                0.949771565     -66.4575801
9.126                 0.94965775      -66.556562
9.127                 0.94954358     -66.6557893
9.128                0.949429055     -66.7552627
9.129                0.949314173     -66.8549832
9.13                 0.949198933     -66.9549514
9.131                0.949083335     -67.0551682
9.132                0.948967377     -67.1556345
9.133                0.948851058     -67.2563509
9.134                0.948734377     -67.3573184
9.135                0.948617334     -67.4585378
9.136                0.948499926     -67.5600098
9.137                0.948382153     -67.6617353
9.138                0.948264014     -67.7637152
9.139                0.948145507     -67.8659501
9.14                 0.948026633     -67.9684411
9.141                0.947907389     -68.0711889
9.142                0.947787774     -68.1741943
9.143                0.947667788     -68.2774582
9.144                 0.94754743     -68.3809814
9.145                0.947426698     -68.4847647
9.146                0.947305591     -68.5888091
9.147                0.947184108     -68.6931154
9.148                0.947062249     -68.7976844
9.149                0.946940011     -68.9025169
9.15                 0.946817395     -69.0076139
9.151                0.946694399     -69.1129762
9.152                0.946571021     -69.2186046
9.153                0.946447261     -69.3245001
9.154                0.946323118     -69.4306634
9.155                0.946198591     -69.5370955
9.156                0.946073678     -69.6437972
9.157                0.945948379     -69.7507694
9.158                0.945822692      -69.858013
9.159                0.945696617     -69.9655289
9.16                 0.945570152      -70.073318
9.161                0.945443297     -70.1813811
9.162                0.945316049     -70.2897191
9.163                0.945188409      -70.398333
9.164                0.945060375     -70.5072235
9.165                0.944931946     -70.6163917
9.166                0.944803121     -70.7258385
9.167                0.944673898     -70.8355647
9.168                0.944544278     -70.9455712
9.169                0.944414258     -71.0558589
9.17                 0.944283839     -71.1664288
9.171                0.944153018     -71.2772818
9.172                0.944021794     -71.3884188
9.173                0.943890167     -71.4998407
9.174                0.943758136     -71.6115485
9.175                0.943625699      -71.723543
9.176                0.943492856     -71.8358253
9.177                0.943359605     -71.9483961
9.178                0.943225945     -72.0612565
9.179                0.943091876     -72.1744075
9.18                 0.942957396     -72.2878498
9.181                0.942822504     -72.4015846
9.182                  0.9426872     -72.5156127
9.183                0.942551482     -72.6299351
9.184                0.942415348     -72.7445527
9.185                0.942278799     -72.8594666
9.186                0.942141834     -72.9746775
9.187                 0.94200445     -73.0901866
9.188                0.941866647     -73.2059948
9.189                0.941728424      -73.322103
9.19                 0.941589781     -73.4385122
9.191                0.941450715     -73.5552234
9.192                0.941311226     -73.6722375
9.193                0.941171314     -73.7895556
9.194                0.941030976     -73.9071786
9.195                0.940890212     -74.0251075
9.196                0.940749022     -74.1433433
9.197                0.940607403     -74.2618869
9.198                0.940465356     -74.3807394
9.199                0.940322878     -74.4999018
9.2                   0.94017997      -74.619375
9.201                 0.94003663     -74.7391601
9.202                0.939892856      -74.859258
9.203                0.939748649     -74.9796697
9.204                0.939604008     -75.1003964
9.205                 0.93945893     -75.2214389
9.206                0.939313416     -75.3427983
9.207                0.939167464     -75.4644756
9.208                0.939021073     -75.5864718
9.209                0.938874243     -75.7087879
9.21                 0.938726973     -75.8314251
9.211                0.938579261     -75.9543842
9.212                0.938431107     -76.0776663
9.213                0.938282509     -76.2012725
9.214                0.938133467     -76.3252038
9.215                 0.93798398     -76.4494612
9.216                0.937834048     -76.5740457
9.217                0.937683668     -76.6989585
9.218                0.937532841     -76.8242005
9.219                0.937381564     -76.9497729
9.22                 0.937229839     -77.0756765
9.221                0.937077663     -77.2019126
9.222                0.936925035     -77.3284821
9.223                0.936771956     -77.4553862
9.224                0.936618423     -77.5826258
9.225                0.936464437     -77.7102021
9.226                0.936309996     -77.8381161
9.227                  0.9361551     -77.9663688
9.228                0.935999747     -78.0949614
9.229                0.935843937     -78.2238949
9.23                 0.935687669     -78.3531704
9.231                0.935530942      -78.482789
9.232                0.935373756     -78.6127517
9.233                0.935216109     -78.7430597
9.234                0.935058002      -78.873714
9.235                0.934899432     -79.0047157
9.236                  0.9347404      -79.136066
9.237                0.934580904     -79.2677658
9.238                0.934420944     -79.3998163
9.239                 0.93426052     -79.5322186
9.24                 0.934099629     -79.6649738
9.241                0.933938273     -79.7980829
9.242                0.933776449     -79.9315472
9.243                0.933614158     -80.0653677
9.244                0.933451398     -80.1995455
9.245                0.933288169     -80.3340818
9.246                 0.93312447     -80.4689776
9.247                0.932960301      -80.604234
9.248                0.932795661     -80.7398522
9.249                0.932630549     -80.8758333
9.25                 0.932464965     -81.0121785
9.251                0.932298907     -81.1488888
9.252                0.932132377     -81.2859654
9.253                0.931965372     -81.4234094
9.254                0.931797892     -81.5612219
9.255                0.931629937     -81.6994041
9.256                0.931461506     -81.8379571
9.257                0.931292599     -81.9768821
9.258                0.931123215     -82.1161801
9.259                0.930953353     -82.2558524
9.26                 0.930783014     -82.3959001
9.261                0.930612196     -82.5363243
9.262                0.930440899     -82.6771262
9.263                0.930269123     -82.8183069
9.264                0.930096867     -82.9598675
9.265                 0.92992413     -83.1018093
9.266                0.929750913     -83.2441334
9.267                0.929577215     -83.3868409
9.268                0.929403035     -83.5299331
9.269                0.929228373      -83.673411
9.27                 0.929053229     -83.8172758
9.271                0.928877602     -83.9615288
9.272                0.928701493      -84.106171
9.273                  0.9285249     -84.2512036
9.274                0.928347823     -84.3966278
9.275                0.928170263     -84.5424448
9.276                0.927992219     -84.6886558
9.277                 0.92781369     -84.8352618
9.278                0.927634676     -84.9822642
9.279                0.927455177      -85.129664
9.28                 0.927275194     -85.2774625
9.281                0.927094725     -85.4256609
9.282                0.926913771     -85.5742602
9.283                0.926732331     -85.7232618
9.284                0.926550405     -85.8726667
9.285                0.926367993     -86.0224763
9.286                0.926185096     -86.1726915
9.287                0.926001712     -86.3233138
9.288                0.925817843     -86.4743441
9.289                0.925633487     -86.6257838
9.29                 0.925448645     -86.7776341
9.291                0.925263317      -86.929896
9.292                0.925077503     -87.0825709
9.293                0.924891202     -87.2356598
9.294                0.924704416     -87.3891641
9.295                0.924517143     -87.5430848
9.296                0.924329385     -87.6974233
9.297                0.924141141     -87.8521806
9.298                0.923952412     -88.0073581
9.299                0.923763197     -88.1629568
9.3                  0.923573497      -88.318978
9.301                0.923383311      -88.475423
9.302                0.923192641     -88.6322928
9.303                0.923001487     -88.7895887
9.304                0.922809848      -88.947312
9.305                0.922617725     -89.1054637
9.306                0.922425119     -89.2640452
9.307                0.922232029     -89.4230575
9.308                0.922038457      -89.582502
9.309                0.921844402     -89.7423798
9.31                 0.921649865     -89.9026922
9.311                0.921454847     -90.0634403
9.312                0.921259347     -90.2246253
9.313                0.921063367     -90.3862485
9.314                0.920866907      -90.548311
9.315                0.920669967     -90.7108141
9.316                0.920472548      -90.873759
9.317                0.920274652     -91.0371468
9.318                0.920076277     -91.2009788
9.319                0.919877426     -91.3652561
9.32                 0.919678098     -91.5299801
9.321                0.919478295     -91.6951518
9.322                0.919278017     -91.8607725
9.323                0.919077265     -92.0268434
9.324                 0.91887604     -92.1933657
9.325                0.918674342     -92.3603406
9.326                0.918472174     -92.5277693
9.327                0.918269534      -92.695653
9.328                0.918066425     -92.8639929
9.329                0.917862848     -93.0327901
9.33                 0.917658803      -93.202046
9.331                0.917454291     -93.3717616
9.332                0.917249314     -93.5419382
9.333                0.917043873     -93.7125769
9.334                0.916837968     -93.8836791
9.335                0.916631601     -94.0552457
9.336                0.916424773     -94.2272782
9.337                0.916217486     -94.3997775
9.338                0.916009741      -94.572745
9.339                0.915801538     -94.7461817
9.34                  0.91559288      -94.920089
9.341                0.915383767     -95.0944679
9.342                0.915174202     -95.2693196
9.343                0.914964185     -95.4446454
9.344                0.914753718     -95.6204463
9.345                0.914542802     -95.7967237
9.346                 0.91433144     -95.9734785
9.347                0.914119633     -96.1507121
9.348                0.913907382     -96.3284255
9.349                0.913694689       -96.50662
9.35                 0.913481556     -96.6852966
9.351                0.913267984     -96.8644566
9.352                0.913053976     -97.0441012
9.353                0.912839533     -97.2242313
9.354                0.912624657     -97.4048483
9.355                 0.91240935     -97.5859533
9.356                0.912193614     -97.7675473
9.357                0.911977451     -97.9496316
9.358                0.911760863     -98.1322073
9.359                0.911543852     -98.3152754
9.36                  0.91132642     -98.4988372
9.361                 0.91110857     -98.6828938
9.362                0.910890304     -98.8674463
9.363                0.910671623     -99.0524957
9.364                 0.91045253     -99.2380433
9.365                0.910233028     -99.4240902
9.366                0.910013119     -99.6106373
9.367                0.909792806     -99.7976859
9.368                 0.90957209     -99.9852371
9.369                0.909350975     -100.173292
9.37                 0.909129462     -100.361851
9.371                0.908907556     -100.550917
9.372                0.908685258     -100.740489
9.373                 0.90846257     -100.930569
9.374                0.908239497     -101.121158
9.375                 0.90801604     -101.312258
9.376                0.907792203     -101.503868
9.377                0.907567988     -101.695991
9.378                0.907343399     -101.888627
9.379                0.907118438     -102.081777
9.38                 0.906893109     -102.275443
9.381                0.906667414     -102.469625
9.382                0.906441357     -102.664324
9.383                0.906214941     -102.859542
9.384                 0.90598817     -103.055279
9.385                0.905761046     -103.251537
9.386                0.905533573     -103.448316
9.387                0.905305755     -103.645618
9.388                0.905077595     -103.843443
9.389                0.904849096     -104.041792
9.39                 0.904620263     -104.240667
9.391                0.904391098     -104.440068
9.392                0.904161606     -104.639997
9.393                 0.90393179     -104.840453
9.394                0.903701654     -105.041439
9.395                0.903471202     -105.242955
9.396                0.903240438     -105.445003
