! TOUCHSTONE file generated by CST DESIGN STUDIO
! Date and time: Wed Feb  5 13:43:28 2025
! Project name: C:\Work\MatlabApps\UnitCellOptimizationMatlab\CST\unitcell.cst
! Tree item: Tasks\Sweep1\SPara1\S-Parameters
! Header version: 2024
! Port assignment regex: !\s*Touchstone port\s*([0-9]+)\s*=\s*(CST MWS port|CST DES external port|CST DES block port)\s*(.+)\s* \(\"(.*)\"\)(\s*mode\s*([0-9]+))?.*
! Touchstone port assignment:
! Touchstone port 1 = CST DES external port 1 ("")
# GHz S MA R 50
9                    0.965438849     -48.2844667
9.001                0.965379059     -48.3448164
9.002                0.965319091     -48.4052899
9.003                0.965258943     -48.4658874
9.004                0.965198616     -48.5266094
9.005                0.965138108     -48.5874563
9.006                 0.96507742     -48.6484283
9.007                 0.96501655      -48.709526
9.008                0.964955498     -48.7707496
9.009                0.964894263     -48.8320995
9.01                 0.964832845     -48.8935762
9.011                0.964771242       -48.95518
9.012                0.964709456     -49.0169113
9.013                0.964647483     -49.0787705
9.014                0.964585325      -49.140758
9.015                0.964522981     -49.2028741
9.016                0.964460449     -49.2651193
9.017                 0.96439773     -49.3274939
9.018                0.964334822     -49.3899984
9.019                0.964271726     -49.4526331
9.02                 0.964208439     -49.5153984
9.021                0.964144963     -49.5782948
9.022                0.964081295     -49.6413226
9.023                0.964017436     -49.7044822
9.024                0.963953385     -49.7677741
9.025                 0.96388914     -49.8311986
9.026                0.963824702     -49.8947561
9.027                 0.96376007     -49.9584471
9.028                0.963695244      -50.022272
9.029                0.963630221     -50.0862311
9.03                 0.963565003     -50.1503249
9.031                0.963499587     -50.2145538
9.032                0.963433974     -50.2789182
9.033                0.963368163     -50.3434185
9.034                0.963302153     -50.4080552
9.035                0.963235944     -50.4728286
9.036                0.963169535     -50.5377392
9.037                0.963102924     -50.6027874
9.038                0.963036112     -50.6679736
9.039                0.962969098     -50.7332983
9.04                 0.962901881     -50.7987618
9.041                 0.96283446     -50.8643647
9.042                0.962766835     -50.9301072
9.043                0.962699005       -50.99599
9.044                0.962630969     -51.0620133
9.045                0.962562727     -51.1281777
9.046                0.962494278     -51.1944835
9.047                0.962425621     -51.2609313
9.048                0.962356756     -51.3275213
9.049                0.962287681     -51.3942542
9.05                 0.962218396     -51.4611303
9.051                0.962148901     -51.5281501
9.052                0.962079195      -51.595314
9.053                0.962009276     -51.6626224
9.054                0.961939145     -51.7300759
9.055                  0.9618688     -51.7976748
9.056                0.961798241     -51.8654196
9.057                0.961727467     -51.9333108
9.058                0.961656477     -52.0013489
9.059                0.961585271     -52.0695342
9.06                 0.961513848     -52.1378672
9.061                0.961442207     -52.2063485
9.062                0.961370347     -52.2749784
9.063                0.961298268     -52.3437574
9.064                0.961225968     -52.4126861
9.065                0.961153448     -52.4817648
9.066                0.961080706      -52.550994
9.067                0.961007742     -52.6203742
9.068                0.960934555     -52.6899059
9.069                0.960861144     -52.7595896
9.07                 0.960787508     -52.8294257
9.071                0.960713647     -52.8994146
9.072                 0.96063956      -52.969557
9.073                0.960565245     -53.0398532
9.074                0.960490703     -53.1103038
9.075                0.960415933     -53.1809092
9.076                0.960340933     -53.2516699
9.077                0.960265703     -53.3225864
9.078                0.960190243     -53.3936592
9.079                 0.96011455     -53.4648888
9.08                 0.960038626     -53.5362756
9.081                0.959962468     -53.6078203
9.082                0.959886076     -53.6795232
9.083                 0.95980945     -53.7513849
9.084                0.959732587     -53.8234059
9.085                0.959655489     -53.8955866
9.086                0.959578153     -53.9679276
9.087                 0.95950058     -54.0404294
9.088                0.959422767     -54.1130925
9.089                0.959344715     -54.1859175
9.09                 0.959266423     -54.2589047
9.091                0.959187889     -54.3320547
9.092                0.959109113     -54.4053682
9.093                0.959030095     -54.4788454
9.094                0.958950832     -54.5524871
9.095                0.958871326     -54.6262937
9.096                0.958791573     -54.7002657
9.097                0.958711575     -54.7744037
9.098                 0.95863133     -54.8487081
9.099                0.958550837     -54.9231796
9.1                  0.958470095     -54.9978186
9.101                0.958389104     -55.0726257
9.102                0.958307862     -55.1476014
9.103                0.958226369     -55.2227462
9.104                0.958144624     -55.2980608
9.105                0.958062626     -55.3735456
9.106                0.957980374     -55.4492011
9.107                0.957897868      -55.525028
9.108                0.957815106     -55.6010268
9.109                0.957732088     -55.6771979
9.11                 0.957648812      -55.753542
9.111                0.957565279     -55.8300597
9.112                0.957481486     -55.9067514
9.113                0.957397434     -55.9836178
9.114                0.957313121     -56.0606594
9.115                0.957228546     -56.1378767
9.116                0.957143709     -56.2152703
9.117                0.957058608     -56.2928408
9.118                0.956973243     -56.3705888
9.119                0.956887614     -56.4485148
9.12                 0.956801718     -56.5266194
9.121                0.956715555     -56.6049031
9.122                0.956629124     -56.6833666
9.123                0.956542424     -56.7620104
9.124                0.956455455     -56.8408351
9.125                0.956368216     -56.9198414
9.126                0.956280705     -56.9990296
9.127                0.956192921     -57.0784006
9.128                0.956104864     -57.1579547
9.129                0.956016534     -57.2376927
9.13                 0.955927928     -57.3176152
9.131                0.955839045     -57.3977226
9.132                0.955749886     -57.4780157
9.133                 0.95566045      -57.558495
9.134                0.955570734     -57.6391612
9.135                0.955480738     -57.7200147
9.136                0.955390462     -57.8010563
9.137                0.955299905     -57.8822865
9.138                0.955209064      -57.963706
9.139                 0.95511794     -58.0453154
9.14                 0.955026532     -58.1271152
9.141                0.954934838     -58.2091061
9.142                0.954842858     -58.2912888
9.143                0.954750591     -58.3736638
9.144                0.954658036     -58.4562317
9.145                0.954565191     -58.5389933
9.146                0.954472056      -58.621949
9.147                 0.95437863     -58.7050996
9.148                0.954284912     -58.7884457
9.149                  0.9541909      -58.871988
9.15                 0.954096595     -58.9557269
9.151                0.954001995     -59.0396633
9.152                0.953907098     -59.1237977
9.153                0.953811905     -59.2081308
9.154                0.953716414     -59.2926633
9.155                0.953620624     -59.3773957
9.156                0.953524534     -59.4623288
9.157                0.953428143     -59.5474631
9.158                 0.95333145     -59.6327994
9.159                0.953234454     -59.7183383
9.16                 0.953137154     -59.8040805
9.161                 0.95303955     -59.8900266
9.162                0.952941639     -59.9761773
9.163                0.952843422     -60.0625332
9.164                0.952744897     -60.1490951
9.165                0.952646063     -60.2358636
9.166                0.952546919     -60.3228394
9.167                0.952447464     -60.4100232
9.168                0.952347697     -60.4974156
9.169                0.952247617     -60.5850174
9.17                 0.952147223     -60.6728291
9.171                0.952046514     -60.7608516
9.172                0.951945489     -60.8490855
9.173                0.951844147     -60.9375314
9.174                0.951742487     -61.0261901
9.175                0.951640508     -61.1150624
9.176                0.951538209     -61.2041488
9.177                0.951435588     -61.2934501
9.178                0.951332646     -61.3829669
9.179                 0.95122938     -61.4727001
9.18                  0.95112579     -61.5626503
9.181                0.951021874     -61.6528183
9.182                0.950917632     -61.7432046
9.183                0.950813063     -61.8338102
9.184                0.950708165     -61.9246356
9.185                0.950602937     -62.0156816
9.186                0.950497379      -62.106949
9.187                 0.95039149     -62.1984384
9.188                0.950285268     -62.2901506
9.189                0.950178711     -62.3820863
9.19                  0.95007182     -62.4742463
9.191                0.949964594     -62.5666313
9.192                 0.94985703     -62.6592421
9.193                0.949749128     -62.7520793
9.194                0.949640887     -62.8451438
9.195                0.949532306     -62.9384362
9.196                0.949423384     -63.0319574
9.197                0.949314119     -63.1257081
9.198                0.949204511     -63.2196891
9.199                0.949094558     -63.3139011
9.2                   0.94898426     -63.4083448
9.201                0.948873616     -63.5030211
9.202                0.948762623     -63.5979307
9.203                0.948651282     -63.6930743
9.204                0.948539591     -63.7884529
9.205                0.948427548      -63.884067
9.206                0.948315154     -63.9799176
9.207                0.948202407     -64.0760054
9.208                0.948089305     -64.1723312
9.209                0.947975848     -64.2688957
9.21                 0.947862035     -64.3656998
9.211                0.947747864     -64.4627442
9.212                0.947633334     -64.5600298
9.213                0.947518444     -64.6575573
9.214                0.947403194     -64.7553276
9.215                0.947287582     -64.8533414
9.216                0.947171606     -64.9515996
9.217                0.947055267     -65.0501029
9.218                0.946938562     -65.1488523
9.219                0.946821491     -65.2478484
9.22                 0.946704052     -65.3470921
9.221                0.946586245     -65.4465843
9.222                0.946468068     -65.5463258
9.223                 0.94634952     -65.6463173
9.224                0.946230601     -65.7465597
9.225                0.946111308     -65.8470539
9.226                0.945991641     -65.9478007
9.227                0.945871598     -66.0488009
9.228                 0.94575118     -66.1500553
9.229                0.945630384     -66.2515649
9.23                 0.945509209     -66.3533304
9.231                0.945387654     -66.4553527
9.232                0.945265719     -66.5576327
9.233                0.945143401     -66.6601712
9.234                  0.9450207     -66.7629691
9.235                0.944897616     -66.8660271
9.236                0.944774145     -66.9693463
9.237                0.944650289     -67.0729274
9.238                0.944526044     -67.1767714
9.239                0.944401411     -67.2808791
9.24                 0.944276388     -67.3852513
9.241                0.944150974      -67.489889
9.242                0.944025169     -67.5947931
9.243                0.943898969     -67.6999643
9.244                0.943772376     -67.8054037
9.245                0.943645387     -67.9111121
9.246                0.943518001     -68.0170903
9.247                0.943390218     -68.1233394
9.248                0.943262036     -68.2298601
9.249                0.943133454     -68.3366535
9.25                  0.94300447     -68.4437203
9.251                0.942875085     -68.5510615
9.252                0.942745296     -68.6586781
9.253                0.942615103     -68.7665708
9.254                0.942484504     -68.8747407
9.255                0.942353499     -68.9831887
9.256                0.942222086     -69.0919157
9.257                0.942090264     -69.2009226
9.258                0.941958031     -69.3102103
9.259                0.941825388     -69.4197798
9.26                 0.941692332      -69.529632
9.261                0.941558863     -69.6397678
9.262                 0.94142498     -69.7501883
9.263                0.941290681     -69.8608942
9.264                0.941155965     -69.9718867
9.265                0.941020831     -70.0831665
9.266                0.940885279     -70.1947348
9.267                0.940749306     -70.3065924
9.268                0.940612912     -70.4187402
9.269                0.940476096     -70.5311794
9.27                 0.940338857     -70.6439107
9.271                0.940201193     -70.7569352
9.272                0.940063104     -70.8702539
9.273                0.939924588     -70.9838678
9.274                0.939785644     -71.0977777
9.275                0.939646271     -71.2119847
9.276                0.939506469     -71.3264898
9.277                0.939366235     -71.4412939
9.278                 0.93922557     -71.5563981
9.279                0.939084471     -71.6718034
9.28                 0.938942938     -71.7875106
9.281                0.938800969     -71.9035209
9.282                0.938658565     -72.0198353
9.283                0.938515722     -72.1364546
9.284                0.938372442       -72.25338
9.285                0.938228721     -72.3706125
9.286                 0.93808456      -72.488153
9.287                0.937939957     -72.6060026
9.288                0.937794912     -72.7241623
9.289                0.937649422     -72.8426331
9.29                 0.937503488      -72.961416
9.291                0.937357108     -73.0805122
9.292                0.937210281     -73.1999225
9.293                0.937063005     -73.3196481
9.294                0.936915281     -73.4396899
9.295                0.936767107     -73.5600491
9.296                0.936618481     -73.6807266
9.297                0.936469404     -73.8017235
9.298                0.936319873     -73.9230409
9.299                0.936169888     -74.0446798
9.3                  0.936019448     -74.1666412
9.301                0.935868552     -74.2889263
9.302                0.935717199      -74.411536
9.303                0.935565387     -74.5344715
9.304                0.935413117     -74.6577337
9.305                0.935260386     -74.7813239
9.306                0.935107194      -74.905243
9.307                 0.93495354     -75.0294921
9.308                0.934799424     -75.1540723
9.309                0.934644843     -75.2789847
9.31                 0.934489797     -75.4042304
9.311                0.934334285     -75.5298104
9.312                0.934178307     -75.6557259
9.313                0.934021861     -75.7819779
9.314                0.933864946     -75.9085675
9.315                0.933707561     -76.0354959
9.316                0.933549706     -76.1627641
9.317                 0.93339138     -76.2903732
9.318                0.933232581     -76.4183244
9.319                0.933073309     -76.5466187
9.32                 0.932913563     -76.6752573
9.321                0.932753341     -76.8042413
9.322                0.932592644     -76.9335717
9.323                0.932431471     -77.0632498
9.324                0.932269819     -77.1932767
9.325                 0.93210769     -77.3236534
9.326                0.931945081     -77.4543811
9.327                0.931781991     -77.5854609
9.328                0.931618421      -77.716894
9.329                 0.93145437     -77.8486815
9.33                 0.931289835     -77.9808246
9.331                0.931124818     -78.1133243
9.332                0.930959316     -78.2461819
9.333                0.930793329     -78.3793985
9.334                0.930626857     -78.5129752
9.335                0.930459898     -78.6469131
9.336                0.930292452     -78.7812136
9.337                0.930124518     -78.9158776
9.338                0.929956096     -79.0509064
9.339                0.929787184     -79.1863011
9.34                 0.929617782     -79.3220629
9.341                 0.92944789      -79.458193
9.342                0.929277506     -79.5946925
9.343                0.929106629     -79.7315627
9.344                0.928935261     -79.8688046
9.345                0.928763398     -80.0064195
9.346                0.928591042     -80.1444085
9.347                0.928418191     -80.2827729
9.348                0.928244845     -80.4215138
9.349                0.928071003     -80.5606324
9.35                 0.927896664     -80.7001299
9.351                0.927721828     -80.8400074
9.352                0.927546495     -80.9802663
9.353                0.927370664     -81.1209077
9.354                0.927194334     -81.2619328
9.355                0.927017504     -81.4033427
9.356                0.926840175     -81.5451388
9.357                0.926662346     -81.6873221
9.358                0.926484016      -81.829894
9.359                0.926305185     -81.9728556
9.36                 0.926125853     -82.1162081
9.361                0.925946018     -82.2599528
9.362                0.925765681     -82.4040909
9.363                0.925584841     -82.5486235
9.364                0.925403498      -82.693552
9.365                0.925221651     -82.8388775
9.366                  0.9250393     -82.9846013
9.367                0.924856445     -83.1307246
9.368                0.924673086     -83.2772486
9.369                0.924489221     -83.4241746
9.37                 0.924304851     -83.5715038
9.371                0.924119976     -83.7192374
9.372                0.923934595     -83.8673766
9.373                0.923748709     -84.0159228
9.374                0.923562316     -84.1648771
9.375                0.923375416     -84.3142408
9.376                 0.92318801     -84.4640151
9.377                0.923000098     -84.6142013
9.378                0.922811678     -84.7648007
9.379                0.922622752     -84.9158144
9.38                 0.922433318     -85.0672437
9.381                0.922243378       -85.21909
9.382                 0.92205293     -85.3713543
9.383                0.921861975     -85.5240381
9.384                0.921670513     -85.6771424
9.385                0.921478544     -85.8306687
9.386                0.921286067     -85.9846182
9.387                0.921093084     -86.1389921
9.388                0.920899593     -86.2937916
9.389                0.920705595     -86.4490181
9.39                  0.92051109     -86.6046728
9.391                0.920316079      -86.760757
9.392                0.920120561     -86.9172719
9.393                0.919924537     -87.0742189
9.394                0.919728006     -87.2315991
9.395                 0.91953097     -87.3894138
9.396                0.919333428     -87.5476644
