! TOUCHSTONE file generated by CST DESIGN STUDIO
! Date and time: Wed Feb  5 13:43:16 2025
! Project name: C:\Work\MatlabApps\UnitCellOptimizationMatlab\CST\unitcell.cst
! Tree item: Tasks\Sweep1\SPara1\S-Parameters
! Header version: 2024
! Port assignment regex: !\s*Touchstone port\s*([0-9]+)\s*=\s*(CST MWS port|CST DES external port|CST DES block port)\s*(.+)\s* \(\"(.*)\"\)(\s*mode\s*([0-9]+))?.*
! Touchstone port assignment:
! Touchstone port 1 = CST DES external port 1 ("")
# GHz S MA R 50
9                    0.951591385     -76.0320612
9.001                0.951466107     -76.1516603
9.002                 0.95134044     -76.2715679
9.003                0.951214385      -76.391785
9.004                0.951087939     -76.5123125
9.005                0.950961103     -76.6331514
9.006                0.950833874     -76.7543027
9.007                0.950706253     -76.8757674
9.008                0.950578237     -76.9975464
9.009                0.950449827     -77.1196407
9.01                 0.950321022     -77.2420513
9.011                 0.95019182     -77.3647793
9.012                 0.95006222     -77.4878255
9.013                0.949932223      -77.611191
9.014                0.949801826     -77.7348768
9.015                0.949671029     -77.8588838
9.016                0.949539831     -77.9832132
9.017                0.949408231     -78.1078658
9.018                0.949276229     -78.2328426
9.019                0.949143823     -78.3581448
9.02                 0.949011013     -78.4837733
9.021                0.948877797     -78.6097291
9.022                0.948744176     -78.7360131
9.023                0.948610147     -78.8626266
9.024                 0.94847571     -78.9895704
9.025                0.948340865     -79.1168455
9.026                0.948205611     -79.2444531
9.027                0.948069946     -79.3723941
9.028                 0.94793387     -79.5006695
9.029                0.947797382     -79.6292804
9.03                 0.947660481     -79.7582279
9.031                0.947523167     -79.8875129
9.032                0.947385439     -80.0171364
9.033                0.947247295     -80.1470996
9.034                0.947108736     -80.2774035
9.035                0.946969759     -80.4080491
9.036                0.946830366     -80.5390374
9.037                0.946690554     -80.6703696
9.038                0.946550323     -80.8020466
9.039                0.946409673     -80.9340694
9.04                 0.946268602     -81.0664393
9.041                0.946127109     -81.1991572
9.042                0.945985195     -81.3322241
9.043                0.945842859     -81.4656412
9.044                0.945700099     -81.5994095
9.045                0.945556915       -81.73353
9.046                0.945413306     -81.8680039
9.047                0.945269272     -82.0028321
9.048                0.945124811     -82.1380158
9.049                0.944979924     -82.2735561
9.05                  0.94483461     -82.4094539
9.051                0.944688867     -82.5457105
9.052                0.944542696     -82.6823268
9.053                0.944396095      -82.819304
9.054                0.944249065     -82.9566431
9.055                0.944101604     -83.0943452
9.056                0.943953711     -83.2324113
9.057                0.943805387     -83.3708427
9.058                 0.94365663     -83.5096404
9.059                0.943507441     -83.6488054
9.06                 0.943357818     -83.7883388
9.061                0.943207761     -83.9282418
9.062                0.943057269     -84.0685155
9.063                0.942906342     -84.2091609
9.064                0.942754979     -84.3501791
9.065                0.942603181     -84.4915713
9.066                0.942450945     -84.6333385
9.067                0.942298273     -84.7754818
9.068                0.942145163     -84.9180025
9.069                0.941991614     -85.0609014
9.07                 0.941837627     -85.2041799
9.071                0.941683202     -85.3478389
9.072                0.941528336     -85.4918795
9.073                0.941373031      -85.636303
9.074                0.941217286     -85.7811104
9.075                  0.9410611     -85.9263028
9.076                0.940904473     -86.0718814
9.077                0.940747405     -86.2178472
9.078                0.940589895     -86.3642014
9.079                0.940431942     -86.5109451
9.08                 0.940273548     -86.6580795
9.081                0.940114711     -86.8056055
9.082                0.939955431     -86.9535244
9.083                0.939795708     -87.1018373
9.084                0.939635541     -87.2505454
9.085                 0.93947493     -87.3996496
9.086                0.939313876     -87.5491513
9.087                0.939152377     -87.6990514
9.088                0.938990434     -87.8493511
9.089                0.938828046     -88.0000516
9.09                 0.938665214      -88.151154
9.091                0.938501936     -88.3026594
9.092                0.938338214     -88.4545689
9.093                0.938174047     -88.6068837
9.094                0.938009434      -88.759605
9.095                0.937844376     -88.9127337
9.096                0.937678872     -89.0662712
9.097                0.937512924     -89.2202185
9.098                0.937346529     -89.3745767
9.099                0.937179689      -89.529347
9.1                  0.937012404     -89.6845305
9.101                0.936844673     -89.8401284
9.102                0.936676497     -89.9961418
9.103                0.936507876     -90.1525718
9.104                0.936338809     -90.3094196
9.105                0.936169297     -90.4666863
9.106                 0.93599934      -90.624373
9.107                0.935828938     -90.7824809
9.108                0.935658092     -90.9410112
9.109                0.935486801     -91.0999649
9.11                 0.935315066     -91.2593432
9.111                0.935142886     -91.4191472
9.112                0.934970263     -91.5793781
9.113                0.934797196     -91.7400369
9.114                0.934623686      -91.901125
9.115                0.934449733     -92.0626433
9.116                0.934275337      -92.224593
9.117                0.934100499     -92.3869752
9.118                0.933925219     -92.5497912
9.119                0.933749498     -92.7130419
9.12                 0.933573336     -92.8767287
9.121                0.933396733     -93.0408524
9.122                 0.93321969     -93.2054144
9.123                0.933042207     -93.3704158
9.124                0.932864285     -93.5358576
9.125                0.932685925      -93.701741
9.126                0.932507127     -93.8680672
9.127                0.932327892     -94.0348372
9.128                 0.93214822     -94.2020522
9.129                0.931968111     -94.3697133
9.13                 0.931787568     -94.5378216
9.131                 0.93160659     -94.7063783
9.132                0.931425178     -94.8753844
9.133                0.931243333     -95.0448412
9.134                0.931061055     -95.2147496
9.135                0.930878347     -95.3851109
9.136                0.930695207     -95.5559261
9.137                0.930511638     -95.7271964
9.138                0.930327639     -95.8989228
9.139                0.930143213     -96.0711065
9.14                  0.92995836     -96.2437486
9.141                0.929773081     -96.4168501
9.142                0.929587377     -96.5904123
9.143                 0.92940125     -96.7644361
9.144                0.929214699     -96.9389227
9.145                0.929027727     -97.1138732
9.146                0.928840334     -97.2892887
9.147                0.928652522     -97.4651702
9.148                0.928464292     -97.6415189
9.149                0.928275646     -97.8183358
9.15                 0.928086583      -97.995622
9.151                0.927897107     -98.1733786
9.152                0.927707217     -98.3516067
9.153                0.927516916     -98.5303073
9.154                0.927326205     -98.7094816
9.155                0.927135085     -98.8891305
9.156                0.926943558     -99.0692552
9.157                0.926751626     -99.2498567
9.158                0.926559289      -99.430936
9.159                 0.92636655     -99.6124943
9.16                 0.926173411     -99.7945326
9.161                0.925979872     -99.9770518
9.162                0.925785935     -100.160053
9.163                0.925591603     -100.343538
9.164                0.925396877     -100.527506
9.165                0.925201759      -100.71196
9.166                 0.92500625       -100.8969
9.167                0.924810353     -101.082327
9.168                 0.92461407     -101.268242
9.169                0.924417402     -101.454647
9.17                 0.924220352     -101.641541
9.171                0.924022922     -101.828928
9.172                0.923825113     -102.016806
9.173                0.923626928     -102.205177
9.174                0.923428369     -102.394043
9.175                0.923229438     -102.583404
9.176                0.923030137     -102.773261
9.177                 0.92283047     -102.963616
9.178                0.922630437     -103.154468
9.179                0.922430042      -103.34582
9.18                 0.922229287     -103.537671
9.181                0.922028174     -103.730024
9.182                0.921826706     -103.922878
9.183                0.921624886     -104.116236
9.184                0.921422715     -104.310097
9.185                0.921220198     -104.504463
9.186                0.921017335     -104.699334
9.187                0.920814131     -104.894713
9.188                0.920610588     -105.090598
9.189                0.920406708     -105.286992
9.19                 0.920202495     -105.483896
9.191                0.919997952     -105.681309
9.192                0.919793081     -105.879233
9.193                0.919587885      -106.07767
9.194                0.919382368     -106.276619
9.195                0.919176533     -106.476082
9.196                0.918970382     -106.676059
9.197                 0.91876392     -106.876551
9.198                0.918557149      -107.07756
9.199                0.918350072     -107.279086
9.2                  0.918142694     -107.481129
9.201                0.917935017     -107.683691
9.202                0.917727044     -107.886772
9.203                 0.91751878     -108.090374
9.204                0.917310228     -108.294496
9.205                0.917101391      -108.49914
9.206                0.916892273     -108.704307
9.207                0.916682879     -108.909997
9.208                 0.91647321     -109.116211
9.209                0.916263273      -109.32295
9.21                 0.916053069     -109.530214
9.211                0.915842604     -109.738004
9.212                0.915631881     -109.946322
9.213                0.915420904     -110.155167
9.214                0.915209677      -110.36454
9.215                0.914998205     -110.574442
9.216                0.914786491     -110.784873
9.217                0.914574541     -110.995835
9.218                0.914362357     -111.207328
9.219                0.914149945     -111.419353
9.22                 0.913937309     -111.631909
9.221                0.913724453     -111.844999
9.222                0.913511382     -112.058622
9.223                  0.9132981     -112.272779
9.224                0.913084613      -112.48747
9.225                0.912870924     -112.702696
9.226                0.912657039     -112.918459
9.227                0.912442962     -113.134757
9.228                0.912228698     -113.351592
9.229                0.912014253     -113.568965
9.23                  0.91179963     -113.786875
9.231                0.911584836     -114.005324
9.232                0.911369875     -114.224311
9.233                0.911154752     -114.443838
9.234                0.910939472     -114.663904
9.235                0.910724042      -114.88451
9.236                0.910508465     -115.105657
9.237                0.910292749     -115.327345
9.238                0.910076897     -115.549574
9.239                0.909860915     -115.772345
9.24                  0.90964481     -115.995658
9.241                0.909428586     -116.219514
9.242                0.909212249     -116.443912
9.243                0.908995806     -116.668854
9.244                0.908779261     -116.894339
9.245                0.908562621     -117.120367
9.246                0.908345892      -117.34694
9.247                0.908129079     -117.574057
9.248                0.907912189     -117.801719
9.249                0.907695227     -118.029926
9.25                 0.907478201     -118.258677
9.251                0.907261115     -118.487974
9.252                0.907043978     -118.717816
9.253                0.906826793     -118.948204
9.254                0.906609569     -119.179137
9.255                0.906392312     -119.410616
9.256                0.906175027     -119.642642
9.257                0.905957723     -119.875213
9.258                0.905740405     -120.108331
9.259                0.905523079     -120.341995
9.26                 0.905305754     -120.576205
9.261                0.905088435     -120.810962
9.262                 0.90487113     -121.046265
9.263                0.904653846     -121.282114
9.264                0.904436588      -121.51851
9.265                0.904219366     -121.755452
9.266                0.904002185      -121.99294
9.267                0.903785053     -122.230974
9.268                0.903567977     -122.469555
9.269                0.903350965     -122.708681
9.27                 0.903134023     -122.948354
9.271                 0.90291716     -123.188572
9.272                0.902700383     -123.429335
9.273                0.902483698     -123.670644
9.274                0.902267115     -123.912498
9.275                 0.90205064     -124.154897
9.276                0.901834282     -124.397841
9.277                0.901618048     -124.641329
9.278                0.901401945     -124.885361
9.279                0.901185983     -125.129937
9.28                 0.900970168     -125.375056
9.281                0.900754509     -125.620718
9.282                0.900539014     -125.866923
9.283                0.900323691      -126.11367
9.284                0.900108549     -126.360959
9.285                0.899893594      -126.60879
9.286                0.899678837     -126.857161
9.287                0.899464285     -127.106073
9.288                0.899249946     -127.355525
9.289                0.899035829     -127.605517
9.29                 0.898821943     -127.856047
9.291                0.898608296     -128.107116
9.292                0.898394897     -128.358722
9.293                0.898181754     -128.610865
9.294                0.897968876     -128.863545
9.295                0.897756273     -129.116761
9.296                0.897543952     -129.370512
9.297                0.897331923     -129.624797
9.298                0.897120195     -129.879615
9.299                0.896908777     -130.134967
9.3                  0.896697677      -130.39085
9.301                0.896486905     -130.647265
9.302                 0.89627647     -130.904211
9.303                0.896066382     -131.161685
9.304                0.895856649     -131.419689
9.305                 0.89564728      -131.67822
9.306                0.895438286     -131.937278
9.307                0.895229675     -132.196862
9.308                0.895021458     -132.456971
9.309                0.894813643     -132.717603
9.31                 0.894606239     -132.978759
9.311                0.894399258     -133.240436
9.312                0.894192707     -133.502633
9.313                0.893986597     -133.765351
9.314                0.893780938     -134.028586
9.315                0.893575739     -134.292339
9.316                 0.89337101     -134.556608
9.317                0.893166761     -134.821392
9.318                0.892963002     -135.086689
9.319                0.892759742     -135.352498
9.32                 0.892556992     -135.618819
9.321                0.892354762     -135.885649
9.322                0.892153061     -136.152987
9.323                0.891951899     -136.420832
9.324                0.891751287     -136.689183
9.325                0.891551235     -136.958037
9.326                0.891351753     -137.227395
9.327                0.891152851     -137.497253
9.328                0.890954539     -137.767611
9.329                0.890756828     -138.038466
9.33                 0.890559727     -138.309819
9.331                0.890363248     -138.581665
9.332                  0.8901674     -138.854006
9.333                0.889972193     -139.126837
9.334                0.889777639     -139.400158
9.335                0.889583747     -139.673968
9.336                0.889390527     -139.948263
9.337                0.889197991     -140.223044
9.338                0.889006149     -140.498307
9.339                0.888815011     -140.774051
9.34                 0.888624588     -141.050273
9.341                0.888434889     -141.326973
9.342                0.888245926     -141.604149
9.343                 0.88805771     -141.881797
9.344                 0.88787025     -142.159917
9.345                0.887683558     -142.438506
9.346                0.887497643     -142.717562
9.347                0.887312516     -142.997083
9.348                0.887128189     -143.277068
9.349                0.886944671     -143.557513
9.35                 0.886761973     -143.838417
9.351                0.886580106     -144.119778
9.352                0.886399081     -144.401593
9.353                0.886218907      -144.68386
9.354                0.886039595     -144.966577
9.355                0.885861157     -145.249741
9.356                0.885683603     -145.533351
9.357                0.885506943     -145.817403
9.358                0.885331187     -146.101896
9.359                0.885156347     -146.386827
9.36                 0.884982433     -146.672194
9.361                0.884809456     -146.957993
9.362                0.884637426     -147.244223
9.363                0.884466353     -147.530882
9.364                0.884296249     -147.817965
9.365                0.884127123     -148.105472
9.366                0.883958987     -148.393399
9.367                 0.88379185     -148.681743
9.368                0.883625723     -148.970502
9.369                0.883460617     -149.259674
9.37                 0.883296542     -149.549255
9.371                0.883133508     -149.839242
9.372                0.882971526     -150.129634
9.373                0.882810606     -150.420426
9.374                0.882650758     -150.711617
9.375                0.882491993     -151.003203
9.376                 0.88233432     -151.295181
9.377                0.882177751     -151.587549
9.378                0.882022295     -151.880303
9.379                0.881867962     -152.173441
9.38                 0.881714763     -152.466959
9.381                0.881562707     -152.760854
9.382                0.881411805     -153.055124
9.383                0.881262067     -153.349765
9.384                0.881113502     -153.644774
9.385                 0.88096612     -153.940147
9.386                0.880819932     -154.235883
9.387                0.880674946     -154.531977
9.388                0.880531173     -154.828426
9.389                0.880388623     -155.125226
9.39                 0.880247305     -155.422376
9.391                0.880107229     -155.719871
9.392                0.879968403     -156.017707
9.393                0.879830839     -156.315882
9.394                0.879694544     -156.614392
9.395                0.879559529     -156.913234
9.396                0.879425803     -157.212404
