! TOUCHSTONE file generated by CST DESIGN STUDIO
! Date and time: Wed Feb  5 13:43:19 2025
! Project name: C:\Work\MatlabApps\UnitCellOptimizationMatlab\CST\unitcell.cst
! Tree item: Tasks\Sweep1\SPara1\S-Parameters
! Header version: 2024
! Port assignment regex: !\s*Touchstone port\s*([0-9]+)\s*=\s*(CST MWS port|CST DES external port|CST DES block port)\s*(.+)\s* \(\"(.*)\"\)(\s*mode\s*([0-9]+))?.*
! Touchstone port assignment:
! Touchstone port 1 = CST DES external port 1 ("")
# GHz S MA R 50
9                    0.955484053     -67.8047305
9.001                0.955377751     -67.9042498
9.002                0.955271116     -68.0040141
9.003                0.955164147     -68.1040242
9.004                0.955056842      -68.204281
9.005                0.954949201     -68.3047853
9.006                0.954841223     -68.4055377
9.007                0.954732907     -68.5065392
9.008                0.954624251     -68.6077905
9.009                0.954515255     -68.7092924
9.01                 0.954405917     -68.8110457
9.011                0.954296237     -68.9130512
9.012                0.954186214     -69.0153098
9.013                0.954075846     -69.1178222
9.014                0.953965133     -69.2205893
9.015                0.953854073     -69.3236118
9.016                0.953742667     -69.4268906
9.017                0.953630911     -69.5304266
9.018                0.953518806     -69.6342204
9.019                0.953406351      -69.738273
9.02                 0.953293545     -69.8425852
9.021                0.953180385     -69.9471578
9.022                0.953066873     -70.0519916
9.023                0.952953005     -70.1570876
9.024                0.952838783     -70.2624464
9.025                0.952724203      -70.368069
9.026                0.952609267     -70.4739563
9.027                0.952493971     -70.5801089
9.028                0.952378316     -70.6865279
9.029                0.952262301      -70.793214
9.03                 0.952145923     -70.9001682
9.031                0.952029184     -71.0073912
9.032                 0.95191208     -71.1148839
9.033                0.951794612     -71.2226472
9.034                0.951676778     -71.3306819
9.035                0.951558578      -71.438989
9.036                 0.95144001     -71.5475693
9.037                0.951321073     -71.6564236
9.038                0.951201767     -71.7655528
9.039                0.951082089     -71.8749579
9.04                  0.95096204     -71.9846396
9.041                0.950841619      -72.094599
9.042                0.950720823     -72.2048368
9.043                0.950599653     -72.3153539
9.044                0.950478107     -72.4261513
9.045                0.950356185     -72.5372298
9.046                0.950233884     -72.6485903
9.047                0.950111205     -72.7602338
9.048                0.949988146      -72.872161
9.049                0.949864707     -72.9843731
9.05                 0.949740885     -73.0968707
9.051                0.949616681     -73.2096549
9.052                0.949492093     -73.3227266
9.053                0.949367121     -73.4360866
9.054                0.949241763      -73.549736
9.055                0.949116018     -73.6636755
9.056                0.948989885     -73.7779062
9.057                0.948863364     -73.8924289
9.058                0.948736453     -74.0072446
9.059                0.948609152     -74.1223542
9.06                 0.948481458     -74.2377587
9.061                0.948353373     -74.3534589
9.062                0.948224893     -74.4694559
9.063                 0.94809602     -74.5857505
9.064                 0.94796675     -74.7023437
9.065                0.947837085     -74.8192365
9.066                0.947707021     -74.9364298
9.067                 0.94757656     -75.0539245
9.068                0.947445699     -75.1717216
9.069                0.947314438     -75.2898221
9.07                 0.947182775     -75.4082268
9.071                0.947050711     -75.5269369
9.072                0.946918243     -75.6459532
9.073                0.946785371     -75.7652767
9.074                0.946652095     -75.8849083
9.075                0.946518412     -76.0048491
9.076                0.946384322     -76.1251001
9.077                0.946249825     -76.2456621
9.078                0.946114919     -76.3665361
9.079                0.945979603     -76.4877233
9.08                 0.945843877     -76.6092245
9.081                0.945707739     -76.7310406
9.082                0.945571189     -76.8531728
9.083                0.945434225     -76.9756221
9.084                0.945296848     -77.0983892
9.085                0.945159055     -77.2214754
9.086                0.945020846     -77.3448816
9.087                0.944882221     -77.4686088
9.088                0.944743177     -77.5926579
9.089                0.944603716     -77.7170301
9.09                 0.944463834     -77.8417263
9.091                0.944323533     -77.9667475
9.092                 0.94418281     -78.0920947
9.093                0.944041665      -78.217769
9.094                0.943900097     -78.3437713
9.095                0.943758106     -78.4701027
9.096                 0.94361569     -78.5967642
9.097                0.943472848     -78.7237569
9.098                0.943329581     -78.8510817
9.099                0.943185886     -78.9787397
9.1                  0.943041763      -79.106732
9.101                0.942897212     -79.2350594
9.102                0.942752232     -79.3637232
9.103                0.942606821     -79.4927244
9.104                0.942460979     -79.6220638
9.105                0.942314705     -79.7517428
9.106                0.942167999     -79.8817621
9.107                0.942020859      -80.012123
9.108                0.941873285     -80.1428265
9.109                0.941725276     -80.2738735
9.11                 0.941576832     -80.4052653
9.111                0.941427951     -80.5370027
9.112                0.941278634      -80.669087
9.113                0.941128878      -80.801519
9.114                0.940978684        -80.9343
9.115                0.940828051      -81.067431
9.116                0.940676978      -81.200913
9.117                0.940525465     -81.3347472
9.118                 0.94037351     -81.4689345
9.119                0.940221113      -81.603476
9.12                 0.940068274     -81.7383729
9.121                0.939914992     -81.8736263
9.122                0.939761266     -82.0092371
9.123                0.939607095     -82.1452064
9.124                0.939452479     -82.2815355
9.125                0.939297417     -82.4182253
9.126                 0.93914191     -82.5552769
9.127                0.938985955     -82.6926914
9.128                0.938829553     -82.8304699
9.129                0.938672703     -82.9686136
9.13                 0.938515404     -83.1071234
9.131                0.938357656     -83.2460006
9.132                0.938199458     -83.3852461
9.133                0.938040811     -83.5248611
9.134                0.937881712     -83.6648468
9.135                0.937722162     -83.8052041
9.136                0.937562161     -83.9459342
9.137                0.937401708     -84.0870383
9.138                0.937240802     -84.2285173
9.139                0.937079442     -84.3703726
9.14                  0.93691763      -84.512605
9.141                0.936755363     -84.6552158
9.142                0.936592642     -84.7982061
9.143                0.936429466      -84.941577
9.144                0.936265836     -85.0853296
9.145                0.936101749      -85.229465
9.146                0.935937207     -85.3739843
9.147                0.935772209     -85.5188888
9.148                0.935606754     -85.6641794
9.149                0.935440842     -85.8098574
9.15                 0.935274473     -85.9559238
9.151                0.935107647     -86.1023798
9.152                0.934940363     -86.2492264
9.153                0.934772621      -86.396465
9.154                0.934604421     -86.5440964
9.155                0.934435762      -86.692122
9.156                0.934266645     -86.8405428
9.157                0.934097069       -86.98936
9.158                0.933927034     -87.1385747
9.159                 0.93375654      -87.288188
9.16                 0.933585587     -87.4382011
9.161                0.933414174     -87.5886151
9.162                0.933242302     -87.7394312
9.163                 0.93306997     -87.8906504
9.164                0.932897178      -88.042274
9.165                0.932723927     -88.1943031
9.166                0.932550216     -88.3467388
9.167                0.932376045     -88.4995823
9.168                0.932201415     -88.6528346
9.169                0.932026325      -88.806497
9.17                 0.931850775     -88.9605706
9.171                0.931674765     -89.1150566
9.172                0.931498296      -89.269956
9.173                0.931321368     -89.4252701
9.174                 0.93114398     -89.5809999
9.175                0.930966133     -89.7371467
9.176                0.930787827     -89.8937115
9.177                0.930609062     -90.0506956
9.178                0.930429838     -90.2081001
9.179                0.930250157      -90.365926
9.18                 0.930070017     -90.5241747
9.181                0.929889419     -90.6828471
9.182                0.929708363     -90.8419445
9.183                0.929526851      -91.001468
9.184                0.929344881     -91.1614188
9.185                0.929162455      -91.321798
9.186                0.928979572     -91.4826067
9.187                0.928796234     -91.6438461
9.188                0.928612441     -91.8055174
9.189                0.928428193     -91.9676217
9.19                  0.92824349     -92.1301601
9.191                0.928058334     -92.2931338
9.192                0.927872724      -92.456544
9.193                0.927686661     -92.6203917
9.194                0.927500147     -92.7846781
9.195                 0.92731318     -92.9494044
9.196                0.927125763     -93.1145717
9.197                0.926937896     -93.2801812
9.198                0.926749579     -93.4462339
9.199                0.926560813     -93.6127311
9.2                  0.926371599     -93.7796738
9.201                0.926181938     -93.9470633
9.202                 0.92599183     -94.1149005
9.203                0.925801277     -94.2831868
9.204                0.925610279     -94.4519231
9.205                0.925418837     -94.6211107
9.206                0.925226952     -94.7907507
9.207                0.925034625     -94.9608442
9.208                0.924841857     -95.1313923
9.209                0.924648649     -95.3023961
9.21                 0.924455002     -95.4738569
9.211                0.924260917     -95.6457756
9.212                0.924066395     -95.8181535
9.213                0.923871437     -95.9909916
9.214                0.923676046      -96.164291
9.215                 0.92348022      -96.338053
9.216                0.923283963     -96.5122785
9.217                0.923087275     -96.6869687
9.218                0.922890157     -96.8621248
9.219                0.922692612     -97.0377477
9.22                 0.922494639     -97.2138386
9.221                0.922296242     -97.3903987
9.222                 0.92209742      -97.567429
9.223                0.921898176     -97.7449306
9.224                0.921698511     -97.9229045
9.225                0.921498426      -98.101352
9.226                0.921297924      -98.280274
9.227                0.921097006     -98.4596717
9.228                0.920895673     -98.6395462
9.229                0.920693927     -98.8198984
9.23                  0.92049177     -99.0007296
9.231                0.920289204     -99.1820407
9.232                 0.92008623     -99.3638328
9.233                0.919882851      -99.546107
9.234                0.919679068     -99.7288644
9.235                0.919474883      -99.912106
9.236                0.919270298     -100.095833
9.237                0.919065315     -100.280046
9.238                0.918859937     -100.464746
9.239                0.918654165     -100.649935
9.24                 0.918448001     -100.835613
9.241                0.918241447     -101.021782
9.242                0.918034507     -101.208442
9.243                0.917827181     -101.395595
9.244                0.917619473     -101.583241
9.245                0.917411385     -101.771382
9.246                0.917202918     -101.960018
9.247                0.916994076     -102.149151
9.248                0.916784861     -102.338781
9.249                0.916575275      -102.52891
9.25                 0.916365322     -102.719539
9.251                0.916155003     -102.910667
9.252                0.915944321     -103.102298
9.253                0.915733279      -103.29443
9.254                 0.91552188     -103.487067
9.255                0.915310126     -103.680207
9.256                0.915098021     -103.873853
9.257                0.914885567     -104.068005
9.258                0.914672767     -104.262664
9.259                0.914459624     -104.457831
9.26                 0.914246142     -104.653508
9.261                0.914032322     -104.849694
9.262                0.913818169     -105.046391
9.263                0.913603686       -105.2436
9.264                0.913388875     -105.441322
9.265                 0.91317374     -105.639557
9.266                0.912958284     -105.838307
9.267                0.912742511     -106.037572
9.268                0.912526424     -106.237353
9.269                0.912310027     -106.437652
9.27                 0.912093323     -106.638468
9.271                0.911876316     -106.839803
9.272                0.911659009     -107.041658
9.273                0.911441406     -107.244033
9.274                 0.91122351     -107.446929
9.275                0.911005326     -107.650348
9.276                0.910786858     -107.854289
9.277                0.910568109     -108.058754
9.278                0.910349083     -108.263743
9.279                0.910129784     -108.469258
9.28                 0.909910216     -108.675299
9.281                0.909690384     -108.881866
9.282                0.909470291     -109.088961
9.283                0.909249942     -109.296584
9.284                0.909029342     -109.504736
9.285                0.908808493     -109.713418
9.286                0.908587401     -109.922631
9.287                0.908366071     -110.132374
9.288                0.908144506     -110.342649
9.289                0.907922712     -110.553457
9.29                 0.907700692     -110.764798
9.291                0.907478453     -110.976673
9.292                0.907255997     -111.189082
9.293                0.907033331     -111.402026
9.294                0.906810458     -111.615506
9.295                0.906587385     -111.829523
9.296                0.906364115     -112.044076
9.297                0.906140654     -112.259167
9.298                0.905917007     -112.474796
9.299                 0.90569318     -112.690963
9.3                  0.905469176      -112.90767
9.301                0.905245003     -113.124917
9.302                0.905020664     -113.342704
9.303                0.904796166     -113.561032
9.304                0.904571513     -113.779901
9.305                0.904346712     -113.999312
9.306                0.904121767     -114.219266
9.307                0.903896686     -114.439762
9.308                0.903671472     -114.660801
9.309                0.903446132     -114.882384
9.31                 0.903220672     -115.104511
9.311                0.902995098     -115.327183
9.312                0.902769416     -115.550399
9.313                0.902543631     -115.774161
9.314                 0.90231775     -115.998468
9.315                0.902091778     -116.223322
9.316                0.901865723     -116.448722
9.317                 0.90163959     -116.674668
9.318                0.901413386     -116.901161
9.319                0.901187116     -117.128202
9.32                 0.900960789      -117.35579
9.321                0.900734409     -117.583926
9.322                0.900507983     -117.812611
9.323                0.900281519     -118.041843
9.324                0.900055023     -118.271624
9.325                0.899828501     -118.501954
9.326                0.899601961     -118.732832
9.327                0.899375409      -118.96426
9.328                0.899148853     -119.196236
9.329                0.898922299     -119.428762
9.33                 0.898695754     -119.661838
9.331                0.898469226     -119.895463
9.332                0.898242722     -120.129638
9.333                0.898016249     -120.364362
9.334                0.897789814     -120.599636
9.335                0.897563425      -120.83546
9.336                0.897337089     -121.071834
9.337                0.897110814     -121.308757
9.338                0.896884607      -121.54623
9.339                0.896658477     -121.784253
9.34                  0.89643243     -122.022825
9.341                0.896206475     -122.261947
9.342                0.895980619     -122.501618
9.343                 0.89575487     -122.741839
9.344                0.895529236     -122.982608
9.345                0.895303726     -123.223927
9.346                0.895078347     -123.465794
9.347                0.894853108      -123.70821
9.348                0.894628016     -123.951175
9.349                 0.89440308     -124.194687
9.35                 0.894178309     -124.438748
9.351                 0.89395371     -124.683355
9.352                0.893729293     -124.928511
9.353                0.893505065     -125.174213
9.354                0.893281035     -125.420461
9.355                0.893057212     -125.667256
9.356                0.892833605     -125.914597
9.357                0.892610222     -126.162483
9.358                0.892387073     -126.410914
9.359                0.892164165     -126.659889
9.36                 0.891941508     -126.909408
9.361                0.891719111     -127.159471
9.362                0.891496984     -127.410077
9.363                0.891275134     -127.661225
9.364                0.891053571     -127.912915
9.365                0.890832305     -128.165147
9.366                0.890611345     -128.417919
9.367                  0.8903907     -128.671231
9.368                0.890170379     -128.925082
9.369                0.889950392     -129.179472
9.37                 0.889730748     -129.434399
9.371                0.889511457     -129.689864
9.372                0.889292529     -129.945865
9.373                0.889073972     -130.202402
9.374                0.888855798     -130.459474
9.375                0.888638015     -130.717079
9.376                0.888420633     -130.975218
9.377                0.888203663     -131.233889
9.378                0.887987113     -131.493091
9.379                0.887770995     -131.752823
9.38                 0.887555317     -132.013085
9.381                0.887340091     -132.273875
9.382                0.887125325     -132.535193
9.383                0.886911031     -132.797036
9.384                0.886697218     -133.059405
9.385                0.886483897     -133.322298
9.386                0.886271077     -133.585715
9.387                 0.88605877     -133.849652
9.388                0.885846985     -134.114111
9.389                0.885635733     -134.379089
9.39                 0.885425025     -134.644586
9.391                 0.88521487     -134.910599
9.392                0.885005279     -135.177128
9.393                0.884796263     -135.444171
9.394                0.884587832     -135.711728
9.395                0.884379998     -135.979796
9.396                 0.88417277     -136.248375
