! TOUCHSTONE file generated by CST DESIGN STUDIO
! Date and time: Wed Feb  5 13:43:26 2025
! Project name: C:\Work\MatlabApps\UnitCellOptimizationMatlab\CST\unitcell.cst
! Tree item: Tasks\Sweep1\SPara1\S-Parameters
! Header version: 2024
! Port assignment regex: !\s*Touchstone port\s*([0-9]+)\s*=\s*(CST MWS port|CST DES external port|CST DES block port)\s*(.+)\s* \(\"(.*)\"\)(\s*mode\s*([0-9]+))?.*
! Touchstone port assignment:
! Touchstone port 1 = CST DES external port 1 ("")
# GHz S MA R 50
9                    0.963518085     -51.9681271
9.001                0.963449811     -52.0348058
9.002                 0.96338133     -52.1016273
9.003                0.963312641      -52.168592
9.004                0.963243746     -52.2357005
9.005                0.963174641     -52.3029532
9.006                0.963105328     -52.3703504
9.007                0.963035805     -52.4378927
9.008                0.962966071     -52.5055805
9.009                0.962896126     -52.5734143
9.01                 0.962825969     -52.6413945
9.011                  0.9627556     -52.7095215
9.012                0.962685017     -52.7777958
9.013                0.962614219     -52.8462179
9.014                0.962543207     -52.9147882
9.015                 0.96247198     -52.9835071
9.016                0.962400536     -53.0523752
9.017                0.962328875     -53.1213929
9.018                0.962256996     -53.1905607
9.019                0.962184899      -53.259879
9.02                 0.962112583     -53.3293482
9.021                0.962040046      -53.398969
9.022                0.961967289     -53.4687416
9.023                 0.96189431     -53.5386667
9.024                0.961821109     -53.6087447
9.025                0.961747685      -53.678976
9.026                0.961674038     -53.7493611
9.027                0.961600165     -53.8199005
9.028                0.961526068     -53.8905948
9.029                0.961451744     -53.9614442
9.03                 0.961377194     -54.0324495
9.031                0.961302416      -54.103611
9.032                 0.96122741     -54.1749292
9.033                0.961152174     -54.2464047
9.034                0.961076709     -54.3180378
9.035                0.961001013     -54.3898292
9.036                0.960925086     -54.4617792
9.037                0.960848926     -54.5338885
9.038                0.960772534     -54.6061574
9.039                0.960695907     -54.6785866
9.04                 0.960619046     -54.7511764
9.041                 0.96054195     -54.8239274
9.042                0.960464617     -54.8968402
9.043                0.960387047     -54.9699151
9.044                 0.96030924     -55.0431528
9.045                0.960231194     -55.1165537
9.046                0.960152909     -55.1901183
9.047                0.960074383     -55.2638473
9.048                0.959995616     -55.3377409
9.049                0.959916608     -55.4117999
9.05                 0.959837357     -55.4860247
9.051                0.959757862     -55.5604159
9.052                0.959678123     -55.6349739
9.053                0.959598139     -55.7096993
9.054                0.959517909     -55.7845926
9.055                0.959437433     -55.8596544
9.056                0.959356708     -55.9348852
9.057                0.959275736     -56.0102855
9.058                0.959194513     -56.0858558
9.059                0.959113041     -56.1615967
9.06                 0.959031318     -56.2375087
9.061                0.958949343     -56.3135925
9.062                0.958867116     -56.3898484
9.063                0.958784634     -56.4662771
9.064                0.958701899     -56.5428791
9.065                0.958618908      -56.619655
9.066                0.958535661     -56.6966053
9.067                0.958452158     -56.7737305
9.068                0.958368396     -56.8510313
9.069                0.958284376     -56.9285081
9.07                 0.958200096     -57.0061616
9.071                0.958115556     -57.0839923
9.072                0.958030755     -57.1620008
9.073                0.957945692     -57.2401876
9.074                0.957860365     -57.3185533
9.075                0.957774775     -57.3970984
9.076                0.957688919     -57.4758236
9.077                0.957602798     -57.5547294
9.078                0.957516411     -57.6338164
9.079                0.957429756     -57.7130852
9.08                 0.957342833     -57.7925363
9.081                 0.95725564     -57.8721704
9.082                0.957168177      -57.951988
9.083                0.957080444     -58.0319897
9.084                0.956992438     -58.1121761
9.085                0.956904159     -58.1925477
9.086                0.956815607     -58.2731053
9.087                 0.95672678     -58.3538493
9.088                0.956637677     -58.4347804
9.089                0.956548298     -58.5158992
9.09                 0.956458642     -58.5972062
9.091                0.956368707     -58.6787022
9.092                0.956278492     -58.7603876
9.093                0.956187998     -58.8422631
9.094                0.956097222     -58.9243293
9.095                0.956006165     -59.0065868
9.096                0.955914824     -59.0890363
9.097                  0.9558232     -59.1716783
9.098                 0.95573129     -59.2545135
9.099                0.955639095     -59.3375424
9.1                  0.955546613     -59.4207658
9.101                0.955453843     -59.5041843
9.102                0.955360785     -59.5877983
9.103                0.955267437     -59.6716087
9.104                0.955173798     -59.7556161
9.105                0.955079868      -59.839821
9.106                0.954985646     -59.9242241
9.107                 0.95489113      -60.008826
9.108                0.954796319     -60.0936275
9.109                0.954701214      -60.178629
9.11                 0.954605811     -60.2638314
9.111                0.954510112     -60.3492352
9.112                0.954414114      -60.434841
9.113                0.954317817     -60.5206496
9.114                 0.95422122     -60.6066616
9.115                0.954124322     -60.6928777
9.116                0.954027121     -60.7792984
9.117                0.953929618     -60.8659246
9.118                 0.95383181     -60.9527567
9.119                0.953733697     -61.0397956
9.12                 0.953635278     -61.1270418
9.121                0.953536551     -61.2144961
9.122                0.953437517     -61.3021591
9.123                0.953338173     -61.3900316
9.124                 0.95323852     -61.4781141
9.125                0.953138555     -61.5664074
9.126                0.953038278     -61.6549121
9.127                0.952937688     -61.7436289
9.128                0.952836783     -61.8325586
9.129                0.952735564     -61.9217018
9.13                 0.952634028     -62.0110592
9.131                0.952532176     -62.1006316
9.132                0.952430005     -62.1904195
9.133                0.952327514     -62.2804237
9.134                0.952224704      -62.370645
9.135                0.952121572      -62.461084
9.136                0.952018118     -62.5517414
9.137                0.951914341      -62.642618
9.138                0.951810239     -62.7337144
9.139                0.951705812     -62.8250314
9.14                 0.951601059     -62.9165697
9.141                0.951495978       -63.00833
9.142                0.951390568     -63.1003131
9.143                0.951284829     -63.1925196
9.144                 0.95117876     -63.2849503
9.145                0.951072359      -63.377606
9.146                0.950965625     -63.4704873
9.147                0.950858557      -63.563595
9.148                0.950751155     -63.6569298
9.149                0.950643417     -63.7504926
9.15                 0.950535342      -63.844284
9.151                 0.95042693     -63.9383047
9.152                0.950318178     -64.0325556
9.153                0.950209086     -64.1270373
9.154                0.950099653     -64.2217507
9.155                0.949989879     -64.3166965
9.156                0.949879761     -64.4118755
9.157                0.949769298     -64.5072883
9.158                0.949658491     -64.6029359
9.159                0.949547337     -64.6988189
9.16                 0.949435835     -64.7949381
9.161                0.949323985     -64.8912943
9.162                0.949211786     -64.9878883
9.163                0.949099236     -65.0847208
9.164                0.948986334     -65.1817927
9.165                0.948873079     -65.2791047
9.166                0.948759471     -65.3766576
9.167                0.948645507     -65.4744522
9.168                0.948531188     -65.5724893
9.169                0.948416511     -65.6707697
9.17                 0.948301476     -65.7692941
9.171                0.948186082     -65.8680635
9.172                0.948070328     -65.9670785
9.173                0.947954212       -66.06634
9.174                0.947837734     -66.1658488
9.175                0.947720892     -66.2656058
9.176                0.947603685     -66.3656116
9.177                0.947486113     -66.4658672
9.178                0.947368174     -66.5663734
9.179                0.947249867      -66.667131
9.18                 0.947131191     -66.7681407
9.181                0.947012144     -66.8694035
9.182                0.946892727     -66.9709202
9.183                0.946772937     -67.0726916
9.184                0.946652774     -67.1747185
9.185                0.946532237     -67.2770019
9.186                0.946411323     -67.3795424
9.187                0.946290034      -67.482341
9.188                0.946168366     -67.5853985
9.189                 0.94604632     -67.6887158
9.19                 0.945923894     -67.7922937
9.191                0.945801086     -67.8961331
9.192                0.945677897     -68.0002348
9.193                0.945554324     -68.1045997
9.194                0.945430367     -68.2092287
9.195                0.945306025     -68.3141226
9.196                0.945181296     -68.4192822
9.197                 0.94505618     -68.5247086
9.198                0.944930675     -68.6304025
9.199                 0.94480478     -68.7363649
9.2                  0.944678494     -68.8425965
9.201                0.944551816     -68.9490983
9.202                0.944424745     -69.0558712
9.203                0.944297281     -69.1629161
9.204                 0.94416942     -69.2702339
9.205                0.944041164     -69.3778254
9.206                 0.94391251     -69.4856915
9.207                0.943783458     -69.5938332
9.208                0.943654006     -69.7022514
9.209                0.943524153     -69.8109469
9.21                 0.943393899     -69.9199207
9.211                0.943263242     -70.0291738
9.212                 0.94313218     -70.1387069
9.213                0.943000714      -70.248521
9.214                0.942868842     -70.3586171
9.215                0.942736562     -70.4689961
9.216                0.942603874     -70.5796588
9.217                0.942470777     -70.6906063
9.218                 0.94233727     -70.8018395
9.219                0.942203351     -70.9133592
9.22                 0.942069019     -71.0251665
9.221                0.941934274     -71.1372623
9.222                0.941799114     -71.2496475
9.223                0.941663538      -71.362323
9.224                0.941527545     -71.4752899
9.225                0.941391135     -71.5885491
9.226                0.941254305     -71.7021015
9.227                0.941117056     -71.8159481
9.228                0.940979385     -71.9300898
9.229                0.940841292     -72.0445277
9.23                 0.940702776     -72.1592626
9.231                0.940563836     -72.2742956
9.232                 0.94042447     -72.3896276
9.233                0.940284678     -72.5052596
9.234                0.940144459     -72.6211927
9.235                0.940003811     -72.7374277
9.236                0.939862733     -72.8539656
9.237                0.939721225     -72.9708075
9.238                0.939579286     -73.0879543
9.239                0.939436914      -73.205407
9.24                 0.939294108     -73.3231667
9.241                0.939150868     -73.4412342
9.242                0.939007192     -73.5596107
9.243                0.938863079     -73.6782972
9.244                0.938718529     -73.7972945
9.245                 0.93857354     -73.9166039
9.246                0.938428111     -74.0362261
9.247                0.938282241     -74.1561624
9.248                 0.93813593     -74.2764137
9.249                0.937989176     -74.3969809
9.25                 0.937841979     -74.5178653
9.251                0.937694337     -74.6390676
9.252                0.937546249     -74.7605891
9.253                0.937397715     -74.8824308
9.254                0.937248733     -75.0045936
9.255                0.937099302     -75.1270786
9.256                0.936949422     -75.2498869
9.257                0.936799092     -75.3730195
9.258                 0.93664831     -75.4964774
9.259                0.936497076     -75.6202618
9.26                 0.936345388     -75.7443735
9.261                0.936193246     -75.8688138
9.262                 0.93604065     -75.9935837
9.263                0.935887597     -76.1186842
9.264                0.935734087     -76.2441164
9.265                0.935580119     -76.3698813
9.266                0.935425692     -76.4959801
9.267                0.935270806     -76.6224138
9.268                0.935115459     -76.7491835
9.269                0.934959651     -76.8762902
9.27                  0.93480338      -77.003735
9.271                0.934646647     -77.1315191
9.272                0.934489449     -77.2596435
9.273                0.934331786     -77.3881093
9.274                0.934173658     -77.5169176
9.275                0.934015062     -77.6460694
9.276                   0.933856      -77.775566
9.277                0.933696469     -77.9054083
9.278                0.933536469     -78.0355975
9.279                   0.933376     -78.1661346
9.28                 0.933215059     -78.2970209
9.281                0.933053647     -78.4282574
9.282                0.932891763     -78.5598452
9.283                0.932729406     -78.6917854
9.284                0.932566575     -78.8240792
9.285                 0.93240327     -78.9567276
9.286                0.932239489     -79.0897319
9.287                0.932075233      -79.223093
9.288                0.931910499     -79.3568122
9.289                0.931745288     -79.4908906
9.29                 0.931579599     -79.6253292
9.291                0.931413431     -79.7601294
9.292                0.931246784     -79.8952921
9.293                0.931079656     -80.0308185
9.294                0.930912048     -80.1667097
9.295                0.930743958      -80.302967
9.296                0.930575386     -80.4395914
9.297                0.930406331     -80.5765842
9.298                0.930236792     -80.7139464
9.299                 0.93006677     -80.8516791
9.3                  0.929896263     -80.9897837
9.301                 0.92972527     -81.1282612
9.302                0.929553792     -81.2671127
9.303                0.929381828     -81.4063395
9.304                0.929209377     -81.5459428
9.305                0.929036438     -81.6859235
9.306                0.928863011     -81.8262831
9.307                0.928689096     -81.9670225
9.308                0.928514692     -82.1081431
9.309                0.928339799     -82.2496459
9.31                 0.928164416     -82.3915322
9.311                0.927988542      -82.533803
9.312                0.927812178     -82.6764597
9.313                0.927635322     -82.8195034
9.314                0.927457975     -82.9629353
9.315                0.927280136     -83.1067565
9.316                0.927101804     -83.2509683
9.317                 0.92692298     -83.3955718
9.318                0.926743663     -83.5405683
9.319                0.926563852     -83.6859588
9.32                 0.926383548     -83.8317448
9.321                 0.92620275     -83.9779272
9.322                0.926021457     -84.1245074
9.323                 0.92583967     -84.2714865
9.324                0.925657388     -84.4188657
9.325                0.925474611     -84.5666463
9.326                0.925291338     -84.7148295
9.327                0.925107571     -84.8634163
9.328                0.924923307     -85.0124082
9.329                0.924738548     -85.1618062
9.33                 0.924553293     -85.3116116
9.331                0.924367542     -85.4618256
9.332                0.924181295     -85.6124495
9.333                0.923994552     -85.7634843
9.334                0.923807313     -85.9149315
9.335                0.923619577     -86.0667921
9.336                0.923431345     -86.2190674
9.337                0.923242616     -86.3717586
9.338                0.923053392     -86.5248669
9.339                0.922863671     -86.6783936
9.34                 0.922673454       -86.83234
9.341                 0.92248274     -86.9867071
9.342                0.922291531     -87.1414962
9.343                0.922099826     -87.2967087
9.344                0.921907625     -87.4523456
9.345                0.921714929     -87.6084083
9.346                0.921521738     -87.7648979
9.347                0.921328051     -87.9218158
9.348                0.921133869      -88.079163
9.349                0.920939193     -88.2369409
9.35                 0.920744023     -88.3951507
9.351                0.920548359     -88.5537937
9.352                0.920352201      -88.712871
9.353                0.920155549     -88.8723839
9.354                0.919958405     -89.0323336
9.355                0.919760769     -89.1927214
9.356                 0.91956264     -89.3535485
9.357                 0.91936402     -89.5148162
9.358                0.919164909     -89.6765256
9.359                0.918965308      -89.838678
9.36                 0.918765216     -90.0012747
9.361                0.918564635     -90.1643169
9.362                0.918363566     -90.3278058
9.363                0.918162008     -90.4917427
9.364                0.917959963     -90.6561288
9.365                0.917757432     -90.8209654
9.366                0.917554414     -90.9862536
9.367                0.917350911     -91.1519947
9.368                0.917146924     -91.3181899
9.369                0.916942453     -91.4848406
9.37                 0.916737499     -91.6519479
9.371                0.916532063      -91.819513
9.372                0.916326146     -91.9875372
9.373                 0.91611975     -92.1560217
9.374                0.915912874     -92.3249678
9.375                 0.91570552     -92.4943766
9.376                0.915497689     -92.6642495
9.377                0.915289383     -92.8345876
9.378                0.915080601     -93.0053922
9.379                0.914871346     -93.1766645
9.38                 0.914661618     -93.3484057
9.381                0.914451419     -93.5206171
9.382                 0.91424075     -93.6932998
9.383                0.914029613     -93.8664551
9.384                0.913818007     -94.0400843
9.385                0.913605936     -94.2141885
9.386                  0.9133934     -94.3887689
9.387                0.913180401     -94.5638268
9.388                 0.91296694     -94.7393634
9.389                0.912753019     -94.9153799
9.39                 0.912538639     -95.0918774
9.391                0.912323802     -95.2688573
9.392                 0.91210851     -95.4463208
9.393                0.911892763     -95.6242689
9.394                0.911676565     -95.8027029
9.395                0.911459916     -95.9816241
9.396                0.911242818     -96.1610336
