! TOUCHSTONE file generated by CST DESIGN STUDIO
! Date and time: Tue Feb  4 14:26:50 2025
! Project name: C:\Work\MatlabApps\UnitCellOptimizationMatlab\CST\unitcell.cst
! Tree item: Tasks\Sweep1\SPara1\S-Parameters
! Header version: 2024
! Port assignment regex: !\s*Touchstone port\s*([0-9]+)\s*=\s*(CST MWS port|CST DES external port|CST DES block port)\s*(.+)\s* \(\"(.*)\"\)(\s*mode\s*([0-9]+))?.*
! Touchstone port assignment:
! Touchstone port 1 = CST DES external port 1 ("")
# GHz S MA R 50
9                    0.933265994     -79.9886452
9.001                0.933001147     -80.1206786
9.002                0.932736186     -80.2530663
9.003                0.932471113     -80.3858096
9.004                 0.93220593       -80.51891
9.005                0.931940641      -80.652369
9.006                0.931675247     -80.7861879
9.007                0.931409752     -80.9203682
9.008                0.931144157     -81.0549113
9.009                0.930878466     -81.1898188
9.01                 0.930612681      -81.325092
9.011                0.930346804     -81.4607324
9.012                0.930080839     -81.5967415
9.013                0.929814787     -81.7331207
9.014                0.929548652     -81.8698715
9.015                0.929282436     -82.0069955
9.016                0.929016142      -82.144494
9.017                0.928749772     -82.2823686
9.018                0.928483328     -82.4206208
9.019                0.928216815      -82.559252
9.02                 0.927950234     -82.6982638
9.021                0.927683587     -82.8376577
9.022                0.927416879     -82.9774352
9.023                0.927150111     -83.1175978
9.024                0.926883285      -83.258147
9.025                0.926616406     -83.3990845
9.026                0.926349475     -83.5404116
9.027                0.926082496       -83.68213
9.028                 0.92581547     -83.8242412
9.029                0.925548402     -83.9667467
9.03                 0.925281292     -84.1096481
9.031                0.925014146      -84.252947
9.032                0.924746964     -84.3966449
9.033                 0.92447975     -84.5407434
9.034                0.924212508     -84.6852441
9.035                0.923945238     -84.8301485
9.036                0.923677946     -84.9754582
9.037                0.923410632     -85.1211748
9.038                0.923143301        -85.2673
9.039                0.922875955     -85.4138352
9.04                 0.922608597     -85.5607822
9.041                0.922341229     -85.7081424
9.042                0.922073856     -85.8559176
9.043                0.921806479     -86.0041093
9.044                0.921539101     -86.1527192
9.045                0.921271727     -86.3017488
9.046                0.921004358     -86.4511999
9.047                0.920736997      -86.601074
9.048                0.920469648     -86.7513727
9.049                0.920202314     -86.9020978
9.05                 0.919934997     -87.0532509
9.051                0.919667701     -87.2048335
9.052                0.919400428     -87.3568474
9.053                0.919133182     -87.5092943
9.054                0.918865966     -87.6621757
9.055                0.918598783     -87.8154935
9.056                0.918331636     -87.9692491
9.057                0.918064528     -88.1234443
9.058                0.917797462     -88.2780808
9.059                0.917530442     -88.4331603
9.06                  0.91726347     -88.5886844
9.061                 0.91699655     -88.7446549
9.062                0.916729685     -88.9010734
9.063                0.916462879     -89.0579417
9.064                0.916196133     -89.2152614
9.065                0.915929453     -89.3730342
9.066                 0.91566284     -89.5312619
9.067                0.915396298     -89.6899461
9.068                0.915129831     -89.8490886
9.069                0.914863442     -90.0086912
9.07                 0.914597134     -90.1687554
9.071                 0.91433091     -90.3292831
9.072                0.914064775      -90.490276
9.073                 0.91379873     -90.6517358
9.074                 0.91353278     -90.8136643
9.075                0.913266929     -90.9760631
9.076                0.913001179     -91.1389341
9.077                0.912735533      -91.302279
9.078                0.912469997     -91.4660995
9.079                0.912204572     -91.6303973
9.08                 0.911939263     -91.7951744
9.081                0.911674072     -91.9604323
9.082                0.911409005     -92.1261728
9.083                0.911144063     -92.2923978
9.084                0.910879251      -92.459109
9.085                0.910614573     -92.6263081
9.086                0.910350032     -92.7939969
9.087                0.910085631     -92.9621773
9.088                0.909821374     -93.1308509
9.089                0.909557266     -93.3000195
9.09                 0.909293309      -93.469685
9.091                0.909029508     -93.6398491
9.092                0.908765866     -93.8105136
9.093                0.908502388     -93.9816802
9.094                0.908239076     -94.1533509
9.095                0.907975934     -94.3255272
9.096                0.907712968     -94.4982112
9.097                0.907450179     -94.6714044
9.098                0.907187573     -94.8451088
9.099                0.906925154     -95.0193261
9.1                  0.906662924     -95.1940582
9.101                0.906400889     -95.3693068
9.102                0.906139052     -95.5450736
9.103                0.905877417     -95.7213606
9.104                0.905615989     -95.8981696
9.105                 0.90535477     -96.0755022
9.106                0.905093766     -96.2533604
9.107                0.904832981     -96.4317459
9.108                0.904572419     -96.6106606
9.109                0.904312083     -96.7901061
9.11                 0.904051978     -96.9700845
9.111                0.903792109     -97.1505973
9.112                0.903532479     -97.3316465
9.113                0.903273093     -97.5132339
9.114                0.903013955     -97.6953613
9.115                 0.90275507     -97.8780304
9.116                0.902496442      -98.061243
9.117                0.902238075     -98.2450011
9.118                0.901979973     -98.4293063
9.119                0.901722142     -98.6141605
9.12                 0.901464585     -98.7995655
9.121                0.901207307     -98.9855231
9.122                0.900950313      -99.172035
9.123                0.900693607     -99.3591032
9.124                0.900437194     -99.5467293
9.125                0.900181079     -99.7349152
9.126                0.899925265     -99.9236626
9.127                0.899669758     -100.112973
9.128                0.899414563     -100.302849
9.129                0.899159684     -100.493292
9.13                 0.898905126     -100.684304
9.131                0.898650894     -100.875886
9.132                0.898396992     -101.068041
9.133                0.898143426     -101.260769
9.134                0.897890201     -101.454074
9.135                0.897637321     -101.647956
9.136                0.897384791     -101.842417
9.137                0.897132617      -102.03746
9.138                0.896880803     -102.233085
9.139                0.896629354     -102.429295
9.14                 0.896378276     -102.626092
9.141                0.896127574     -102.823477
9.142                0.895877253     -103.021451
9.143                0.895627318     -103.220018
9.144                0.895377774     -103.419178
9.145                0.895128626     -103.618933
9.146                0.894879881     -103.819285
9.147                0.894631543     -104.020235
9.148                0.894383618     -104.221786
9.149                 0.89413611     -104.423939
9.15                 0.893889026     -104.626696
9.151                0.893642372     -104.830059
9.152                0.893396151     -105.034028
9.153                0.893150371     -105.238606
9.154                0.892905037     -105.443795
9.155                0.892660154     -105.649597
9.156                0.892415728     -105.856012
9.157                0.892171764     -106.063042
9.158                0.891928269      -106.27069
9.159                0.891685249     -106.478957
9.16                 0.891442708     -106.687845
9.161                0.891200654     -106.897354
9.162                0.890959091     -107.107488
9.163                0.890718026     -107.318247
9.164                0.890477464     -107.529633
9.165                0.890237413     -107.741648
9.166                0.889997877     -107.954293
9.167                0.889758863     -108.167569
9.168                0.889520378      -108.38148
9.169                0.889282426     -108.596025
9.17                 0.889045015     -108.811207
9.171                 0.88880815     -109.027027
9.172                0.888571839     -109.243487
9.173                0.888336086     -109.460588
9.174                  0.8881009     -109.678332
9.175                0.887866285      -109.89672
9.176                0.887632249     -110.115753
9.177                0.887398798     -110.335434
9.178                0.887165938     -110.555764
9.179                0.886933677     -110.776744
9.18                  0.88670202     -110.998376
9.181                0.886470974      -111.22066
9.182                0.886240547     -111.443599
9.183                0.886010744     -111.667195
9.184                0.885781573     -111.891447
9.185                 0.88555304     -112.116358
9.186                0.885325152      -112.34193
9.187                0.885097917     -112.568163
9.188                 0.88487134     -112.795058
9.189                 0.88464543     -113.022618
9.19                 0.884420192     -113.250844
9.191                0.884195634     -113.479736
9.192                0.883971764     -113.709296
9.193                0.883748588     -113.939526
9.194                0.883526113     -114.170426
9.195                0.883304347     -114.401998
9.196                0.883083297     -114.634244
9.197                 0.88286297     -114.867163
9.198                0.882643373     -115.100758
9.199                0.882424515      -115.33503
9.2                  0.882206402      -115.56998
9.201                0.881989041     -115.805609
9.202                0.881772441     -116.041918
9.203                0.881556609     -116.278908
9.204                0.881341552     -116.516581
9.205                0.881127279     -116.754937
9.206                0.880913795     -116.993977
9.207                0.880701111     -117.233704
9.208                0.880489232     -117.474116
9.209                0.880278167     -117.715216
9.21                 0.880067924     -117.957005
9.211                0.879858511     -118.199483
9.212                0.879649935     -118.442651
9.213                0.879442204     -118.686511
9.214                0.879235326     -118.931063
9.215                 0.87902931     -119.176308
9.216                0.878824163     -119.422247
9.217                0.878619894     -119.668881
9.218                 0.87841651      -119.91621
9.219                0.878214019     -120.164235
9.22                 0.878012431     -120.412958
9.221                0.877811752     -120.662378
9.222                0.877611992     -120.912497
9.223                0.877413158     -121.163315
9.224                0.877215259     -121.414833
9.225                0.877018304     -121.667051
9.226                  0.8768223      -121.91997
9.227                0.876627255     -122.173591
9.228                 0.87643318     -122.427914
9.229                0.876240081      -122.68294
9.23                 0.876047968      -122.93867
9.231                0.875856849     -123.195102
9.232                0.875666732     -123.452239
9.233                0.875477626     -123.710081
9.234                 0.87528954     -123.968628
9.235                0.875102483      -124.22788
9.236                0.874916463     -124.487837
9.237                0.874731488     -124.748501
9.238                0.874547568      -125.00987
9.239                0.874364711     -125.271946
9.24                 0.874182927     -125.534729
9.241                0.874002223     -125.798219
9.242                0.873822609     -126.062416
9.243                0.873644094      -126.32732
9.244                0.873466686     -126.592931
9.245                0.873290394     -126.859249
9.246                0.873115228     -127.126275
9.247                0.872941196     -127.394008
9.248                0.872768307     -127.662448
9.249                 0.87259657     -127.931596
9.25                 0.872425995      -128.20145
9.251                0.872256589     -128.472012
9.252                0.872088363      -128.74328
9.253                0.871921325     -129.015255
9.254                0.871755485     -129.287936
9.255                 0.87159085     -129.561323
9.256                0.871427431     -129.835415
9.257                0.871265237     -130.110213
9.258                0.871104276     -130.385716
9.259                0.870944558     -130.661924
9.26                 0.870786092     -130.938836
9.261                0.870628886     -131.216451
9.262                0.870472951     -131.494769
9.263                0.870318295     -131.773789
9.264                0.870164927     -132.053512
9.265                0.870012857     -132.333935
9.266                0.869862093     -132.615059
9.267                0.869712646     -132.896883
9.268                0.869564522     -133.179405
9.269                0.869417733     -133.462626
9.27                 0.869272287     -133.746544
9.271                0.869128194     -134.031159
9.272                0.868985461     -134.316469
9.273                0.868844099     -134.602473
9.274                0.868704117     -134.889171
9.275                0.868565523     -135.176561
9.276                0.868428326     -135.464642
9.277                0.868292537     -135.753414
9.278                0.868158163     -136.042874
9.279                0.868025214     -136.333023
9.28                 0.867893699     -136.623857
9.281                0.867763627     -136.915377
9.282                0.867635007      -137.20758
9.283                0.867507847     -137.500466
9.284                0.867382157     -137.794033
9.285                0.867257945     -138.088279
9.286                0.867135221     -138.383203
9.287                0.867013993     -138.678803
9.288                 0.86689427     -138.975078
9.289                 0.86677606     -139.272025
9.29                 0.866659374     -139.569644
9.291                0.866544218     -139.867933
9.292                0.866430603     -140.166889
9.293                0.866318536      -140.46651
9.294                0.866208026     -140.766796
9.295                0.866099082     -141.067743
9.296                0.865991712     -141.369351
9.297                0.865885924     -141.671616
9.298                0.865781728     -141.974537
9.299                0.865679131     -142.278111
9.3                  0.865578142     -142.582337
9.301                0.865478769     -142.887212
9.302                 0.86538102     -143.192733
9.303                0.865284904     -143.498899
9.304                0.865190428     -143.805707
9.305                  0.8650976     -144.113155
9.306                0.865006429      -144.42124
9.307                0.864916923      -144.72996
9.308                0.864829088     -145.039311
9.309                0.864742934     -145.349292
9.31                 0.864658467       -145.6599
9.311                0.864575695     -145.971131
9.312                0.864494627     -146.282984
9.313                0.864415269     -146.595455
9.314                0.864337628     -146.908541
9.315                0.864261713     -147.222239
9.316                 0.86418753     -147.536548
9.317                0.864115087     -147.851462
9.318                 0.86404439      -148.16698
9.319                0.863975447     -148.483098
9.32                 0.863908265     -148.799813
9.321                 0.86384285     -149.117122
9.322                0.863779209     -149.435021
9.323                0.863717349     -149.753507
9.324                0.863657276     -150.072577
9.325                0.863598996     -150.392228
9.326                0.863542517     -150.712455
9.327                0.863487844     -151.033255
9.328                0.863434984     -151.354625
9.329                0.863383942      -151.67656
9.33                 0.863334725     -151.999058
9.331                0.863287337     -152.322115
9.332                0.863241786     -152.645726
9.333                0.863198076     -152.969888
9.334                0.863156213     -153.294596
9.335                0.863116203     -153.619848
9.336                 0.86307805     -153.945639
9.337                 0.86304176     -154.271965
9.338                0.863007337     -154.598821
9.339                0.862974787     -154.926204
9.34                 0.862944115      -155.25411
9.341                0.862915324     -155.582534
9.342                 0.86288842     -155.911471
9.343                0.862863406     -156.240918
9.344                0.862840288     -156.570871
9.345                0.862819069     -156.901324
9.346                0.862799753     -157.232273
9.347                0.862782343     -157.563714
9.348                0.862766844     -157.895642
9.349                 0.86275326     -158.228052
9.35                 0.862741592      -158.56094
9.351                0.862731846     -158.894301
9.352                0.862724023     -159.228131
9.353                0.862718127     -159.562423
9.354                 0.86271416     -159.897175
9.355                0.862712126     -160.232379
9.356                0.862712027     -160.568033
9.357                0.862713864      -160.90413
9.358                0.862717641     -161.240665
9.359                0.862723358     -161.577634
9.36                 0.862731019     -161.915031
9.361                0.862740625     -162.252852
9.362                0.862752177      -162.59109
9.363                0.862765677      -162.92974
9.364                0.862781126     -163.268798
9.365                0.862798524     -163.608258
9.366                0.862817874     -163.948115
9.367                0.862839175     -164.288362
9.368                0.862862428     -164.628995
9.369                0.862887634     -164.970008
9.37                 0.862914793     -165.311395
9.371                0.862943904     -165.653151
9.372                0.862974968     -165.995271
9.373                0.863007984     -166.337747
9.374                0.863042952     -166.680576
9.375                0.863079871     -167.023751
9.376                 0.86311874     -167.367265
9.377                0.863159559     -167.711114
9.378                0.863202326     -168.055292
9.379                0.863247039     -168.399792
9.38                 0.863293698     -168.744609
9.381                0.863342299     -169.089736
9.382                0.863392843     -169.435168
9.383                0.863445326     -169.780899
9.384                0.863499746     -170.126922
9.385                  0.8635561     -170.473231
9.386                0.863614387     -170.819821
9.387                0.863674603     -171.166684
9.388                0.863736744     -171.513816
9.389                0.863800809     -171.861209
9.39                 0.863866794     -172.208857
9.391                0.863934694     -172.556754
9.392                0.864004507     -172.904894
9.393                0.864076227     -173.253271
9.394                0.864149853     -173.601877
9.395                0.864225378     -173.950707
9.396                0.864302798     -174.299754
