! TOUCHSTONE file generated by CST DESIGN STUDIO
! Date and time: Tue Feb  4 14:26:44 2025
! Project name: C:\Work\MatlabApps\UnitCellOptimizationMatlab\CST\unitcell.cst
! Tree item: Tasks\Sweep1\SPara1\S-Parameters
! Header version: 2024
! Port assignment regex: !\s*Touchstone port\s*([0-9]+)\s*=\s*(CST MWS port|CST DES external port|CST DES block port)\s*(.+)\s* \(\"(.*)\"\)(\s*mode\s*([0-9]+))?.*
! Touchstone port assignment:
! Touchstone port 1 = CST DES external port 1 ("")
# GHz S MA R 50
9                    0.908558854     -103.677768
9.001                 0.90810158     -103.879968
9.002                0.907644218     -104.082696
9.003                0.907186781     -104.285953
9.004                0.906729282      -104.48974
9.005                0.906271733      -104.69406
9.006                0.905814147     -104.898913
9.007                0.905356538     -105.104302
9.008                0.904898918     -105.310228
9.009                  0.9044413     -105.516692
9.01                 0.903983697     -105.723697
9.011                0.903526123     -105.931244
9.012                0.903068591     -106.139334
9.013                0.902611114      -106.34797
9.014                0.902153706     -106.557152
9.015                0.901696379     -106.766882
9.016                0.901239147     -106.977162
9.017                0.900782025     -107.187994
9.018                0.900325024     -107.399379
9.019                 0.89986816     -107.611318
9.02                 0.899411445     -107.823814
9.021                0.898954894     -108.036867
9.022                 0.89849852      -108.25048
9.023                0.898042337     -108.464653
9.024                0.897586359     -108.679389
9.025                  0.8971306     -108.894689
9.026                0.896675074     -109.110555
9.027                0.896219795     -109.326987
9.028                0.895764778     -109.543988
9.029                0.895310036      -109.76156
9.03                 0.894855585     -109.979702
9.031                0.894401437     -110.198419
9.032                0.893947608     -110.417709
9.033                0.893494113     -110.637576
9.034                0.893040965     -110.858021
9.035                0.892588179     -111.079044
9.036                0.892135771     -111.300648
9.037                0.891683754     -111.522835
9.038                0.891232144     -111.745605
9.039                0.890780955     -111.968959
9.04                 0.890330202     -112.192901
9.041                  0.8898799      -112.41743
9.042                0.889430065     -112.642548
9.043                0.888980711     -112.868258
9.044                0.888531854     -113.094559
9.045                0.888083509     -113.321454
9.046                0.887635691     -113.548944
9.047                0.887188415      -113.77703
9.048                0.886741697     -114.005714
9.049                0.886295552     -114.234996
9.05                 0.885849996      -114.46488
9.051                0.885405045     -114.695364
9.052                0.884960714     -114.926452
9.053                0.884517019     -115.158145
9.054                0.884073975     -115.390443
9.055                0.883631599     -115.623348
9.056                0.883189906     -115.856861
9.057                0.882748913     -116.090983
9.058                0.882308635     -116.325717
9.059                0.881869089     -116.561062
9.06                  0.88143029     -116.797021
9.061                0.880992256     -117.033594
9.062                0.880555001     -117.270782
9.063                0.880118543     -117.508588
9.064                0.879682899     -117.747011
9.065                0.879248083     -117.986053
9.066                0.878814114     -118.225716
9.067                0.878381007        -118.466
9.068                0.877948779     -118.706907
9.069                0.877517447     -118.948437
9.07                 0.877087028     -119.190592
9.071                0.876657538     -119.433372
9.072                0.876228995      -119.67678
9.073                0.875801415     -119.920815
9.074                0.875374816     -120.165479
9.075                0.874949213     -120.410772
9.076                0.874524626     -120.656697
9.077                 0.87410107     -120.903253
9.078                0.873678562     -121.150441
9.079                0.873257121     -121.398264
9.08                 0.872836764      -121.64672
9.081                0.872417507     -121.895812
9.082                0.871999369      -122.14554
9.083                0.871582366     -122.395906
9.084                0.871166517     -122.646909
9.085                0.870751839      -122.89855
9.086                 0.87033835     -123.150831
9.087                0.869926067     -123.403752
9.088                0.869515008     -123.657314
9.089                0.869105191     -123.911518
9.09                 0.868696634     -124.166363
9.091                0.868289354     -124.421852
9.092                 0.86788337     -124.677984
9.093                  0.8674787     -124.934761
9.094                0.867075362     -125.192182
9.095                0.866673373     -125.450248
9.096                0.866272752      -125.70896
9.097                0.865873518     -125.968319
9.098                0.865475687     -126.228325
9.099                0.865079279     -126.488977
9.1                  0.864684312     -126.750278
9.101                0.864290805     -127.012227
9.102                0.863898775     -127.274824
9.103                 0.86350824      -127.53807
9.104                0.863119221     -127.801966
9.105                0.862731734     -128.066511
9.106                0.862345799     -128.331706
9.107                0.861961434     -128.597551
9.108                0.861578657     -128.864046
9.109                0.861197488     -129.131192
9.11                 0.860817945     -129.398988
9.111                0.860440046     -129.667436
9.112                 0.86006381     -129.936534
9.113                0.859689257     -130.206283
9.114                0.859316404     -130.476683
9.115                0.858945271     -130.747734
9.116                0.858575876     -131.019436
9.117                0.858208238     -131.291789
9.118                0.857842376     -131.564793
9.119                0.857478309     -131.838447
9.12                 0.857116056     -132.112752
9.121                0.856755635     -132.387708
9.122                0.856397066     -132.663314
9.123                0.856040367     -132.939569
9.124                0.855685558     -133.216475
9.125                0.855332657     -133.494029
9.126                0.854981682     -133.772233
9.127                0.854632654     -134.051085
9.128                0.854285591     -134.330585
9.129                0.853940512     -134.610733
9.13                 0.853597435     -134.891528
9.131                0.853256381      -135.17297
9.132                0.852917367     -135.455058
9.133                0.852580412     -135.737791
9.134                0.852245536      -136.02117
9.135                0.851912758     -136.305192
9.136                0.851582096     -136.589858
9.137                0.851253569     -136.875166
9.138                0.850927195     -137.161117
9.139                0.850602995     -137.447708
9.14                 0.850280986      -137.73494
9.141                0.849961188     -138.022811
9.142                0.849643618      -138.31132
9.143                0.849328297     -138.600466
9.144                0.849015242     -138.890249
9.145                0.848704472     -139.180667
9.146                0.848396006     -139.471719
9.147                0.848089862     -139.763404
9.148                0.847786059     -140.055721
9.149                0.847484616     -140.348668
9.15                  0.84718555     -140.642245
9.151                0.846888881     -140.936449
9.152                0.846594626      -141.23128
9.153                0.846302804     -141.526736
9.154                0.846013433     -141.822815
9.155                0.845726532     -142.119517
9.156                0.845442118      -142.41684
9.157                 0.84516021     -142.714781
9.158                0.844880825      -143.01334
9.159                0.844603981     -143.312515
9.16                 0.844329697     -143.612303
9.161                 0.84405799     -143.912704
9.162                0.843788878     -144.213716
9.163                0.843522377     -144.515336
9.164                0.843258507     -144.817562
9.165                0.842997285     -145.120394
9.166                0.842738727     -145.423828
9.167                0.842482851     -145.727863
9.168                0.842229674     -146.032497
9.169                0.841979213     -146.337727
9.17                 0.841731486     -146.643552
9.171                0.841486508     -146.949968
9.172                0.841244298     -147.256975
9.173                0.841004871     -147.564569
9.174                0.840768244     -147.872749
9.175                0.840534433     -148.181511
9.176                0.840303456     -148.490854
9.177                0.840075327     -148.800774
9.178                0.839850063      -149.11127
9.179                 0.83962768     -149.422338
9.18                 0.839408194     -149.733977
9.181                0.839191621     -150.046183
9.182                0.838977975     -150.358954
9.183                0.838767273     -150.672286
9.184                0.838559529     -150.986178
9.185                0.838354759     -151.300625
9.186                0.838152977     -151.615626
9.187                0.837954199     -151.931177
9.188                0.837758439     -152.247275
9.189                0.837565711     -152.563918
9.19                  0.83737603     -152.881101
9.191                 0.83718941     -153.198822
9.192                0.837005865     -153.517078
9.193                0.836825409     -153.835866
9.194                0.836648055     -154.155181
9.195                0.836473817     -154.475021
9.196                0.836302708     -154.795382
9.197                 0.83613474     -155.116261
9.198                0.835969928     -155.437654
9.199                0.835808284     -155.759558
9.2                  0.835649819     -156.081969
9.201                0.835494547     -156.404884
9.202                 0.83534248     -156.728298
9.203                0.835193629     -157.052208
9.204                0.835048006     -157.376611
9.205                0.834905622     -157.701502
9.206                 0.83476649     -158.026877
9.207                0.834630619     -158.352734
9.208                0.834498021     -158.679066
9.209                0.834368706     -159.005871
9.21                 0.834242684     -159.333145
9.211                0.834119966     -159.660883
9.212                0.834000562     -159.989082
9.213                0.833884481     -160.317736
9.214                0.833771733     -160.646842
9.215                0.833662326     -160.976395
9.216                0.833556271     -161.306392
9.217                0.833453574     -161.636827
9.218                0.833354246     -161.967696
9.219                0.833258294     -162.298996
9.22                 0.833165725      -162.63072
9.221                0.833076548     -162.962865
9.222                0.832990771     -163.295426
9.223                0.832908399     -163.628399
9.224                 0.83282944     -163.961778
9.225                0.832753901     -164.295559
9.226                0.832681788     -164.629737
9.227                0.832613106     -164.964308
9.228                0.832547863     -165.299266
9.229                0.832486062     -165.634606
9.23                  0.83242771     -165.970324
9.231                0.832372812     -166.306415
9.232                0.832321371     -166.642873
9.233                0.832273392     -166.979694
9.234                 0.83222888     -167.316872
9.235                0.832187838     -167.654403
9.236                0.832150269      -167.99228
9.237                0.832116177     -168.330499
9.238                0.832085565     -168.669055
9.239                0.832058435     -169.007942
9.24                 0.832034788     -169.347155
9.241                0.832014629     -169.686689
9.242                0.831997957     -170.026537
9.243                0.831984774     -170.366696
9.244                0.831975082     -170.707158
9.245                 0.83196888     -171.047919
9.246                 0.83196617     -171.388974
9.247                0.831966951     -171.730316
9.248                0.831971223     -172.071939
9.249                0.831978986      -172.41384
9.25                 0.831990239      -172.75601
9.251                0.832004979     -173.098446
9.252                0.832023207     -173.441141
9.253                 0.83204492     -173.784089
9.254                0.832070116     -174.127285
9.255                0.832098793     -174.470723
9.256                0.832130946     -174.814397
9.257                0.832166575     -175.158301
9.258                0.832205674     -175.502429
9.259                 0.83224824     -175.846775
9.26                 0.832294269     -176.191334
9.261                0.832343757     -176.536099
9.262                0.832396698     -176.881064
9.263                0.832453088     -177.226223
9.264                0.832512921     -177.571571
9.265                0.832576192     -177.917101
9.266                0.832642893     -178.262807
9.267                 0.83271302     -178.608683
9.268                0.832786564     -178.954722
9.269                0.832863519      -179.30092
9.27                 0.832943878     -179.647269
9.271                0.833027632     -179.993763
9.272                0.833114774      179.659604
9.273                0.833205294      179.312838
9.274                0.833299186      178.965945
9.275                0.833396438      178.618932
9.276                0.833497042      178.271805
9.277                0.833600989       177.92457
9.278                0.833708267      177.577233
9.279                0.833818868      177.229801
9.28                 0.833932779      176.882281
9.281                 0.83404999      176.534677
9.282                 0.83417049      176.186998
9.283                0.834294266      175.839248
9.284                0.834421308      175.491435
9.285                0.834551603      175.143565
9.286                0.834685137      174.795644
9.287                0.834821899      174.447679
9.288                0.834961874      174.099676
9.289                 0.83510505      173.751641
9.29                 0.835251412      173.403581
9.291                0.835400947      173.055502
9.292                0.835553639       172.70741
9.293                0.835709475      172.359313
9.294                0.835868439      172.011215
9.295                0.836030515      171.663125
9.296                0.836195689      171.315048
9.297                0.836363944       170.96699
9.298                0.836535263      170.618958
9.299                0.836709631      170.270959
9.3                  0.836887031      169.922998
9.301                0.837067445      169.575083
9.302                0.837250856      169.227219
9.303                0.837437246      168.879413
9.304                0.837626599      168.531671
9.305                0.837818894         168.184
9.306                0.838014115      167.836406
9.307                0.838212242      167.488895
9.308                0.838413256      167.141474
9.309                0.838617138      166.794149
9.31                 0.838823869      166.446927
9.311                0.839033429      166.099813
9.312                0.839245797      165.752814
9.313                0.839460955      165.405936
9.314                 0.83967888      165.059185
9.315                0.839899553      164.712569
9.316                0.840122953      164.366092
9.317                0.840349058      164.019762
9.318                0.840577847      163.673584
9.319                0.840809299      163.327564
9.32                 0.841043391       162.98171
9.321                0.841280102      162.636026
9.322                 0.84151941       162.29052
9.323                0.841761291      161.945196
9.324                0.842005724      161.600062
9.325                0.842252685      161.255124
9.326                0.842502152      160.910387
9.327                0.842754101      160.565857
9.328                0.843008509      160.221541
9.329                0.843265352      159.877444
9.33                 0.843524607      159.533573
9.331                 0.84378625      159.189933
9.332                0.844050255       158.84653
9.333                0.844316601      158.503371
9.334                0.844585261       158.16046
9.335                0.844856211      157.817805
9.336                0.845129427       157.47541
9.337                0.845404884      157.133282
9.338                0.845682556      156.791426
9.339                0.845962419      156.449847
9.34                 0.846244448      156.108553
9.341                0.846528616      155.767548
9.342                0.846814899      155.426837
9.343                 0.84710327      155.086428
9.344                0.847393705      154.746324
9.345                0.847686177      154.406532
9.346                 0.84798066      154.067057
9.347                0.848277129      153.727905
9.348                0.848575557      153.389081
9.349                0.848875917       153.05059
9.35                 0.849178185      152.712438
9.351                0.849482332      152.374631
9.352                0.849788333      152.037172
9.353                0.850096162      151.700069
9.354                0.850405791      151.363326
9.355                0.850717194      151.026947
9.356                0.851030344       150.69094
9.357                0.851345215      150.355307
9.358                 0.85166178      150.020055
9.359                0.851980011      149.685189
9.36                 0.852299883      149.350713
9.361                0.852621367      149.016633
9.362                0.852944437      148.682953
9.363                0.853269067      148.349679
9.364                0.853595229      148.016815
9.365                0.853922895      147.684366
9.366                 0.85425204      147.352337
9.367                0.854582636      147.020732
9.368                0.854914656      146.689557
9.369                0.855248073      146.358815
9.37                  0.85558286      146.028512
9.371                 0.85591899      145.698652
9.372                0.856256437      145.369239
9.373                0.856595172      145.040279
9.374                0.856935169      144.711775
9.375                0.857276402      144.383732
9.376                0.857618842      144.056154
9.377                0.857962465      143.729045
9.378                0.858307242      143.402411
9.379                0.858653147      143.076255
9.38                 0.859000153       142.75058
9.381                0.859348234      142.425392
9.382                0.859697363      142.100695
9.383                0.860047513      141.776492
9.384                0.860398658      141.452788
9.385                0.860750772      141.129586
9.386                0.861103829       140.80689
9.387                0.861457801      140.484705
9.388                0.861812663      140.163034
9.389                0.862168389       139.84188
9.39                 0.862524953      139.521249
9.391                0.862882329      139.201142
9.392                0.863240491      138.881565
9.393                0.863599413       138.56252
9.394                0.863959071      138.244012
9.395                0.864319437      137.926043
9.396                0.864680487      137.608617
