! TOUCHSTONE file generated by CST DESIGN STUDIO
! Date and time: Tue Feb  4 14:26:56 2025
! Project name: C:\Work\MatlabApps\UnitCellOptimizationMatlab\CST\unitcell.cst
! Tree item: Tasks\Sweep1\SPara1\S-Parameters
! Header version: 2024
! Port assignment regex: !\s*Touchstone port\s*([0-9]+)\s*=\s*(CST MWS port|CST DES external port|CST DES block port)\s*(.+)\s* \(\"(.*)\"\)(\s*mode\s*([0-9]+))?.*
! Touchstone port assignment:
! Touchstone port 1 = CST DES external port 1 ("")
# GHz S MA R 50
9                    0.952821949     -62.3779623
9.001                0.952690957      -62.465668
9.002                0.952560045     -62.5535924
9.003                0.952429214     -62.6417365
9.004                0.952298464     -62.7301011
9.005                0.952167796     -62.8186871
9.006                 0.95203721     -62.9074955
9.007                0.951906706     -62.9965272
9.008                0.951776285     -63.0857831
9.009                0.951645947     -63.1752641
9.01                 0.951515692     -63.2649711
9.011                 0.95138552      -63.354905
9.012                0.951255432     -63.4450669
9.013                0.951125427     -63.5354576
9.014                0.950995507     -63.6260781
9.015                0.950865671     -63.7169292
9.016                0.950735919     -63.8080121
9.017                0.950606252     -63.8993275
9.018                 0.95047667     -63.9908765
9.019                0.950347173     -64.0826601
9.02                 0.950217762     -64.1746791
9.021                0.950088436     -64.2669346
9.022                0.949959195     -64.3594274
9.023                0.949830041     -64.4521587
9.024                0.949700972     -64.5451294
9.025                 0.94957199     -64.6383404
9.026                0.949443094     -64.7317927
9.027                0.949314284     -64.8254874
9.028                0.949185561     -64.9194253
9.029                0.949056924     -65.0136076
9.03                 0.948928374     -65.1080352
9.031                0.948799911     -65.2027092
9.032                0.948671534     -65.2976304
9.033                0.948543245        -65.3928
9.034                0.948415043     -65.4882189
9.035                0.948286928     -65.5838883
9.036                  0.9481589      -65.679809
9.037                0.948030959     -65.7759821
9.038                0.947903106     -65.8724087
9.039                0.947775339     -65.9690898
9.04                  0.94764766     -66.0660264
9.041                0.947520069     -66.1632196
9.042                0.947392564     -66.2606704
9.043                0.947265147     -66.3583799
9.044                0.947137818     -66.4563491
9.045                0.947010575     -66.5545792
9.046                 0.94688342      -66.653071
9.047                0.946756352     -66.7518258
9.048                0.946629371     -66.8508446
9.049                0.946502477     -66.9501285
9.05                 0.946375671     -67.0496785
9.051                0.946248951     -67.1494957
9.052                0.946122318     -67.2495813
9.053                0.945995772     -67.3499363
9.054                0.945869312     -67.4505618
9.055                 0.94574294     -67.5514589
9.056                0.945616653     -67.6526287
9.057                0.945490453     -67.7540724
9.058                 0.94536434      -67.855791
9.059                0.945238312     -67.9577856
9.06                  0.94511237     -68.0600574
9.061                0.944986514     -68.1626075
9.062                0.944860744     -68.2654371
9.063                0.944735059     -68.3685472
9.064                0.944609459      -68.471939
9.065                0.944483944     -68.5756137
9.066                0.944358514     -68.6795724
9.067                0.944233169     -68.7838162
9.068                0.944107909     -68.8883462
9.069                0.943982732     -68.9931638
9.07                 0.943857639       -69.09827
9.071                0.943732631     -69.2036659
9.072                0.943607705     -69.3093528
9.073                0.943482863     -69.4153319
9.074                0.943358104     -69.5216042
9.075                0.943233428     -69.6281711
9.076                0.943108834     -69.7350336
9.077                0.942984322     -69.8421931
9.078                0.942859891     -69.9496506
9.079                0.942735543     -70.0574074
9.08                 0.942611275     -70.1654646
9.081                0.942487089     -70.2738236
9.082                0.942362983     -70.3824855
9.083                0.942238957     -70.4914515
9.084                0.942115011     -70.6007228
9.085                0.941991144     -70.7103008
9.086                0.941867356     -70.8201865
9.087                0.941743648     -70.9303813
9.088                0.941620017     -71.0408864
9.089                0.941496465      -71.151703
9.09                  0.94137299     -71.2628324
9.091                0.941249592     -71.3742758
9.092                0.941126271     -71.4860346
9.093                0.941003026     -71.5981098
9.094                0.940879858      -71.710503
9.095                0.940756764     -71.8232152
9.096                0.940633746     -71.9362477
9.097                0.940510802     -72.0496019
9.098                0.940387932     -72.1632791
9.099                0.940265136     -72.2772805
9.1                  0.940142413     -72.3916074
9.101                0.940019762     -72.5062611
9.102                0.939897184     -72.6212429
9.103                0.939774677     -72.7365541
9.104                0.939652242     -72.8521961
9.105                0.939529877     -72.9681701
9.106                0.939407582     -73.0844775
9.107                0.939285356     -73.2011195
9.108                  0.9391632     -73.3180976
9.109                0.939041112     -73.4354131
9.11                 0.938919092     -73.5530672
9.111                0.938797139     -73.6710613
9.112                0.938675253     -73.7893969
9.113                0.938553433     -73.9080751
9.114                0.938431679     -74.0270974
9.115                0.938309989     -74.1464652
9.116                0.938188364     -74.2661798
9.117                0.938066803     -74.3862425
9.118                0.937945305     -74.5066548
9.119                0.937823869      -74.627418
9.12                 0.937702496     -74.7485335
9.121                0.937581183     -74.8700027
9.122                0.937459931     -74.9918269
9.123                0.937338739     -75.1140077
9.124                0.937217607     -75.2365463
9.125                0.937096533     -75.3594441
9.126                0.936975516     -75.4827027
9.127                0.936854557     -75.6063233
9.128                0.936733655     -75.7303074
9.129                0.936612809     -75.8546565
9.13                 0.936492017     -75.9793719
9.131                 0.93637128     -76.1044551
9.132                0.936250597     -76.2299075
9.133                0.936129967     -76.3557306
9.134                0.936009389     -76.4819258
9.135                0.935888862     -76.6084945
9.136                0.935768387     -76.7354382
9.137                0.935647961     -76.8627583
9.138                0.935527585     -76.9904564
9.139                0.935407257     -77.1185338
9.14                 0.935286977     -77.2469921
9.141                0.935166743     -77.3758326
9.142                0.935046556      -77.505057
9.143                0.934926415     -77.6346666
9.144                0.934806318      -77.764663
9.145                0.934686265     -77.8950476
9.146                0.934566254      -78.025822
9.147                0.934446286     -78.1569876
9.148                 0.93432636      -78.288546
9.149                0.934206473     -78.4204986
9.15                 0.934086627     -78.5528469
9.151                0.933966819     -78.6855925
9.152                 0.93384705     -78.8187369
9.153                0.933727317     -78.9522816
9.154                0.933607621     -79.0862282
9.155                 0.93348796     -79.2205781
9.156                0.933368334     -79.3553329
9.157                0.933248742     -79.4904942
9.158                0.933129183     -79.6260634
9.159                0.933009655     -79.7620422
9.16                 0.932890159     -79.8984321
9.161                0.932770693     -80.0352346
9.162                0.932651256     -80.1724513
9.163                0.932531848     -80.3100838
9.164                0.932412467     -80.4481336
9.165                0.932293113     -80.5866024
9.166                0.932173784     -80.7254916
9.167                0.932054481     -80.8648028
9.168                0.931935201     -81.0045377
9.169                0.931815944     -81.1446978
9.17                 0.931696709     -81.2852848
9.171                0.931577495     -81.4263001
9.172                0.931458302     -81.5677455
9.173                0.931339128     -81.7096225
9.174                0.931219972     -81.8519327
9.175                0.931100833     -81.9946777
9.176                0.930981711     -82.1378591
9.177                0.930862604     -82.2814786
9.178                0.930743512     -82.4255378
9.179                0.930624433     -82.5700383
9.18                 0.930505367     -82.7149817
9.181                0.930386313     -82.8603697
9.182                0.930267269     -83.0062039
9.183                0.930148235     -83.1524859
9.184                 0.93002921     -83.2992173
9.185                0.929910192     -83.4463999
9.186                0.929791181     -83.5940352
9.187                0.929672176      -83.742125
9.188                0.929553176     -83.8906708
9.189                 0.92943418     -84.0396744
9.19                 0.929315187     -84.1891373
9.191                0.929196195     -84.3390612
9.192                0.929077205     -84.4894479
9.193                0.928958214      -84.640299
9.194                0.928839222     -84.7916161
9.195                0.928720228      -84.943401
9.196                0.928601232     -85.0956553
9.197                0.928482231     -85.2483806
9.198                0.928363225     -85.4015788
9.199                0.928244213     -85.5552514
9.2                  0.928125195     -85.7094001
9.201                0.928006168     -85.8640267
9.202                0.927887132     -86.0191329
9.203                0.927768087     -86.1747202
9.204                 0.92764903     -86.3307906
9.205                0.927529962     -86.4873455
9.206                0.927410881     -86.6443869
9.207                0.927291785     -86.8019162
9.208                0.927172675     -86.9599354
9.209                 0.92705355      -87.118446
9.21                 0.926934407     -87.2774498
9.211                0.926815246     -87.4369485
9.212                0.926696067     -87.5969438
9.213                0.926576868     -87.7574375
9.214                0.926457649     -87.9184313
9.215                0.926338407     -88.0799268
9.216                0.926219143     -88.2419259
9.217                0.926099856     -88.4044302
9.218                0.925980544     -88.5674415
9.219                0.925861206     -88.7309616
9.22                 0.925741842      -88.894992
9.221                 0.92562245     -89.0595346
9.222                 0.92550303     -89.2245912
9.223                0.925383581     -89.3901634
9.224                0.925264101      -89.556253
9.225                0.925144591     -89.7228617
9.226                0.925025048     -89.8899913
9.227                0.924905472     -90.0576435
9.228                0.924785862     -90.2258201
9.229                0.924666218     -90.3945227
9.23                 0.924546537     -90.5637532
9.231                 0.92442682     -90.7335133
9.232                0.924307066     -90.9038047
9.233                0.924187273     -91.0746292
9.234                 0.92406744     -91.2459886
9.235                0.923947568     -91.4178845
9.236                0.923827654     -91.5903187
9.237                0.923707698      -91.763293
9.238                  0.9235877     -91.9368092
9.239                0.923467658     -92.1108689
9.24                 0.923347571     -92.2854739
9.241                 0.92322744     -92.4606259
9.242                0.923107262     -92.6363268
9.243                0.922987037     -92.8125783
9.244                0.922866764      -92.989382
9.245                0.922746443     -93.1667398
9.246                0.922626073     -93.3446534
9.247                0.922505653     -93.5231245
9.248                0.922385181     -93.7021549
9.249                0.922264658     -93.8817464
9.25                 0.922144083     -94.0619006
9.251                0.922023455     -94.2426193
9.252                0.921902773     -94.4239042
9.253                0.921782036     -94.6057572
9.254                0.921661245     -94.7881798
9.255                0.921540397     -94.9711739
9.256                0.921419493     -95.1547412
9.257                0.921298532     -95.3388834
9.258                0.921177512     -95.5236023
9.259                0.921056435     -95.7088995
9.26                 0.920935298     -95.8947768
9.261                0.920814102      -96.081236
9.262                0.920692845     -96.2682786
9.263                0.920571527     -96.4559065
9.264                0.920450148     -96.6441214
9.265                0.920328707      -96.832925
9.266                0.920207204     -97.0223189
9.267                0.920085637     -97.2123049
9.268                0.919964007     -97.4028847
9.269                0.919842313       -97.59406
9.27                 0.919720555     -97.7858324
9.271                0.919598731     -97.9782037
9.272                0.919476842     -98.1711756
9.273                0.919354888     -98.3647497
9.274                0.919232867     -98.5589277
9.275                 0.91911078     -98.7537113
9.276                0.918988626     -98.9491021
9.277                0.918866405     -99.1451018
9.278                0.918744116     -99.3417121
9.279                0.918621759     -99.5389346
9.28                 0.918499335      -99.736771
9.281                0.918376842     -99.9352229
9.282                 0.91825428     -100.134292
9.283                0.918131649      -100.33398
9.284                 0.91800895     -100.534288
9.285                0.917886181     -100.735218
9.286                0.917763343     -100.936772
9.287                0.917640436     -101.138951
9.288                0.917517459     -101.341757
9.289                0.917394412     -101.545191
9.29                 0.917271296     -101.749256
9.291                 0.91714811     -101.953952
9.292                0.917024855     -102.159281
9.293                0.916901529     -102.365245
9.294                0.916778135     -102.571845
9.295                 0.91665467     -102.779083
9.296                0.916531136      -102.98696
9.297                0.916407533     -103.195478
9.298                 0.91628386     -103.404639
9.299                0.916160119     -103.614444
9.3                  0.916036309     -103.824894
9.301                 0.91591243     -104.035991
9.302                0.915788483     -104.247736
9.303                0.915664468     -104.460131
9.304                0.915540385     -104.673178
9.305                0.915416236     -104.886878
9.306                0.915292019     -105.101231
9.307                0.915167735     -105.316241
9.308                0.915043386     -105.531908
9.309                0.914918971     -105.748233
9.31                 0.914794491     -105.965218
9.311                0.914669947     -106.182864
9.312                0.914545338     -106.401173
9.313                0.914420667     -106.620147
9.314                0.914295932     -106.839785
9.315                0.914171136     -107.060091
9.316                0.914046279     -107.281064
9.317                0.913921361     -107.502707
9.318                0.913796383     -107.725021
9.319                0.913671346     -107.948007
9.32                 0.913546251     -108.171666
9.321                0.913421099        -108.396
9.322                0.913295891     -108.621009
9.323                0.913170628     -108.846696
9.324                0.913045311     -109.073061
9.325                 0.91291994     -109.300105
9.326                0.912794517      -109.52783
9.327                0.912669043     -109.756237
9.328                 0.91254352     -109.985327
9.329                0.912417947     -110.215101
9.33                 0.912292328     -110.445561
9.331                0.912166662     -110.676706
9.332                0.912040952      -110.90854
9.333                0.911915198     -111.141062
9.334                0.911789403     -111.374273
9.335                0.911663566     -111.608175
9.336                0.911537691     -111.842769
9.337                0.911411779     -112.078056
9.338                 0.91128583     -112.314036
9.339                0.911159848     -112.550711
9.34                 0.911033833     -112.788082
9.341                0.910907787     -113.026149
9.342                0.910781711     -113.264914
9.343                0.910655609     -113.504377
9.344                0.910529481      -113.74454
9.345                 0.91040333     -113.985402
9.346                0.910277157     -114.226966
9.347                0.910150965     -114.469231
9.348                0.910024756     -114.712198
9.349                 0.90989853      -114.95587
9.35                 0.909772292     -115.200245
9.351                0.909646043     -115.445324
9.352                0.909519785      -115.69111
9.353                 0.90939352     -115.937601
9.354                0.909267251       -116.1848
9.355                0.909140981     -116.432705
9.356                0.909014711     -116.681319
9.357                0.908888445     -116.930642
9.358                0.908762184     -117.180674
9.359                0.908635931     -117.431415
9.36                  0.90850969     -117.682867
9.361                0.908383462     -117.935029
9.362                0.908257251     -118.187903
9.363                0.908131059     -118.441488
9.364                0.908004889     -118.695785
9.365                0.907878745     -118.950795
9.366                0.907752628     -119.206518
9.367                0.907626543     -119.462953
9.368                0.907500491     -119.720102
9.369                0.907374477     -119.977965
9.37                 0.907248504     -120.236542
9.371                0.907122574     -120.495832
9.372                0.906996691     -120.755837
9.373                0.906870859     -121.016557
9.374                0.906745081     -121.277991
9.375                 0.90661936      -121.54014
9.376                0.906493699     -121.803004
9.377                0.906368104     -122.066582
9.378                0.906242576     -122.330875
9.379                 0.90611712     -122.595883
9.38                  0.90599174     -122.861606
9.381                0.905866439     -123.128044
9.382                0.905741221     -123.395196
9.383                 0.90561609     -123.663062
9.384                0.905491051     -123.931642
9.385                0.905366107     -124.200937
9.386                0.905241262     -124.470945
9.387                0.905116521     -124.741667
9.388                0.904991887     -125.013101
9.389                0.904867366     -125.285249
9.39                 0.904742961     -125.558109
9.391                0.904618676     -125.831681
9.392                0.904494517     -126.105964
9.393                0.904370488     -126.380958
9.394                0.904246592     -126.656663
9.395                0.904122836     -126.933078
9.396                0.903999224     -127.210202
