! TOUCHSTONE file generated by CST DESIGN STUDIO
! Date and time: Tue Feb  4 14:26:49 2025
! Project name: C:\Work\MatlabApps\UnitCellOptimizationMatlab\CST\unitcell.cst
! Tree item: Tasks\Sweep1\SPara1\S-Parameters
! Header version: 2024
! Port assignment regex: !\s*Touchstone port\s*([0-9]+)\s*=\s*(CST MWS port|CST DES external port|CST DES block port)\s*(.+)\s* \(\"(.*)\"\)(\s*mode\s*([0-9]+))?.*
! Touchstone port assignment:
! Touchstone port 1 = CST DES external port 1 ("")
# GHz S MA R 50
9                    0.927390206     -85.3516446
9.001                0.927084853     -85.4987645
9.002                0.926779303     -85.6462841
9.003                0.926473561     -85.7942047
9.004                0.926167629     -85.9425281
9.005                0.925861513     -86.0912556
9.006                0.925555215     -86.2403888
9.007                0.925248739     -86.3899293
9.008                 0.92494209     -86.5398786
9.009                0.924635272     -86.6902382
9.01                 0.924328288     -86.8410097
9.011                0.924021142     -86.9921947
9.012                0.923713839     -87.1437946
9.013                0.923406382     -87.2958111
9.014                0.923098775     -87.4482458
9.015                0.922791023     -87.6011001
9.016                 0.92248313     -87.7543757
9.017                  0.9221751     -87.9080742
9.018                0.921866937     -88.0621971
9.019                0.921558645      -88.216746
9.02                 0.921250228     -88.3717226
9.021                0.920941691     -88.5271284
9.022                0.920633038      -88.682965
9.023                0.920324273      -88.839234
9.024                0.920015401     -88.9959371
9.025                0.919706425     -89.1530759
9.026                0.919397351     -89.3106519
9.027                0.919088183     -89.4686669
9.028                0.918778924     -89.6271224
9.029                 0.91846958       -89.78602
9.03                 0.918160155     -89.9453615
9.031                0.917850654     -90.1051484
9.032                0.917541081     -90.2653824
9.033                 0.91723144     -90.4260651
9.034                0.916921736     -90.5871983
9.035                0.916611975     -90.7487834
9.036                0.916302159     -90.9108223
9.037                0.915992295     -91.0733165
9.038                0.915682387     -91.2362678
9.039                0.915372439     -91.3996778
9.04                 0.915062457     -91.5635481
9.041                0.914752445     -91.7278806
9.042                0.914442408     -91.8926767
9.043                0.914132351     -92.0579383
9.044                0.913822278      -92.223667
9.045                0.913512195     -92.3898645
9.046                0.913202107     -92.5565325
9.047                0.912892018     -92.7236726
9.048                0.912581934     -92.8912867
9.049                0.912271859     -93.0593764
9.05                 0.911961799     -93.2279434
9.051                0.911651758     -93.3969894
9.052                0.911341743     -93.5665161
9.053                0.911031758     -93.7365252
9.054                0.910721807     -93.9070186
9.055                0.910411898     -94.0779978
9.056                0.910102034     -94.2494646
9.057                 0.90979222     -94.4214207
9.058                0.909482464     -94.5938679
9.059                0.909172769     -94.7668078
9.06                 0.908863141     -94.9402423
9.061                0.908553585     -95.1141731
9.062                0.908244108     -95.2886018
9.063                0.907934713     -95.4635302
9.064                0.907625408     -95.6389602
9.065                0.907316198     -95.8148933
9.066                0.907007087     -95.9913314
9.067                0.906698082     -96.1682762
9.068                0.906389189     -96.3457294
9.069                0.906080412     -96.5236929
9.07                 0.905771759     -96.7021683
9.071                0.905463234     -96.8811574
9.072                0.905154843     -97.0606619
9.073                0.904846593     -97.2406837
9.074                0.904538489     -97.4212244
9.075                0.904230536     -97.6022858
9.076                0.903922742     -97.7838697
9.077                0.903615112     -97.9659779
9.078                0.903307651      -98.148612
9.079                0.903000367     -98.3317739
9.08                 0.902693265     -98.5154653
9.081                0.902386351     -98.6996879
9.082                0.902079631     -98.8844436
9.083                0.901773112     -99.0697341
9.084                  0.9014668     -99.2555611
9.085                0.901160701     -99.4419264
9.086                0.900854822     -99.6288318
9.087                0.900549168      -99.816279
9.088                0.900243747      -100.00427
9.089                0.899938565     -100.192806
9.09                 0.899633627     -100.381889
9.091                0.899328942     -100.571521
9.092                0.899024514     -100.761704
9.093                0.898720352     -100.952439
9.094                0.898416461     -101.143728
9.095                0.898112848     -101.335573
9.096                 0.89780952     -101.527976
9.097                0.897506484     -101.720938
9.098                0.897203746     -101.914461
9.099                0.896901314     -102.108547
9.1                  0.896599194     -102.303197
9.101                0.896297393     -102.498414
9.102                0.895995918     -102.694199
9.103                0.895694776     -102.890554
9.104                0.895393975      -103.08748
9.105                0.895093521      -103.28498
9.106                0.894793421     -103.483054
9.107                0.894493683     -103.681705
9.108                0.894194314     -103.880935
9.109                0.893895321     -104.080745
9.11                 0.893596711     -104.281136
9.111                0.893298493     -104.482112
9.112                0.893000672     -104.683672
9.113                0.892703257     -104.885819
9.114                0.892406256     -105.088556
9.115                0.892109675     -105.291882
9.116                0.891813522       -105.4958
9.117                0.891517805     -105.700313
9.118                0.891222532      -105.90542
9.119                 0.89092771     -106.111125
9.12                 0.890633347     -106.317428
9.121                0.890339451     -106.524332
9.122                0.890046029     -106.731838
9.123                 0.88975309     -106.939947
9.124                0.889460642     -107.148662
9.125                0.889168692     -107.357984
9.126                0.888877249     -107.567914
9.127                 0.88858632     -107.778455
9.128                0.888295914     -107.989607
9.129                0.888006039     -108.201373
9.13                 0.887716703     -108.413754
9.131                0.887427915     -108.626751
9.132                0.887139682     -108.840367
9.133                0.886852013     -109.054603
9.134                0.886564916     -109.269459
9.135                0.886278401     -109.484939
9.136                0.885992475     -109.701043
9.137                0.885707147     -109.917774
9.138                0.885422425     -110.135131
9.139                0.885138318     -110.353118
9.14                 0.884854836     -110.571736
9.141                0.884571985     -110.790985
9.142                0.884289776     -111.010868
9.143                0.884008218     -111.231386
9.144                0.883727318     -111.452541
9.145                0.883447086     -111.674333
9.146                0.883167531     -111.896765
9.147                0.882888662     -112.119838
9.148                0.882610487     -112.343553
9.149                0.882333017     -112.567912
9.15                  0.88205626     -112.792916
9.151                0.881780225     -113.018566
9.152                0.881504922     -113.244865
9.153                 0.88123036     -113.471812
9.154                0.880956548      -113.69941
9.155                0.880683495     -113.927661
9.156                0.880411212     -114.156564
9.157                0.880139707     -114.386122
9.158                0.879868989     -114.616335
9.159                 0.87959907     -114.847206
9.16                 0.879329957     -115.078736
9.161                0.879061661     -115.310925
9.162                0.878794192     -115.543774
9.163                0.878527559     -115.777286
9.164                0.878261772     -116.011461
9.165                0.877996841     -116.246301
9.166                0.877732775     -116.481807
9.167                0.877469585     -116.717979
9.168                 0.87720728     -116.954819
9.169                0.876945871     -117.192328
9.17                 0.876685367     -117.430508
9.171                 0.87642578     -117.669358
9.172                0.876167117     -117.908882
9.173                0.875909391     -118.149078
9.174                0.875652611     -118.389949
9.175                0.875396788     -118.631495
9.176                0.875141931     -118.873718
9.177                0.874888051     -119.116618
9.178                0.874635158     -119.360196
9.179                0.874383263     -119.604454
9.18                 0.874132377     -119.849391
9.181                0.873882509      -120.09501
9.182                 0.87363367     -120.341311
9.183                0.873385872     -120.588294
9.184                0.873139123     -120.835961
9.185                0.872893436     -121.084313
9.186                 0.87264882     -121.333349
9.187                0.872405287     -121.583071
9.188                0.872162847      -121.83348
9.189                0.871921511     -122.084577
9.19                  0.87168129     -122.336361
9.191                0.871442194     -122.588834
9.192                0.871204235     -122.841997
9.193                0.870967423     -123.095849
9.194                 0.87073177     -123.350391
9.195                0.870497286     -123.605625
9.196                0.870263982      -123.86155
9.197                 0.87003187     -124.118168
9.198                0.869800959     -124.375478
9.199                0.869571263     -124.633481
9.2                  0.869342791     -124.892177
9.201                0.869115554     -125.151567
9.202                0.868889565     -125.411651
9.203                0.868664833      -125.67243
9.204                0.868441371     -125.933904
9.205                0.868219189     -126.196072
9.206                  0.8679983     -126.458936
9.207                0.867778713     -126.722496
9.208                 0.86756044     -126.986751
9.209                0.867343493     -127.251703
9.21                 0.867127883      -127.51735
9.211                0.866913621     -127.783693
9.212                0.866700719     -128.050733
9.213                0.866489188     -128.318469
9.214                 0.86627904     -128.586901
9.215                0.866070285     -128.856029
9.216                0.865862935     -129.125853
9.217                0.865657002     -129.396373
9.218                0.865452498      -129.66759
9.219                0.865249432     -129.939502
9.22                 0.865047818     -130.212109
9.221                0.864847666     -130.485412
9.222                0.864648988     -130.759409
9.223                0.864451795     -131.034102
9.224                0.864256099     -131.309488
9.225                0.864061911     -131.585569
9.226                0.863869243     -131.862343
9.227                0.863678106      -132.13981
9.228                0.863488512      -132.41797
9.229                0.863300472     -132.696822
9.23                 0.863113997     -132.976366
9.231                0.862929099       -133.2566
9.232                0.862745789     -133.537525
9.233                0.862564079     -133.819139
9.234                 0.86238398     -134.101442
9.235                0.862205503     -134.384433
9.236                0.862028661     -134.668111
9.237                0.861853463     -134.952476
9.238                0.861679922     -135.237527
9.239                0.861508049     -135.523262
9.24                 0.861337854      -135.80968
9.241                 0.86116935     -136.096782
9.242                0.861002548     -136.384565
9.243                0.860837458     -136.673028
9.244                0.860674093     -136.962171
9.245                0.860512462     -137.251992
9.246                0.860352577     -137.542491
9.247                 0.86019445     -137.833664
9.248                0.860038091     -138.125513
9.249                0.859883511     -138.418034
9.25                 0.859730721     -138.711228
9.251                0.859579733     -139.005091
9.252                0.859430556     -139.299623
9.253                0.859283203     -139.594823
9.254                0.859137682     -139.890688
9.255                0.858994006     -140.187217
9.256                0.858852185     -140.484409
9.257                 0.85871223     -140.782261
9.258                0.858574151     -141.080773
9.259                0.858437958     -141.379941
9.26                 0.858303662     -141.679765
9.261                0.858171274     -141.980243
9.262                0.858040804     -142.281371
9.263                0.857912261      -142.58315
9.264                0.857785657     -142.885575
9.265                0.857661001     -143.188647
9.266                0.857538304     -143.492361
9.267                0.857417574     -143.796716
9.268                0.857298823     -144.101711
9.269                 0.85718206     -144.407341
9.27                 0.857067294     -144.713607
9.271                0.856954536     -145.020504
9.272                0.856843795      -145.32803
9.273                 0.85673508     -145.636183
9.274                0.856628401     -145.944961
9.275                0.856523767     -146.254361
9.276                0.856421187      -146.56438
9.277                 0.85632067     -146.875016
9.278                0.856222225     -147.186265
9.279                0.856125862     -147.498126
9.28                 0.856031589     -147.810595
9.281                0.855939414      -148.12367
9.282                0.855849346     -148.437347
9.283                0.855761394     -148.751623
9.284                0.855675566     -149.066496
9.285                 0.85559187     -149.381963
9.286                0.855510315      -149.69802
9.287                0.855430907     -150.014664
9.288                0.855353656     -150.331892
9.289                0.855278569     -150.649701
9.29                 0.855205654     -150.968087
9.291                0.855134917     -151.287047
9.292                0.855066367     -151.606578
9.293                0.855000011     -151.926676
9.294                0.854935855     -152.247338
9.295                0.854873907     -152.568559
9.296                0.854814174     -152.890337
9.297                0.854756661     -153.212668
9.298                0.854701377     -153.535548
9.299                0.854648326     -153.858973
9.3                  0.854597516     -154.182939
9.301                0.854548952     -154.507444
9.302                 0.85450264     -154.832481
9.303                0.854458586     -155.158049
9.304                0.854416796     -155.484142
9.305                0.854377276     -155.810756
9.306                0.854340029     -156.137888
9.307                0.854305062     -156.465533
9.308                 0.85427238     -156.793688
9.309                0.854241987     -157.122347
9.31                 0.854213888     -157.451507
9.311                0.854188087     -157.781162
9.312                0.854164589      -158.11131
9.313                0.854143398     -158.441945
9.314                0.854124517     -158.773062
9.315                0.854107951     -159.104658
9.316                0.854093703     -159.436727
9.317                0.854081776     -159.769265
9.318                0.854072174     -160.102268
9.319                0.854064899     -160.435729
9.32                 0.854059955     -160.769646
9.321                0.854057343     -161.104012
9.322                0.854057067     -161.438824
9.323                0.854059129     -161.774075
9.324                 0.85406353     -162.109762
9.325                0.854070273     -162.445878
9.326                0.854079359      -162.78242
9.327                 0.85409079     -163.119381
9.328                0.854104566     -163.456757
9.329                 0.85412069     -163.794543
9.33                 0.854139161     -164.132733
9.331                 0.85415998     -164.471322
9.332                0.854183149     -164.810304
9.333                0.854208666     -165.149675
9.334                0.854236532     -165.489429
9.335                0.854266747     -165.829561
9.336                0.854299311     -166.170064
9.337                0.854334222     -166.510934
9.338                 0.85437148     -166.852165
9.339                0.854411084     -167.193751
9.34                 0.854453032     -167.535687
9.341                0.854497323     -167.877966
9.342                0.854543956     -168.220584
9.343                0.854592928     -168.563535
9.344                0.854644237     -168.906812
9.345                0.854697881      -169.25041
9.346                0.854753857     -169.594323
9.347                0.854812163     -169.938545
9.348                0.854872795     -170.283071
9.349                 0.85493575     -170.627894
9.35                 0.855001024     -170.973007
9.351                0.855068615     -171.318406
9.352                0.855138517     -171.664085
9.353                0.855210727     -172.010036
9.354                0.855285241     -172.356254
9.355                0.855362053     -172.702733
9.356                0.855441159     -173.049466
9.357                0.855522554     -173.396448
9.358                0.855606233     -173.743672
9.359                0.855692189     -174.091132
9.36                 0.855780418     -174.438821
9.361                0.855870913     -174.786734
9.362                0.855963668     -175.134863
9.363                0.856058677     -175.483203
9.364                0.856155934     -175.831747
9.365                 0.85625543     -176.180489
9.366                 0.85635716     -176.529422
9.367                0.856461115     -176.878539
9.368                0.856567289     -177.227835
9.369                0.856675673     -177.577303
9.37                  0.85678626     -177.926936
9.371                0.856899041     -178.276728
9.372                0.857014009     -178.626672
9.373                0.857131153     -178.976762
9.374                0.857250467      -179.32699
9.375                 0.85737194     -179.677351
9.376                0.857495563      179.972162
9.377                0.857621327      179.621556
9.378                0.857749222      179.270838
9.379                0.857879238      178.920014
9.38                 0.858011365      178.569091
9.381                0.858145593      178.218076
9.382                0.858281911      177.866975
9.383                0.858420309      177.515795
9.384                0.858560775      177.164543
9.385                0.858703299      176.813225
9.386                0.858847869      176.461848
9.387                0.858994473       176.11042
9.388                  0.8591431      175.758946
9.389                0.859293738      175.407433
9.39                 0.859446375      175.055889
9.391                0.859600999       174.70432
9.392                0.859757596      174.352733
9.393                0.859916155      174.001134
9.394                0.860076662      173.649531
9.395                0.860239104      173.297929
9.396                0.860403469      172.946337
