! TOUCHSTONE file generated by CST DESIGN STUDIO
! Date and time: Tue Feb  4 14:26:43 2025
! Project name: C:\Work\MatlabApps\UnitCellOptimizationMatlab\CST\unitcell.cst
! Tree item: Tasks\Sweep1\SPara1\S-Parameters
! Header version: 2024
! Port assignment regex: !\s*Touchstone port\s*([0-9]+)\s*=\s*(CST MWS port|CST DES external port|CST DES block port)\s*(.+)\s* \(\"(.*)\"\)(\s*mode\s*([0-9]+))?.*
! Touchstone port assignment:
! Touchstone port 1 = CST DES external port 1 ("")
# GHz S MA R 50
9                    0.902465508      -110.30712
9.001                0.901979851     -110.529273
9.002                0.901494014     -110.752001
9.003                0.901008012     -110.975306
9.004                 0.90052186     -111.199189
9.005                0.900035574      -111.42365
9.006                0.899549169     -111.648691
9.007                0.899062662     -111.874314
9.008                0.898576069     -112.100519
9.009                0.898089405     -112.327307
9.01                 0.897602687     -112.554681
9.011                 0.89711593      -112.78264
9.012                0.896629152     -113.011186
9.013                0.896142368     -113.240321
9.014                0.895655596     -113.470044
9.015                0.895168851     -113.700358
9.016                0.894682152     -113.931264
9.017                0.894195514     -114.162762
9.018                0.893708954     -114.394854
9.019                0.893222491      -114.62754
9.02                  0.89273614     -114.860823
9.021                 0.89224992     -115.094702
9.022                0.891763847     -115.329179
9.023                 0.89127794     -115.564256
9.024                0.890792216     -115.799932
9.025                0.890306693     -116.036209
9.026                0.889821388     -116.273089
9.027                 0.88933632     -116.510571
9.028                0.888851507     -116.748658
9.029                0.888366966     -116.987349
9.03                 0.887882717     -117.226647
9.031                0.887398778     -117.466551
9.032                0.886915167     -117.707063
9.033                0.886431902     -117.948184
9.034                0.885949003     -118.189915
9.035                0.885466488     -118.432256
9.036                0.884984377     -118.675209
9.037                0.884502688     -118.918774
9.038                 0.88402144     -119.162952
9.039                0.883540653     -119.407744
9.04                 0.883060346     -119.653151
9.041                0.882580538     -119.899174
9.042                 0.88210125     -120.145813
9.043                  0.8816225      -120.39307
9.044                0.881144308     -120.640944
9.045                0.880666694     -120.889438
9.046                0.880189679      -121.13855
9.047                0.879713281     -121.388283
9.048                0.879237522     -121.638637
9.049                0.878762421     -121.889613
9.05                 0.878287999     -122.141211
9.051                0.877814276     -122.393431
9.052                0.877341273     -122.646276
9.053                 0.87686901     -122.899744
9.054                0.876397508     -123.153837
9.055                0.875926787     -123.408556
9.056                0.875456869     -123.663901
9.057                0.874987775     -123.919872
9.058                0.874519525      -124.17647
9.059                0.874052141     -124.433695
9.06                 0.873585644     -124.691548
9.061                0.873120056      -124.95003
9.062                0.872655396     -125.209141
9.063                0.872191688     -125.468881
9.064                0.871728953     -125.729251
9.065                0.871267212     -125.990251
9.066                0.870806487     -126.251881
9.067                  0.8703468     -126.514142
9.068                0.869888172     -126.777035
9.069                0.869430627     -127.040558
9.07                 0.868974185     -127.304713
9.071                0.868518869       -127.5695
9.072                0.868064701      -127.83492
9.073                0.867611703     -128.100971
9.074                0.867159898     -128.367655
9.075                0.866709308     -128.634972
9.076                0.866259956     -128.902921
9.077                0.865811864     -129.171504
9.078                0.865365054     -129.440719
9.079                0.864919551     -129.710567
9.08                 0.864475375     -129.981048
9.081                 0.86403255     -130.252163
9.082                0.863591099      -130.52391
9.083                0.863151046      -130.79629
9.084                0.862712412     -131.069303
9.085                0.862275221     -131.342949
9.086                0.861839496     -131.617227
9.087                 0.86140526     -131.892138
9.088                0.860972537     -132.167681
9.089                 0.86054135     -132.443856
9.09                 0.860111722     -132.720663
9.091                0.859683676     -132.998101
9.092                0.859257236     -133.276171
9.093                0.858832426     -133.554871
9.094                0.858409269     -133.834202
9.095                0.857987789     -134.114162
9.096                0.857568009     -134.394753
9.097                0.857149953     -134.675972
9.098                0.856733645      -134.95782
9.099                0.856319108     -135.240297
9.1                  0.855906366       -135.5234
9.101                0.855495443     -135.807131
9.102                0.855086363     -136.091488
9.103                 0.85467915     -136.376471
9.104                0.854273828     -136.662079
9.105                 0.85387042     -136.948311
9.106                0.853468951     -137.235167
9.107                0.853069445     -137.522645
9.108                0.852671925     -137.810745
9.109                0.852276415     -138.099466
9.11                 0.851882941     -138.388808
9.111                0.851491525     -138.678768
9.112                0.851102192     -138.969347
9.113                0.850714967     -139.260542
9.114                0.850329872     -139.552354
9.115                0.849946932     -139.844781
9.116                0.849566172     -140.137822
9.117                0.849187615     -140.431476
9.118                0.848811286     -140.725741
9.119                0.848437208     -141.020616
9.12                 0.848065406     -141.316101
9.121                0.847695904     -141.612193
9.122                0.847328726     -141.908892
9.123                0.846963896     -142.206196
9.124                0.846601438     -142.504103
9.125                0.846241376     -142.802612
9.126                0.845883735     -143.101722
9.127                0.845528538     -143.401431
9.128                0.845175809     -143.701738
9.129                0.844825572      -144.00264
9.13                 0.844477851     -144.304136
9.131                0.844132671     -144.606225
9.132                0.843790054     -144.908904
9.133                0.843450025     -145.212172
9.134                0.843112608     -145.516027
9.135                0.842777825     -145.820467
9.136                0.842445702      -146.12549
9.137                0.842116261     -146.431095
9.138                0.841789526     -146.737278
9.139                0.841465521     -147.044039
9.14                 0.841144269     -147.351374
9.141                0.840825794     -147.659283
9.142                0.840510118     -147.967762
9.143                0.840197266     -148.276809
9.144                0.839887259     -148.586422
9.145                0.839580123       -148.8966
9.146                0.839275878     -149.207338
9.147                0.838974549     -149.518635
9.148                0.838676158     -149.830489
9.149                0.838380728     -150.142897
9.15                 0.838088281     -150.455856
9.151                0.837798841     -150.769363
9.152                0.837512429     -151.083417
9.153                0.837229067     -151.398014
9.154                0.836948779     -151.713152
9.155                0.836671586     -152.028827
9.156                0.836397511     -152.345038
9.157                0.836126574      -152.66178
9.158                0.835858798     -152.979052
9.159                0.835594204     -153.296849
9.16                 0.835332814      -153.61517
9.161                0.835074649      -153.93401
9.162                 0.83481973     -154.253367
9.163                0.834568077     -154.573238
9.164                0.834319713     -154.893619
9.165                0.834074658     -155.214507
9.166                0.833832931     -155.535899
9.167                0.833594554     -155.857791
9.168                0.833359546      -156.18018
9.169                0.833127928     -156.503063
9.17                 0.832899718     -156.826435
9.171                0.832674938     -157.150293
9.172                0.832453605     -157.474635
9.173                 0.83223574     -157.799455
9.174                 0.83202136      -158.12475
9.175                0.831810486     -158.450516
9.176                0.831603135     -158.776751
9.177                0.831399325     -159.103449
9.178                0.831199075     -159.430606
9.179                0.831002402      -159.75822
9.18                 0.830809324     -160.086285
9.181                0.830619859     -160.414798
9.182                0.830434022     -160.743754
9.183                0.830251832      -161.07315
9.184                0.830073304     -161.402981
9.185                0.829898455     -161.733242
9.186                  0.8297273     -162.063931
9.187                0.829559856     -162.395041
9.188                0.829396137     -162.726569
9.189                 0.82923616     -163.058511
9.19                 0.829079937     -163.390861
9.191                0.828927485     -163.723616
9.192                0.828778818      -164.05677
9.193                0.828633948     -164.390319
9.194                0.828492889     -164.724259
9.195                0.828355656     -165.058584
9.196                 0.82822226     -165.393289
9.197                0.828092714     -165.728371
9.198                0.827967031     -166.063824
9.199                0.827845221     -166.399643
9.2                  0.827727298     -166.735823
9.201                 0.82761327     -167.072359
9.202                0.827503151     -167.409246
9.203                0.827396949      -167.74648
9.204                0.827294675     -168.084054
9.205                0.827196338     -168.421964
9.206                0.827101948     -168.760204
9.207                0.827011513      -169.09877
9.208                0.826925043     -169.437656
9.209                0.826842544     -169.776856
9.21                 0.826764025     -170.116366
9.211                0.826689492     -170.456179
9.212                0.826618954     -170.796291
9.213                0.826552415     -171.136696
9.214                0.826489883     -171.477388
9.215                0.826431362     -171.818362
9.216                0.826376858     -172.159612
9.217                0.826326376     -172.501133
9.218                 0.82627992     -172.842919
9.219                0.826237493     -173.184964
9.22                 0.826199099     -173.527262
9.221                0.826164742     -173.869809
9.222                0.826134423     -174.212597
9.223                0.826108145     -174.555622
9.224                0.826085909     -174.898877
9.225                0.826067717     -175.242356
9.226                 0.82605357     -175.586054
9.227                0.826043467     -175.929965
9.228                0.826037409     -176.274082
9.229                0.826035394       -176.6184
9.23                 0.826037423     -176.962913
9.231                0.826043492     -177.307615
9.232                0.826053602     -177.652499
9.233                0.826067748      -177.99756
9.234                0.826085928     -178.342791
9.235                0.826108139     -178.688186
9.236                0.826134376      -179.03374
9.237                0.826164637     -179.379446
9.238                0.826198915     -179.725298
9.239                0.826237206      179.928711
9.24                 0.826279504      179.582586
9.241                0.826325803      179.236333
9.242                0.826376096       178.88996
9.243                0.826430377      178.543472
9.244                0.826488637      178.196875
9.245                 0.82655087      177.850176
9.246                0.826617066      177.503381
9.247                0.826687217      177.156497
9.248                0.826761314      176.809529
9.249                0.826839346      176.462483
9.25                 0.826921304      176.115368
9.251                0.827007177      175.768187
9.252                0.827096954      175.420949
9.253                0.827190624      175.073659
9.254                0.827288174      174.726323
9.255                0.827389593      174.378948
9.256                0.827494867      174.031541
9.257                0.827603984      173.684107
9.258                0.827716929      173.336654
9.259                0.827833689      172.989186
9.26                  0.82795425      172.641712
9.261                0.828078596      172.294236
9.262                0.828206712      171.946766
9.263                0.828338583      171.599308
9.264                0.828474192      171.251868
9.265                0.828613524      170.904452
9.266                 0.82875656      170.557067
9.267                0.828903285      170.209719
9.268                0.829053681      169.862415
9.269                0.829207728       169.51516
9.27                  0.82936541      169.167961
9.271                0.829526708      168.820825
9.272                0.829691602      168.473758
9.273                0.829860072      168.126765
9.274                  0.8300321      167.779854
9.275                0.830207665       167.43303
9.276                0.830386747        167.0863
9.277                0.830569324       166.73967
9.278                0.830755376      166.393146
9.279                0.830944881      166.046734
9.28                 0.831137817      165.700441
9.281                0.831334162      165.354273
9.282                0.831533894      165.008236
9.283                 0.83173699      164.662335
9.284                0.831943428      164.316578
9.285                0.832153182       163.97097
9.286                0.832366231      163.625518
9.287                 0.83258255      163.280227
9.288                0.832802115      162.935103
9.289                0.833024901      162.590153
9.29                 0.833250885      162.245383
9.291                 0.83348004      161.900798
9.292                0.833712341      161.556404
9.293                0.833947763      161.212208
9.294                0.834186281      160.868215
9.295                0.834427868      160.524431
9.296                0.834672498      160.180862
9.297                0.834920144      159.837515
9.298                0.835170781      159.494394
9.299                 0.83542438      159.151505
9.3                  0.835680916      158.808855
9.301                 0.83594036      158.466448
9.302                0.836202685      158.124292
9.303                0.836467863       157.78239
9.304                0.836735867       157.44075
9.305                0.837006669      157.099376
9.306                0.837280239      156.758275
9.307                0.837556551      156.417451
9.308                0.837835574      156.076911
9.309                0.838117281      155.736659
9.31                 0.838401642      155.396702
9.311                0.838688629      155.057045
9.312                0.838978212      154.717692
9.313                0.839270361       154.37865
9.314                0.839565048      154.039924
9.315                0.839862243      153.701519
9.316                0.840161916       153.36344
9.317                0.840464037      153.025693
9.318                0.840768577      152.688283
9.319                0.841075504      152.351215
9.32                  0.84138479      152.014494
9.321                0.841696404      151.678125
9.322                0.842010314      151.342113
9.323                0.842326492      151.006464
9.324                0.842644907      150.671182
9.325                0.842965528      150.336272
9.326                0.843288324       150.00174
9.327                0.843613264      149.667589
9.328                0.843940319      149.333825
9.329                0.844269456      149.000453
9.33                 0.844600646      148.667477
9.331                0.844933857      148.334903
9.332                0.845269059      148.002734
9.333                 0.84560622      147.670976
9.334                 0.84594531      147.339633
9.335                0.846286297      147.008709
9.336                0.846629151       146.67821
9.337                 0.84697384      146.348139
9.338                0.847320333      146.018502
9.339                  0.8476686      145.689302
9.34                 0.848018609      145.360543
9.341                 0.84837033      145.032231
9.342                0.848723731       144.70437
9.343                0.849078782      144.376963
9.344                 0.84943545      144.050015
9.345                0.849793707      143.723531
9.346                0.850153519      143.397513
9.347                0.850514858      143.071967
9.348                0.850877692      142.746896
9.349                0.851241989      142.422305
9.35                  0.85160772      142.098196
9.351                0.851974854      141.774575
9.352                 0.85234336      141.451446
9.353                0.852713207       141.12881
9.354                0.853084366      140.806674
9.355                0.853456805       140.48504
9.356                0.853830495      140.163913
9.357                0.854205405      139.843295
9.358                0.854581505       139.52319
9.359                0.854958764      139.203603
9.36                 0.855337154      138.884535
9.361                0.855716644      138.565992
9.362                0.856097204      138.247977
9.363                0.856478804      137.930492
9.364                0.856861416      137.613542
9.365                0.857245009      137.297129
9.366                0.857629554      136.981257
9.367                0.858015022      136.665929
9.368                0.858401385      136.351148
9.369                0.858788612      136.036917
9.37                 0.859176675       135.72324
9.371                0.859565545       135.41012
9.372                0.859955194      135.097559
9.373                0.860345594      134.785561
9.374                0.860736715      134.474128
9.375                0.861128531      134.163264
9.376                0.861521012      133.852971
9.377                0.861914131      133.543252
9.378                 0.86230786      133.234109
9.379                0.862702172      132.925547
9.38                  0.86309704      132.617566
9.381                0.863492435      132.310171
9.382                0.863888332      132.003362
9.383                0.864284702      131.697144
9.384                 0.86468152      131.391519
9.385                0.865078759      131.086488
9.386                0.865476393      130.782055
9.387                0.865874394      130.478221
9.388                0.866272738       130.17499
9.389                0.866671398      129.872363
9.39                 0.867070349      129.570343
9.391                0.867469566      129.268932
9.392                0.867869022      128.968133
9.393                0.868268693      128.667946
9.394                0.868668555      128.368375
9.395                0.869068581      128.069421
9.396                0.869468748      127.771087
