! TOUCHSTONE file generated by CST DESIGN STUDIO
! Date and time: Tue Feb  4 14:26:52 2025
! Project name: C:\Work\MatlabApps\UnitCellOptimizationMatlab\CST\unitcell.cst
! Tree item: Tasks\Sweep1\SPara1\S-Parameters
! Header version: 2024
! Port assignment regex: !\s*Touchstone port\s*([0-9]+)\s*=\s*(CST MWS port|CST DES external port|CST DES block port)\s*(.+)\s* \(\"(.*)\"\)(\s*mode\s*([0-9]+))?.*
! Touchstone port assignment:
! Touchstone port 1 = CST DES external port 1 ("")
# GHz S MA R 50
9                    0.938773985     -75.0249576
9.001                0.938550062     -75.1435475
9.002                0.938326069     -75.2624519
9.003                0.938102008     -75.3816721
9.004                0.937877881     -75.5012094
9.005                0.937653689     -75.6210651
9.006                0.937429434     -75.7412404
9.007                0.937205117     -75.8617367
9.008                0.936980741     -75.9825552
9.009                0.936756305     -76.1036973
9.01                 0.936531813     -76.2251642
9.011                0.936307266     -76.3469574
9.012                0.936082665      -76.469078
9.013                0.935858012     -76.5915275
9.014                0.935633309     -76.7143072
9.015                0.935408557     -76.8374183
9.016                0.935183757     -76.9608623
9.017                0.934958912     -77.0846405
9.018                0.934734024     -77.2087542
9.019                0.934509092     -77.3332048
9.02                  0.93428412     -77.4579937
9.021                0.934059109     -77.5831222
9.022                0.933834061     -77.7085917
9.023                0.933608976     -77.8344035
9.024                0.933383858     -77.9605591
9.025                0.933158707     -78.0870599
9.026                0.932933525     -78.2139071
9.027                0.932708314     -78.3411023
9.028                0.932483075     -78.4686468
9.029                 0.93225781      -78.596542
9.03                 0.932032521     -78.7247894
9.031                0.931807209     -78.8533903
9.032                0.931581876     -78.9823463
9.033                0.931356524     -79.1116586
9.034                0.931131154     -79.2413287
9.035                0.930905768     -79.3713581
9.036                0.930680368     -79.5017483
9.037                0.930454955     -79.6325006
9.038                0.930229531     -79.7636165
9.039                0.930004098     -79.8950974
9.04                 0.929778658     -80.0269449
9.041                0.929553211     -80.1591604
9.042                0.929327761     -80.2917454
9.043                0.929102307     -80.4247013
9.044                0.928876853     -80.5580296
9.045                0.928651401     -80.6917318
9.046                 0.92842595     -80.8258095
9.047                0.928200504      -80.960264
9.048                0.927975065     -81.0950969
9.049                0.927749633     -81.2303097
9.05                  0.92752421     -81.3659039
9.051                0.927298799     -81.5018811
9.052                0.927073401     -81.6382427
9.053                0.926848018     -81.7749902
9.054                0.926622652     -81.9121253
9.055                0.926397303     -82.0496494
9.056                0.926171975     -82.1875641
9.057                0.925946669     -82.3258708
9.058                0.925721386     -82.4645713
9.059                0.925496129      -82.603667
9.06                   0.9252709     -82.7431594
9.061                0.925045699     -82.8830502
9.062                0.924820529     -83.0233409
9.063                0.924595391     -83.1640331
9.064                0.924370289     -83.3051283
9.065                0.924145222     -83.4466281
9.066                0.923920194     -83.5885342
9.067                0.923695205     -83.7308481
9.068                0.923470258     -83.8735714
9.069                0.923245355     -84.0167058
9.07                 0.923020498     -84.1602527
9.071                0.922795688     -84.3042138
9.072                0.922570927     -84.4485908
9.073                0.922346217     -84.5933853
9.074                 0.92212156     -84.7385988
9.075                0.921896958      -84.884233
9.076                0.921672413     -85.0302895
9.077                0.921447927       -85.17677
9.078                0.921223501     -85.3236761
9.079                0.920999137     -85.4710095
9.08                 0.920774839     -85.6187717
9.081                0.920550606     -85.7669645
9.082                0.920326442     -85.9155895
9.083                0.920102349     -86.0646484
9.084                0.919878327     -86.2141428
9.085                 0.91965438     -86.3640744
9.086                 0.91943051     -86.5144448
9.087                0.919206717     -86.6652558
9.088                0.918983005     -86.8165091
9.089                0.918759375     -86.9682062
9.09                 0.918535829     -87.1203489
9.091                 0.91831237      -87.272939
9.092                0.918088999      -87.425978
9.093                0.917865718     -87.5794677
9.094                0.917642531     -87.7334098
9.095                0.917419437      -87.887806
9.096                 0.91719644     -88.0426579
9.097                0.916973543     -88.1979675
9.098                0.916750746     -88.3537362
9.099                0.916528052     -88.5099659
9.1                  0.916305463     -88.6666583
9.101                0.916082981     -88.8238151
9.102                0.915860609      -88.981438
9.103                0.915638348     -89.1395288
9.104                0.915416202     -89.2980893
9.105                0.915194171     -89.4571211
9.106                0.914972258      -89.616626
9.107                0.914750466     -89.7766057
9.108                0.914528796      -89.937062
9.109                0.914307252     -90.0979967
9.11                 0.914085834     -90.2594115
9.111                0.913864546     -90.4213082
9.112                 0.91364339     -90.5836884
9.113                0.913422367     -90.7465541
9.114                0.913201481     -90.9099069
9.115                0.912980733     -91.0737487
9.116                0.912760127     -91.2380811
9.117                0.912539663     -91.4029061
9.118                0.912319346     -91.5682253
9.119                0.912099176     -91.7340405
9.12                 0.911879157     -91.9003535
9.121                0.911659291     -92.0671661
9.122                 0.91143958     -92.2344801
9.123                0.911220027     -92.4022973
9.124                0.911000634     -92.5706194
9.125                0.910781404     -92.7394483
9.126                0.910562339     -92.9087857
9.127                0.910343442     -93.0786335
9.128                0.910124715     -93.2489933
9.129                 0.90990616     -93.4198672
9.13                 0.909687781     -93.5912567
9.131                 0.90946958     -93.7631638
9.132                 0.90925156     -93.9355902
9.133                0.909033723     -94.1085378
9.134                0.908816071     -94.2820083
9.135                0.908598608     -94.4560036
9.136                0.908381336     -94.6305254
9.137                0.908164258     -94.8055756
9.138                0.907947376     -94.9811559
9.139                0.907730694     -95.1572682
9.14                 0.907514213     -95.3339143
9.141                0.907297938     -95.5110961
9.142                0.907081869     -95.6888152
9.143                0.906866012     -95.8670735
9.144                0.906650367     -96.0458729
9.145                0.906434938     -96.2252151
9.146                0.906219729      -96.405102
9.147                0.906004741     -96.5855353
9.148                0.905789977     -96.7665169
9.149                0.905575442     -96.9480485
9.15                 0.905361137     -97.1301321
9.151                0.905147065     -97.3127694
9.152                0.904933231     -97.4959621
9.153                0.904719635     -97.6797122
9.154                0.904506283     -97.8640214
9.155                0.904293176     -98.0488915
9.156                0.904080318     -98.2343243
9.157                0.903867712     -98.4203216
9.158                 0.90365536     -98.6068853
9.159                0.903443267     -98.7940171
9.16                 0.903231436     -98.9817188
9.161                0.903019869     -99.1699922
9.162                 0.90280857     -99.3588391
9.163                0.902597542     -99.5482614
9.164                0.902386789     -99.7382607
9.165                0.902176313     -99.9288388
9.166                0.901966118     -100.119998
9.167                0.901756208     -100.311739
9.168                0.901546586     -100.504064
9.169                0.901337254     -100.696976
9.17                 0.901128218     -100.890475
9.171                0.900919479     -101.084564
9.172                0.900711043     -101.279244
9.173                0.900502911     -101.474517
9.174                0.900295088     -101.670385
9.175                0.900087578     -101.866849
9.176                0.899880383     -102.063912
9.177                0.899673508     -102.261575
9.178                0.899466956     -102.459839
9.179                0.899260731     -102.658707
9.18                 0.899054837     -102.858181
9.181                0.898849277     -103.058261
9.182                0.898644055      -103.25895
9.183                0.898439175     -103.460249
9.184                0.898234641     -103.662161
9.185                0.898030457     -103.864686
9.186                0.897826626     -104.067827
9.187                0.897623153     -104.271585
9.188                0.897420041     -104.475962
9.189                0.897217294      -104.68096
9.19                 0.897014918      -104.88658
9.191                0.896812914     -105.092823
9.192                0.896611289     -105.299693
9.193                0.896410045     -105.507189
9.194                0.896209187     -105.715315
9.195                0.896008719      -105.92407
9.196                0.895808645     -106.133458
9.197                 0.89560897      -106.34348
9.198                0.895409698     -106.554137
9.199                0.895210832     -106.765431
9.2                  0.895012379     -106.977364
9.201                0.894814341     -107.189936
9.202                0.894616723     -107.403151
9.203                0.894419531     -107.617008
9.204                0.894222767     -107.831511
9.205                0.894026437     -108.046659
9.206                0.893830546     -108.262456
9.207                0.893635097     -108.478902
9.208                0.893440096     -108.695999
9.209                0.893245547     -108.913749
9.21                 0.893051454     -109.132152
9.211                0.892857823     -109.351211
9.212                0.892664659     -109.570927
9.213                0.892471966     -109.791301
9.214                0.892279748     -110.012335
9.215                0.892088011      -110.23403
9.216                 0.89189676     -110.456388
9.217                   0.891706      -110.67941
9.218                0.891515735     -110.903097
9.219                0.891325971     -111.127452
9.22                 0.891136712     -111.352474
9.221                0.890947964     -111.578166
9.222                0.890759732     -111.804529
9.223                 0.89057202     -112.031564
9.224                0.890384835     -112.259272
9.225                0.890198182     -112.487656
9.226                0.890012065     -112.716715
9.227                0.889826489     -112.946452
9.228                0.889641462     -113.176868
9.229                0.889456986     -113.407963
9.23                 0.889273069      -113.63974
9.231                0.889089715     -113.872199
9.232                0.888906931     -114.105341
9.233                 0.88872472     -114.339168
9.234                 0.88854309     -114.573681
9.235                0.888362045     -114.808881
9.236                0.888181592     -115.044768
9.237                0.888001735     -115.281345
9.238                0.887822481     -115.518612
9.239                0.887643835      -115.75657
9.24                 0.887465804     -115.995221
9.241                0.887288392     -116.234565
9.242                0.887111606     -116.474603
9.243                0.886935452     -116.715337
9.244                0.886759935     -116.956767
9.245                0.886585062     -117.198894
9.246                0.886410838     -117.441719
9.247                 0.88623727     -117.685243
9.248                0.886064363     -117.929467
9.249                0.885892124     -118.174392
9.25                 0.885720558     -118.420018
9.251                0.885549673     -118.666347
9.252                0.885379473     -118.913379
9.253                0.885209967     -119.161115
9.254                0.885041158     -119.409555
9.255                0.884873055     -119.658701
9.256                0.884705663     -119.908553
9.257                0.884538988     -120.159112
9.258                0.884373038     -120.410378
9.259                0.884207818     -120.662351
9.26                 0.884043335     -120.915034
9.261                0.883879596     -121.168426
9.262                0.883716606     -121.422527
9.263                0.883554373     -121.677338
9.264                0.883392904      -121.93286
9.265                0.883232204     -122.189093
9.266                 0.88307228     -122.446038
9.267                 0.88291314     -122.703695
9.268                 0.88275479     -122.962063
9.269                0.882597236     -123.221145
9.27                 0.882440485     -123.480939
9.271                0.882284545     -123.741447
9.272                0.882129422     -124.002668
9.273                0.881975123     -124.264603
9.274                0.881821655     -124.527251
9.275                0.881669024     -124.790614
9.276                0.881517239     -125.054691
9.277                0.881366305     -125.319482
9.278                0.881216229     -125.584988
9.279                0.881067019     -125.851208
9.28                 0.880918683     -126.118142
9.281                0.880771226      -126.38579
9.282                0.880624656     -126.654153
9.283                 0.88047898      -126.92323
9.284                0.880334205     -127.193021
9.285                0.880190339     -127.463526
9.286                0.880047388     -127.734745
9.287                 0.87990536     -128.006677
9.288                0.879764262     -128.279322
9.289                0.879624102      -128.55268
9.29                 0.879484886     -128.826751
9.291                0.879346622     -129.101534
9.292                0.879209317     -129.377028
9.293                0.879072979     -129.653234
9.294                0.878937614     -129.930151
9.295                 0.87880323     -130.207777
9.296                0.878669835     -130.486114
9.297                0.878537436     -130.765159
9.298                0.878406041     -131.044913
9.299                0.878275656     -131.325375
9.3                  0.878146289     -131.606544
9.301                0.878017947     -131.888419
9.302                0.877890639        -132.171
9.303                 0.87776437     -132.454285
9.304                 0.87763915     -132.738274
9.305                0.877514985     -133.022965
9.306                0.877391883     -133.308359
9.307                0.877269851     -133.594453
9.308                0.877148896     -133.881248
9.309                0.877029026     -134.168741
9.31                  0.87691025     -134.456931
9.311                0.876792573     -134.745818
9.312                0.876676003       -135.0354
9.313                0.876560549     -135.325677
9.314                0.876446216     -135.616645
9.315                0.876333014     -135.908305
9.316                0.876220949     -136.200655
9.317                0.876110029     -136.493693
9.318                 0.87600026     -136.787419
9.319                0.875891652     -137.081829
9.32                  0.87578421     -137.376924
9.321                0.875677942     -137.672701
9.322                0.875572856     -137.969158
9.323                 0.87546896     -138.266294
9.324                0.875366259     -138.564108
9.325                0.875264763     -138.862597
9.326                0.875164477     -139.161759
9.327                 0.87506541     -139.461592
9.328                0.874967568     -139.762096
9.329                0.874870959     -140.063267
9.33                 0.874775591     -140.365103
9.331                0.874681469     -140.667603
9.332                0.874588602     -140.970765
9.333                0.874496997     -141.274585
9.334                 0.87440666     -141.579063
9.335                0.874317599     -141.884195
9.336                0.874229821      -142.18998
9.337                0.874143333     -142.496414
9.338                0.874058142     -142.803496
9.339                0.873974254     -143.111223
9.34                 0.873891677     -143.419593
9.341                0.873810418     -143.728603
9.342                0.873730483      -144.03825
9.343                0.873651879     -144.348531
9.344                0.873574613     -144.659445
9.345                0.873498692     -144.970988
9.346                0.873424122     -145.283157
9.347                 0.87335091     -145.595949
9.348                0.873279062     -145.909362
9.349                0.873208585     -146.223393
9.35                 0.873139485     -146.538038
9.351                0.873071769     -146.853295
9.352                0.873005443      -147.16916
9.353                0.872940513      -147.48563
9.354                0.872876986     -147.802702
9.355                0.872814867     -148.120373
9.356                0.872754163     -148.438639
9.357                 0.87269488     -148.757497
9.358                0.872637024     -149.076943
9.359                  0.8725806     -149.396974
9.36                 0.872525614     -149.717587
9.361                0.872472073     -150.038778
9.362                0.872419981     -150.360543
9.363                0.872369345     -150.682879
9.364                 0.87232017     -151.005781
9.365                0.872272461     -151.329246
9.366                0.872226224     -151.653271
9.367                0.872181463     -151.977851
9.368                0.872138185     -152.302982
9.369                0.872096395     -152.628661
9.37                 0.872056096     -152.954883
9.371                0.872017295     -153.281644
9.372                0.871979996     -153.608941
9.373                0.871944204     -153.936768
9.374                0.871909923     -154.265122
9.375                0.871877159     -154.593998
9.376                0.871845915     -154.923392
9.377                0.871816196       -155.2533
9.378                0.871788006     -155.583718
9.379                 0.87176135      -155.91464
9.38                 0.871736232     -156.246062
9.381                0.871712654      -156.57798
9.382                0.871690623     -156.910388
9.383                 0.87167014     -157.243283
9.384                 0.87165121      -157.57666
9.385                0.871633837     -157.910513
9.386                0.871618024     -158.244839
9.387                0.871603773     -158.579631
9.388                0.871591089     -158.914886
9.389                0.871579974     -159.250598
9.39                 0.871570432     -159.586762
9.391                0.871562466     -159.923373
9.392                0.871556077     -160.260426
9.393                0.871551269     -160.597917
9.394                0.871548044     -160.935839
9.395                0.871546405     -161.274187
9.396                0.871546353     -161.612957
