! TOUCHSTONE file generated by CST DESIGN STUDIO
! Date and time: Tue Feb  4 18:14:31 2025
! Project name: C:\Work\MatlabApps\UnitCellOptimizationMatlab\CST\unitcell.cst
! Tree item: Tasks\Sweep1\SPara1\S-Parameters
! Header version: 2024
! Port assignment regex: !\s*Touchstone port\s*([0-9]+)\s*=\s*(CST MWS port|CST DES external port|CST DES block port)\s*(.+)\s* \(\"(.*)\"\)(\s*mode\s*([0-9]+))?.*
! Touchstone port assignment:
! Touchstone port 1 = CST DES external port 1 ("")
# GHz S MA R 50
9                    0.985775377     -75.5382465
9.001                0.985741328     -75.6513003
9.002                0.985707178     -75.7646294
9.003                0.985672926     -75.8782348
9.004                0.985638573      -75.992117
9.005                0.985604117     -76.1062771
9.006                 0.98556956     -76.2207158
9.007                0.985534899     -76.3354339
9.008                0.985500137     -76.4504322
9.009                0.985465271     -76.5657116
9.01                 0.985430302     -76.6812729
9.011                0.985395229     -76.7971169
9.012                0.985360053     -76.9132445
9.013                0.985324774     -77.0296564
9.014                 0.98528939     -77.1463536
9.015                0.985253902     -77.2633368
9.016                0.985218309     -77.3806068
9.017                0.985182612     -77.4981646
9.018                 0.98514681      -77.616011
9.019                0.985110902     -77.7341467
9.02                  0.98507489     -77.8525727
9.021                0.985038771     -77.9712898
9.022                0.985002547     -78.0902988
9.023                0.984966217     -78.2096007
9.024                0.984929781     -78.3291961
9.025                0.984893239      -78.449086
9.026                0.984856589     -78.5692713
9.027                0.984819833     -78.6897528
9.028                 0.98478297     -78.8105314
9.029                   0.984746     -78.9316078
9.03                 0.984708922     -79.0529831
9.031                0.984671736     -79.1746579
9.032                0.984634443     -79.2966333
9.033                0.984597042     -79.4189101
9.034                0.984559532     -79.5414891
9.035                0.984521914     -79.6643712
9.036                0.984484187     -79.7875573
9.037                0.984446352     -79.9110482
9.038                0.984408407     -80.0348449
9.039                0.984370353     -80.1589482
9.04                  0.98433219      -80.283359
9.041                0.984293917     -80.4080781
9.042                0.984255535     -80.5331065
9.043                0.984217042      -80.658445
9.044                0.984178439     -80.7840946
9.045                0.984139726      -80.910056
9.046                0.984100903     -81.0363302
9.047                0.984061968     -81.1629181
9.048                0.984022923     -81.2898205
9.049                0.983983767     -81.4170384
9.05                 0.983944499     -81.5445727
9.051                0.983905121     -81.6724242
9.052                 0.98386563     -81.8005939
9.053                0.983826028     -81.9290826
9.054                0.983786314     -82.0578912
9.055                0.983746488     -82.1870207
9.056                 0.98370655     -82.3164719
9.057                0.983666499     -82.4462457
9.058                0.983626336     -82.5763432
9.059                 0.98358606      -82.706765
9.06                 0.983545672     -82.8375123
9.061                 0.98350517     -82.9685858
9.062                0.983464556     -83.0999864
9.063                0.983423828     -83.2317152
9.064                0.983382986      -83.363773
9.065                0.983342031     -83.4961607
9.066                0.983300963     -83.6288793
9.067                0.983259781     -83.7619296
9.068                0.983218484     -83.8953125
9.069                0.983177074     -84.0290291
9.07                 0.983135549     -84.1630802
9.071                 0.98309391     -84.2974666
9.072                0.983052157     -84.4321895
9.073                0.983010289     -84.5672496
9.074                0.982968306     -84.7026479
9.075                0.982926209     -84.8383853
9.076                0.982883997     -84.9744628
9.077                0.982841669     -85.1108813
9.078                0.982799227     -85.2476416
9.079                0.982756669     -85.3847448
9.08                 0.982713997     -85.5221917
9.081                0.982671208     -85.6599834
9.082                0.982628304     -85.7981206
9.083                0.982585285     -85.9366045
9.084                 0.98254215     -86.0754358
9.085                0.982498899     -86.2146155
9.086                0.982455533     -86.3541446
9.087                 0.98241205     -86.4940239
9.088                0.982368452     -86.6342545
9.089                0.982324737     -86.7748373
9.09                 0.982280906     -86.9157731
9.091                 0.98223696      -87.057063
9.092                0.982192897     -87.1987079
9.093                0.982148717     -87.3407087
9.094                0.982104422     -87.4830664
9.095                 0.98206001     -87.6257818
9.096                0.982015482      -87.768856
9.097                0.981970837     -87.9122899
9.098                0.981926075     -88.0560843
9.099                0.981881198     -88.2002404
9.1                  0.981836203     -88.3447589
9.101                0.981791092     -88.4896409
9.102                0.981745865     -88.6348873
9.103                0.981700521      -88.780499
9.104                 0.98165506      -88.926477
9.105                0.981609483     -89.0728222
9.106                0.981563789     -89.2195356
9.107                0.981517979      -89.366618
9.108                0.981472052     -89.5140705
9.109                0.981426008     -89.6618941
9.11                 0.981379848     -89.8100895
9.111                0.981333571     -89.9586578
9.112                0.981287178        -90.1076
9.113                0.981240668     -90.2569169
9.114                0.981194042     -90.4066095
9.115                0.981147299     -90.5566788
9.116                 0.98110044     -90.7071256
9.117                0.981053465      -90.857951
9.118                0.981006374     -91.0091559
9.119                0.980959166     -91.1607412
9.12                 0.980911842     -91.3127079
9.121                0.980864402     -91.4650569
9.122                0.980816847     -91.6177891
9.123                0.980769175     -91.7709055
9.124                0.980721388      -91.924407
9.125                0.980673484     -92.0782946
9.126                0.980625466     -92.2325692
9.127                0.980577331     -92.3872317
9.128                0.980529082     -92.5422831
9.129                0.980480717     -92.6977243
9.13                 0.980432237     -92.8535563
9.131                0.980383642     -93.0097799
9.132                0.980334932     -93.1663962
9.133                0.980286107      -93.323406
9.134                0.980237168     -93.4808103
9.135                0.980188114     -93.6386099
9.136                0.980138946      -93.796806
9.137                0.980089663     -93.9553993
9.138                0.980040267     -94.1143907
9.139                0.979990757     -94.2737813
9.14                 0.979941134      -94.433572
9.141                0.979891397     -94.5937636
9.142                0.979841547     -94.7543571
9.143                0.979791584     -94.9153534
9.144                0.979741508     -95.0767534
9.145                0.979691319     -95.2385581
9.146                0.979641018     -95.4007683
9.147                0.979590605      -95.563385
9.148                0.979540081      -95.726409
9.149                0.979489444     -95.8898414
9.15                 0.979438696     -96.0536829
9.151                0.979387837     -96.2179346
9.152                0.979336868     -96.3825972
9.153                0.979285787     -96.5476718
9.154                0.979234597     -96.7131592
9.155                0.979183296     -96.8790603
9.156                0.979131885      -97.045376
9.157                0.979080366     -97.2121071
9.158                0.979028737     -97.3792547
9.159                0.978976999     -97.5468195
9.16                 0.978925153     -97.7148025
9.161                0.978873199     -97.8832046
9.162                0.978821137     -98.0520265
9.163                0.978768968     -98.2212693
9.164                0.978716691     -98.3909337
9.165                0.978664308     -98.5610207
9.166                0.978611819     -98.7315311
9.167                0.978559224     -98.9024658
9.168                0.978506523     -99.0738257
9.169                0.978453717     -99.2456115
9.17                 0.978400807     -99.4178242
9.171                0.978347792     -99.5904646
9.172                0.978294674     -99.7635336
9.173                0.978241452      -99.937032
9.174                0.978188127     -100.110961
9.175                0.978134699      -100.28532
9.176                 0.97808117     -100.460112
9.177                0.978027539     -100.635337
9.178                0.977973807     -100.810995
9.179                0.977919974     -100.987087
9.18                 0.977866041     -101.163615
9.181                0.977812009     -101.340579
9.182                0.977757878     -101.517979
9.183                0.977703648     -101.695818
9.184                 0.97764932     -101.874095
9.185                0.977594895     -102.052811
9.186                0.977540373     -102.231967
9.187                0.977485755     -102.411564
9.188                0.977431041     -102.591603
9.189                0.977376232     -102.772084
9.19                 0.977321329     -102.953008
9.191                0.977266331     -103.134377
9.192                0.977211241      -103.31619
9.193                0.977156058     -103.498449
9.194                0.977100783     -103.681154
9.195                0.977045416     -103.864306
9.196                0.976989959     -104.047906
9.197                0.976934412     -104.231954
9.198                0.976878776     -104.416452
9.199                0.976823051     -104.601399
9.2                  0.976767238     -104.786798
9.201                0.976711339     -104.972647
9.202                0.976655352     -105.158949
9.203                 0.97659928     -105.345704
9.204                0.976543124     -105.532913
9.205                0.976486883     -105.720575
9.206                0.976430558     -105.908693
9.207                0.976374152     -106.097266
9.208                0.976317663     -106.286296
9.209                0.976261093     -106.475783
9.21                 0.976204444     -106.665727
9.211                0.976147715     -106.856129
9.212                0.976090907     -107.046991
9.213                0.976034022     -107.238312
9.214                0.975977061     -107.430094
9.215                0.975920023     -107.622336
9.216                0.975862911      -107.81504
9.217                0.975805725     -108.008206
9.218                0.975748465     -108.201834
9.219                0.975691133     -108.395926
9.22                 0.975633731     -108.590482
9.221                0.975576258     -108.785503
9.222                0.975518715     -108.980988
9.223                0.975461105     -109.176939
9.224                0.975403427     -109.373357
9.225                0.975345683     -109.570241
9.226                0.975287874     -109.767593
9.227                    0.97523     -109.965412
9.228                0.975172064       -110.1637
9.229                0.975114065     -110.362457
9.23                 0.975056005     -110.561683
9.231                0.974997886     -110.761379
9.232                0.974939707     -110.961545
9.233                0.974881471     -111.162183
9.234                0.974823179     -111.363292
9.235                0.974764831     -111.564872
9.236                0.974706428     -111.766926
9.237                0.974647973     -111.969451
9.238                0.974589466      -112.17245
9.239                0.974530908     -112.375923
9.24                 0.974472301      -112.57987
9.241                0.974413645     -112.784291
9.242                0.974354943     -112.989187
9.243                0.974296194     -113.194559
9.244                0.974237401     -113.400406
9.245                0.974178566     -113.606729
9.246                0.974119688     -113.813528
9.247                0.974060769     -114.020805
9.248                0.974001812     -114.228558
9.249                0.973942816     -114.436789
9.25                 0.973883784     -114.645497
9.251                0.973824716     -114.854684
9.252                0.973765615     -115.064348
9.253                0.973706482     -115.274492
9.254                0.973647317     -115.485114
9.255                0.973588123     -115.696215
9.256                0.973528901     -115.907796
9.257                0.973469652     -116.119857
9.258                0.973410378     -116.332397
9.259                0.973351081     -116.545417
9.26                 0.973291761     -116.758918
9.261                 0.97323242     -116.972899
9.262                 0.97317306     -117.187361
9.263                0.973113683     -117.402304
9.264                 0.97305429     -117.617727
9.265                0.972994882     -117.833632
9.266                0.972935461     -118.050018
9.267                0.972876029     -118.266885
9.268                0.972816587     -118.484234
9.269                0.972757138     -118.702064
9.27                 0.972697682     -118.920376
9.271                0.972638221     -119.139169
9.272                0.972578757     -119.358445
9.273                0.972519292     -119.578202
9.274                0.972459827      -119.79844
9.275                0.972400364     -120.019161
9.276                0.972340906     -120.240363
9.277                0.972281452     -120.462047
9.278                0.972222006     -120.684213
9.279                 0.97216257      -120.90686
9.28                 0.972103144      -121.12999
9.281                0.972043731       -121.3536
9.282                0.971984332     -121.577692
9.283                 0.97192495     -121.802265
9.284                0.971865586      -122.02732
9.285                0.971806243     -122.252856
9.286                0.971746921     -122.478872
9.287                0.971687623     -122.705369
9.288                0.971628351     -122.932347
9.289                0.971569107     -123.159805
9.29                 0.971509893     -123.387743
9.291                 0.97145071     -123.616162
9.292                0.971391561     -123.845059
9.293                0.971332448     -124.074436
9.294                0.971273372     -124.304293
9.295                0.971214336     -124.534628
9.296                0.971155342     -124.765441
9.297                0.971096391     -124.996733
9.298                0.971037486     -125.228502
9.299                0.970978629     -125.460749
9.3                  0.970919822     -125.693473
9.301                0.970861067     -125.926674
9.302                0.970802367     -126.160351
9.303                0.970743722     -126.394504
9.304                0.970685136     -126.629132
9.305                0.970626611     -126.864235
9.306                0.970568148     -127.099812
9.307                0.970509751     -127.335864
9.308                 0.97045142     -127.572388
9.309                0.970393159     -127.809386
9.31                  0.97033497     -128.046856
9.311                0.970276854     -128.284797
9.312                0.970218815      -128.52321
9.313                0.970160854     -128.762093
9.314                0.970102973     -129.001446
9.315                0.970045175     -129.241268
9.316                0.969987463     -129.481559
9.317                0.969929838     -129.722318
9.318                0.969872303     -129.963544
9.319                0.969814861     -130.205236
9.32                 0.969757512     -130.447394
9.321                0.969700261     -130.690017
9.322                0.969643109     -130.933104
9.323                0.969586059     -131.176654
9.324                0.969529113     -131.420667
9.325                0.969472273     -131.665142
9.326                0.969415542     -131.910077
9.327                0.969358923     -132.155473
9.328                0.969302417     -132.401327
9.329                0.969246027     -132.647639
9.33                 0.969189757     -132.894409
9.331                0.969133607     -133.141635
9.332                0.969077581     -133.389316
9.333                0.969021682     -133.637451
9.334                0.968965911      -133.88604
9.335                0.968910271      -134.13508
9.336                0.968854765     -134.384572
9.337                0.968799395     -134.634514
9.338                0.968744164     -134.884904
9.339                0.968689074     -135.135743
9.34                 0.968634128     -135.387028
9.341                0.968579329     -135.638758
9.342                0.968524678     -135.890933
9.343                 0.96847018      -136.14355
9.344                0.968415835      -136.39661
9.345                0.968361648      -136.65011
9.346                 0.96830762     -136.904049
9.347                0.968253753     -137.158426
9.348                0.968200052      -137.41324
9.349                0.968146518      -137.66849
9.35                 0.968093154     -137.924173
9.351                0.968039962     -138.180289
9.352                0.967986946     -138.436836
9.353                0.967934108     -138.693812
9.354                 0.96788145     -138.951217
9.355                0.967828976     -139.209049
9.356                0.967776687     -139.467306
9.357                0.967724587     -139.725987
9.358                0.967672679      -139.98509
9.359                0.967620964     -140.244614
9.36                 0.967569446     -140.504557
9.361                0.967518127     -140.764918
9.362                0.967467011     -141.025694
9.363                0.967416099     -141.286885
9.364                0.967365395     -141.548488
9.365                0.967314901     -141.810502
9.366                0.967264619     -142.072925
9.367                0.967214554     -142.335756
9.368                0.967164706     -142.598992
9.369                 0.96711508     -142.862632
9.37                 0.967065677     -143.126675
9.371                0.967016501     -143.391117
9.372                0.966967554     -143.655958
9.373                0.966918839     -143.921195
9.374                0.966870359     -144.186827
9.375                0.966822116     -144.452852
9.376                0.966774113     -144.719268
9.377                0.966726353     -144.986072
9.378                0.966678838     -145.253263
9.379                0.966631572     -145.520839
9.38                 0.966584556     -145.788798
9.381                0.966537794     -146.057137
9.382                0.966491289     -146.325856
9.383                0.966445042      -146.59495
9.384                0.966399058     -146.864419
9.385                0.966353337     -147.134261
9.386                0.966307884     -147.404472
9.387                0.966262701     -147.675052
9.388                 0.96621779     -147.945997
9.389                0.966173155     -148.217306
9.39                 0.966128797     -148.488976
9.391                 0.96608472     -148.761005
9.392                0.966040927      -149.03339
9.393                0.965997419      -149.30613
9.394                0.965954199     -149.579222
9.395                0.965911271     -149.852664
9.396                0.965868637     -150.126453
