! TOUCHSTONE file generated by CST DESIGN STUDIO
! Date and time: Tue Feb  4 18:14:39 2025
! Project name: C:\Work\MatlabApps\UnitCellOptimizationMatlab\CST\unitcell.cst
! Tree item: Tasks\Sweep1\SPara1\S-Parameters
! Header version: 2024
! Port assignment regex: !\s*Touchstone port\s*([0-9]+)\s*=\s*(CST MWS port|CST DES external port|CST DES block port)\s*(.+)\s* \(\"(.*)\"\)(\s*mode\s*([0-9]+))?.*
! Touchstone port assignment:
! Touchstone port 1 = CST DES external port 1 ("")
# GHz S MA R 50
9                    0.986581845     -69.2729768
9.001                0.986552588     -69.3723038
9.002                0.986523242     -69.4718666
9.003                0.986493807     -69.5716659
9.004                0.986464283     -69.6717023
9.005                0.986434671     -69.7719766
9.006                0.986404968     -69.8724895
9.007                0.986375176     -69.9732417
9.008                0.986345295      -70.074234
9.009                0.986315323     -70.1754671
9.01                  0.98628526     -70.2769416
9.011                0.986255107     -70.3786584
9.012                0.986224864     -70.4806182
9.013                0.986194529     -70.5828217
9.014                0.986164103     -70.6852696
9.015                0.986133585     -70.7879627
9.016                0.986102976     -70.8909018
9.017                0.986072274     -70.9940875
9.018                0.986041481     -71.0975206
9.019                0.986010594     -71.2012019
9.02                 0.985979616     -71.3051321
9.021                0.985948544      -71.409312
9.022                0.985917379     -71.5137423
9.023                 0.98588612     -71.6184238
9.024                0.985854768     -71.7233572
9.025                0.985823322     -71.8285433
9.026                0.985791782     -71.9339829
9.027                0.985760148     -72.0396767
9.028                0.985728419     -72.1456255
9.029                0.985696595     -72.2518301
9.03                 0.985664676     -72.3582912
9.031                0.985632662     -72.4650096
9.032                0.985600552      -72.571986
9.033                0.985568347     -72.6792214
9.034                0.985536045     -72.7867163
9.035                0.985503648     -72.8944717
9.036                0.985471154     -73.0024883
9.037                0.985438563     -73.1107669
9.038                0.985405875     -73.2193083
9.039                 0.98537309     -73.3281132
9.04                 0.985340208     -73.4371825
9.041                0.985307229     -73.5465169
9.042                0.985274151     -73.6561173
9.043                0.985240975     -73.7659844
9.044                0.985207702     -73.8761191
9.045                0.985174329     -73.9865221
9.046                0.985140858     -74.0971943
9.047                0.985107288     -74.2081364
9.048                0.985073619     -74.3193493
9.049                0.985039851     -74.4308338
9.05                 0.985005983     -74.5425907
9.051                0.984972015     -74.6546208
9.052                0.984937947     -74.7669249
9.053                0.984903778     -74.8795038
9.054                0.984869509     -74.9923584
9.055                 0.98483514     -75.1054895
9.056                0.984800669     -75.2188979
9.057                0.984766098     -75.3325844
9.058                0.984731425     -75.4465499
9.059                 0.98469665     -75.5607952
9.06                 0.984661774     -75.6753211
9.061                0.984626796     -75.7901285
9.062                0.984591715     -75.9052181
9.063                0.984556532      -76.020591
9.064                0.984521246     -76.1362477
9.065                0.984485858     -76.2521893
9.066                0.984450366     -76.3684166
9.067                0.984414771     -76.4849304
9.068                0.984379073     -76.6017315
9.069                0.984343271     -76.7188209
9.07                 0.984307365     -76.8361993
9.071                0.984271355     -76.9538676
9.072                 0.98423524     -77.0718267
9.073                0.984199021     -77.1900775
9.074                0.984162697     -77.3086207
9.075                0.984126269     -77.4274573
9.076                0.984089735     -77.5465881
9.077                0.984053096      -77.666014
9.078                0.984016352     -77.7857358
9.079                0.983979502     -77.9057545
9.08                 0.983942545     -78.0260708
9.081                0.983905483     -78.1466857
9.082                0.983868315     -78.2676001
9.083                 0.98383104     -78.3888148
9.084                0.983793658     -78.5103306
9.085                 0.98375617     -78.6321486
9.086                0.983718574     -78.7542695
9.087                0.983680872     -78.8766942
9.088                0.983643062     -78.9994237
9.089                0.983605144     -79.1224588
9.09                 0.983567118     -79.2458004
9.091                0.983528985     -79.3694494
9.092                0.983490744     -79.4934066
9.093                0.983452394     -79.6176731
9.094                0.983413936     -79.7422497
9.095                0.983375369     -79.8671372
9.096                0.983336693     -79.9923366
9.097                0.983297909     -80.1178488
9.098                0.983259015     -80.2436747
9.099                0.983220012     -80.3698151
9.1                    0.9831809     -80.4962711
9.101                0.983141678     -80.6230434
9.102                0.983102346     -80.7501331
9.103                0.983062904      -80.877541
9.104                0.983023352     -81.0052681
9.105                 0.98298369     -81.1333152
9.106                0.982943918     -81.2616832
9.107                0.982904035     -81.3903732
9.108                0.982864042     -81.5193859
9.109                0.982823937     -81.6487224
9.11                 0.982783722     -81.7783835
9.111                0.982743396     -81.9083702
9.112                0.982702958     -82.0386834
9.113                0.982662409      -82.169324
9.114                0.982621749     -82.3002929
9.115                0.982580977     -82.4315912
9.116                0.982540093     -82.5632196
9.117                0.982499097     -82.6951792
9.118                 0.98245799     -82.8274709
9.119                 0.98241677     -82.9600955
9.12                 0.982375438     -83.0930542
9.121                0.982333994     -83.2263477
9.122                0.982292437      -83.359977
9.123                0.982250768     -83.4939431
9.124                0.982208986     -83.6282469
9.125                0.982167091     -83.7628893
9.126                0.982125084     -83.8978713
9.127                0.982082963     -84.0331939
9.128                 0.98204073     -84.1688579
9.129                0.981998383     -84.3048644
9.13                 0.981955924     -84.4412142
9.131                 0.98191335     -84.5779084
9.132                0.981870664     -84.7149478
9.133                0.981827864     -84.8523335
9.134                0.981784951     -84.9900663
9.135                0.981741924     -85.1281473
9.136                0.981698783     -85.2665773
9.137                0.981655529     -85.4053574
9.138                0.981612161     -85.5444885
9.139                0.981568678     -85.6839715
9.14                 0.981525083     -85.8238074
9.141                0.981481373     -85.9639973
9.142                0.981437549     -86.1045419
9.143                0.981393611     -86.2454423
9.144                0.981349559     -86.3866995
9.145                0.981305393     -86.5283144
9.146                0.981261113     -86.6702879
9.147                0.981216719     -86.8126211
9.148                 0.98117221     -86.9553149
9.149                0.981127587     -87.0983702
9.15                 0.981082851     -87.2417881
9.151                0.981037999     -87.3855695
9.152                0.980993034     -87.5297153
9.153                0.980947954     -87.6742265
9.154                0.980902761     -87.8191042
9.155                0.980857453     -87.9643492
9.156                 0.98081203     -88.1099625
9.157                0.980766494     -88.2559451
9.158                0.980720843      -88.402298
9.159                0.980675078     -88.5490221
9.16                 0.980629199     -88.6961184
9.161                0.980583206     -88.8435879
9.162                0.980537099     -88.9914315
9.163                0.980490878     -89.1396502
9.164                0.980444543      -89.288245
9.165                0.980398094     -89.4372168
9.166                0.980351531     -89.5865666
9.167                0.980304854     -89.7362954
9.168                0.980258064     -89.8864042
9.169                 0.98021116     -90.0368939
9.17                 0.980164142     -90.1877655
9.171                0.980117011     -90.3390199
9.172                0.980069767     -90.4906582
9.173                0.980022409     -90.6426812
9.174                0.979974938     -90.7950901
9.175                0.979927354     -90.9478856
9.176                0.979879657     -91.1010689
9.177                0.979831847     -91.2546408
9.178                0.979783924     -91.4086023
9.179                0.979735889     -91.5629545
9.18                 0.979687741     -91.7176982
9.181                0.979639481     -91.8728344
9.182                0.979591108     -92.0283641
9.183                0.979542624     -92.1842883
9.184                0.979494028     -92.3406079
9.185                0.979445319     -92.4973239
9.186                  0.9793965     -92.6544372
9.187                0.979347569     -92.8119488
9.188                0.979298526     -92.9698596
9.189                0.979249373     -93.1281707
9.19                 0.979200109      -93.286883
9.191                0.979150734     -93.4459973
9.192                0.979101249     -93.6055148
9.193                0.979051654     -93.7654363
9.194                0.979001948     -93.9257628
9.195                0.978952133     -94.0864952
9.196                0.978902208     -94.2476345
9.197                0.978852175     -94.4091817
9.198                0.978802032     -94.5711377
9.199                 0.97875178     -94.7335033
9.2                   0.97870142     -94.8962797
9.201                0.978650951     -95.0594676
9.202                0.978600375     -95.2230682
9.203                0.978549691     -95.3870822
9.204                  0.9784989     -95.5515106
9.205                0.978448001     -95.7163544
9.206                0.978396996     -95.8816146
9.207                0.978345884     -96.0472919
9.208                0.978294667     -96.2133874
9.209                0.978243343      -96.379902
9.21                 0.978191914     -96.5468366
9.211                 0.97814038     -96.7141921
9.212                0.978088741     -96.8819695
9.213                0.978036998     -97.0501697
9.214                0.977985151     -97.2187935
9.215                  0.9779332      -97.387842
9.216                0.977881146     -97.5573159
9.217                0.977828989     -97.7272163
9.218                 0.97777673      -97.897544
9.219                0.977724368     -98.0682999
9.22                 0.977671905     -98.2394849
9.221                0.977619341     -98.4110999
9.222                0.977566676     -98.5831459
9.223                0.977513911     -98.7556237
9.224                0.977461046     -98.9285341
9.225                0.977408082     -99.1018781
9.226                0.977355019     -99.2756566
9.227                0.977301858     -99.4498704
9.228                0.977248598     -99.6245204
9.229                0.977195242     -99.7996075
9.23                 0.977141788     -99.9751325
9.231                0.977088238     -100.151096
9.232                0.977034593       -100.3275
9.233                0.976980852     -100.504344
9.234                0.976927016     -100.681629
9.235                0.976873087     -100.859357
9.236                0.976819063     -101.037527
9.237                0.976764947     -101.216142
9.238                0.976710739     -101.395201
9.239                0.976656438     -101.574706
9.24                 0.976602047     -101.754657
9.241                0.976547565     -101.935056
9.242                0.976492993     -102.115902
9.243                0.976438332     -102.297198
9.244                0.976383582     -102.478943
9.245                0.976328744     -102.661138
9.246                0.976273819     -102.843785
9.247                0.976218808     -103.026883
9.248                0.976163711     -103.210435
9.249                0.976108528      -103.39444
9.25                 0.976053261       -103.5789
9.251                0.975997911     -103.763815
9.252                0.975942477     -103.949185
9.253                0.975886962     -104.135013
9.254                0.975831365     -104.321298
9.255                0.975775687     -104.508041
9.256                 0.97571993     -104.695243
9.257                0.975664093     -104.882904
9.258                0.975608178     -105.071026
9.259                0.975552186      -105.25961
9.26                 0.975496117     -105.448655
9.261                0.975439973     -105.638163
9.262                0.975383754     -105.828134
9.263                0.975327461     -106.018569
9.264                0.975271094     -106.209468
9.265                0.975214656     -106.400833
9.266                0.975158146     -106.592664
9.267                0.975101566     -106.784962
9.268                0.975044916     -106.977728
9.269                0.974988198     -107.170961
9.27                 0.974931413     -107.364663
9.271                0.974874561     -107.558834
9.272                0.974817643     -107.753475
9.273                0.974760661     -107.948587
9.274                0.974703616     -108.144171
9.275                0.974646507     -108.340226
9.276                0.974589338     -108.536753
9.277                0.974532108     -108.733754
9.278                0.974474819     -108.931228
9.279                0.974417471     -109.129177
9.28                 0.974360066       -109.3276
9.281                0.974302605     -109.526499
9.282                 0.97424509     -109.725873
9.283                 0.97418752     -109.925724
9.284                0.974129898     -110.126053
9.285                0.974072224     -110.326858
9.286                  0.9740145     -110.528142
9.287                0.973956727     -110.729904
9.288                0.973898905     -110.932146
9.289                0.973841038     -111.134867
9.29                 0.973783124     -111.338068
9.291                0.973725166      -111.54175
9.292                0.973667166     -111.745913
9.293                0.973609123     -111.950557
9.294                 0.97355104     -112.155683
9.295                0.973492918     -112.361292
9.296                0.973434759     -112.567383
9.297                0.973376562     -112.773958
9.298                0.973318331     -112.981016
9.299                0.973260065     -113.188558
9.3                  0.973201768     -113.396585
9.301                0.973143439     -113.605096
9.302                 0.97308508     -113.814093
9.303                0.973026694     -114.023575
9.304                 0.97296828     -114.233543
9.305                0.972909841     -114.443997
9.306                0.972851378     -114.654937
9.307                0.972792893     -114.866364
9.308                0.972734387     -115.078279
9.309                0.972675862      -115.29068
9.31                 0.972617318      -115.50357
9.311                0.972558758     -115.716947
9.312                0.972500184     -115.930813
9.313                0.972441596     -116.145166
9.314                0.972382996     -116.360009
9.315                0.972324386      -116.57534
9.316                0.972265768      -116.79116
9.317                0.972207143      -117.00747
9.318                0.972148513     -117.224269
9.319                0.972089879     -117.441557
9.32                 0.972031243     -117.659335
9.321                0.971972607     -117.877603
9.322                0.971913972     -118.096361
9.323                0.971855341     -118.315609
9.324                0.971796714     -118.535347
9.325                0.971738094     -118.755575
9.326                0.971679483     -118.976293
9.327                0.971620882     -119.197502
9.328                0.971562293     -119.419201
9.329                0.971503717     -119.641391
9.33                 0.971445157     -119.864071
9.331                0.971386615     -120.087241
9.332                0.971328092     -120.310902
9.333                 0.97126959     -120.535053
9.334                0.971211111     -120.759695
9.335                0.971152657     -120.984826
9.336                0.971094229     -121.210448
9.337                0.971035831      -121.43656
9.338                0.970977463     -121.663162
9.339                0.970919128     -121.890253
9.34                 0.970860827     -122.117834
9.341                0.970802563     -122.345905
9.342                0.970744338     -122.574465
9.343                0.970686153     -122.803515
9.344                0.970628011     -123.033053
9.345                0.970569913      -123.26308
9.346                0.970511863     -123.493595
9.347                0.970453861     -123.724598
9.348                 0.97039591      -123.95609
9.349                0.970338012     -124.188069
9.35                 0.970280169     -124.420536
9.351                0.970222383     -124.653489
9.352                0.970164656     -124.886929
9.353                0.970106992     -125.120856
9.354                 0.97004939     -125.355268
9.355                0.969991855     -125.590166
9.356                0.969934388      -125.82555
9.357                0.969876991     -126.061417
9.358                0.969819667      -126.29777
9.359                0.969762417     -126.534606
9.36                 0.969705244     -126.771925
9.361                0.969648151     -127.009727
9.362                0.969591139     -127.248011
9.363                0.969534211     -127.486777
9.364                0.969477369     -127.726025
9.365                0.969420616     -127.965753
9.366                0.969363953     -128.205961
9.367                0.969307384     -128.446648
9.368                 0.96925091     -128.687814
9.369                0.969194534     -128.929458
9.37                 0.969138258      -129.17158
9.371                0.969082085     -129.414179
9.372                0.969026017     -129.657253
9.373                0.968970057     -129.900803
9.374                0.968914206     -130.144828
9.375                0.968858468     -130.389326
9.376                0.968802845     -130.634297
9.377                0.968747338     -130.879741
9.378                0.968691952     -131.125655
9.379                0.968636688     -131.372041
9.38                 0.968581549     -131.618896
9.381                0.968526536     -131.866219
9.382                0.968471654     -132.114011
9.383                0.968416904     -132.362269
9.384                0.968362289     -132.610994
9.385                0.968307811     -132.860183
9.386                0.968253473     -133.109836
9.387                0.968199278     -133.359953
9.388                0.968145227     -133.610531
9.389                0.968091325      -133.86157
9.39                 0.968037573     -134.113069
9.391                0.967983973     -134.365026
9.392                0.967930529     -134.617441
9.393                0.967877244     -134.870313
9.394                0.967824119      -135.12364
9.395                0.967771158      -135.37742
9.396                0.967718362     -135.631654
