! TOUCHSTONE file generated by CST DESIGN STUDIO
! Date and time: Tue Feb  4 18:14:25 2025
! Project name: C:\Work\MatlabApps\UnitCellOptimizationMatlab\CST\unitcell.cst
! Tree item: Tasks\Sweep1\SPara1\S-Parameters
! Header version: 2024
! Port assignment regex: !\s*Touchstone port\s*([0-9]+)\s*=\s*(CST MWS port|CST DES external port|CST DES block port)\s*(.+)\s* \(\"(.*)\"\)(\s*mode\s*([0-9]+))?.*
! Touchstone port assignment:
! Touchstone port 1 = CST DES external port 1 ("")
# GHz S MA R 50
9                    0.985341029     -78.8567704
9.001                0.985304534     -78.9776333
9.002                0.985267932     -79.0987938
9.003                0.985231221     -79.2202528
9.004                0.985194401     -79.3420112
9.005                0.985157473     -79.4640697
9.006                0.985120435     -79.5864292
9.007                0.985083287     -79.7090907
9.008                0.985046031     -79.8320549
9.009                0.985008664     -79.9553228
9.01                 0.984971187     -80.0788951
9.011                0.984933601     -80.2027729
9.012                0.984895903     -80.3269569
9.013                0.984858096     -80.4514481
9.014                0.984820177     -80.5762472
9.015                0.984782147     -80.7013553
9.016                0.984744007      -80.826773
9.017                0.984705755     -80.9525015
9.018                0.984667391     -81.0785414
9.019                0.984628915     -81.2048938
9.02                 0.984590328     -81.3315595
9.021                0.984551628     -81.4585393
9.022                0.984512817     -81.5858342
9.023                0.984473892      -81.713445
9.024                0.984434855     -81.8413727
9.025                0.984395705     -81.9696182
9.026                0.984356442     -82.0981822
9.027                0.984317066     -82.2270658
9.028                0.984277576     -82.3562698
9.029                0.984237973     -82.4857952
9.03                 0.984198257     -82.6156427
9.031                0.984158426     -82.7458134
9.032                0.984118481     -82.8763081
9.033                0.984078422     -83.0071277
9.034                0.984038249     -83.1382731
9.035                0.983997961     -83.2697453
9.036                0.983957558     -83.4015451
9.037                0.983917041     -83.5336735
9.038                0.983876408     -83.6661313
9.039                 0.98383566     -83.7989195
9.04                 0.983794797     -83.9320389
9.041                0.983753819     -84.0654906
9.042                0.983712725     -84.1992753
9.043                0.983671516     -84.3333941
9.044                 0.98363019     -84.4678478
9.045                0.983588749     -84.6026374
9.046                0.983547191     -84.7377637
9.047                0.983505517     -84.8732278
9.048                0.983463727     -85.0090304
9.049                 0.98342182     -85.1451726
9.05                 0.983379797     -85.2816552
9.051                0.983337657     -85.4184792
9.052                  0.9832954     -85.5556455
9.053                0.983253026      -85.693155
9.054                0.983210535     -85.8310087
9.055                0.983167927     -85.9692074
9.056                0.983125201     -86.1077521
9.057                0.983082359     -86.2466438
9.058                0.983039398     -86.3858833
9.059                0.982996321     -86.5254716
9.06                 0.982953125     -86.6654097
9.061                0.982909812     -86.8056983
9.062                0.982866381     -86.9463386
9.063                0.982822832     -87.0873314
9.064                0.982779166     -87.2286776
9.065                0.982735381     -87.3703782
9.066                0.982691478     -87.5124341
9.067                0.982647457     -87.6548462
9.068                0.982603317     -87.7976155
9.069                 0.98255906     -87.9407429
9.07                 0.982514684     -88.0842294
9.071                0.982470189     -88.2280759
9.072                0.982425577     -88.3722833
9.073                0.982380845     -88.5168525
9.074                0.982335996     -88.6617845
9.075                0.982291027     -88.8070803
9.076                 0.98224594     -88.9527407
9.077                0.982200735     -89.0987667
9.078                0.982155411     -89.2451593
9.079                0.982109968     -89.3919193
9.08                 0.982064407     -89.5390478
9.081                0.982018727     -89.6865456
9.082                0.981972928     -89.8344137
9.083                0.981927011      -89.982653
9.084                0.981880975     -90.1312645
9.085                 0.98183482     -90.2802491
9.086                0.981788547     -90.4296078
9.087                0.981742155     -90.5793414
9.088                0.981695645     -90.7294509
9.089                0.981649016     -90.8799373
9.09                 0.981602268     -91.0308015
9.091                0.981555402     -91.1820443
9.092                0.981508418     -91.3336669
9.093                0.981461315       -91.48567
9.094                0.981414094     -91.6380547
9.095                0.981366754     -91.7908218
9.096                0.981319297     -91.9439723
9.097                0.981271721     -92.0975071
9.098                0.981224027     -92.2514272
9.099                0.981176215     -92.4057335
9.1                  0.981128286     -92.5604269
9.101                0.981080238     -92.7155084
9.102                0.981032073     -92.8709788
9.103                 0.98098379     -93.0268392
9.104                 0.98093539     -93.1830903
9.105                0.980886872     -93.3397333
9.106                0.980838237     -93.4967689
9.107                0.980789485     -93.6541982
9.108                0.980740616     -93.8120219
9.109                0.980691631     -93.9702412
9.11                 0.980642528     -94.1288568
9.111                0.980593309     -94.2878697
9.112                0.980543973     -94.4472808
9.113                0.980494522     -94.6070911
9.114                0.980444954     -94.7673014
9.115                 0.98039527     -94.9279126
9.116                0.980345471     -95.0889258
9.117                0.980295556     -95.2503417
9.118                0.980245526     -95.4121613
9.119                 0.98019538     -95.5743855
9.12                  0.98014512     -95.7370152
9.121                0.980094745     -95.9000514
9.122                0.980044256     -96.0634948
9.123                0.979993653     -96.2273465
9.124                0.979942935     -96.3916073
9.125                0.979892104     -96.5562781
9.126                0.979841159     -96.7213597
9.127                0.979790101     -96.8868532
9.128                 0.97973893     -97.0527594
9.129                0.979687647     -97.2190791
9.13                 0.979636251     -97.3858133
9.131                0.979584742     -97.5529629
9.132                0.979533123     -97.7205286
9.133                0.979481391     -97.8885114
9.134                0.979429549     -98.0569123
9.135                0.979377595     -98.2257319
9.136                0.979325531     -98.3949713
9.137                0.979273357     -98.5646313
9.138                0.979221073     -98.7347127
9.139                 0.97916868     -98.9052164
9.14                 0.979116177     -99.0761433
9.141                0.979063566     -99.2474942
9.142                0.979010846       -99.41927
9.143                0.978958019     -99.5914714
9.144                0.978905083     -99.7640995
9.145                0.978852041      -99.937155
9.146                0.978798892     -100.110639
9.147                0.978745636     -100.284551
9.148                0.978692275     -100.458894
9.149                0.978638808     -100.633668
9.15                 0.978585236     -100.808873
9.151                 0.97853156      -100.98451
9.152                 0.97847778     -101.160581
9.153                0.978423896     -101.337085
9.154                0.978369909     -101.514025
9.155                0.978315819       -101.6914
9.156                0.978261627     -101.869211
9.157                0.978207334      -102.04746
9.158                0.978152939     -102.226147
9.159                0.978098444     -102.405272
9.16                  0.97804385     -102.584838
9.161                0.977989155     -102.764843
9.162                0.977934362      -102.94529
9.163                0.977879471     -103.126178
9.164                0.977824482      -103.30751
9.165                0.977769396     -103.489284
9.166                0.977714213     -103.671503
9.167                0.977658935     -103.854167
9.168                0.977603561     -104.037277
9.169                0.977548093     -104.220833
9.17                 0.977492531     -104.404836
9.171                0.977436875     -104.589287
9.172                0.977381128     -104.774186
9.173                0.977325288     -104.959535
9.174                0.977269357     -105.145334
9.175                0.977213335     -105.331584
9.176                0.977157224     -105.518285
9.177                0.977101024     -105.705438
9.178                0.977044735     -105.893044
9.179                0.976988359     -106.081104
9.18                 0.976931896     -106.269617
9.181                0.976875347     -106.458586
9.182                0.976818712      -106.64801
9.183                0.976761994      -106.83789
9.184                0.976705191     -107.028227
9.185                0.976648306     -107.219022
9.186                0.976591339     -107.410274
9.187                0.976534291     -107.601986
9.188                0.976477163     -107.794156
9.189                0.976419955     -107.986787
9.19                 0.976362668     -108.179878
9.191                0.976305304      -108.37343
9.192                0.976247864     -108.567445
9.193                0.976190347     -108.761921
9.194                0.976132756      -108.95686
9.195                0.976075091     -109.152263
9.196                0.976017353      -109.34813
9.197                0.975959543     -109.544462
9.198                0.975901661     -109.741258
9.199                 0.97584371     -109.938521
9.2                   0.97578569     -110.136249
9.201                0.975727602     -110.334444
9.202                0.975669447     -110.533107
9.203                0.975611226     -110.732237
9.204                 0.97555294     -110.931836
9.205                0.975494591     -111.131903
9.206                0.975436179     -111.332439
9.207                0.975377705     -111.533446
9.208                0.975319171     -111.734922
9.209                0.975260578     -111.936869
9.21                 0.975201926     -112.139287
9.211                0.975143217     -112.342176
9.212                0.975084453     -112.545537
9.213                0.975025634     -112.749371
9.214                0.974966761     -112.953677
9.215                0.974907836     -113.158456
9.216                0.974848861     -113.363709
9.217                0.974789835     -113.569436
9.218                0.974730761     -113.775637
9.219                0.974671639     -113.982312
9.22                 0.974612472     -114.189462
9.221                 0.97455326     -114.397088
9.222                0.974494004     -114.605189
9.223                0.974434707     -114.813766
9.224                0.974375369     -115.022819
9.225                0.974315991     -115.232348
9.226                0.974256576     -115.442354
9.227                0.974197124     -115.652838
9.228                0.974137636     -115.863798
9.229                0.974078115     -116.075236
9.23                 0.974018562     -116.287151
9.231                0.973958977     -116.499545
9.232                0.973899363     -116.712417
9.233                0.973839721     -116.925767
9.234                0.973780053     -117.139595
9.235                0.973720359     -117.353902
9.236                0.973660643     -117.568688
9.237                0.973600904     -117.783953
9.238                0.973541144     -117.999697
9.239                0.973481366      -118.21592
9.24                  0.97342157     -118.432623
9.241                0.973361759     -118.649804
9.242                0.973301934     -118.867466
9.243                0.973242096     -119.085607
9.244                0.973182247     -119.304228
9.245                0.973122389     -119.523328
9.246                0.973062524     -119.742908
9.247                0.973002652     -119.962967
9.248                0.972942777     -120.183507
9.249                0.972882899     -120.404526
9.25                  0.97282302     -120.626024
9.251                0.972763142     -120.848002
9.252                0.972703267      -121.07046
9.253                0.972643396     -121.293397
9.254                0.972583532     -121.516814
9.255                0.972523676      -121.74071
9.256                0.972463829     -121.965085
9.257                0.972403995     -122.189939
9.258                0.972344173     -122.415272
9.259                0.972284368     -122.641084
9.26                 0.972224579     -122.867374
9.261                 0.97216481     -123.094143
9.262                0.972105062     -123.321389
9.263                0.972045337     -123.549114
9.264                0.971985636     -123.777316
9.265                0.971925963     -124.005996
9.266                0.971866318     -124.235153
9.267                0.971806704     -124.464786
9.268                0.971747123     -124.694897
9.269                0.971687577     -124.925483
9.27                 0.971628067     -125.156545
9.271                0.971568597     -125.388083
9.272                0.971509167     -125.620096
9.273                 0.97144978     -125.852584
9.274                0.971390438     -126.085546
9.275                0.971331143     -126.318982
9.276                0.971271897     -126.552892
9.277                0.971212703     -126.787275
9.278                0.971153562      -127.02213
9.279                0.971094476     -127.257457
9.28                 0.971035448     -127.493256
9.281                 0.97097648     -127.729526
9.282                0.970917575     -127.966267
9.283                0.970858733     -128.203477
9.284                0.970799958     -128.441157
9.285                0.970741252     -128.679306
9.286                0.970682616     -128.917922
9.287                0.970624054     -129.157006
9.288                0.970565567     -129.396557
9.289                0.970507158     -129.636575
9.29                 0.970448829     -129.877057
9.291                0.970390582     -130.118005
9.292                 0.97033242     -130.359416
9.293                0.970274345     -130.601291
9.294                0.970216359     -130.843628
9.295                0.970158464     -131.086427
9.296                0.970100664     -131.329687
9.297                 0.97004296     -131.573407
9.298                0.969985354     -131.817586
9.299                 0.96992785     -132.062224
9.3                   0.96987045     -132.307319
9.301                0.969813155     -132.552871
9.302                0.969755969     -132.798878
9.303                0.969698893      -133.04534
9.304                0.969641931     -133.292256
9.305                0.969585085     -133.539625
9.306                0.969528357     -133.787445
9.307                0.969471749     -134.035716
9.308                0.969415265     -134.284437
9.309                0.969358906     -134.533606
9.31                 0.969302676     -134.783223
9.311                0.969246576     -135.033287
9.312                 0.96919061     -135.283795
9.313                0.969134779     -135.534748
9.314                0.969079087     -135.786144
9.315                0.969023536     -136.037981
9.316                0.968968128     -136.290259
9.317                0.968912866     -136.542977
9.318                0.968857753     -136.796132
9.319                0.968802791     -137.049725
9.32                 0.968747983     -137.303752
9.321                0.968693331     -137.558214
9.322                0.968638838     -137.813109
9.323                0.968584507     -138.068435
9.324                 0.96853034     -138.324191
9.325                0.968476341     -138.580376
9.326                 0.96842251     -138.836988
9.327                0.968368852     -139.094026
9.328                0.968315369     -139.351489
9.329                0.968262063     -139.609374
9.33                 0.968208938      -139.86768
9.331                0.968155995     -140.126406
9.332                0.968103238     -140.385551
9.333                0.968050669     -140.645112
9.334                0.967998291     -140.905088
9.335                0.967946106     -141.165477
9.336                0.967894118     -141.426279
9.337                0.967842329      -141.68749
9.338                0.967790741      -141.94911
9.339                0.967739358     -142.211136
9.34                 0.967688182     -142.473567
9.341                0.967637215     -142.736402
9.342                0.967586461     -142.999638
9.343                0.967535922     -143.263273
9.344                0.967485601     -143.527307
9.345                  0.9674355     -143.791736
9.346                0.967385623     -144.056559
9.347                0.967335972     -144.321775
9.348                0.967286549      -144.58738
9.349                0.967237358     -144.853374
9.35                 0.967188401     -145.119755
9.351                0.967139681      -145.38652
9.352                0.967091201     -145.653667
9.353                0.967042963     -145.921194
9.354                0.966994969       -146.1891
9.355                0.966947224     -146.457382
9.356                0.966899729     -146.726038
9.357                0.966852486     -146.995067
9.358                  0.9668055     -147.264465
9.359                0.966758772     -147.534231
9.36                 0.966712306     -147.804362
9.361                0.966666103     -148.074857
9.362                0.966620166     -148.345713
9.363                0.966574499     -148.616927
9.364                0.966529104     -148.888499
9.365                0.966483983     -149.160425
9.366                 0.96643914     -149.432702
9.367                0.966394576      -149.70533
9.368                0.966350295     -149.978304
9.369                0.966306299     -150.251624
9.37                 0.966262591     -150.525286
9.371                0.966219174     -150.799289
9.372                0.966176049     -151.073629
9.373                 0.96613322     -151.348304
9.374                0.966090689     -151.623312
9.375                 0.96604846      -151.89865
9.376                0.966006533     -152.174316
9.377                0.965964913     -152.450307
9.378                0.965923601     -152.726621
9.379                  0.9658826     -153.003254
9.38                 0.965841913     -153.280205
9.381                0.965801542     -153.557471
9.382                 0.96576149     -153.835049
9.383                 0.96572176     -154.112936
9.384                0.965682352     -154.391131
9.385                0.965643272     -154.669629
9.386                0.965604519     -154.948428
9.387                0.965566098     -155.227526
9.388                0.965528011      -155.50692
9.389                 0.96549026     -155.786607
9.39                 0.965452847     -156.066584
9.391                0.965415775     -156.346848
9.392                0.965379046     -156.627397
9.393                0.965342663     -156.908227
9.394                0.965306627     -157.189336
9.395                0.965270942     -157.470721
9.396                 0.96523561     -157.752379
