! TOUCHSTONE file generated by CST DESIGN STUDIO
! Date and time: Tue Feb  4 18:14:37 2025
! Project name: C:\Work\MatlabApps\UnitCellOptimizationMatlab\CST\unitcell.cst
! Tree item: Tasks\Sweep1\SPara1\S-Parameters
! Header version: 2024
! Port assignment regex: !\s*Touchstone port\s*([0-9]+)\s*=\s*(CST MWS port|CST DES external port|CST DES block port)\s*(.+)\s* \(\"(.*)\"\)(\s*mode\s*([0-9]+))?.*
! Touchstone port assignment:
! Touchstone port 1 = CST DES external port 1 ("")
# GHz S MA R 50
9                    0.986417873     -70.5608217
9.001                0.986387605     -70.6628459
9.002                0.986357246     -70.7651138
9.003                0.986326796      -70.867626
9.004                0.986296254     -70.9703833
9.005                0.986265621     -71.0733864
9.006                0.986234896      -71.176636
9.007                0.986204079     -71.2801329
9.008                 0.98617317     -71.3838778
9.009                0.986142168     -71.4878716
9.01                 0.986111074     -71.5921148
9.011                0.986079886     -71.6966083
9.012                0.986048605     -71.8013529
9.013                0.986017231     -71.9063493
9.014                0.985985763     -72.0115982
9.015                0.985954201     -72.1171004
9.016                0.985922544     -72.2228567
9.017                0.985890794     -72.3288678
9.018                0.985858948     -72.4351346
9.019                0.985827008     -72.5416577
9.02                 0.985794973     -72.6484379
9.021                0.985762842     -72.7554761
9.022                0.985730615     -72.8627729
9.023                0.985698293     -72.9703293
9.024                0.985665875     -73.0781458
9.025                 0.98563336     -73.1862234
9.026                0.985600749     -73.2945628
9.027                0.985568041     -73.4031648
9.028                0.985535236     -73.5120302
9.029                0.985502334     -73.6211597
9.03                 0.985469335     -73.7305542
9.031                0.985436237     -73.8402145
9.032                0.985403042     -73.9501413
9.033                0.985369749     -74.0603354
9.034                0.985336357     -74.1707977
9.035                0.985302867     -74.2815289
9.036                0.985269277     -74.3925299
9.037                0.985235589     -74.5038015
9.038                0.985201802     -74.6153444
9.039                0.985167915     -74.7271595
9.04                 0.985133928     -74.8392475
9.041                0.985099841     -74.9516094
9.042                0.985065654     -75.0642459
9.043                0.985031367     -75.1771578
9.044                0.984996979     -75.2903459
9.045                 0.98496249     -75.4038111
9.046                  0.9849279     -75.5175542
9.047                0.984893209     -75.6315761
9.048                0.984858416     -75.7458774
9.049                0.984823522     -75.8604592
9.05                 0.984788526     -75.9753222
9.051                0.984753427     -76.0904672
9.052                0.984718226      -76.205895
9.053                0.984682923     -76.3216066
9.054                0.984647516     -76.4376028
9.055                0.984612007     -76.5538843
9.056                0.984576394     -76.6704521
9.057                0.984540679     -76.7873069
9.058                0.984504859     -76.9044497
9.059                0.984468935     -77.0218813
9.06                 0.984432908     -77.1396024
9.061                0.984396776     -77.2576141
9.062                 0.98436054     -77.3759171
9.063                0.984324199     -77.4945123
9.064                0.984287753     -77.6134005
9.065                0.984251202     -77.7325827
9.066                0.984214546     -77.8520596
9.067                0.984177784     -77.9718321
9.068                0.984140917     -78.0919012
9.069                0.984103943     -78.2122676
9.07                 0.984066864     -78.3329322
9.071                0.984029678      -78.453896
9.072                0.983992386     -78.5751597
9.073                0.983954988     -78.6967243
9.074                0.983917482     -78.8185907
9.075                0.983879869     -78.9407596
9.076                 0.98384215     -79.0632321
9.077                0.983804322     -79.1860089
9.078                0.983766388     -79.3090909
9.079                0.983728345     -79.4324791
9.08                 0.983690195     -79.5561744
9.081                0.983651936     -79.6801775
9.082                0.983613569     -79.8044895
9.083                0.983575094     -79.9291111
9.084                 0.98353651     -80.0540434
9.085                0.983497817     -80.1792871
9.086                0.983459015     -80.3048433
9.087                0.983420104     -80.4307127
9.088                0.983381083     -80.5568963
9.089                0.983341953      -80.683395
9.09                 0.983302714     -80.8102096
9.091                0.983263365     -80.9373412
9.092                0.983223905     -81.0647906
9.093                0.983184336     -81.1925587
9.094                0.983144656     -81.3206464
9.095                0.983104866     -81.4490546
9.096                0.983064965     -81.5777843
9.097                0.983024954     -81.7068363
9.098                0.982984831     -81.8362117
9.099                0.982944598     -81.9659112
9.1                  0.982904253     -82.0959358
9.101                0.982863798     -82.2262864
9.102                 0.98282323      -82.356964
9.103                0.982782551     -82.4879695
9.104                0.982741761     -82.6193038
9.105                0.982700858     -82.7509678
9.106                0.982659844     -82.8829625
9.107                0.982618718     -83.0152887
9.108                0.982577479     -83.1479475
9.109                0.982536128     -83.2809397
9.11                 0.982494665     -83.4142662
9.111                0.982453089     -83.5479281
9.112                  0.9824114     -83.6819262
9.113                0.982369599     -83.8162615
9.114                0.982327684     -83.9509349
9.115                0.982285657     -84.0859474
9.116                0.982243517     -84.2212998
9.117                0.982201263     -84.3569932
9.118                0.982158896     -84.4930285
9.119                0.982116416     -84.6294065
9.12                 0.982073822     -84.7661284
9.121                0.982031115     -84.9031949
9.122                0.981988295     -85.0406071
9.123                 0.98194536     -85.1783659
9.124                0.981902312     -85.3164722
9.125                 0.98185915      -85.454927
9.126                0.981815874     -85.5937313
9.127                0.981772484     -85.7328859
9.128                 0.98172898     -85.8723919
9.129                0.981685362     -86.0122502
9.13                  0.98164163     -86.1524617
9.131                0.981597784     -86.2930275
9.132                0.981553823     -86.4339484
9.133                0.981509748     -86.5752254
9.134                0.981465559     -86.7168594
9.135                0.981421255     -86.8588515
9.136                0.981376838     -87.0012026
9.137                0.981332305     -87.1439136
9.138                0.981287658     -87.2869855
9.139                0.981242897     -87.4304192
9.14                 0.981198022     -87.5742158
9.141                0.981153032     -87.7183761
9.142                0.981107927     -87.8629012
9.143                0.981062708     -88.0077919
9.144                0.981017374     -88.1530493
9.145                0.980971926     -88.2986743
9.146                0.980926364     -88.4446679
9.147                0.980880687     -88.5910311
9.148                0.980834895     -88.7377647
9.149                 0.98078899     -88.8848698
9.15                 0.980742969     -89.0323473
9.151                0.980696835     -89.1801981
9.152                0.980650586     -89.3284234
9.153                0.980604223     -89.4770239
9.154                0.980557746     -89.6260007
9.155                0.980511154     -89.7753547
9.156                0.980464449      -89.925087
9.157                0.980417629     -90.0751984
9.158                0.980370696     -90.2256899
9.159                0.980323648     -90.3765625
9.16                 0.980276487     -90.5278171
9.161                0.980229212     -90.6794548
9.162                0.980181823     -90.8314764
9.163                0.980134321     -90.9838829
9.164                0.980086705     -91.1366754
9.165                0.980038976     -91.2898546
9.166                0.979991134     -91.4434217
9.167                0.979943178     -91.5973776
9.168                 0.97989511     -91.7517231
9.169                0.979846929     -91.9064594
9.17                 0.979798635     -92.0615873
9.171                0.979750228     -92.2171078
9.172                0.979701709     -92.3730219
9.173                0.979653078     -92.5293304
9.174                0.979604334     -92.6860344
9.175                0.979555479     -92.8431349
9.176                0.979506511     -93.0006327
9.177                0.979457432     -93.1585288
9.178                0.979408242     -93.3168242
9.179                 0.97935894     -93.4755198
9.18                 0.979309528     -93.6346166
9.181                0.979260004     -93.7941155
9.182                 0.97921037     -93.9540174
9.183                0.979160625     -94.1143234
9.184                 0.97911077     -94.2750343
9.185                0.979060806     -94.4361511
9.186                0.979010731     -94.5976747
9.187                0.978960547     -94.7596061
9.188                0.978910254     -94.9219462
9.189                0.978859851     -95.0846959
9.19                  0.97880934     -95.2478562
9.191                0.978758721     -95.4114281
9.192                0.978707993     -95.5754123
9.193                0.978657158     -95.7398099
9.194                0.978606215     -95.9046218
9.195                0.978555164      -96.069849
9.196                0.978504007     -96.2354922
9.197                0.978452743     -96.4015526
9.198                0.978401372     -96.5680309
9.199                0.978349896     -96.7349281
9.2                  0.978298314     -96.9022451
9.201                0.978246627     -97.0699828
9.202                0.978194834     -97.2381422
9.203                0.978142937     -97.4067241
9.204                0.978090936     -97.5757294
9.205                0.978038831     -97.7451591
9.206                0.977986623      -97.915014
9.207                0.977934312     -98.0852951
9.208                0.977881898     -98.2560031
9.209                0.977829381     -98.4271391
9.21                 0.977776763      -98.598704
9.211                0.977724044     -98.7706984
9.212                0.977671224     -98.9431235
9.213                0.977618303       -99.11598
9.214                0.977565283     -99.2892689
9.215                0.977512162     -99.4629909
9.216                0.977458943      -99.637147
9.217                0.977405625      -99.811738
9.218                0.977352209     -99.9867649
9.219                0.977298696     -100.162228
9.22                 0.977245086     -100.338129
9.221                0.977191379     -100.514469
9.222                0.977137576     -100.691247
9.223                0.977083678     -100.868466
9.224                0.977029685     -101.046125
9.225                0.976975597     -101.224226
9.226                0.976921416      -101.40277
9.227                0.976867142     -101.581757
9.228                0.976812775     -101.761188
9.229                0.976758316     -101.941065
9.23                 0.976703766     -102.121387
9.231                0.976649126     -102.302155
9.232                0.976594395     -102.483372
9.233                0.976539575     -102.665036
9.234                0.976484666     -102.847149
9.235                0.976429669     -103.029712
9.236                0.976374585     -103.212726
9.237                0.976319414     -103.396191
9.238                0.976264157     -103.580109
9.239                0.976208815     -103.764479
9.24                 0.976153388     -103.949303
9.241                0.976097878     -104.134581
9.242                0.976042284     -104.320315
9.243                0.975986608     -104.506504
9.244                0.975930851      -104.69315
9.245                0.975875013     -104.880254
9.246                0.975819095     -105.067816
9.247                0.975763098     -105.255836
9.248                0.975707022     -105.444316
9.249                0.975650869     -105.633257
9.25                 0.975594639     -105.822658
9.251                0.975538334     -106.012521
9.252                0.975481953     -106.202847
9.253                0.975425499     -106.393636
9.254                0.975368971     -106.584888
9.255                0.975312371     -106.776605
9.256                  0.9752557     -106.968786
9.257                0.975198958     -107.161434
9.258                0.975142147     -107.354548
9.259                0.975085267     -107.548129
9.26                  0.97502832     -107.742177
9.261                0.974971306     -107.936694
9.262                0.974914227      -108.13168
9.263                0.974857083     -108.327135
9.264                0.974799875     -108.523061
9.265                0.974742605     -108.719457
9.266                0.974685273     -108.916325
9.267                0.974627881     -109.113664
9.268                0.974570429     -109.311476
9.269                 0.97451292     -109.509761
9.27                 0.974455353      -109.70852
9.271                0.974397729     -109.907752
9.272                0.974340051      -110.10746
9.273                0.974282319     -110.307642
9.274                0.974224534       -110.5083
9.275                0.974166698     -110.709435
9.276                0.974108812     -110.911046
9.277                0.974050876     -111.113135
9.278                0.973992892     -111.315701
9.279                0.973934862     -111.518746
9.28                 0.973876786     -111.722269
9.281                0.973818665     -111.926271
9.282                0.973760502     -112.130753
9.283                0.973702297     -112.335715
9.284                0.973644052     -112.541157
9.285                0.973585767      -112.74708
9.286                0.973527445     -112.953485
9.287                0.973469086     -113.160371
9.288                0.973410692     -113.367739
9.289                0.973352264     -113.575589
9.29                 0.973293804     -113.783923
9.291                0.973235312     -113.992739
9.292                0.973176791     -114.202039
9.293                0.973118242     -114.411823
9.294                0.973059666     -114.622091
9.295                0.973001065     -114.832843
9.296                 0.97294244      -115.04408
9.297                0.972883792     -115.255802
9.298                0.972825124      -115.46801
9.299                0.972766436     -115.680703
9.3                  0.972707731     -115.893882
9.301                0.972649009     -116.107547
9.302                0.972590272     -116.321698
9.303                0.972531522     -116.536335
9.304                 0.97247276      -116.75146
9.305                0.972413989     -116.967071
9.306                0.972355208     -117.183169
9.307                0.972296421     -117.399755
9.308                0.972237629     -117.616827
9.309                0.972178834     -117.834388
9.31                 0.972120036     -118.052436
9.311                0.972061239     -118.270972
9.312                0.972002442     -118.489995
9.313                 0.97194365     -118.709507
9.314                0.971884862     -118.929506
9.315                0.971826081     -119.149994
9.316                0.971767308     -119.370969
9.317                0.971708546     -119.592433
9.318                0.971649795     -119.814385
9.319                0.971591059     -120.036825
9.32                 0.971532338     -120.259754
9.321                0.971473635      -120.48317
9.322                0.971414951     -120.707074
9.323                0.971356288     -120.931467
9.324                0.971297648     -121.156347
9.325                0.971239034     -121.381715
9.326                0.971180446     -121.607571
9.327                0.971121887     -121.833914
9.328                0.971063359     -122.060745
9.329                0.971004864     -122.288063
9.33                 0.970946403     -122.515869
9.331                0.970887979     -122.744161
9.332                0.970829594      -122.97294
9.333                0.970771249     -123.202206
9.334                0.970712947     -123.431958
9.335                 0.97065469     -123.662196
9.336                 0.97059648      -123.89292
9.337                0.970538318     -124.124129
9.338                0.970480208     -124.355824
9.339                 0.97042215     -124.588003
9.34                 0.970364148     -124.820667
9.341                0.970306203     -125.053816
9.342                0.970248318     -125.287448
9.343                0.970190494     -125.521564
9.344                0.970132734     -125.756163
9.345                0.970075039     -125.991244
9.346                0.970017413     -126.226808
9.347                0.969959858     -126.462853
9.348                0.969902375      -126.69938
9.349                0.969844967     -126.936388
9.35                 0.969787635     -127.173876
9.351                0.969730384     -127.411844
9.352                0.969673214     -127.650291
9.353                0.969616127     -127.889216
9.354                0.969559127      -128.12862
9.355                0.969502216     -128.368501
9.356                0.969445395      -128.60886
9.357                0.969388668     -128.849694
9.358                0.969332036     -129.091004
9.359                0.969275502     -129.332789
9.36                 0.969219068     -129.575048
9.361                0.969162737      -129.81778
9.362                0.969106511     -130.060986
9.363                0.969050393     -130.304663
9.364                0.968994385     -130.548812
9.365                0.968938489      -130.79343
9.366                0.968882707     -131.038519
9.367                0.968827044     -131.284076
9.368                0.968771499     -131.530102
9.369                0.968716078     -131.776594
9.37                 0.968660781     -132.023552
9.371                0.968605611     -132.270976
9.372                0.968550571     -132.518864
9.373                0.968495663     -132.767215
9.374                 0.96844089     -133.016029
9.375                0.968386254     -133.265304
9.376                0.968331759     -133.515039
9.377                0.968277405     -133.765234
9.378                0.968223197     -134.015887
9.379                0.968169137     -134.266997
9.38                 0.968115227     -134.518563
9.381                0.968061469     -134.770584
9.382                0.968007867     -135.023059
9.383                0.967954423     -135.275986
9.384                 0.96790114     -135.529365
9.385                0.967848021     -135.783193
9.386                0.967795067     -136.037471
9.387                0.967742281     -136.292197
9.388                0.967689668     -136.547369
9.389                0.967637228     -136.802986
9.39                 0.967584964     -137.059047
9.391                 0.96753288      -137.31555
9.392                0.967480978     -137.572495
9.393                0.967429261     -137.829879
9.394                0.967377731     -138.087701
9.395                0.967326391      -138.34596
9.396                0.967275243     -138.604655
