! TOUCHSTONE file generated by CST DESIGN STUDIO
! Date and time: Tue Feb  4 18:14:32 2025
! Project name: C:\Work\MatlabApps\UnitCellOptimizationMatlab\CST\unitcell.cst
! Tree item: Tasks\Sweep1\SPara1\S-Parameters
! Header version: 2024
! Port assignment regex: !\s*Touchstone port\s*([0-9]+)\s*=\s*(CST MWS port|CST DES external port|CST DES block port)\s*(.+)\s* \(\"(.*)\"\)(\s*mode\s*([0-9]+))?.*
! Touchstone port assignment:
! Touchstone port 1 = CST DES external port 1 ("")
# GHz S MA R 50
9                    0.985932281     -74.3314351
9.001                0.985899107     -74.4417238
9.002                0.985865834     -74.5522799
9.003                0.985832463     -74.6631044
9.004                0.985798993     -74.7741979
9.005                0.985765424     -74.8855613
9.006                0.985731755     -74.9971953
9.007                0.985697986     -75.1091008
9.008                0.985664118     -75.2212785
9.009                 0.98563015     -75.3337294
9.01                 0.985596081     -75.4464541
9.011                0.985561912     -75.5594535
9.012                0.985527642     -75.6727284
9.013                0.985493271     -75.7862796
9.014                0.985458799      -75.900108
9.015                0.985424225     -76.0142143
9.016                 0.98538955     -76.1285994
9.017                0.985354772      -76.243264
9.018                0.985319893     -76.3582091
9.019                0.985284911     -76.4734354
9.02                 0.985249827     -76.5889438
9.021                0.985214639     -76.7047351
9.022                0.985179349     -76.8208101
9.023                0.985143956     -76.9371696
9.024                0.985108458     -77.0538146
9.025                0.985072858     -77.1707457
9.026                0.985037153      -77.287964
9.027                0.985001344     -77.4054701
9.028                0.984965431      -77.523265
9.029                0.984929414     -77.6413495
9.03                 0.984893291     -77.7597244
9.031                0.984857064     -77.8783906
9.032                0.984820731      -77.997349
9.033                0.984784293     -78.1166003
9.034                0.984747749     -78.2361455
9.035                  0.9847111     -78.3559853
9.036                0.984674344     -78.4761207
9.037                0.984637483     -78.5965525
9.038                0.984600514     -78.7172816
9.039                 0.98456344     -78.8383088
9.04                 0.984526258      -78.959635
9.041                0.984488969     -79.0812611
9.042                0.984451573     -79.2031879
9.043                 0.98441407     -79.3254162
9.044                0.984376459     -79.4479471
9.045                 0.98433874     -79.5707813
9.046                0.984300913     -79.6939196
9.047                0.984262978     -79.8173631
9.048                0.984224934     -79.9411126
9.049                0.984186782     -80.0651688
9.05                 0.984148521     -80.1895328
9.051                0.984110151     -80.3142054
9.052                0.984071672     -80.4391875
9.053                0.984033083       -80.56448
9.054                0.983994385     -80.6900837
9.055                0.983955578     -80.8159995
9.056                 0.98391666     -80.9422284
9.057                0.983877633     -81.0687713
9.058                0.983838495     -81.1956289
9.059                0.983799247     -81.3228023
9.06                 0.983759888     -81.4502923
9.061                0.983720419     -81.5780997
9.062                0.983680838     -81.7062256
9.063                0.983641147     -81.8346708
9.064                0.983601344     -81.9634362
9.065                0.983561431     -82.0925228
9.066                0.983521405     -82.2219313
9.067                0.983481268     -82.3516628
9.068                0.983441019     -82.4817181
9.069                0.983400658     -82.6120981
9.07                 0.983360185     -82.7428038
9.071                0.983319599      -82.873836
9.072                0.983278902     -83.0051958
9.073                0.983238091     -83.1368839
9.074                0.983197168     -83.2689013
9.075                0.983156132     -83.4012489
9.076                0.983114983     -83.5339277
9.077                0.983073721     -83.6669385
9.078                0.983032346     -83.8002823
9.079                0.982990857       -83.93396
9.08                 0.982949255     -84.0679725
9.081                 0.98290754     -84.2023208
9.082                 0.98286571     -84.3370057
9.083                0.982823767     -84.4720283
9.084                 0.98278171     -84.6073893
9.085                0.982739539     -84.7430898
9.086                0.982697254     -84.8791307
9.087                0.982654854     -85.0155129
9.088                 0.98261234     -85.1522373
9.089                0.982569712     -85.2893049
9.09                 0.982526969     -85.4267166
9.091                0.982484111     -85.5644733
9.092                0.982441139      -85.702576
9.093                0.982398052     -85.8410256
9.094                 0.98235485     -85.9798231
9.095                0.982311533     -86.1189693
9.096                0.982268101     -86.2584653
9.097                0.982224554     -86.3983119
9.098                0.982180891     -86.5385101
9.099                0.982137114     -86.6790608
9.1                  0.982093221      -86.819965
9.101                0.982049213     -86.9612236
9.102                0.982005089     -87.1028376
9.103                 0.98196085     -87.2448079
9.104                0.981916496     -87.3871354
9.105                0.981872025     -87.5298211
9.106                 0.98182744      -87.672866
9.107                0.981782738     -87.8162709
9.108                0.981737921     -87.9600368
9.109                0.981692989     -88.1041647
9.11                  0.98164794     -88.2486556
9.111                0.981602776     -88.3935102
9.112                0.981557497     -88.5387297
9.113                0.981512101     -88.6843149
9.114                 0.98146659     -88.8302668
9.115                0.981420963     -88.9765864
9.116                 0.98137522     -89.1232745
9.117                0.981329362     -89.2703322
9.118                0.981283387     -89.4177604
9.119                0.981237297     -89.5655599
9.12                 0.981191092     -89.7137319
9.121                0.981144771     -89.8622772
9.122                0.981098334     -90.0111968
9.123                0.981051781     -90.1604915
9.124                0.981005113     -90.3101625
9.125                 0.98095833     -90.4602106
9.126                0.980911431     -90.6106367
9.127                0.980864417     -90.7614418
9.128                0.980817287     -90.9126269
9.129                0.980770042     -91.0641928
9.13                 0.980722682     -91.2161407
9.131                0.980675207     -91.3684713
9.132                0.980627617     -91.5211856
9.133                0.980579912     -91.6742846
9.134                0.980532092     -91.8277692
9.135                0.980484157     -91.9816404
9.136                0.980436108     -92.1358991
9.137                0.980387944     -92.2905462
9.138                0.980339666     -92.4455828
9.139                0.980291273     -92.6010096
9.14                 0.980242766     -92.7568277
9.141                0.980194146      -92.913038
9.142                0.980145411     -93.0696415
9.143                0.980096563      -93.226639
9.144                0.980047601     -93.3840316
9.145                0.979998525     -93.5418201
9.146                0.979949336     -93.7000054
9.147                0.979900034     -93.8585886
9.148                 0.97985062     -94.0175705
9.149                0.979801092     -94.1769521
9.15                 0.979751452     -94.3367343
9.151                  0.9797017     -94.4969181
9.152                0.979651835     -94.6575042
9.153                0.979601859     -94.8184938
9.154                 0.97955177     -94.9798877
9.155                 0.97950157     -95.1416867
9.156                0.979451259      -95.303892
9.157                0.979400837     -95.4665042
9.158                0.979350304     -95.6295245
9.159                0.979299661     -95.7929536
9.16                 0.979248907     -95.9567926
9.161                0.979198044     -96.1210422
9.162                 0.97914707     -96.2857035
9.163                0.979095987     -96.4507773
9.164                0.979044795     -96.6162645
9.165                0.978993494      -96.782166
9.166                0.978942084     -96.9484828
9.167                0.978890567     -97.1152157
9.168                0.978838941     -97.2823657
9.169                0.978787208     -97.4499335
9.17                 0.978735367     -97.6179202
9.171                0.978683419     -97.7863265
9.172                0.978631365     -97.9551534
9.173                0.978579205     -98.1244018
9.174                0.978526938     -98.2940726
9.175                0.978474567     -98.4641665
9.176                 0.97842209     -98.6346846
9.177                0.978369508     -98.8056276
9.178                0.978316822     -98.9769964
9.179                0.978264033     -99.1487919
9.18                  0.97821114      -99.321015
9.181                0.978158143     -99.4936665
9.182                0.978105044     -99.6667473
9.183                0.978051843     -99.8402582
9.184                0.977998541       -100.0142
9.185                0.977945137     -100.188574
9.186                0.977891632      -100.36338
9.187                0.977838027      -100.53862
9.188                0.977784322     -100.714294
9.189                0.977730518     -100.890404
9.19                 0.977676616     -101.066949
9.191                0.977622614     -101.243931
9.192                0.977568516     -101.421351
9.193                 0.97751432     -101.599209
9.194                0.977460027     -101.777506
9.195                0.977405638     -101.956244
9.196                0.977351154     -102.135422
9.197                0.977296575     -102.315042
9.198                0.977241902     -102.495105
9.199                0.977187134     -102.675611
9.2                  0.977132274      -102.85656
9.201                0.977077321     -103.037955
9.202                0.977022277     -103.219795
9.203                0.976967141     -103.402081
9.204                0.976911914     -103.584815
9.205                0.976856598     -103.767996
9.206                0.976801192     -103.951626
9.207                0.976745698     -104.135706
9.208                0.976690116     -104.320235
9.209                0.976634447     -104.505216
9.21                 0.976578691     -104.690647
9.211                 0.97652285     -104.876532
9.212                0.976466924     -105.062869
9.213                0.976410913      -105.24966
9.214                 0.97635482     -105.436905
9.215                0.976298643     -105.624606
9.216                0.976242385     -105.812762
9.217                0.976186045     -106.001375
9.218                0.976129626     -106.190445
9.219                0.976073126     -106.379973
9.22                 0.976016549     -106.569959
9.221                0.975959893     -106.760405
9.222                0.975903161     -106.951311
9.223                0.975846352     -107.142677
9.224                0.975789469     -107.334504
9.225                0.975732511     -107.526793
9.226                 0.97567548     -107.719545
9.227                0.975618376     -107.912759
9.228                0.975561201     -108.106438
9.229                0.975503955      -108.30058
9.23                  0.97544664     -108.495188
9.231                0.975389256     -108.690261
9.232                0.975331805       -108.8858
9.233                0.975274286     -109.081805
9.234                0.975216703     -109.278278
9.235                0.975159054     -109.475219
9.236                0.975101342     -109.672627
9.237                0.975043568     -109.870505
9.238                0.974985732     -110.068852
9.239                0.974927835     -110.267669
9.24                 0.974869879     -110.466957
9.241                0.974811865     -110.666715
9.242                0.974753794     -110.866945
9.243                0.974695667     -111.067647
9.244                0.974637486     -111.268821
9.245                 0.97457925     -111.470468
9.246                0.974520962     -111.672589
9.247                0.974462623     -111.875183
9.248                0.974404233     -112.078252
9.249                0.974345795     -112.281795
9.25                 0.974287309     -112.485813
9.251                0.974228776     -112.690307
9.252                0.974170199     -112.895277
9.253                0.974111577     -113.100724
9.254                0.974052913     -113.306647
9.255                0.973994207     -113.513047
9.256                0.973935461     -113.719924
9.257                0.973876677      -113.92728
9.258                0.973817855     -114.135113
9.259                0.973758997     -114.343425
9.26                 0.973700104     -114.552216
9.261                0.973641178     -114.761486
9.262                 0.97358222     -114.971236
9.263                0.973523232     -115.181465
9.264                0.973464214     -115.392174
9.265                0.973405169     -115.603364
9.266                0.973346098     -115.815034
9.267                0.973287002     -116.027185
9.268                0.973227883     -116.239817
9.269                0.973168742      -116.45293
9.27                  0.97310958     -116.666525
9.271                  0.9730504     -116.880601
9.272                0.972991203     -117.095159
9.273                0.972931991     -117.310199
9.274                0.972872764     -117.525721
9.275                0.972813524     -117.741725
9.276                0.972754274     -117.958212
9.277                0.972695015     -118.175182
9.278                0.972635748     -118.392634
9.279                0.972576475     -118.610568
9.28                 0.972517198     -118.828986
9.281                0.972457918     -119.047887
9.282                0.972398637      -119.26727
9.283                0.972339357     -119.487136
9.284                0.972280079     -119.707486
9.285                0.972220805     -119.928318
9.286                0.972161538     -120.149634
9.287                0.972102278     -120.371432
9.288                0.972043028     -120.593714
9.289                0.971983789     -120.816478
9.29                 0.971924563     -121.039725
9.291                0.971865352     -121.263455
9.292                0.971806157     -121.487668
9.293                0.971746982     -121.712363
9.294                0.971687826     -121.937541
9.295                0.971628693     -122.163201
9.296                0.971569585     -122.389343
9.297                0.971510502     -122.615968
9.298                0.971451448     -122.843074
9.299                0.971392423     -123.070662
9.3                  0.971333431     -123.298731
9.301                0.971274472     -123.527281
9.302                 0.97121555     -123.756313
9.303                0.971156665     -123.985825
9.304                 0.97109782     -124.215817
9.305                0.971039018      -124.44629
9.306                0.970980259     -124.677242
9.307                0.970921546     -124.908674
9.308                0.970862882     -125.140585
9.309                0.970804267     -125.372975
9.31                 0.970745705     -125.605843
9.311                0.970687198     -125.839189
9.312                0.970628747     -126.073013
9.313                0.970570354     -126.307314
9.314                0.970512023     -126.542092
9.315                0.970453754     -126.777346
9.316                0.970395551     -127.013075
9.317                0.970337415      -127.24928
9.318                0.970279349      -127.48596
9.319                0.970221354     -127.723114
9.32                 0.970163434     -127.960742
9.321                0.970105589     -128.198843
9.322                0.970047824     -128.437416
9.323                0.969990139     -128.676461
9.324                0.969932537     -128.915977
9.325                0.969875021     -129.155964
9.326                0.969817592     -129.396421
9.327                0.969760254     -129.637348
9.328                0.969703008     -129.878742
9.329                0.969645856     -130.120605
9.33                 0.969588802     -130.362935
9.331                0.969531847     -130.605731
9.332                0.969474994     -130.848992
9.333                0.969418245     -131.092719
9.334                0.969361603     -131.336909
9.335                 0.96930507     -131.581562
9.336                0.969248649     -131.826678
9.337                0.969192341     -132.072255
9.338                 0.96913615     -132.318292
9.339                0.969080078     -132.564789
9.34                 0.969024127     -132.811745
9.341                  0.9689683     -133.059158
9.342                0.968912599     -133.307028
9.343                0.968857027     -133.555353
9.344                0.968801586     -133.804133
9.345                0.968746279     -134.053367
9.346                0.968691108     -134.303053
9.347                0.968636077     -134.553191
9.348                0.968581187     -134.803779
9.349                0.968526441     -135.054816
9.35                 0.968471841     -135.306301
9.351                0.968417391     -135.558233
9.352                0.968363093     -135.810611
9.353                0.968308948     -136.063433
9.354                0.968254961     -136.316699
9.355                0.968201134     -136.570406
9.356                0.968147468     -136.824554
9.357                0.968093968     -137.079142
9.358                0.968040635     -137.334168
9.359                0.967987472      -137.58963
9.36                 0.967934481     -137.845528
9.361                0.967881667      -138.10186
9.362                 0.96782903     -138.358624
9.363                0.967776574      -138.61582
9.364                0.967724301     -138.873445
9.365                0.967672214     -139.131499
9.366                0.967620316     -139.389979
9.367                 0.96756861     -139.648885
9.368                0.967517098     -139.908214
9.369                0.967465782     -140.167966
9.37                 0.967414666     -140.428138
9.371                0.967363752     -140.688729
9.372                0.967313043     -140.949737
9.373                0.967262542     -141.211161
9.374                0.967212251     -141.472999
9.375                0.967162173      -141.73525
9.376                0.967112311      -141.99791
9.377                0.967062667      -142.26098
9.378                0.967013244     -142.524457
9.379                0.966964046     -142.788339
9.38                 0.966915074     -143.052625
9.381                0.966866331     -143.317312
9.382                0.966817821     -143.582399
9.383                0.966769545     -143.847884
9.384                0.966721507     -144.113765
9.385                0.966673709     -144.380041
9.386                0.966626154     -144.646708
9.387                0.966578844     -144.913765
9.388                0.966531784     -145.181211
9.389                0.966484974     -145.449043
9.39                 0.966438418     -145.717259
9.391                0.966392119     -145.985858
9.392                0.966346079     -146.254836
9.393                0.966300301     -146.524192
9.394                0.966254787     -146.793925
9.395                0.966209541      -147.06403
9.396                0.966164565     -147.334508
