! TOUCHSTONE file generated by CST DESIGN STUDIO
! Date and time: Tue Feb  4 18:14:43 2025
! Project name: C:\Work\MatlabApps\UnitCellOptimizationMatlab\CST\unitcell.cst
! Tree item: Tasks\Sweep1\SPara1\S-Parameters
! Header version: 2024
! Port assignment regex: !\s*Touchstone port\s*([0-9]+)\s*=\s*(CST MWS port|CST DES external port|CST DES block port)\s*(.+)\s* \(\"(.*)\"\)(\s*mode\s*([0-9]+))?.*
! Touchstone port assignment:
! Touchstone port 1 = CST DES external port 1 ("")
# GHz S MA R 50
9                    0.986909252     -66.6746692
9.001                0.986881986     -66.7687212
9.002                0.986854637     -66.8629936
9.003                0.986827204     -66.9574871
9.004                0.986799688     -67.0522023
9.005                0.986772088     -67.1471399
9.006                0.986744404     -67.2423006
9.007                0.986716635     -67.3376852
9.008                0.986688782     -67.4332941
9.009                0.986660844     -67.5291283
9.01                  0.98663282     -67.6251883
9.011                0.986604712     -67.7214748
9.012                0.986576518     -67.8179885
9.013                0.986548238     -67.9147301
9.014                0.986519872     -68.0117004
9.015                 0.98649142     -68.1088999
9.016                0.986462882     -68.2063295
9.017                0.986434256     -68.3039897
9.018                0.986405544     -68.4018814
9.019                0.986376745     -68.5000052
9.02                 0.986347858     -68.5983619
9.021                0.986318884      -68.696952
9.022                0.986289821     -68.7957764
9.023                0.986260671     -68.8948358
9.024                0.986231432     -68.9941309
9.025                0.986202105     -69.0936624
9.026                0.986172689     -69.1934309
9.027                0.986143184     -69.2934374
9.028                 0.98611359     -69.3936824
9.029                0.986083906     -69.4941667
9.03                 0.986054132      -69.594891
9.031                0.986024269     -69.6958561
9.032                0.985994315     -69.7970627
9.033                0.985964271     -69.8985115
9.034                0.985934136     -70.0002033
9.035                0.985903911     -70.1021388
9.036                0.985873594     -70.2043187
9.037                0.985843186     -70.3067439
9.038                0.985812686      -70.409415
9.039                0.985782095     -70.5123327
9.04                 0.985751411      -70.615498
9.041                0.985720635     -70.7189114
9.042                0.985689767     -70.8225737
9.043                0.985658806     -70.9264858
9.044                0.985627752     -71.0306483
9.045                0.985596605     -71.1350621
9.046                0.985565364     -71.2397279
9.047                 0.98553403     -71.3446464
9.048                0.985502601     -71.4498184
9.049                0.985471079     -71.5552448
9.05                 0.985439462     -71.6609262
9.051                0.985407751     -71.7668634
9.052                0.985375945     -71.8730573
9.053                0.985344044     -71.9795086
9.054                0.985312047      -72.086218
9.055                0.985279955     -72.1931865
9.056                0.985247768     -72.3004146
9.057                0.985215484     -72.4079033
9.058                0.985183105     -72.5156534
9.059                0.985150628     -72.6236655
9.06                 0.985118056     -72.7319406
9.061                0.985085386     -72.8404793
9.062                0.985052619     -72.9492826
9.063                0.985019755     -73.0583512
9.064                0.984986794     -73.1676859
9.065                0.984953735     -73.2772875
9.066                0.984920577     -73.3871568
9.067                0.984887322     -73.4972947
9.068                0.984853968     -73.6077018
9.069                0.984820516     -73.7183792
9.07                 0.984786964     -73.8293275
9.071                0.984753314     -73.9405476
9.072                0.984719564     -74.0520402
9.073                0.984685715     -74.1638064
9.074                0.984651766     -74.2758467
9.075                0.984617717     -74.3881621
9.076                0.984583568     -74.5007535
9.077                0.984549319     -74.6136215
9.078                0.984514969     -74.7267672
9.079                0.984480518     -74.8401912
9.08                 0.984445966     -74.9538944
9.081                0.984411313     -75.0678777
9.082                0.984376559      -75.182142
9.083                0.984341703     -75.2966879
9.084                0.984306744     -75.4115165
9.085                0.984271684     -75.5266285
9.086                0.984236522     -75.6420248
9.087                0.984201257     -75.7577063
9.088                0.984165889     -75.8736737
9.089                0.984130419      -75.989928
9.09                 0.984094845       -76.10647
9.091                0.984059169     -76.2233005
9.092                0.984023388     -76.3404205
9.093                0.983987504     -76.4578307
9.094                0.983951516     -76.5755321
9.095                0.983915424     -76.6935255
9.096                0.983879227     -76.8118118
9.097                0.983842926     -76.9303919
9.098                0.983806521     -77.0492665
9.099                 0.98377001     -77.1684367
9.1                  0.983733395     -77.2879033
9.101                0.983696674     -77.4076671
9.102                0.983659847      -77.527729
9.103                0.983622915       -77.64809
9.104                0.983585877     -77.7687508
9.105                0.983548734     -77.8897125
9.106                0.983511483     -78.0109758
9.107                0.983474127     -78.1325416
9.108                0.983436664      -78.254411
9.109                0.983399094     -78.3765846
9.11                 0.983361417     -78.4990636
9.111                0.983323634     -78.6218486
9.112                0.983285742     -78.7449407
9.113                0.983247744     -78.8683408
9.114                0.983209638     -78.9920496
9.115                0.983171424     -79.1160683
9.116                0.983133102     -79.2403975
9.117                0.983094671     -79.3650384
9.118                0.983056133     -79.4899917
9.119                0.983017486     -79.6152584
9.12                 0.982978731     -79.7408393
9.121                0.982939866     -79.8667355
9.122                0.982900893     -79.9929479
9.123                0.982861811     -80.1194772
9.124                0.982822619     -80.2463246
9.125                0.982783318     -80.3734908
9.126                0.982743908     -80.5009768
9.127                0.982704388     -80.6287835
9.128                0.982664758      -80.756912
9.129                0.982625018      -80.885363
9.13                 0.982585168     -81.0141375
9.131                0.982545207     -81.1432365
9.132                0.982505136     -81.2726608
9.133                0.982464955     -81.4024115
9.134                0.982424663     -81.5324895
9.135                 0.98238426     -81.6628956
9.136                0.982343747     -81.7936309
9.137                0.982303122     -81.9246962
9.138                0.982262386     -82.0560925
9.139                0.982221539     -82.1878208
9.14                  0.98218058     -82.3198821
9.141                 0.98213951     -82.4522771
9.142                0.982098329      -82.585007
9.143                0.982057035     -82.7180726
9.144                 0.98201563     -82.8514749
9.145                0.981974113     -82.9852148
9.146                0.981932484     -83.1192934
9.147                0.981890742     -83.2537115
9.148                0.981848889     -83.3884701
9.149                0.981806923     -83.5235702
9.15                 0.981764844     -83.6590127
9.151                0.981722654     -83.7947987
9.152                 0.98168035     -83.9309289
9.153                0.981637934     -84.0674045
9.154                0.981595405     -84.2042263
9.155                0.981552764     -84.3413954
9.156                0.981510009     -84.4789127
9.157                0.981467142     -84.6167792
9.158                0.981424161     -84.7549958
9.159                0.981381068     -84.8935635
9.16                 0.981337861     -85.0324833
9.161                0.981294542     -85.1717561
9.162                0.981251109     -85.3113829
9.163                0.981207563     -85.4513648
9.164                0.981163903     -85.5917026
9.165                 0.98112013     -85.7323973
9.166                0.981076244       -85.87345
9.167                0.981032244     -86.0148615
9.168                0.980988131     -86.1566329
9.169                0.980943905     -86.2987651
9.17                 0.980899565     -86.4412592
9.171                0.980855111     -86.5841161
9.172                0.980810544     -86.7273367
9.173                0.980765864     -86.8709221
9.174                 0.98072107     -87.0148733
9.175                0.980676162     -87.1591911
9.176                0.980631141     -87.3038767
9.177                0.980586007     -87.4489309
9.178                0.980540759     -87.5943549
9.179                0.980495397     -87.7401494
9.18                 0.980449922     -87.8863156
9.181                0.980404334     -88.0328545
9.182                0.980358633     -88.1797669
9.183                0.980312818     -88.3270539
9.184                0.980266889     -88.4747165
9.185                0.980220848     -88.6227556
9.186                0.980174693     -88.7711723
9.187                0.980128426     -88.9199675
9.188                0.980082045     -89.0691423
9.189                0.980035551     -89.2186975
9.19                 0.979988944     -89.3686342
9.191                0.979942225     -89.5189534
9.192                0.979895392      -89.669656
9.193                0.979848447     -89.8207431
9.194                 0.97980139     -89.9722157
9.195                0.979754219     -90.1240746
9.196                0.979706937     -90.2763209
9.197                0.979659542     -90.4289556
9.198                0.979612035     -90.5819797
9.199                0.979564416     -90.7353942
9.2                  0.979516685        -90.8892
9.201                0.979468843     -91.0433981
9.202                0.979420889     -91.1979895
9.203                0.979372823     -91.3529752
9.204                0.979324646     -91.5083561
9.205                0.979276357     -91.6641334
9.206                0.979227958     -91.8203078
9.207                0.979179448     -91.9768805
9.208                0.979130827     -92.1338524
9.209                0.979082096     -92.2912244
9.21                 0.979033254     -92.4489976
9.211                0.978984302     -92.6071729
9.212                 0.97893524     -92.7657513
9.213                0.978886069     -92.9247338
9.214                0.978836788     -93.0841213
9.215                0.978787398     -93.2439149
9.216                0.978737899     -93.4041155
9.217                0.978688291      -93.564724
9.218                0.978638574     -93.7257415
9.219                0.978588749     -93.8871688
9.22                 0.978538816     -94.0490071
9.221                0.978488775     -94.2112572
9.222                0.978438627     -94.3739201
9.223                0.978388371     -94.5369967
9.224                0.978338008     -94.7004881
9.225                0.978287539     -94.8643951
9.226                0.978236963     -95.0287188
9.227                0.978186282     -95.1934601
9.228                0.978135494       -95.35862
9.229                0.978084601     -95.5241993
9.23                 0.978033603     -95.6901991
9.231                  0.9779825     -95.8566203
9.232                0.977931293     -96.0234639
9.233                0.977879981     -96.1907307
9.234                0.977828566     -96.3584218
9.235                0.977777048      -96.526538
9.236                0.977725426     -96.6950804
9.237                0.977673702     -96.8640498
9.238                0.977621876     -97.0334471
9.239                0.977569948     -97.2032734
9.24                 0.977517919     -97.3735295
9.241                0.977465789     -97.5442164
9.242                0.977413558     -97.7153349
9.243                0.977361227      -97.886886
9.244                0.977308797     -98.0588707
9.245                0.977256267     -98.2312898
9.246                0.977203639     -98.4041442
9.247                0.977150912     -98.5774348
9.248                0.977098088     -98.7511626
9.249                0.977045166     -98.9253285
9.25                 0.976992148     -99.0999332
9.251                0.976939034     -99.2749779
9.252                0.976885823     -99.4504632
9.253                0.976832518     -99.6263902
9.254                0.976779118     -99.8027596
9.255                0.976725624     -99.9795725
9.256                0.976672036      -100.15683
9.257                0.976618356     -100.334532
9.258                0.976564583      -100.51268
9.259                0.976510718     -100.691275
9.26                 0.976456762     -100.870318
9.261                0.976402716     -101.049809
9.262                0.976348579      -101.22975
9.263                0.976294354     -101.410141
9.264                0.976240039     -101.590983
9.265                0.976185637     -101.772277
9.266                0.976131147     -101.954024
9.267                0.976076571     -102.136225
9.268                0.976021909     -102.318879
9.269                0.975967161      -102.50199
9.27                 0.975912329     -102.685556
9.271                0.975857413     -102.869579
9.272                0.975802413      -103.05406
9.273                0.975747332     -103.238999
9.274                0.975692169     -103.424398
9.275                0.975636925     -103.610256
9.276                0.975581601     -103.796576
9.277                0.975526197     -103.983357
9.278                0.975470715       -104.1706
9.279                0.975415155     -104.358307
9.28                 0.975359519     -104.546477
9.281                0.975303806     -104.735112
9.282                0.975248019     -104.924213
9.283                0.975192157      -105.11378
9.284                0.975136221     -105.303813
9.285                0.975080213     -105.494314
9.286                0.975024134     -105.685284
9.287                0.974967983     -105.876722
9.288                0.974911763     -106.068631
9.289                0.974855474      -106.26101
9.29                 0.974799116      -106.45386
9.291                0.974742692     -106.647181
9.292                0.974686202     -106.840976
9.293                0.974629647     -107.035243
9.294                0.974573027     -107.229985
9.295                0.974516345       -107.4252
9.296                0.974459601     -107.620891
9.297                0.974402795     -107.817058
9.298                 0.97434593     -108.013702
9.299                0.974289006     -108.210822
9.3                  0.974232024      -108.40842
9.301                0.974174985     -108.606496
9.302                0.974117891     -108.805052
9.303                0.974060742     -109.004086
9.304                 0.97400354     -109.203601
9.305                0.973946286     -109.403597
9.306                0.973888981     -109.604073
9.307                0.973831625     -109.805032
9.308                0.973774222     -110.006473
9.309                 0.97371677     -110.208397
9.31                 0.973659272     -110.410804
9.311                 0.97360173     -110.613695
9.312                0.973544143      -110.81707
9.313                0.973486514     -111.020931
9.314                0.973428844     -111.225277
9.315                0.973371133     -111.430109
9.316                0.973313384     -111.635427
9.317                0.973255597     -111.841232
9.318                0.973197775     -112.047525
9.319                0.973139917     -112.254305
9.32                 0.973082027     -112.461574
9.321                0.973024104     -112.669331
9.322                0.972966151     -112.877577
9.323                0.972908168     -113.086313
9.324                0.972850158     -113.295538
9.325                0.972792121     -113.505254
9.326                0.972734059      -113.71546
9.327                0.972675974     -113.926158
9.328                0.972617867     -114.137346
9.329                0.972559739     -114.349027
9.33                 0.972501593     -114.561199
9.331                0.972443429     -114.773863
9.332                0.972385248     -114.987021
9.333                0.972327054      -115.20067
9.334                0.972268846     -115.414814
9.335                0.972210628      -115.62945
9.336                0.972152399      -115.84458
9.337                0.972094163     -116.060204
9.338                 0.97203592     -116.276323
9.339                0.971977673     -116.492935
9.34                 0.971919422     -116.710042
9.341                0.971861169     -116.927644
9.342                0.971802917     -117.145741
9.343                0.971744667     -117.364333
9.344                0.971686421      -117.58342
9.345                0.971628179     -117.803002
9.346                0.971569945      -118.02308
9.347                 0.97151172     -118.243653
9.348                0.971453505     -118.464722
9.349                0.971395303     -118.686287
9.35                 0.971337115     -118.908348
9.351                0.971278943     -119.130904
9.352                0.971220789     -119.353957
9.353                0.971162655     -119.577505
9.354                0.971104542     -119.801549
9.355                0.971046453      -120.02609
9.356                0.970988389     -120.251126
9.357                0.970930352     -120.476658
9.358                0.970872345     -120.702685
9.359                0.970814368     -120.929209
9.36                 0.970756425     -121.156228
9.361                0.970698517     -121.383743
9.362                0.970640646     -121.611753
9.363                0.970582815     -121.840259
9.364                0.970525024     -122.069259
9.365                0.970467276     -122.298755
9.366                0.970409574     -122.528745
9.367                0.970351919      -122.75923
9.368                0.970294313      -122.99021
9.369                0.970236758     -123.221683
9.37                 0.970179257     -123.453651
9.371                0.970121812     -123.686112
9.372                0.970064425     -123.919066
9.373                0.970007097     -124.152514
9.374                0.969949831     -124.386455
9.375                 0.96989263     -124.620887
9.376                0.969835495     -124.855812
9.377                0.969778429     -125.091229
9.378                0.969721434     -125.327137
9.379                0.969664512     -125.563536
9.38                 0.969607665     -125.800425
9.381                0.969550896     -126.037804
9.382                0.969494207     -126.275673
9.383                  0.9694376     -126.514031
9.384                0.969381077     -126.752878
9.385                0.969324642     -126.992213
9.386                0.969268295     -127.232035
9.387                 0.96921204     -127.472344
9.388                0.969155879      -127.71314
9.389                0.969099814     -127.954422
9.39                 0.969043847     -128.196188
9.391                0.968987982      -128.43844
9.392                 0.96893222     -128.681175
9.393                0.968876564     -128.924394
9.394                0.968821016     -129.168095
9.395                0.968765578     -129.412278
9.396                0.968710254     -129.656942
