! TOUCHSTONE file generated by CST DESIGN STUDIO
! Date and time: Tue Feb  4 13:25:48 2025
! Project name: C:\Work\MatlabApps\UnitCellOptimizationMatlab\CST\unitcell.cst
! Tree item: Tasks\Sweep1\SPara1\S-Parameters
! Header version: 2024
! Port assignment regex: !\s*Touchstone port\s*([0-9]+)\s*=\s*(CST MWS port|CST DES external port|CST DES block port)\s*(.+)\s* \(\"(.*)\"\)(\s*mode\s*([0-9]+))?.*
! Touchstone port assignment:
! Touchstone port 1 = CST DES external port 1 ("")
# GHz S MA R 50
9                    0.936777583     -68.4376106
9.001                0.936663938     -68.5386508
9.002                 0.93654976     -68.6399619
9.003                0.936435048     -68.7415448
9.004                  0.9363198     -68.8434008
9.005                0.936204013     -68.9455307
9.006                0.936087685     -69.0479358
9.007                0.935970815      -69.150617
9.008                0.935853399     -69.2535755
9.009                0.935735436     -69.3568124
9.01                 0.935616925     -69.4603287
9.011                0.935497862     -69.5641255
9.012                0.935378246      -69.668204
9.013                0.935258075     -69.7725652
9.014                0.935137347     -69.8772103
9.015                 0.93501606     -69.9821403
9.016                0.934894213     -70.0873564
9.017                0.934771802     -70.1928597
9.018                0.934648828     -70.2986514
9.019                0.934525287     -70.4047325
9.02                 0.934401178     -70.5111042
9.021                0.934276499     -70.6177677
9.022                0.934151249     -70.7247241
9.023                0.934025426     -70.8319745
9.024                0.933899028     -70.9395201
9.025                0.933772054     -71.0473621
9.026                0.933644502     -71.1555016
9.027                0.933516371     -71.2639398
9.028                0.933387659     -71.3726779
9.029                0.933258364     -71.4817171
9.03                 0.933128486     -71.5910585
9.031                0.932998022     -71.7007032
9.032                0.932866973     -71.8106527
9.033                0.932735335     -71.9209079
9.034                0.932603108     -72.0314701
9.035                0.932470291     -72.1423405
9.036                0.932336882     -72.2535204
9.037                0.932202881     -72.3650108
9.038                0.932068286     -72.4768132
9.039                0.931933096     -72.5889286
9.04                  0.93179731     -72.7013582
9.041                0.931660928     -72.8141034
9.042                0.931523947     -72.9271654
9.043                0.931386368     -73.0405453
9.044                 0.93124819     -73.1542445
9.045                 0.93110941     -73.2682641
9.046                 0.93097003     -73.3826054
9.047                0.930830048     -73.4972697
9.048                0.930689462     -73.6122582
9.049                0.930548274     -73.7275722
9.05                 0.930406482      -73.843213
9.051                0.930264085     -73.9591817
9.052                0.930121083     -74.0754797
9.053                0.929977475     -74.1921082
9.054                0.929833262     -74.3090686
9.055                0.929688442      -74.426362
9.056                0.929543015     -74.5439898
9.057                0.929396981     -74.6619533
9.058                 0.92925034     -74.7802537
9.059                0.929103091     -74.8988923
9.06                 0.928955234     -75.0178705
9.061                 0.92880677     -75.1371895
9.062                0.928657697     -75.2568506
9.063                0.928508016     -75.3768551
9.064                0.928357727     -75.4972044
9.065                 0.92820683     -75.6178997
9.066                0.928055325     -75.7389423
9.067                0.927903212     -75.8603336
9.068                0.927750492     -75.9820749
9.069                0.927597163     -76.1041674
9.07                 0.927443228     -76.2266126
9.071                0.927288685     -76.3494117
9.072                0.927133536      -76.472566
9.073                 0.92697778     -76.5960769
9.074                0.926821419     -76.7199458
9.075                0.926664451     -76.8441738
9.076                0.926506879     -76.9687625
9.077                0.926348702     -77.0937131
9.078                0.926189922     -77.2190269
9.079                0.926030538     -77.3447053
9.08                 0.925870551     -77.4707496
9.081                0.925709962     -77.5971612
9.082                0.925548772     -77.7239414
9.083                0.925386981     -77.8510916
9.084                0.925224591     -77.9786131
9.085                0.925061602     -78.1065072
9.086                0.924898014     -78.2347754
9.087                 0.92473383     -78.3634189
9.088                0.924569049     -78.4924392
9.089                0.924403673     -78.6218375
9.09                 0.924237703     -78.7516153
9.091                0.924071139     -78.8817739
9.092                0.923903984     -79.0123146
9.093                0.923736237     -79.1432389
9.094                0.923567901      -79.274548
9.095                0.923398975     -79.4062434
9.096                0.923229463     -79.5383263
9.097                0.923059364     -79.6707983
9.098                 0.92288868     -79.8036606
9.099                0.922717412     -79.9369146
9.1                  0.922545562     -80.0705617
9.101                0.922373131     -80.2046032
9.102                 0.92220012     -80.3390406
9.103                0.922026531     -80.4738752
9.104                0.921852364     -80.6091083
9.105                0.921677623     -80.7447414
9.106                0.921502308     -80.8807758
9.107                 0.92132642     -81.0172128
9.108                0.921149961      -81.154054
9.109                0.920972933     -81.2913006
9.11                 0.920795337      -81.428954
9.111                0.920617175     -81.5670156
9.112                0.920438448     -81.7054868
9.113                0.920259158      -81.844369
9.114                0.920079307     -81.9836635
9.115                0.919898897     -82.1233717
9.116                0.919717928      -82.263495
9.117                0.919536403     -82.4040348
9.118                0.919354324     -82.5449924
9.119                0.919171692     -82.6863693
9.12                 0.918988508     -82.8281668
9.121                0.918804776     -82.9703864
9.122                0.918620496     -83.1130293
9.123                 0.91843567      -83.256097
9.124                  0.9182503     -83.3995908
9.125                0.918064389     -83.5435122
9.126                0.917877937     -83.6878625
9.127                0.917690947     -83.8326431
9.128                 0.91750342     -83.9778554
9.129                0.917315359     -84.1235007
9.13                 0.917126764     -84.2695806
9.131                0.916937639     -84.4160962
9.132                0.916747985     -84.5630491
9.133                0.916557804     -84.7104406
9.134                0.916367098     -84.8582721
9.135                0.916175868      -85.006545
9.136                0.915984118     -85.1552606
9.137                0.915791847     -85.3044204
9.138                 0.91559906     -85.4540258
9.139                0.915405756      -85.604078
9.14                  0.91521194     -85.7545786
9.141                0.915017611     -85.9055288
9.142                0.914822773     -86.0569301
9.143                0.914627428     -86.2087839
9.144                0.914431577     -86.3610915
9.145                0.914235221     -86.5138544
9.146                0.914038365     -86.6670738
9.147                0.913841008     -86.8207512
9.148                0.913643154      -86.974888
9.149                0.913444803     -87.1294856
9.15                 0.913245959     -87.2845453
9.151                0.913046623     -87.4400686
9.152                0.912846797     -87.5960567
9.153                0.912646484     -87.7525112
9.154                0.912445684     -87.9094333
9.155                0.912244401     -88.0668244
9.156                0.912042635      -88.224686
9.157                 0.91184039     -88.3830195
9.158                0.911637666     -88.5418261
9.159                0.911434467     -88.7011073
9.16                 0.911230794     -88.8608644
9.161                0.911026648     -89.0210989
9.162                0.910822033     -89.1818122
9.163                 0.91061695     -89.3430055
9.164                  0.9104114     -89.5046803
9.165                0.910205387     -89.6668379
9.166                0.909998912     -89.8294798
9.167                0.909791976     -89.9926072
9.168                0.909584583     -90.1562217
9.169                0.909376734     -90.3203245
9.17                  0.90916843     -90.4849171
9.171                0.908959674     -90.6500008
9.172                0.908750469     -90.8155769
9.173                0.908540815     -90.9816469
9.174                0.908330715     -91.1482122
9.175                0.908120171      -91.315274
9.176                0.907909185     -91.4828338
9.177                0.907697759      -91.650893
9.178                0.907485895     -91.8194529
9.179                0.907273594     -91.9885148
9.18                  0.90706086     -92.1580802
9.181                0.906847694     -92.3281504
9.182                0.906634097     -92.4987268
9.183                0.906420072     -92.6698107
9.184                0.906205622     -92.8414035
9.185                0.905990747     -93.0135066
9.186                0.905775451     -93.1861214
9.187                0.905559734     -93.3592491
9.188                  0.9053436     -93.5328911
9.189                0.905127049     -93.7070489
9.19                 0.904910085     -93.8817237
9.191                0.904692709      -94.056917
9.192                0.904474924       -94.23263
9.193                0.904256731     -94.4088641
9.194                0.904038132     -94.5856207
9.195                 0.90381913     -94.7629011
9.196                0.903599726     -94.9407067
9.197                0.903379923     -95.1190387
9.198                0.903159723     -95.2978987
9.199                0.902939128     -95.4772878
9.2                   0.90271814     -95.6572074
9.201                0.902496761     -95.8376589
9.202                0.902274994     -96.0186436
9.203                 0.90205284     -96.2001629
9.204                0.901830302      -96.382218
9.205                0.901607382     -96.5648103
9.206                0.901384082     -96.7479411
9.207                0.901160405     -96.9316118
9.208                0.900936352     -97.1158236
9.209                0.900711926     -97.3005779
9.21                 0.900487129      -97.485876
9.211                0.900261964     -97.6717192
9.212                0.900036432     -97.8581088
9.213                0.899810537     -98.0450462
9.214                 0.89958428     -98.2325326
9.215                0.899357664     -98.4205693
9.216                0.899130691     -98.6091576
9.217                0.898903364     -98.7982988
9.218                0.898675685     -98.9879943
9.219                0.898447656     -99.1782453
9.22                 0.898219281      -99.369053
9.221                0.897990561     -99.5604188
9.222                0.897761499     -99.7523439
9.223                0.897532097     -99.9448297
9.224                0.897302359     -100.137877
9.225                0.897072287     -100.331488
9.226                0.896841883     -100.525663
9.227                 0.89661115     -100.720404
9.228                0.896380092     -100.915712
9.229                0.896148709     -101.111588
9.23                 0.895917006     -101.308033
9.231                0.895684986     -101.505049
9.232                 0.89545265     -101.702637
9.233                0.895220002     -101.900797
9.234                0.894987045     -102.099532
9.235                0.894753781     -102.298843
9.236                0.894520214      -102.49873
9.237                0.894286347     -102.699196
9.238                0.894052182      -102.90024
9.239                0.893817723     -103.101865
9.24                 0.893582973     -103.304071
9.241                0.893347935      -103.50686
9.242                0.893112612     -103.710233
9.243                0.892877008     -103.914191
9.244                0.892641126     -104.118735
9.245                0.892404968     -104.323866
9.246                0.892168539     -104.529586
9.247                0.891931842     -104.735896
9.248                 0.89169488     -104.942796
9.249                0.891457657     -105.150288
9.25                 0.891220177     -105.358373
9.251                0.890982442     -105.567053
9.252                0.890744457     -105.776327
9.253                0.890506225     -105.986198
9.254                0.890267751     -106.196666
9.255                0.890029037     -106.407733
9.256                0.889790088     -106.619399
9.257                0.889550907     -106.831666
9.258                  0.8893115     -107.044534
9.259                0.889071868     -107.258005
9.26                 0.888832018      -107.47208
9.261                0.888591952      -107.68676
9.262                0.888351675     -107.902045
9.263                0.888111191     -108.117937
9.264                0.887870505     -108.334437
9.265                 0.88762962     -108.551546
9.266                0.887388542     -108.769264
9.267                0.887147274     -108.987593
9.268                0.886905821     -109.206534
9.269                0.886664188     -109.426087
9.27                  0.88642238     -109.646253
9.271                  0.8861804     -109.867034
9.272                0.885938255     -110.088431
9.273                0.885695948     -110.310443
9.274                0.885453485     -110.533073
9.275                 0.88521087      -110.75632
9.276                0.884968109     -110.980186
9.277                0.884725206     -111.204672
9.278                0.884482167     -111.429779
9.279                0.884238997     -111.655507
9.28                 0.883995702     -111.881856
9.281                0.883752286     -112.108829
9.282                0.883508756     -112.336425
9.283                0.883265115     -112.564646
9.284                0.883021371     -112.793492
9.285                0.882777529     -113.022964
9.286                0.882533595     -113.253063
9.287                0.882289573     -113.483788
9.288                0.882045471     -113.715142
9.289                0.881801294     -113.947125
9.29                 0.881557047     -114.179737
9.291                0.881312738     -114.412979
9.292                0.881068372     -114.646851
9.293                0.880823956     -114.881355
9.294                0.880579495     -115.116491
9.295                0.880334997     -115.352259
9.296                0.880090467      -115.58866
9.297                0.879845912     -115.825694
9.298                0.879601339     -116.063362
9.299                0.879356754     -116.301666
9.3                  0.879112165     -116.540604
9.301                0.878867577     -116.780177
9.302                0.878622998     -117.020387
9.303                0.878378435     -117.261233
9.304                0.878133895     -117.502715
9.305                0.877889385     -117.744835
9.306                0.877644912     -117.987593
9.307                0.877400484     -118.230988
9.308                0.877156107     -118.475022
9.309                 0.87691179     -118.719694
9.31                  0.87666754     -118.965005
9.311                0.876423365     -119.210956
9.312                0.876179272     -119.457545
9.313                0.875935268     -119.704775
9.314                0.875691363     -119.952644
9.315                0.875447564     -120.201153
9.316                0.875203878     -120.450302
9.317                0.874960315     -120.700092
9.318                0.874716881     -120.950523
9.319                0.874473586     -121.201593
9.32                 0.874230438     -121.453305
9.321                0.873987445     -121.705657
9.322                0.873744616      -121.95865
9.323                0.873501959     -122.212284
9.324                0.873259483     -122.466558
9.325                0.873017198     -122.721473
9.326                 0.87277511     -122.977029
9.327                 0.87253323     -123.233225
9.328                0.872291567     -123.490062
9.329                 0.87205013     -123.747539
9.33                 0.871808927     -124.005655
9.331                0.871567968     -124.264412
9.332                0.871327263     -124.523809
9.333                 0.87108682     -124.783845
9.334                 0.87084665      -125.04452
9.335                0.870606762     -125.305834
9.336                0.870367165     -125.567786
9.337                 0.87012787     -125.830377
9.338                0.869888885     -126.093605
9.339                0.869650222     -126.357471
9.34                  0.86941189     -126.621974
9.341                0.869173898     -126.887113
9.342                0.868936258     -127.152888
9.343                0.868698979     -127.419299
9.344                0.868462071     -127.686344
9.345                0.868225546     -127.954024
9.346                0.867989413     -128.222337
9.347                0.867753683     -128.491284
9.348                0.867518366     -128.760862
9.349                0.867283474     -129.031073
9.35                 0.867049016     -129.301914
9.351                0.866815004     -129.573385
9.352                0.866581449     -129.845486
9.353                0.866348361     -130.118216
9.354                0.866115752     -130.391572
9.355                0.865883632     -130.665556
9.356                0.865652014     -130.940166
9.357                0.865420907       -131.2154
9.358                0.865190324     -131.491258
9.359                0.864960275     -131.767739
9.36                 0.864730773     -132.044842
9.361                0.864501828     -132.322565
9.362                0.864273453     -132.600908
9.363                0.864045658      -132.87987
9.364                0.863818457     -133.159448
9.365                0.863591859     -133.439643
9.366                0.863365878     -133.720452
9.367                0.863140525     -134.001875
9.368                0.862915811      -134.28391
9.369                 0.86269175     -134.566555
9.37                 0.862468353      -134.84981
9.371                0.862245632     -135.133672
9.372                  0.8620236     -135.418141
9.373                0.861802268     -135.703215
9.374                0.861581649     -135.988892
9.375                0.861361755     -136.275171
9.376                0.861142599      -136.56205
9.377                0.860924193     -136.849528
9.378                0.860706549     -137.137602
9.379                0.860489681     -137.426271
9.38                   0.8602736     -137.715533
9.381                0.860058319     -138.005387
9.382                0.859843851     -138.295831
9.383                0.859630209     -138.586862
9.384                0.859417405     -138.878479
9.385                0.859205452     -139.170679
9.386                0.858994363     -139.463462
9.387                0.858784151     -139.756824
9.388                0.858574828     -140.050765
9.389                0.858366408      -140.34528
9.39                 0.858158903     -140.640369
9.391                0.857952327      -140.93603
9.392                0.857746692     -141.232259
9.393                0.857542012     -141.529056
9.394                  0.8573383     -141.826416
9.395                0.857135568     -142.124339
9.396                0.856933829     -142.422822
