! TOUCHSTONE file generated by CST DESIGN STUDIO
! Date and time: Tue Feb  4 13:25:51 2025
! Project name: C:\Work\MatlabApps\UnitCellOptimizationMatlab\CST\unitcell.cst
! Tree item: Tasks\Sweep1\SPara1\S-Parameters
! Header version: 2024
! Port assignment regex: !\s*Touchstone port\s*([0-9]+)\s*=\s*(CST MWS port|CST DES external port|CST DES block port)\s*(.+)\s* \(\"(.*)\"\)(\s*mode\s*([0-9]+))?.*
! Touchstone port assignment:
! Touchstone port 1 = CST DES external port 1 ("")
# GHz S MA R 50
9                    0.948711422     -58.9556878
9.001                0.948619702     -59.0357908
9.002                 0.94852785     -59.1160926
9.003                0.948435864     -59.1965939
9.004                0.948343743     -59.2772954
9.005                0.948251487     -59.3581978
9.006                0.948159093     -59.4393019
9.007                 0.94806656     -59.5206083
9.008                0.947973888     -59.6021177
9.009                0.947881074     -59.6838309
9.01                 0.947788118     -59.7657486
9.011                0.947695018     -59.8478714
9.012                0.947601772     -59.9302002
9.013                0.947508381     -60.0127357
9.014                0.947414841     -60.0954785
9.015                0.947321153     -60.1784294
9.016                0.947227314     -60.2615891
9.017                0.947133324     -60.3449584
9.018                 0.94703918     -60.4285381
9.019                0.946944881     -60.5123287
9.02                 0.946850427     -60.5963312
9.021                0.946755816     -60.6805462
9.022                0.946661046     -60.7649745
9.023                0.946566116     -60.8496168
9.024                0.946471025     -60.9344739
9.025                0.946375771     -61.0195466
9.026                0.946280353     -61.1048355
9.027                0.946184769     -61.1903415
9.028                0.946089019     -61.2760654
9.029                  0.9459931     -61.3620078
9.03                 0.945897011     -61.4481696
9.031                0.945800751     -61.5345515
9.032                0.945704318     -61.6211543
9.033                0.945607711     -61.7079789
9.034                0.945510929     -61.7950259
9.035                0.945413969     -61.8822961
9.036                0.945316831     -61.9697904
9.037                0.945219513     -62.0575094
9.038                0.945122014     -62.1454541
9.039                0.945024332     -62.2336252
9.04                 0.944926465     -62.3220235
9.041                0.944828413     -62.4106498
9.042                0.944730173     -62.4995049
9.043                0.944631744     -62.5885896
9.044                0.944533125     -62.6779048
9.045                0.944434314     -62.7674511
9.046                0.944335309     -62.8572295
9.047                 0.94423611     -62.9472407
9.048                0.944136714     -63.0374856
9.049                 0.94403712      -63.127965
9.05                 0.943937326     -63.2186797
9.051                0.943837331     -63.3096305
9.052                0.943737134     -63.4008183
9.053                0.943636732     -63.4922439
9.054                0.943536125     -63.5839081
9.055                 0.94343531     -63.6758118
9.056                0.943334286     -63.7679559
9.057                0.943233052     -63.8603411
9.058                0.943131605     -63.9529683
9.059                0.943029945     -64.0458383
9.06                 0.942928069     -64.1389521
9.061                0.942825977     -64.2323104
9.062                0.942723666     -64.3259142
9.063                0.942621135     -64.4197643
9.064                0.942518381     -64.5138615
9.065                0.942415405     -64.6082067
9.066                0.942312203     -64.7028008
9.067                0.942208775     -64.7976446
9.068                0.942105118     -64.8927391
9.069                0.942001232     -64.9880852
9.07                 0.941897114     -65.0836836
9.071                0.941792762     -65.1795353
9.072                0.941688175     -65.2756412
9.073                0.941583352     -65.3720021
9.074                 0.94147829      -65.468619
9.075                0.941372989     -65.5654928
9.076                0.941267446     -65.6626243
9.077                0.941161659     -65.7600145
9.078                0.941055627     -65.8576642
9.079                0.940949348     -65.9555744
9.08                 0.940842821      -66.053746
9.081                0.940736044     -66.1521799
9.082                0.940629014     -66.2508771
9.083                0.940521731     -66.3498384
9.084                0.940414193     -66.4490647
9.085                0.940306398     -66.5485571
9.086                0.940198343     -66.6483163
9.087                0.940090028     -66.7483435
9.088                0.939981451     -66.8486394
9.089                0.939872609     -66.9492051
9.09                 0.939763502     -67.0500415
9.091                0.939654127     -67.1511495
9.092                0.939544483     -67.2525301
9.093                0.939434567     -67.3541842
9.094                0.939324379     -67.4561129
9.095                0.939213916     -67.5583169
9.096                0.939103176     -67.6607974
9.097                0.938992158     -67.7635553
9.098                 0.93888086     -67.8665915
9.099                0.938769281     -67.9699071
9.1                  0.938657417     -68.0735029
9.101                0.938545268     -68.1773801
9.102                0.938432832     -68.2815394
9.103                0.938320106     -68.3859821
9.104                 0.93820709     -68.4907089
9.105                0.938093781      -68.595721
9.106                0.937980177     -68.7010193
9.107                0.937866277     -68.8066049
9.108                0.937752079     -68.9124786
9.109                0.937637581     -69.0186416
9.11                  0.93752278     -69.1250948
9.111                0.937407676     -69.2318392
9.112                0.937292267     -69.3388759
9.113                 0.93717655     -69.4462059
9.114                0.937060523     -69.5538302
9.115                0.936944186     -69.6617498
9.116                0.936827535     -69.7699658
9.117                 0.93671057     -69.8784791
9.118                0.936593288     -69.9872908
9.119                0.936475687      -70.096402
9.12                 0.936357765     -70.2058137
9.121                0.936239522      -70.315527
9.122                0.936120954     -70.4255428
9.123                0.936002059     -70.5358622
9.124                0.935882837     -70.6464864
9.125                0.935763285     -70.7574163
9.126                0.935643401      -70.868653
9.127                0.935523184     -70.9801976
9.128                 0.93540263     -71.0920511
9.129                0.935281739     -71.2042146
9.13                 0.935160509     -71.3166892
9.131                0.935038938      -71.429476
9.132                0.934917023      -71.542576
9.133                0.934794763     -71.6559904
9.134                0.934672156     -71.7697202
9.135                  0.9345492     -71.8837664
9.136                0.934425894     -71.9981303
9.137                0.934302234     -72.1128129
9.138                 0.93417822     -72.2278153
9.139                0.934053849     -72.3431386
9.14                 0.933929119     -72.4587839
9.141                0.933804029     -72.5747523
9.142                0.933678577     -72.6910449
9.143                 0.93355276      -72.807663
9.144                0.933426577     -72.9246075
9.145                0.933300026     -73.0418796
9.146                0.933173105     -73.1594804
9.147                0.933045812     -73.2774111
9.148                0.932918144     -73.3956728
9.149                0.932790101     -73.5142666
9.15                  0.93266168     -73.6331937
9.151                0.932532879     -73.7524552
9.152                0.932403696     -73.8720523
9.153                 0.93227413     -73.9919861
9.154                0.932144178     -74.1122578
9.155                0.932013839     -74.2328685
9.156                 0.93188311     -74.3538194
9.157                 0.93175199     -74.4751117
9.158                0.931620476     -74.5967465
9.159                0.931488567      -74.718725
9.16                 0.931356261     -74.8410483
9.161                0.931223555     -74.9637178
9.162                0.931090449     -75.0867344
9.163                 0.93095694     -75.2100995
9.164                0.930823025     -75.3338142
9.165                0.930688704     -75.4578797
9.166                0.930553974     -75.5822972
9.167                0.930418833     -75.7070678
9.168                0.930283279     -75.8321929
9.169                0.930147311     -75.9576736
9.17                 0.930010927      -76.083511
9.171                0.929874123     -76.2097065
9.172                  0.9297369     -76.3362612
9.173                0.929599254     -76.4631764
9.174                0.929461184     -76.5904532
9.175                0.929322688      -76.718093
9.176                0.929183764     -76.8460968
9.177                0.929044409     -76.9744661
9.178                0.928904623     -77.1032019
9.179                0.928764403     -77.2323055
9.18                 0.928623748     -77.3617782
9.181                0.928482655     -77.4916212
9.182                0.928341122     -77.6218357
9.183                0.928199148     -77.7524231
9.184                0.928056731     -77.8833845
9.185                0.927913869     -78.0147212
9.186                 0.92777056     -78.1464345
9.187                0.927626801     -78.2785257
9.188                0.927482592     -78.4109959
9.189                0.927337931     -78.5438466
9.19                 0.927192815     -78.6770788
9.191                0.927047242      -78.810694
9.192                0.926901211     -78.9446934
9.193                0.926754721     -79.0790782
9.194                0.926607768     -79.2138498
9.195                0.926460352     -79.3490095
9.196                 0.92631247     -79.4845585
9.197                 0.92616412     -79.6204981
9.198                0.926015302     -79.7568297
9.199                0.925866012     -79.8935545
9.2                  0.925716249     -80.0306738
9.201                0.925566012      -80.168189
9.202                0.925415299     -80.3061012
9.203                0.925264107      -80.444412
9.204                0.925112435     -80.5831225
9.205                0.924960281     -80.7222341
9.206                0.924807644     -80.8617481
9.207                0.924654522     -81.0016658
9.208                0.924500912     -81.1419885
9.209                0.924346814     -81.2827176
9.21                 0.924192225     -81.4238545
9.211                0.924037144     -81.5654003
9.212                0.923881569     -81.7073566
9.213                0.923725498     -81.8497245
9.214                 0.92356893     -81.9925055
9.215                0.923411863     -82.1357009
9.216                0.923254295     -82.2793121
9.217                0.923096225     -82.4233403
9.218                 0.92293765     -82.5677869
9.219                 0.92277857     -82.7126534
9.22                 0.922618983      -82.857941
9.221                0.922458887     -83.0036511
9.222                 0.92229828     -83.1497851
9.223                0.922137161     -83.2963443
9.224                0.921975528     -83.4433301
9.225                 0.92181338     -83.5907439
9.226                0.921650715      -83.738587
9.227                0.921487531     -83.8868608
9.228                0.921323828     -84.0355667
9.229                0.921159603      -84.184706
9.23                 0.920994855     -84.3342802
9.231                0.920829583     -84.4842906
9.232                0.920663784     -84.6347386
9.233                0.920497458     -84.7856256
9.234                0.920330604      -84.936953
9.235                0.920163218     -85.0887221
9.236                0.919995302     -85.2409344
9.237                0.919826851     -85.3935912
9.238                0.919657867      -85.546694
9.239                0.919488346     -85.7002441
9.24                 0.919318288     -85.8542429
9.241                0.919147691     -86.0086919
9.242                0.918976555     -86.1635924
9.243                0.918804877     -86.3189458
9.244                0.918632656     -86.4747536
9.245                0.918459892     -86.6310172
9.246                0.918286583     -86.7877379
9.247                0.918112727     -86.9449172
9.248                0.917938323     -87.1025564
9.249                0.917763371     -87.2606571
9.25                 0.917587869     -87.4192205
9.251                0.917411816     -87.5782482
9.252                0.917235211     -87.7377415
9.253                0.917058052     -87.8977019
9.254                0.916880339     -88.0581307
9.255                 0.91670207     -88.2190294
9.256                0.916523245     -88.3803994
9.257                0.916343862     -88.5422422
9.258                 0.91616392     -88.7045591
9.259                0.915983419     -88.8673516
9.26                 0.915802358     -89.0306211
9.261                0.915620734      -89.194369
9.262                0.915438549     -89.3585967
9.263                  0.9152558     -89.5233058
9.264                0.915072487     -89.6884975
9.265                0.914888609     -89.8541733
9.266                0.914704165     -90.0203347
9.267                0.914519155     -90.1869831
9.268                0.914333577     -90.3541199
9.269                0.914147432     -90.5217465
9.27                 0.913960717     -90.6898644
9.271                0.913773433      -90.858475
9.272                0.913585579     -91.0275796
9.273                0.913397154     -91.1971799
9.274                0.913208158     -91.3672771
9.275                 0.91301859     -91.5378727
9.276                0.912828449     -91.7089681
9.277                0.912637736     -91.8805647
9.278                0.912446449     -92.0526641
9.279                0.912254588     -92.2252675
9.28                 0.912062153     -92.3983764
9.281                0.911869144     -92.5719924
9.282                0.911675559     -92.7461166
9.283                  0.9114814     -92.9207507
9.284                0.911286664      -93.095896
9.285                0.911091353     -93.2715539
9.286                0.910895466     -93.4477259
9.287                0.910699003     -93.6244133
9.288                0.910501963     -93.8016176
9.289                0.910304347     -93.9793403
9.29                 0.910106155     -94.1575826
9.291                0.909907386     -94.3363461
9.292                 0.90970804     -94.5156321
9.293                0.909508118     -94.6954421
9.294                 0.90930762     -94.8757774
9.295                0.909106545     -95.0566394
9.296                0.908904894     -95.2380297
9.297                0.908702667     -95.4199494
9.298                0.908499865     -95.6024002
9.299                0.908296487     -95.7853833
9.3                  0.908092534     -95.9689001
9.301                0.907888007     -96.1529521
9.302                0.907682905     -96.3375406
9.303                 0.90747723      -96.522667
9.304                0.907270981     -96.7083327
9.305                0.907064159     -96.8945391
9.306                0.906856765     -97.0812875
9.307                0.906648799     -97.2685794
9.308                0.906440263      -97.456416
9.309                0.906231156     -97.6447988
9.31                  0.90602148     -97.8337291
9.311                0.905811236     -98.0232083
9.312                0.905600423     -98.2132377
9.313                0.905389044     -98.4038187
9.314                0.905177099     -98.5949526
9.315                0.904964588     -98.7866408
9.316                0.904751515     -98.9788846
9.317                0.904537878     -99.1716854
9.318                 0.90432368     -99.3650444
9.319                0.904108921      -99.558963
9.32                 0.903893603     -99.7534426
9.321                0.903677728     -99.9484843
9.322                0.903461296      -100.14409
9.323                0.903244309      -100.34026
9.324                0.903026769     -100.536996
9.325                0.902808677       -100.7343
9.326                0.902590034     -100.932172
9.327                0.902370843     -101.130615
9.328                0.902151104     -101.329629
9.329                 0.90193082     -101.529215
9.33                 0.901709993     -101.729375
9.331                0.901488624      -101.93011
9.332                0.901266716     -102.131422
9.333                 0.90104427     -102.333311
9.334                0.900821288     -102.535779
9.335                0.900597773     -102.738827
9.336                0.900373726     -102.942456
9.337                0.900149151     -103.146667
9.338                0.899924048     -103.351463
9.339                0.899698422     -103.556843
9.34                 0.899472273     -103.762809
9.341                0.899245605     -103.969363
9.342                0.899018419     -104.176505
9.343                 0.89879072     -104.384236
9.344                0.898562509     -104.592559
9.345                0.898333789     -104.801473
9.346                0.898104563      -105.01098
9.347                0.897874834     -105.221082
9.348                0.897644604     -105.431779
9.349                0.897413878     -105.643072
9.35                 0.897182657     -105.854963
9.351                0.896950946     -106.067452
9.352                0.896718747     -106.280542
9.353                0.896486064     -106.494232
9.354                0.896252899     -106.708523
9.355                0.896019258     -106.923418
9.356                0.895785142     -107.138917
9.357                0.895550556     -107.355021
9.358                0.895315503      -107.57173
9.359                0.895079988     -107.789047
9.36                 0.894844013     -108.006972
9.361                0.894607583     -108.225506
9.362                0.894370702      -108.44465
9.363                0.894133374     -108.664404
9.364                0.893895603     -108.884771
9.365                0.893657393     -109.105751
9.366                0.893418749     -109.327344
9.367                0.893179675     -109.549552
9.368                0.892940175     -109.772375
9.369                0.892700254     -109.995816
9.37                 0.892459916     -110.219873
9.371                0.892219167     -110.444549
9.372                 0.89197801     -110.669843
9.373                0.891736452     -110.895758
9.374                0.891494496     -111.122294
9.375                0.891252148      -111.34945
9.376                0.891009414      -111.57723
9.377                0.890766297     -111.805632
9.378                0.890522804     -112.034658
9.379                0.890278939     -112.264309
9.38                 0.890034709     -112.494585
9.381                0.889790119     -112.725488
9.382                0.889545174     -112.957017
9.383                 0.88929988     -113.189173
9.384                0.889054244     -113.421957
9.385                 0.88880827     -113.655371
9.386                0.888561965     -113.889413
9.387                0.888315335     -114.124086
9.388                0.888068386     -114.359389
9.389                0.887821124     -114.595324
9.39                 0.887573557      -114.83189
9.391                0.887325689     -115.069088
9.392                0.887077528     -115.306919
9.393                 0.88682908     -115.545384
9.394                0.886580352     -115.784482
9.395                0.886331351     -116.024215
9.396                0.886082084     -116.264582
