! TOUCHSTONE file generated by CST DESIGN STUDIO
! Date and time: Tue Feb  4 13:25:49 2025
! Project name: C:\Work\MatlabApps\UnitCellOptimizationMatlab\CST\unitcell.cst
! Tree item: Tasks\Sweep1\SPara1\S-Parameters
! Header version: 2024
! Port assignment regex: !\s*Touchstone port\s*([0-9]+)\s*=\s*(CST MWS port|CST DES external port|CST DES block port)\s*(.+)\s* \(\"(.*)\"\)(\s*mode\s*([0-9]+))?.*
! Touchstone port assignment:
! Touchstone port 1 = CST DES external port 1 ("")
# GHz S MA R 50
9                    0.943013029     -63.5170996
9.001                0.942901643     -63.6070535
9.002                0.942790059      -63.697242
9.003                0.942678276     -63.7876658
9.004                0.942566292     -63.8783259
9.005                0.942454106      -63.969223
9.006                0.942341717     -64.0603579
9.007                0.942229123     -64.1517314
9.008                0.942116323     -64.2433444
9.009                0.942003315     -64.3351978
9.01                 0.941890098     -64.4272922
9.011                 0.94177667     -64.5196287
9.012                0.941663031     -64.6122079
9.013                0.941549178     -64.7050309
9.014                 0.94143511     -64.7980983
9.015                0.941320827      -64.891411
9.016                0.941206325       -64.98497
9.017                0.941091604      -65.078776
9.018                0.940976663     -65.1728299
9.019                0.940861499     -65.2671325
9.02                 0.940746112     -65.3616848
9.021                  0.9406305     -65.4564876
9.022                0.940514661     -65.5515417
9.023                0.940398595     -65.6468481
9.024                0.940282299     -65.7424075
9.025                0.940165772      -65.838221
9.026                0.940049013     -65.9342893
9.027                 0.93993202     -66.0306134
9.028                0.939814791     -66.1271941
9.029                0.939697326     -66.2240323
9.03                 0.939579623      -66.321129
9.031                0.939461679     -66.4184849
9.032                0.939343494     -66.5161011
9.033                0.939225067     -66.6139784
9.034                0.939106395     -66.7121178
9.035                0.938987477       -66.81052
9.036                0.938868312     -66.9091862
9.037                0.938748897     -67.0081171
9.038                0.938629233     -67.1073136
9.039                0.938509316     -67.2067768
9.04                 0.938389147     -67.3065075
9.041                0.938268722     -67.4065067
9.042                 0.93814804     -67.5067753
9.043                0.938027101     -67.6073142
9.044                0.937905902     -67.7081243
9.045                0.937784442     -67.8092067
9.046                0.937662719     -67.9105623
9.047                0.937540732     -68.0121919
9.048                0.937418479     -68.1140966
9.049                0.937295959     -68.2162773
9.05                  0.93717317      -68.318735
9.051                0.937050111     -68.4214706
9.052                 0.93692678     -68.5244852
9.053                0.936803175     -68.6277796
9.054                0.936679295     -68.7313548
9.055                0.936555139     -68.8352118
9.056                0.936430704     -68.9393517
9.057                 0.93630599     -69.0437753
9.058                0.936180994     -69.1484837
9.059                0.936055715     -69.2534778
9.06                 0.935930152     -69.3587587
9.061                0.935804303     -69.4643273
9.062                0.935678166     -69.5701847
9.063                0.935551739     -69.6763318
9.064                0.935425022     -69.7827696
9.065                0.935298013     -69.8894992
9.066                0.935170709     -69.9965216
9.067                 0.93504311     -70.1038378
9.068                0.934915214     -70.2114487
9.069                0.934787019     -70.3193555
9.07                 0.934658524     -70.4275592
9.071                0.934529726     -70.5360607
9.072                0.934400625     -70.6448611
9.073                0.934271219     -70.7539615
9.074                0.934141506     -70.8633629
9.075                0.934011485     -70.9730663
9.076                0.933881154     -71.0830729
9.077                0.933750511     -71.1933835
9.078                0.933619555     -71.3039994
9.079                0.933488284     -71.4149214
9.08                 0.933356696     -71.5261508
9.081                0.933224791     -71.6376886
9.082                0.933092566     -71.7495358
9.083                 0.93296002     -71.8616936
9.084                0.932827151     -71.9741629
9.085                0.932693957     -72.0869449
9.086                0.932560437     -72.2000406
9.087                 0.93242659     -72.3134511
9.088                0.932292413     -72.4271776
9.089                0.932157905     -72.5412211
9.09                 0.932023065     -72.6555828
9.091                 0.93188789     -72.7702636
9.092                 0.93175238     -72.8852647
9.093                0.931616532     -73.0005873
9.094                0.931480345     -73.1162324
9.095                0.931343818     -73.2322011
9.096                0.931206948     -73.3484946
9.097                0.931069734      -73.465114
9.098                0.930932175     -73.5820604
9.099                0.930794268     -73.6993349
9.1                  0.930656013     -73.8169387
9.101                0.930517407     -73.9348728
9.102                 0.93037845     -74.0531386
9.103                0.930239138      -74.171737
9.104                0.930099472     -74.2906692
9.105                0.929959448     -74.4099364
9.106                0.929819066     -74.5295397
9.107                0.929678324     -74.6494803
9.108                 0.92953722     -74.7697593
9.109                0.929395753      -74.890378
9.11                 0.929253921     -75.0113374
9.111                0.929111722     -75.1326387
9.112                0.928969155     -75.2542832
9.113                0.928826218      -75.376272
9.114                 0.92868291     -75.4986062
9.115                0.928539229     -75.6212871
9.116                0.928395173     -75.7443158
9.117                0.928250742     -75.8676935
9.118                0.928105932     -75.9914215
9.119                0.927960743     -76.1155009
9.12                 0.927815173     -76.2399329
9.121                 0.92766922     -76.3647187
9.122                0.927522883     -76.4898596
9.123                 0.92737616     -76.6153567
9.124                 0.92722905     -76.7412113
9.125                0.927081551     -76.8674246
9.126                0.926933662     -76.9939977
9.127                 0.92678538      -77.120932
9.128                0.926636705     -77.2482286
9.129                0.926487634     -77.3758889
9.13                 0.926338167     -77.5039139
9.131                0.926188301      -77.632305
9.132                0.926038036     -77.7610634
9.133                0.925887369     -77.8901904
9.134                0.925736299     -78.0196871
9.135                0.925584824     -78.1495549
9.136                0.925432943      -78.279795
9.137                0.925280655     -78.4104087
9.138                0.925127957     -78.5413972
9.139                0.924974848     -78.6727618
9.14                 0.924821328     -78.8045037
9.141                0.924667393     -78.9366243
9.142                0.924513044     -79.0691248
9.143                0.924358277     -79.2020064
9.144                0.924203092     -79.3352705
9.145                0.924047488     -79.4689184
9.146                0.923891462     -79.6029513
9.147                0.923735014     -79.7373705
9.148                0.923578141     -79.8721774
9.149                0.923420842     -80.0073732
9.15                 0.923263117     -80.1429592
9.151                0.923104962     -80.2789367
9.152                0.922946378      -80.415307
9.153                0.922787362     -80.5520715
9.154                0.922627913     -80.6892315
9.155                 0.92246803     -80.8267882
9.156                0.922307711      -80.964743
9.157                0.922146955     -81.1030973
9.158                 0.92198576     -81.2418522
9.159                0.921824125     -81.3810092
9.16                 0.921662048     -81.5205697
9.161                0.921499529     -81.6605348
9.162                0.921336566     -81.8009061
9.163                0.921173157     -81.9416847
9.164                0.921009301     -82.0828721
9.165                0.920844997     -82.2244696
9.166                0.920680244     -82.3664785
9.167                0.920515039     -82.5089002
9.168                0.920349383     -82.6517361
9.169                0.920183273     -82.7949875
9.17                 0.920016708     -82.9386557
9.171                0.919849687     -83.0827422
9.172                0.919682208     -83.2272482
9.173                0.919514271     -83.3721753
9.174                0.919345875     -83.5175246
9.175                0.919177017     -83.6632977
9.176                0.919007697     -83.8094958
9.177                0.918837913     -83.9561204
9.178                0.918667665     -84.1031728
9.179                 0.91849695     -84.2506545
9.18                 0.918325769     -84.3985667
9.181                0.918154119      -84.546911
9.182                0.917982001     -84.6956886
9.183                0.917809411      -84.844901
9.184                 0.91763635     -84.9945495
9.185                0.917462816     -85.1446356
9.186                0.917288808     -85.2951607
9.187                0.917114326     -85.4461262
9.188                0.916939367     -85.5975334
9.189                0.916763932     -85.7493837
9.19                 0.916588018     -85.9016787
9.191                0.916411625     -86.0544196
9.192                0.916234753      -86.207608
9.193                0.916057399     -86.3612451
9.194                0.915879564     -86.5153325
9.195                0.915701245     -86.6698715
9.196                0.915522443     -86.8248636
9.197                0.915343155     -86.9803101
9.198                0.915163382     -87.1362126
9.199                0.914983123     -87.2925724
9.2                  0.914802376     -87.4493909
9.201                0.914621141     -87.6066697
9.202                0.914439417       -87.76441
9.203                0.914257204     -87.9226133
9.204                0.914074499     -88.0812812
9.205                0.913891303     -88.2404149
9.206                0.913707615      -88.400016
9.207                0.913523435     -88.5600858
9.208                0.913338761     -88.7206259
9.209                0.913153592     -88.8816375
9.21                 0.912967929     -89.0431223
9.211                 0.91278177     -89.2050816
9.212                0.912595116     -89.3675169
9.213                0.912407964     -89.5304295
9.214                0.912220316      -89.693821
9.215                0.912032169     -89.8576928
9.216                0.911843525     -90.0220463
9.217                0.911654382      -90.186883
9.218                0.911464739     -90.3522044
9.219                0.911274597     -90.5180118
9.22                 0.911083955     -90.6843067
9.221                0.910892813     -90.8510905
9.222                 0.91070117     -91.0183648
9.223                0.910509025      -91.186131
9.224                0.910316379     -91.3543904
9.225                0.910123232     -91.5231446
9.226                0.909929583     -91.6923949
9.227                0.909735431      -91.862143
9.228                0.909540778     -92.0323901
9.229                0.909345621     -92.2031377
9.23                 0.909149962     -92.3743874
9.231                0.908953801     -92.5461404
9.232                0.908757136     -92.7183984
9.233                0.908559969     -92.8911626
9.234                0.908362299     -93.0644347
9.235                0.908164126     -93.2382159
9.236                0.907965451     -93.4125078
9.237                0.907766272     -93.5873118
9.238                0.907566592     -93.7626294
9.239                0.907366408     -93.9384619
9.24                 0.907165723     -94.1148109
9.241                0.906964536     -94.2916777
9.242                0.906762847     -94.4690638
9.243                0.906560656     -94.6469706
9.244                0.906357964     -94.8253996
9.245                0.906154772     -95.0043523
9.246                0.905951079     -95.1838299
9.247                0.905746887      -95.363834
9.248                0.905542195      -95.544366
9.249                0.905337004     -95.7254273
9.25                 0.905131315     -95.9070194
9.251                0.904925128     -96.0891436
9.252                0.904718444     -96.2718014
9.253                0.904511264     -96.4549942
9.254                0.904303588     -96.6387234
9.255                0.904095417     -96.8229904
9.256                0.903886751     -97.0077967
9.257                0.903677593     -97.1931436
9.258                0.903467942     -97.3790326
9.259                0.903257799      -97.565465
9.26                 0.903047166     -97.7524422
9.261                0.902836043     -97.9399657
9.262                0.902624432     -98.1280368
9.263                0.902412334     -98.3166569
9.264                0.902199749     -98.5058275
9.265                0.901986679     -98.6955498
9.266                0.901773125     -98.8858252
9.267                0.901559089     -99.0766552
9.268                0.901344572     -99.2680411
9.269                0.901129575     -99.4599843
9.27                 0.900914099      -99.652486
9.271                0.900698147     -99.8455478
9.272                0.900481719     -100.039171
9.273                0.900264817     -100.233357
9.274                0.900047444     -100.428106
9.275                0.899829599     -100.623421
9.276                0.899611286     -100.819303
9.277                0.899392507     -101.015753
9.278                0.899173262     -101.212772
9.279                0.898953553     -101.410362
9.28                 0.898733384     -101.608524
9.281                0.898512755     -101.807259
9.282                0.898291669     -102.006568
9.283                0.898070128     -102.206453
9.284                0.897848134     -102.406916
9.285                0.897625689     -102.607957
9.286                0.897402796     -102.809577
9.287                0.897179457     -103.011779
9.288                0.896955674     -103.214563
9.289                0.896731449      -103.41793
9.29                 0.896506786     -103.621881
9.291                0.896281687     -103.826419
9.292                0.896056155     -104.031544
9.293                0.895830191     -104.237257
9.294                  0.8956038      -104.44356
9.295                0.895376983     -104.650454
9.296                0.895149745     -104.857939
9.297                0.894922086     -105.066018
9.298                0.894694012     -105.274691
9.299                0.894465524      -105.48396
9.3                  0.894236625     -105.693825
9.301                 0.89400732     -105.904289
9.302                0.893777612     -106.115351
9.303                0.893547503     -106.327013
9.304                0.893316997     -106.539277
9.305                0.893086097     -106.752143
9.306                0.892854808     -106.965612
9.307                0.892623132     -107.179686
9.308                0.892391074     -107.394365
9.309                0.892158637     -107.609651
9.31                 0.891925825     -107.825545
9.311                0.891692642     -108.042048
9.312                0.891459091     -108.259161
9.313                0.891225178     -108.476884
9.314                0.890990905      -108.69522
9.315                0.890756278     -108.914168
9.316                  0.8905213     -109.133731
9.317                0.890285976     -109.353908
9.318                 0.89005031     -109.574701
9.319                0.889814307     -109.796111
9.32                  0.88957797     -110.018138
9.321                0.889341306     -110.240784
9.322                0.889104318      -110.46405
9.323                0.888867011     -110.687936
9.324                0.888629391     -110.912444
9.325                0.888391462     -111.137574
9.326                0.888153229     -111.363327
9.327                0.887914697     -111.589704
9.328                0.887675871     -111.816706
9.329                0.887436757     -112.044334
9.33                  0.88719736     -112.272588
9.331                0.886957686     -112.501469
9.332                0.886717739     -112.730978
9.333                0.886477526     -112.961116
9.334                0.886237052     -113.191884
9.335                0.885996323     -113.423281
9.336                0.885755345      -113.65531
9.337                0.885514123      -113.88797
9.338                0.885272664     -114.121262
9.339                0.885030974     -114.355188
9.34                 0.884789058     -114.589747
9.341                0.884546924      -114.82494
9.342                0.884304577     -115.060768
9.343                0.884062024     -115.297231
9.344                0.883819271     -115.534331
9.345                0.883576325     -115.772067
9.346                0.883333193      -116.01044
9.347                0.883089882      -116.24945
9.348                0.882846397     -116.489099
9.349                0.882602747     -116.729386
9.35                 0.882358938     -116.970313
9.351                0.882114977     -117.211878
9.352                0.881870871     -117.454084
9.353                0.881626629      -117.69693
9.354                0.881382256     -117.940416
9.355                0.881137762     -118.184543
9.356                0.880893152     -118.429312
9.357                0.880648435     -118.674722
9.358                0.880403619     -118.920774
9.359                0.880158711     -119.167469
9.36                  0.87991372     -119.414806
9.361                0.879668653     -119.662785
9.362                0.879423518     -119.911407
9.363                0.879178323     -120.160673
9.364                0.878933078     -120.410581
9.365                 0.87868779     -120.661133
9.366                0.878442467     -120.912328
9.367                0.878197118     -121.164167
9.368                0.877951753     -121.416649
9.369                0.877706379     -121.669775
9.37                 0.877461005     -121.923544
9.371                 0.87721564     -122.177957
9.372                0.876970294     -122.433014
9.373                0.876724975     -122.688714
9.374                0.876479692     -122.945057
9.375                0.876234455     -123.202044
9.376                0.875989273     -123.459673
9.377                0.875744156     -123.717946
9.378                0.875499113     -123.976862
9.379                0.875254153      -124.23642
9.38                 0.875009287      -124.49662
9.381                0.874764524     -124.757462
9.382                0.874519874     -125.018946
9.383                0.874275347     -125.281071
9.384                0.874030954     -125.543837
9.385                0.873786703     -125.807244
9.386                0.873542606     -126.071291
9.387                0.873298673     -126.335978
9.388                0.873054914     -126.601304
9.389                 0.87281134     -126.867268
9.39                 0.872567961     -127.133871
9.391                0.872324788     -127.401112
9.392                0.872081831     -127.668989
9.393                0.871839103     -127.937503
9.394                0.871596613     -128.206653
9.395                0.871354372     -128.476437
9.396                0.871112392     -128.746856
