! TOUCHSTONE file generated by CST DESIGN STUDIO
! Date and time: Tue Feb  4 13:48:52 2025
! Project name: C:\Work\MatlabApps\UnitCellOptimizationMatlab\CST\unitcell.cst
! Tree item: Tasks\Sweep1\SPara1\S-Parameters
! Header version: 2024
! Port assignment regex: !\s*Touchstone port\s*([0-9]+)\s*=\s*(CST MWS port|CST DES external port|CST DES block port)\s*(.+)\s* \(\"(.*)\"\)(\s*mode\s*([0-9]+))?.*
! Touchstone port assignment:
! Touchstone port 1 = CST DES external port 1 ("")
# GHz S MA R 50
9                    0.980632008     -68.0584035
9.001                0.980589273      -68.155962
9.002                 0.98054641     -68.2537533
9.003                0.980503417      -68.351778
9.004                0.980460296     -68.4500369
9.005                0.980417044     -68.5485307
9.006                0.980373663     -68.6472601
9.007                0.980330152     -68.7462258
9.008                 0.98028651     -68.8454285
9.009                0.980242737      -68.944869
9.01                 0.980198833     -69.0445481
9.011                0.980154796     -69.1444663
9.012                0.980110628     -69.2446246
9.013                0.980066327     -69.3450236
9.014                0.980021894      -69.445664
9.015                0.979977327     -69.5465466
9.016                0.979932627     -69.6476722
9.017                0.979887792     -69.7490415
9.018                0.979842824     -69.8506552
9.019                 0.97979772     -69.9525141
9.02                 0.979752482      -70.054619
9.021                0.979707108     -70.1569705
9.022                0.979661599     -70.2595695
9.023                0.979615953     -70.3624167
9.024                 0.97957017     -70.4655129
9.025                0.979524251     -70.5688589
9.026                0.979478195     -70.6724553
9.027                0.979432001     -70.7763031
9.028                0.979385669     -70.8804028
9.029                0.979339198     -70.9847554
9.03                 0.979292589     -71.0893616
9.031                0.979245841     -71.1942222
9.032                0.979198953     -71.2993379
9.033                0.979151926     -71.4047096
9.034                0.979104758      -71.510338
9.035                 0.97905745     -71.6162239
9.036                0.979010001     -71.7223681
9.037                0.978962411     -71.8287713
9.038                0.978914679     -71.9354345
9.039                0.978866805     -72.0423583
9.04                 0.978818788     -72.1495436
9.041                0.978770629     -72.2569912
9.042                0.978722327     -72.3647018
9.043                0.978673881     -72.4726763
9.044                0.978625292     -72.5809155
9.045                0.978576558     -72.6894202
9.046                 0.97852768     -72.7981912
9.047                0.978478657     -72.9072294
9.048                0.978429489     -73.0165354
9.049                0.978380175     -73.1261102
9.05                 0.978330715     -73.2359545
9.051                0.978281109     -73.3460693
9.052                0.978231356     -73.4564553
9.053                0.978181456     -73.5671132
9.054                0.978131408     -73.6780441
9.055                0.978081213     -73.7892487
9.056                 0.97803087     -73.9007278
9.057                0.977980379     -74.0124822
9.058                0.977929738     -74.1245129
9.059                0.977878949     -74.2368206
9.06                  0.97782801     -74.3494062
9.061                0.977776921     -74.4622705
9.062                0.977725682     -74.5754144
9.063                0.977674292     -74.6888387
9.064                0.977622752     -74.8025442
9.065                 0.97757106     -74.9165319
9.066                0.977519217     -75.0308026
9.067                0.977467222     -75.1453571
9.068                0.977415075     -75.2601963
9.069                0.977362775      -75.375321
9.07                 0.977310322     -75.4907322
9.071                0.977257715     -75.6064306
9.072                0.977204956     -75.7224172
9.073                0.977152042     -75.8386928
9.074                0.977098974     -75.9552583
9.075                0.977045752     -76.0721145
9.076                0.976992374     -76.1892624
9.077                0.976938841     -76.3067028
9.078                0.976885153     -76.4244366
9.079                0.976831309     -76.5424646
9.08                 0.976777308     -76.6607879
9.081                0.976723151     -76.7794071
9.082                0.976668838     -76.8983233
9.083                0.976614367     -77.0175373
9.084                0.976559738     -77.1370501
9.085                0.976504952     -77.2568624
9.086                0.976450007     -77.3769753
9.087                0.976394904     -77.4973895
9.088                0.976339642     -77.6181061
9.089                0.976284222     -77.7391258
9.09                 0.976228641     -77.8604497
9.091                0.976172902     -77.9820786
9.092                0.976117002     -78.1040134
9.093                0.976060942      -78.226255
9.094                0.976004721     -78.3488044
9.095                 0.97594834     -78.4716624
9.096                0.975891797       -78.59483
9.097                0.975835093     -78.7183081
9.098                0.975778227     -78.8420977
9.099                0.975721199     -78.9661995
9.1                  0.975664009     -79.0906146
9.101                0.975606656     -79.2153439
9.102                0.975549141     -79.3403883
9.103                0.975491462     -79.4657488
9.104                 0.97543362     -79.5914262
9.105                0.975375614     -79.7174215
9.106                0.975317444     -79.8437357
9.107                 0.97525911     -79.9703696
9.108                0.975200612     -80.0973243
9.109                0.975141948     -80.2246006
9.11                  0.97508312     -80.3521995
9.111                0.975024127     -80.4801219
9.112                0.974964968     -80.6083688
9.113                0.974905643     -80.7369411
9.114                0.974846152     -80.8658399
9.115                0.974786495     -80.9950659
9.116                0.974726672     -81.1246202
9.117                0.974666682     -81.2545038
9.118                0.974606525     -81.3847176
9.119                0.974546201     -81.5152625
9.12                 0.974485709     -81.6461395
9.121                 0.97442505     -81.7773495
9.122                0.974364223     -81.9088936
9.123                0.974303228     -82.0407727
9.124                0.974242065     -82.1729878
9.125                0.974180733     -82.3055398
9.126                0.974119232     -82.4384296
9.127                0.974057563     -82.5716583
9.128                0.973995725     -82.7052269
9.129                0.973933717     -82.8391362
9.13                  0.97387154     -82.9733874
9.131                0.973809194     -83.1079812
9.132                0.973746677     -83.2429188
9.133                0.973683991     -83.3782012
9.134                0.973621135     -83.5138292
9.135                0.973558108     -83.6498038
9.136                0.973494911     -83.7861261
9.137                0.973431543     -83.9227971
9.138                0.973368004     -84.0598176
9.139                0.973304295     -84.1971888
9.14                 0.973240414     -84.3349115
9.141                0.973176363     -84.4729868
9.142                 0.97311214     -84.6114157
9.143                0.973047745     -84.7501992
9.144                0.972983179     -84.8893381
9.145                0.972918441     -85.0288337
9.146                0.972853532     -85.1686867
9.147                 0.97278845     -85.3088983
9.148                0.972723197     -85.4494694
9.149                0.972657771      -85.590401
9.15                 0.972592174     -85.7316941
9.151                0.972526403     -85.8733498
9.152                0.972460461      -86.015369
9.153                0.972394346     -86.1577526
9.154                0.972328059     -86.3005018
9.155                0.972261599     -86.4436175
9.156                0.972194966     -86.5871008
9.157                0.972128161     -86.7309525
9.158                0.972061183     -86.8751738
9.159                0.971994032     -87.0197656
9.16                 0.971926709     -87.1647289
9.161                0.971859212     -87.3100648
9.162                0.971791543     -87.4557743
9.163                0.971723701     -87.6018582
9.164                0.971655686     -87.7483178
9.165                0.971587499     -87.8951539
9.166                0.971519138     -88.0423676
9.167                0.971450605     -88.1899599
9.168                0.971381898     -88.3379318
9.169                0.971313019     -88.4862843
9.17                 0.971243967     -88.6350184
9.171                0.971174743     -88.7841352
9.172                0.971105346     -88.9336356
9.173                0.971035776     -89.0835206
9.174                0.970966033     -89.2337913
9.175                0.970896119     -89.3844487
9.176                0.970826031     -89.5354937
9.177                0.970755772     -89.6869275
9.178                 0.97068534     -89.8387509
9.179                0.970614736     -89.9909651
9.18                  0.97054396      -90.143571
9.181                0.970473013     -90.2965696
9.182                0.970401893      -90.449962
9.183                0.970330602     -90.6037491
9.184                0.970259139      -90.757932
9.185                0.970187505     -90.9125117
9.186                  0.9701157     -91.0674892
9.187                0.970043724     -91.2228654
9.188                0.969971577     -91.3786415
9.189                 0.96989926     -91.5348184
9.19                 0.969826772     -91.6913971
9.191                0.969754114     -91.8483786
9.192                0.969681285     -92.0057639
9.193                0.969608287     -92.1635541
9.194                 0.96953512     -92.3217502
9.195                0.969461783      -92.480353
9.196                0.969388277     -92.6393638
9.197                0.969314602     -92.7987834
9.198                0.969240759     -92.9586128
9.199                0.969166747     -93.1188531
9.2                  0.969092568     -93.2795052
9.201                0.969018221     -93.4405702
9.202                0.968943706     -93.6020491
9.203                0.968869025     -93.7639428
9.204                0.968794176     -93.9262523
9.205                0.968719162     -94.0889787
9.206                0.968643981     -94.2521228
9.207                0.968568635     -94.4156858
9.208                0.968493124     -94.5796686
9.209                0.968417447     -94.7440722
9.21                 0.968341607     -94.9088976
9.211                0.968265602     -95.0741457
9.212                0.968189433     -95.2398176
9.213                0.968113102     -95.4059142
9.214                0.968036607     -95.5724364
9.215                0.967959951     -95.7393854
9.216                0.967883132      -95.906762
9.217                0.967806152     -96.0745673
9.218                0.967729011     -96.2428021
9.219                 0.96765171     -96.4114675
9.22                 0.967574249     -96.5805644
9.221                0.967496629     -96.7500938
9.222                 0.96741885     -96.9200567
9.223                0.967340913     -97.0904539
9.224                0.967262818     -97.2612866
9.225                0.967184566     -97.4325555
9.226                0.967106158     -97.6042618
9.227                0.967027593     -97.7764062
9.228                0.966948874     -97.9489898
9.229                    0.96687     -98.1220136
9.23                 0.966790971     -98.2954783
9.231                 0.96671179     -98.4693851
9.232                0.966632456     -98.6437347
9.233                 0.96655297     -98.8185282
9.234                0.966473332     -98.9937665
9.235                0.966393545     -99.1694505
9.236                0.966313607     -99.3455811
9.237                 0.96623352     -99.5221592
9.238                0.966153285     -99.6991858
9.239                0.966072903     -99.8766617
9.24                 0.965992373     -100.054588
9.241                0.965911698     -100.232965
9.242                0.965830878     -100.411795
9.243                0.965749913     -100.591077
9.244                0.965668805     -100.770813
9.245                0.965587555     -100.951004
9.246                0.965506162      -101.13165
9.247                0.965424629     -101.312753
9.248                0.965342956     -101.494314
9.249                0.965261144     -101.676332
9.25                 0.965179194      -101.85881
9.251                0.965097108     -102.041748
9.252                0.965014884     -102.225146
9.253                0.964932526     -102.409006
9.254                0.964850034     -102.593329
9.255                0.964767409     -102.778114
9.256                0.964684652     -102.963364
9.257                0.964601763     -103.149079
9.258                0.964518745      -103.33526
9.259                0.964435598     -103.521908
9.26                 0.964352324     -103.709023
9.261                0.964268923     -103.896606
9.262                0.964185396     -104.084658
9.263                0.964101746      -104.27318
9.264                0.964017972     -104.462173
9.265                0.963934076     -104.651637
9.266                 0.96385006     -104.841573
9.267                0.963765925     -105.031982
9.268                0.963681671     -105.222865
9.269                  0.9635973     -105.414222
9.27                 0.963512814     -105.606055
9.271                0.963428213     -105.798364
9.272                  0.9633435     -105.991149
9.273                0.963258675     -106.184412
9.274                 0.96317374     -106.378153
9.275                0.963088696     -106.572373
9.276                0.963003544     -106.767072
9.277                0.962918286     -106.962252
9.278                0.962832924     -107.157912
9.279                0.962747459     -107.354055
9.28                 0.962661892     -107.550679
9.281                0.962576225     -107.747787
9.282                0.962490459     -107.945379
9.283                0.962404597     -108.143454
9.284                0.962318638     -108.342015
9.285                0.962232586     -108.541061
9.286                0.962146442     -108.740594
9.287                0.962060207     -108.940614
9.288                0.961973882     -109.141121
9.289                0.961887471     -109.342116
9.29                 0.961800974       -109.5436
9.291                0.961714392     -109.745573
9.292                0.961627729     -109.948036
9.293                0.961540985     -110.150989
9.294                0.961454162     -110.354433
9.295                0.961367262     -110.558369
9.296                0.961280287     -110.762797
9.297                0.961193239     -110.967718
9.298                0.961106119     -111.173132
9.299                0.961018929     -111.379039
9.3                  0.960931672     -111.585441
9.301                0.960844349     -111.792337
9.302                0.960756963     -111.999728
9.303                0.960669514     -112.207615
9.304                0.960582006     -112.415998
9.305                0.960494439     -112.624878
9.306                0.960406817     -112.834254
9.307                0.960319141     -113.044128
9.308                0.960231414       -113.2545
9.309                0.960143636     -113.465369
9.31                 0.960055812     -113.676738
9.311                0.959967941     -113.888605
9.312                0.959880028     -114.100972
9.313                0.959792074     -114.313838
9.314                0.959704081     -114.527204
9.315                0.959616051     -114.741071
9.316                0.959527987     -114.955439
9.317                0.959439891     -115.170307
9.318                0.959351765     -115.385677
9.319                0.959263612     -115.601548
9.32                 0.959175433     -115.817922
9.321                0.959087232     -116.034797
9.322                0.958999011     -116.252175
9.323                0.958910772     -116.470055
9.324                0.958822517     -116.688439
9.325                 0.95873425     -116.907325
9.326                0.958645972     -117.126715
9.327                0.958557686     -117.346608
9.328                0.958469394     -117.567004
9.329                  0.9583811     -117.787904
9.33                 0.958292805     -118.009309
9.331                0.958204513     -118.231217
9.332                0.958116225     -118.453629
9.333                0.958027945     -118.676546
9.334                0.957939675     -118.899967
9.335                0.957851419     -119.123892
9.336                0.957763177     -119.348321
9.337                0.957674955     -119.573256
9.338                0.957586753     -119.798694
9.339                0.957498575     -120.024637
9.34                 0.957410425     -120.251085
9.341                0.957322303     -120.478037
9.342                0.957234215     -120.705493
9.343                0.957146161     -120.933454
9.344                0.957058146     -121.161919
9.345                0.956970172     -121.390888
9.346                0.956882242     -121.620362
9.347                0.956794359     -121.850339
9.348                0.956706526      -122.08082
9.349                0.956618747     -122.311805
9.35                 0.956531023     -122.543293
9.351                0.956443359     -122.775285
9.352                0.956355757      -123.00778
9.353                0.956268221     -123.240778
9.354                0.956180753     -123.474278
9.355                0.956093357     -123.708281
9.356                0.956006035     -123.942786
9.357                0.955918792     -124.177793
9.358                 0.95583163     -124.413301
9.359                0.955744553     -124.649311
9.36                 0.955657563     -124.885821
9.361                0.955570665     -125.122832
9.362                0.955483861     -125.360343
9.363                0.955397155     -125.598354
9.364                 0.95531055     -125.836864
9.365                 0.95522405     -126.075873
9.366                0.955137657      -126.31538
9.367                0.955051376     -126.555385
9.368                0.954965209     -126.795888
9.369                0.954879161     -127.036887
9.37                 0.954793234     -127.278383
9.371                0.954707433     -127.520375
9.372                 0.95462176     -127.762862
9.373                 0.95453622     -128.005844
9.374                0.954450815     -128.249319
9.375                 0.95436555     -128.493288
9.376                0.954280428      -128.73775
9.377                0.954195452     -128.982704
9.378                0.954110627     -129.228149
9.379                0.954025955     -129.474085
9.38                 0.953941442     -129.720511
9.381                0.953857089     -129.967426
9.382                0.953772902      -130.21483
9.383                0.953688883     -130.462721
9.384                0.953605037     -130.711099
9.385                0.953521367     -130.959962
9.386                0.953437877     -131.209311
9.387                0.953354571     -131.459144
9.388                0.953271453      -131.70946
9.389                0.953188526     -131.960259
9.39                 0.953105795     -132.211539
9.391                0.953023263     -132.463299
9.392                0.952940934     -132.715539
9.393                0.952858812     -132.968258
9.394                0.952776901     -133.221453
9.395                0.952695205     -133.475125
9.396                0.952613727     -133.729272
