! TOUCHSTONE file generated by CST DESIGN STUDIO
! Date and time: Tue Feb  4 13:48:49 2025
! Project name: C:\Work\MatlabApps\UnitCellOptimizationMatlab\CST\unitcell.cst
! Tree item: Tasks\Sweep1\SPara1\S-Parameters
! Header version: 2024
! Port assignment regex: !\s*Touchstone port\s*([0-9]+)\s*=\s*(CST MWS port|CST DES external port|CST DES block port)\s*(.+)\s* \(\"(.*)\"\)(\s*mode\s*([0-9]+))?.*
! Touchstone port assignment:
! Touchstone port 1 = CST DES external port 1 ("")
# GHz S MA R 50
9                    0.980234133     -71.7327273
9.001                0.980188366     -71.8382995
9.002                0.980142461     -71.9441278
9.003                0.980096416     -72.0502131
9.004                0.980050231      -72.156556
9.005                0.980003906     -72.2631575
9.006                0.979957441     -72.3700182
9.007                0.979910835     -72.4771389
9.008                0.979864087     -72.5845205
9.009                0.979817198     -72.6921637
9.01                 0.979770167     -72.8000694
9.011                0.979722993     -72.9082383
9.012                0.979675677     -73.0166712
9.013                0.979628218      -73.125369
9.014                0.979580615     -73.2343324
9.015                0.979532869     -73.3435622
9.016                0.979484979     -73.4530593
9.017                0.979436944     -73.5628244
9.018                0.979388764     -73.6728585
9.019                 0.97934044     -73.7831622
9.02                  0.97929197     -73.8937363
9.021                0.979243354     -74.0045819
9.022                0.979194591     -74.1156995
9.023                0.979145683     -74.2270901
9.024                0.979096627     -74.3387545
9.025                0.979047425     -74.4506935
9.026                0.978998074      -74.562908
9.027                0.978948576     -74.6753987
9.028                 0.97889893     -74.7881666
9.029                0.978849135     -74.9012124
9.03                 0.978799191     -75.0145369
9.031                0.978749098     -75.1281411
9.032                0.978698856     -75.2420258
9.033                0.978648463     -75.3561917
9.034                 0.97859792     -75.4706398
9.035                0.978547227     -75.5853709
9.036                0.978496383     -75.7003859
9.037                0.978445387     -75.8156855
9.038                 0.97839424     -75.9312708
9.039                0.978342941     -76.0471424
9.04                  0.97829149     -76.1633013
9.041                0.978239886     -76.2797483
9.042                0.978188129     -76.3964844
9.043                0.978136219     -76.5135102
9.044                0.978084156     -76.6308268
9.045                0.978031938     -76.7484351
9.046                0.977979567     -76.8663357
9.047                 0.97792704     -76.9845297
9.048                 0.97787436      -77.103018
9.049                0.977821524     -77.2218013
9.05                 0.977768532     -77.3408805
9.051                0.977715385     -77.4602567
9.052                0.977662081     -77.5799305
9.053                0.977608622      -77.699903
9.054                0.977555005     -77.8201749
9.055                0.977501232     -77.9407473
9.056                0.977447301     -78.0616209
9.057                0.977393213     -78.1827967
9.058                0.977338966     -78.3042756
9.059                0.977284562     -78.4260585
9.06                 0.977229999     -78.5481461
9.061                0.977175277     -78.6705396
9.062                0.977120396     -78.7932397
9.063                0.977065356     -78.9162474
9.064                0.977010156     -79.0395636
9.065                0.976954796     -79.1631891
9.066                0.976899276     -79.2871249
9.067                0.976843595     -79.4113719
9.068                0.976787754     -79.5359311
9.069                0.976731751     -79.6608032
9.07                 0.976675588     -79.7859893
9.071                0.976619262     -79.9114903
9.072                0.976562775      -80.037307
9.073                0.976506125     -80.1634405
9.074                0.976449313     -80.2898916
9.075                0.976392339     -80.4166612
9.076                0.976335201     -80.5437503
9.077                  0.9762779     -80.6711598
9.078                0.976220436     -80.7988906
9.079                0.976162808     -80.9269438
9.08                 0.976105016     -81.0553201
9.081                 0.97604706     -81.1840205
9.082                 0.97598894     -81.3130461
9.083                0.975930654     -81.4423976
9.084                0.975872204     -81.5720761
9.085                0.975813589     -81.7020825
9.086                0.975754808     -81.8324178
9.087                0.975695862     -81.9630828
9.088                 0.97563675     -82.0940785
9.089                0.975577472      -82.225406
9.09                 0.975518028      -82.357066
9.091                0.975458417     -82.4890597
9.092                0.975398639     -82.6213878
9.093                0.975338695     -82.7540515
9.094                0.975278584     -82.8870516
9.095                0.975218305     -83.0203891
9.096                0.975157859     -83.1540649
9.097                0.975097245     -83.2880801
9.098                0.975036463     -83.4224355
9.099                0.974975513     -83.5571322
9.1                  0.974914395      -83.692171
9.101                0.974853109     -83.8275531
9.102                0.974791654     -83.9632792
9.103                 0.97473003     -84.0993505
9.104                0.974668238     -84.2357678
9.105                0.974606276     -84.3725322
9.106                0.974544145     -84.5096445
9.107                0.974481845     -84.6471059
9.108                0.974419376     -84.7849172
9.109                0.974356737     -84.9230794
9.11                 0.974293928     -85.0615935
9.111                0.974230949     -85.2004605
9.112                  0.9741678     -85.3396814
9.113                0.974104481      -85.479257
9.114                0.974040992     -85.6191885
9.115                0.973977332     -85.7594768
9.116                0.973913502     -85.9001229
9.117                0.973849501     -86.0411277
9.118                 0.97378533     -86.1824922
9.119                0.973720988     -86.3242175
9.12                 0.973656475     -86.4663044
9.121                0.973591791     -86.6087541
9.122                0.973526936     -86.7515674
9.123                0.973461911     -86.8947454
9.124                0.973396714      -87.038289
9.125                0.973331346     -87.1821993
9.126                0.973265806     -87.3264772
9.127                0.973200096     -87.4711237
9.128                0.973134214     -87.6161398
9.129                0.973068161     -87.7615265
9.13                 0.973001936     -87.9072848
9.131                 0.97293554     -88.0534157
9.132                0.972868973     -88.1999201
9.133                0.972802234     -88.3467991
9.134                0.972735324     -88.4940536
9.135                0.972668243     -88.6416847
9.136                 0.97260099     -88.7896933
9.137                0.972533565     -88.9380805
9.138                 0.97246597     -89.0868472
9.139                0.972398203     -89.2359944
9.14                 0.972330265     -89.3855231
9.141                0.972262156     -89.5354343
9.142                0.972193875      -89.685729
9.143                0.972125424     -89.8364082
9.144                0.972056801     -89.9874729
9.145                0.971988008      -90.138924
9.146                0.971919043     -90.2907627
9.147                0.971849908     -90.4429898
9.148                0.971780602     -90.5956063
9.149                0.971711126     -90.7486134
9.15                 0.971641479     -90.9020118
9.151                0.971571662     -91.0558027
9.152                0.971501675     -91.2099871
9.153                0.971431517     -91.3645658
9.154                 0.97136119       -91.51954
9.155                0.971290693     -91.6749105
9.156                0.971220026     -91.8306785
9.157                 0.97114919     -91.9868449
9.158                0.971078185     -92.1434106
9.159                0.971007011     -92.3003767
9.16                 0.970935668     -92.4577441
9.161                0.970864156     -92.6155139
9.162                0.970792476     -92.7736869
9.163                0.970720628     -92.9322643
9.164                0.970648612      -93.091247
9.165                0.970576428      -93.250636
9.166                0.970504077     -93.4104322
9.167                0.970431558     -93.5706367
9.168                0.970358873     -93.7312503
9.169                0.970286021     -93.8922742
9.17                 0.970213003     -94.0537092
9.171                0.970139818     -94.2155564
9.172                0.970066468     -94.3778167
9.173                0.969992953     -94.5404911
9.174                0.969919272     -94.7035806
9.175                0.969845427     -94.8670861
9.176                0.969771418     -95.0310086
9.177                0.969697245     -95.1953491
9.178                0.969622908     -95.3601086
9.179                0.969548407     -95.5252879
9.18                 0.969473744     -95.6908881
9.181                0.969398919     -95.8569101
9.182                0.969323932     -96.0233549
9.183                0.969248783     -96.1902235
9.184                0.969173473     -96.3575167
9.185                0.969098002     -96.5252356
9.186                0.969022371     -96.6933811
9.187                0.968946581     -96.8619541
9.188                0.968870631     -97.0309556
9.189                0.968794523     -97.2003865
9.19                 0.968718257     -97.3702478
9.191                0.968641832     -97.5405404
9.192                0.968565251     -97.7112652
9.193                0.968488514     -97.8824232
9.194                 0.96841162     -98.0540153
9.195                0.968334571     -98.2260424
9.196                0.968257367     -98.3985055
9.197                0.968180008     -98.5714054
9.198                0.968102497     -98.7447432
9.199                0.968024832     -98.9185196
9.2                  0.967947015     -99.0927356
9.201                0.967869046     -99.2673922
9.202                0.967790927     -99.4424902
9.203                0.967712657     -99.6180305
9.204                0.967634237      -99.794014
9.205                0.967555669     -99.9704416
9.206                0.967476952     -100.147314
9.207                0.967398088     -100.324633
9.208                0.967319077     -100.502398
9.209                0.967239921     -100.680611
9.21                 0.967160619     -100.859273
9.211                0.967081173     -101.038383
9.212                0.967001583     -101.217945
9.213                0.966921851     -101.397957
9.214                0.966841977     -101.578421
9.215                0.966761962     -101.759338
9.216                0.966681807     -101.940709
9.217                0.966601512     -102.122534
9.218                 0.96652108     -102.304815
9.219                 0.96644051     -102.487552
9.22                 0.966359803     -102.670746
9.221                0.966278961     -102.854398
9.222                0.966197985     -103.038508
9.223                0.966116875     -103.223078
9.224                0.966035632     -103.408108
9.225                0.965954258       -103.5936
9.226                0.965872754     -103.779553
9.227                 0.96579112     -103.965969
9.228                0.965709357     -104.152848
9.229                0.965627467     -104.340192
9.23                 0.965545451     -104.528001
9.231                 0.96546331     -104.716275
9.232                0.965381046     -104.905016
9.233                0.965298658     -105.094225
9.234                0.965216148     -105.283902
9.235                0.965133519     -105.474047
9.236                 0.96505077     -105.664662
9.237                0.964967903     -105.855747
9.238                0.964884919     -106.047304
9.239                0.964801819     -106.239332
9.24                 0.964718606     -106.431832
9.241                0.964635279     -106.624806
9.242                0.964551841     -106.818254
9.243                0.964468293     -107.012176
9.244                0.964384636     -107.206573
9.245                0.964300871     -107.401447
9.246                0.964216999     -107.596797
9.247                0.964133024     -107.792624
9.248                0.964048944     -107.988929
9.249                0.963964763     -108.185713
9.25                 0.963880481     -108.382976
9.251                0.963796101     -108.580719
9.252                0.963711623     -108.778942
9.253                0.963627049     -108.977646
9.254                 0.96354238     -109.176832
9.255                0.963457619       -109.3765
9.256                0.963372766     -109.576651
9.257                0.963287824     -109.777286
9.258                0.963202794     -109.978404
9.259                0.963117677     -110.180007
9.26                 0.963032476     -110.382096
9.261                0.962947191     -110.584669
9.262                0.962861826      -110.78773
9.263                 0.96277638     -110.991276
9.264                0.962690857      -111.19531
9.265                0.962605258     -111.399832
9.266                0.962519584     -111.604842
9.267                0.962433838     -111.810341
9.268                0.962348021     -112.016329
9.269                0.962262135     -112.222807
9.27                 0.962176182     -112.429775
9.271                0.962090164     -112.637233
9.272                0.962004083     -112.845183
9.273                0.961917941     -113.053624
9.274                0.961831739     -113.262557
9.275                 0.96174548     -113.471982
9.276                0.961659166       -113.6819
9.277                0.961572798      -113.89231
9.278                0.961486379     -114.103215
9.279                0.961399911     -114.314613
9.28                 0.961313396     -114.526505
9.281                0.961226836     -114.738891
9.282                0.961140233     -114.951773
9.283                0.961053589     -115.165149
9.284                0.960966907     -115.379021
9.285                0.960880188     -115.593389
9.286                0.960793435     -115.808252
9.287                0.960706651     -116.023612
9.288                0.960619836     -116.239468
9.289                0.960532995     -116.455821
9.29                 0.960446128      -116.67267
9.291                0.960359238     -116.890017
9.292                0.960272328     -117.107862
9.293                0.960185401     -117.326204
9.294                0.960098457     -117.545043
9.295                0.960011501      -117.76438
9.296                0.959924533     -117.984216
9.297                0.959837558     -118.204549
9.298                0.959750576     -118.425381
9.299                0.959663591     -118.646711
9.3                  0.959576606      -118.86854
9.301                0.959489622     -119.090867
9.302                0.959402643     -119.313692
9.303                0.959315671     -119.537017
9.304                0.959228708      -119.76084
9.305                0.959141757     -119.985161
9.306                0.959054822     -120.209982
9.307                0.958967904     -120.435301
9.308                0.958881006     -120.661118
9.309                0.958794131     -120.887435
9.31                 0.958707283     -121.114249
9.311                0.958620462     -121.341562
9.312                0.958533674     -121.569374
9.313                0.958446919     -121.797684
9.314                0.958360201     -122.026492
9.315                0.958273524     -122.255798
9.316                0.958186889     -122.485602
9.317                  0.9581003     -122.715903
9.318                0.958013759     -122.946702
9.319                 0.95792727     -123.177998
9.32                 0.957840836     -123.409791
9.321                0.957754459     -123.642082
9.322                0.957668143     -123.874868
9.323                0.957581891     -124.108151
9.324                0.957495705      -124.34193
9.325                0.957409589     -124.576205
9.326                0.957323546     -124.810975
9.327                0.957237579      -125.04624
9.328                0.957151692     -125.281999
9.329                0.957065886     -125.518253
9.33                 0.956980167     -125.755001
9.331                0.956894536     -125.992242
9.332                0.956808997     -126.229976
9.333                0.956723553     -126.468203
9.334                0.956638208     -126.706922
9.335                0.956552965     -126.946133
9.336                0.956467827     -127.185834
9.337                0.956382798     -127.426026
9.338                 0.95629788     -127.666708
9.339                0.956213078      -127.90788
9.34                 0.956128394     -128.149541
9.341                0.956043833     -128.391689
9.342                0.955959397     -128.634326
9.343                 0.95587509     -128.877449
9.344                0.955790915     -129.121059
9.345                0.955706877     -129.365154
9.346                0.955622978     -129.609734
9.347                0.955539221     -129.854799
9.348                0.955455612     -130.100347
9.349                0.955372152     -130.346377
9.35                 0.955288846      -130.59289
9.351                0.955205698     -130.839883
9.352                 0.95512271     -131.087357
9.353                0.955039887      -131.33531
9.354                0.954957233     -131.583742
9.355                 0.95487475     -131.832651
9.356                0.954792442     -132.082038
9.357                0.954710314       -132.3319
9.358                 0.95462837     -132.582236
9.359                0.954546611     -132.833047
9.36                 0.954465044      -133.08433
9.361                 0.95438367     -133.336086
9.362                0.954302495     -133.588312
9.363                0.954221521     -133.841008
9.364                0.954140753     -134.094172
9.365                0.954060195     -134.347804
9.366                 0.95397985     -134.601903
9.367                0.953899722     -134.856466
9.368                0.953819816     -135.111494
9.369                0.953740134     -135.366984
9.37                 0.953660681     -135.622937
9.371                0.953581461     -135.879349
9.372                0.953502477     -136.136221
9.373                0.953423734     -136.393551
9.374                0.953345236     -136.651337
9.375                0.953266986     -136.909578
9.376                0.953188988     -137.168273
9.377                0.953111247     -137.427421
9.378                0.953033766     -137.687019
9.379                 0.95295655     -137.947068
9.38                 0.952879602     -138.207564
9.381                0.952802926     -138.468507
9.382                0.952726527     -138.729895
9.383                0.952650408     -138.991727
9.384                0.952574574     -139.254002
9.385                0.952499028     -139.516716
9.386                0.952423775      -139.77987
9.387                0.952348819     -140.043461
9.388                0.952274163     -140.307487
9.389                0.952199812     -140.571948
9.39                 0.952125769     -140.836841
9.391                 0.95205204     -141.102165
9.392                0.951978627     -141.367917
9.393                0.951905536     -141.634097
9.394                0.951832769     -141.900702
9.395                0.951760332     -142.167731
9.396                0.951688228     -142.435181
