! TOUCHSTONE file generated by CST DESIGN STUDIO
! Date and time: Tue Feb  4 13:48:41 2025
! Project name: C:\Work\MatlabApps\UnitCellOptimizationMatlab\CST\unitcell.cst
! Tree item: Tasks\Sweep1\SPara1\S-Parameters
! Header version: 2024
! Port assignment regex: !\s*Touchstone port\s*([0-9]+)\s*=\s*(CST MWS port|CST DES external port|CST DES block port)\s*(.+)\s* \(\"(.*)\"\)(\s*mode\s*([0-9]+))?.*
! Touchstone port assignment:
! Touchstone port 1 = CST DES external port 1 ("")
# GHz S MA R 50
9                    0.979398208      -79.997952
9.001                0.979345733     -80.1229438
9.002                0.979293104     -80.2482487
9.003                0.979240321     -80.3738674
9.004                0.979187382      -80.499801
9.005                0.979134289     -80.6260504
9.006                 0.97908104     -80.7526163
9.007                0.979027635     -80.8794999
9.008                0.978974074     -81.0067019
9.009                0.978920357     -81.1342233
9.01                 0.978866484      -81.262065
9.011                0.978812453     -81.3902279
9.012                0.978758266     -81.5187131
9.013                0.978703921     -81.6475212
9.014                0.978649418     -81.7766534
9.015                0.978594758     -81.9061105
9.016                0.978539939     -82.0358935
9.017                0.978484962     -82.1660033
9.018                0.978429826     -82.2964408
9.019                0.978374532     -82.4272069
9.02                 0.978319078     -82.5583026
9.021                0.978263465     -82.6897288
9.022                0.978207692     -82.8214865
9.023                0.978151759     -82.9535766
9.024                0.978095666     -83.0860001
9.025                0.978039413     -83.2187578
9.026                0.977982999     -83.3518507
9.027                0.977926425     -83.4852798
9.028                0.977869689     -83.6190459
9.029                0.977812792     -83.7531502
9.03                 0.977755734     -83.8875934
9.031                0.977698514     -84.0223766
9.032                0.977641132     -84.1575007
9.033                0.977583587     -84.2929666
9.034                0.977525881     -84.4287753
9.035                0.977468012     -84.5649278
9.036                0.977409981      -84.701425
9.037                0.977351786     -84.8382679
9.038                0.977293429     -84.9754574
9.039                0.977234908     -85.1129944
9.04                 0.977176224       -85.25088
9.041                0.977117376     -85.3891151
9.042                0.977058365     -85.5277007
9.043                0.976999189     -85.6666376
9.044                 0.97693985      -85.805927
9.045                0.976880346     -85.9455697
9.046                0.976820678     -86.0855667
9.047                0.976760845      -86.225919
9.048                0.976700848     -86.3666275
9.049                0.976640685     -86.5076932
9.05                 0.976580358     -86.6491171
9.051                0.976519866     -86.7909002
9.052                0.976459208     -86.9330434
9.053                0.976398385     -87.0755476
9.054                0.976337397     -87.2184139
9.055                0.976276243     -87.3616432
9.056                0.976214924     -87.5052366
9.057                0.976153439     -87.6491948
9.058                0.976091787     -87.7935191
9.059                 0.97602997     -87.9382102
9.06                 0.975967987     -88.0832692
9.061                0.975905838     -88.2286971
9.062                0.975843523     -88.3744948
9.063                0.975781041     -88.5206634
9.064                0.975718393     -88.6672037
9.065                0.975655579     -88.8141168
9.066                0.975592599     -88.9614036
9.067                0.975529451     -89.1090651
9.068                0.975466138     -89.2571023
9.069                0.975402658     -89.4055162
9.07                 0.975339011     -89.5543077
9.071                0.975275198     -89.7034778
9.072                0.975211218     -89.8530276
9.073                0.975147072     -90.0029579
9.074                0.975082759     -90.1532697
9.075                 0.97501828     -90.3039641
9.076                0.974953634     -90.4550419
9.077                0.974888822     -90.6065043
9.078                0.974823843     -90.7583521
9.079                0.974758697     -90.9105863
9.08                 0.974693385     -91.0632079
9.081                0.974627907     -91.2162179
9.082                0.974562263     -91.3696172
9.083                0.974496452     -91.5234069
9.084                0.974430475     -91.6775879
9.085                0.974364332     -91.8321611
9.086                0.974298023     -91.9871276
9.087                0.974231548     -92.1424883
9.088                0.974164907     -92.2982442
9.089                0.974098101     -92.4543962
9.09                 0.974031129     -92.6109454
9.091                0.973963991     -92.7678927
9.092                0.973896688      -92.925239
9.093                 0.97382922     -93.0829854
9.094                0.973761587     -93.2411328
9.095                0.973693789     -93.3996821
9.096                0.973625826     -93.5586344
9.097                0.973557699     -93.7179906
9.098                0.973489408     -93.8777516
9.099                0.973420952     -94.0379184
9.1                  0.973352332     -94.1984921
9.101                0.973283549     -94.3594734
9.102                0.973214602     -94.5208635
9.103                0.973145491     -94.6826631
9.104                0.973076218     -94.8448734
9.105                0.973006782     -95.0074953
9.106                0.972937183     -95.1705297
9.107                0.972867422     -95.3339775
9.108                0.972797499     -95.4978397
9.109                0.972727414     -95.6621173
9.11                 0.972657168     -95.8268111
9.111                0.972586761     -95.9919222
9.112                0.972516193     -96.1574515
9.113                0.972445464     -96.3233999
9.114                0.972374575     -96.4897684
9.115                0.972303527     -96.6565578
9.116                0.972232319     -96.8237692
9.117                0.972160952     -96.9914034
9.118                0.972089426     -97.1594614
9.119                0.972017742      -97.327944
9.12                   0.9719459     -97.4968523
9.121                0.971873901     -97.6661872
9.122                0.971801744     -97.8359495
9.123                0.971729431     -98.0061402
9.124                0.971656962     -98.1767602
9.125                0.971584336     -98.3478104
9.126                0.971511556     -98.5192917
9.127                0.971438621      -98.691205
9.128                0.971365531     -98.8635512
9.129                0.971292288     -99.0363312
9.13                 0.971218892      -99.209546
9.131                0.971145343     -99.3831963
9.132                0.971071641     -99.5572831
9.133                0.970997788     -99.7318073
9.134                0.970923784     -99.9067697
9.135                0.970849629     -100.082171
9.136                0.970775325     -100.258013
9.137                0.970700871     -100.434295
9.138                0.970626268     -100.611019
9.139                0.970551517     -100.788186
9.14                 0.970476619     -100.965796
9.141                0.970401575     -101.143851
9.142                0.970326384     -101.322351
9.143                0.970251047     -101.501296
9.144                0.970175566     -101.680689
9.145                0.970099941     -101.860529
9.146                0.970024173     -102.040818
9.147                0.969948262     -102.221556
9.148                 0.96987221     -102.402744
9.149                0.969796016     -102.584384
9.15                 0.969719682     -102.766475
9.151                0.969643209     -102.949018
9.152                0.969566597     -103.132016
9.153                0.969489847     -103.315467
9.154                 0.96941296     -103.499374
9.155                0.969335937     -103.683736
9.156                0.969258779     -103.868555
9.157                0.969181487     -104.053831
9.158                0.969104061     -104.239565
9.159                0.969026503     -104.425759
9.16                 0.968948813     -104.612412
9.161                0.968870992     -104.799525
9.162                0.968793042       -104.9871
9.163                0.968714963     -105.175136
9.164                0.968636756     -105.363636
9.165                0.968558422     -105.552598
9.166                0.968479963     -105.742025
9.167                0.968401379     -105.931917
9.168                0.968322672     -106.122274
9.169                0.968243842     -106.313098
9.17                 0.968164891     -106.504388
9.171                0.968085819     -106.696147
9.172                0.968006628     -106.888373
9.173                0.967927319     -107.081069
9.174                0.967847894     -107.274234
9.175                0.967768352      -107.46787
9.176                0.967688696     -107.661977
9.177                0.967608927     -107.856555
9.178                0.967529046     -108.051606
9.179                0.967449054      -108.24713
9.18                 0.967368952     -108.443127
9.181                0.967288742     -108.639599
9.182                0.967208426     -108.836545
9.183                0.967128003     -109.033967
9.184                0.967047476     -109.231865
9.185                0.966966847      -109.43024
9.186                0.966886115     -109.629092
9.187                0.966805284     -109.828421
9.188                0.966724354     -110.028229
9.189                0.966643326     -110.228516
9.19                 0.966562203     -110.429283
9.191                0.966480985     -110.630529
9.192                0.966399674     -110.832256
9.193                0.966318272     -111.034464
9.194                 0.96623678     -111.237153
9.195                0.966155199     -111.440324
9.196                0.966073532     -111.643978
9.197                0.965991779     -111.848115
9.198                0.965909943     -112.052736
9.199                0.965828025      -112.25784
9.2                  0.965746026     -112.463429
9.201                0.965663949     -112.669503
9.202                0.965581795     -112.876062
9.203                0.965499565     -113.083106
9.204                0.965417262     -113.290637
9.205                0.965334887     -113.498654
9.206                0.965252442     -113.707158
9.207                0.965169929      -113.91615
9.208                0.965087349     -114.125629
9.209                0.965004704     -114.335596
9.21                 0.964921997     -114.546051
9.211                0.964839228     -114.756995
9.212                0.964756401     -114.968428
9.213                0.964673516     -115.180351
9.214                0.964590576     -115.392763
9.215                0.964507583     -115.605665
9.216                0.964424538     -115.819057
9.217                0.964341444     -116.032939
9.218                0.964258303     -116.247312
9.219                0.964175116     -116.462176
9.22                 0.964091886     -116.677532
9.221                0.964008614     -116.893378
9.222                0.963925304     -117.109716
9.223                0.963841957     -117.326546
9.224                0.963758574     -117.543868
9.225                0.963675159     -117.761682
9.226                0.963591714     -117.979988
9.227                 0.96350824     -118.198787
9.228                 0.96342474     -118.418078
9.229                0.963341216     -118.637861
9.23                  0.96325767     -118.858137
9.231                0.963174105     -119.078906
9.232                0.963090523     -119.300168
9.233                0.963006926     -119.521923
9.234                0.962923317     -119.744171
9.235                0.962839698     -119.966912
9.236                0.962756071     -120.190145
9.237                0.962672439     -120.413872
9.238                0.962588805     -120.638091
9.239                 0.96250517     -120.862804
9.24                 0.962421537     -121.088009
9.241                0.962337909     -121.313707
9.242                0.962254288     -121.539898
9.243                0.962170676     -121.766581
9.244                0.962087077     -121.993757
9.245                0.962003493     -122.221425
9.246                0.961919926     -122.449586
9.247                0.961836379     -122.678238
9.248                0.961752855     -122.907383
9.249                0.961669357     -123.137019
9.25                 0.961585886     -123.367147
9.251                0.961502447     -123.597765
9.252                 0.96141904     -123.828875
9.253                0.961335671     -124.060476
9.254                 0.96125234     -124.292567
9.255                0.961169051     -124.525148
9.256                0.961085806     -124.758219
9.257                0.961002609      -124.99178
9.258                0.960919463      -125.22583
9.259                0.960836369     -125.460369
9.26                 0.960753332     -125.695396
9.261                0.960670354     -125.930912
9.262                0.960587437     -126.166914
9.263                0.960504586     -126.403405
9.264                0.960421803     -126.640382
9.265                 0.96033909     -126.877845
9.266                0.960256451     -127.115794
9.267                 0.96017389     -127.354228
9.268                0.960091408     -127.593147
9.269                0.960009009     -127.832551
9.27                 0.959926697     -128.072438
9.271                0.959844473     -128.312808
9.272                0.959762343     -128.553661
9.273                0.959680307     -128.794995
9.274                0.959598371     -129.036811
9.275                0.959516536     -129.279107
9.276                0.959434807     -129.521883
9.277                0.959353186     -129.765139
9.278                0.959271676     -130.008872
9.279                0.959190282     -130.253084
9.28                 0.959109005     -130.497772
9.281                 0.95902785     -130.742937
9.282                 0.95894682     -130.988577
9.283                0.958865918     -131.234692
9.284                0.958785147      -131.48128
9.285                0.958704512     -131.728342
9.286                0.958624014     -131.975875
9.287                0.958543658     -132.223879
9.288                0.958463447     -132.472354
9.289                0.958383385     -132.721297
9.29                 0.958303474     -132.970709
9.291                0.958223719     -133.220589
9.292                0.958144122     -133.470934
9.293                0.958064688     -133.721745
9.294                 0.95798542      -133.97302
9.295                0.957906321     -134.224758
9.296                0.957827396     -134.476958
9.297                0.957748646     -134.729619
9.298                0.957670077      -134.98274
9.299                0.957591691     -135.236319
9.3                  0.957513493     -135.490356
9.301                0.957435485     -135.744849
9.302                0.957357672     -135.999797
9.303                0.957280057     -136.255199
9.304                0.957202643     -136.511053
9.305                0.957125435     -136.767358
9.306                0.957048436     -137.024113
9.307                 0.95697165     -137.281317
9.308                0.956895081     -137.538968
9.309                0.956818731     -137.797065
9.31                 0.956742605     -138.055606
9.311                0.956666707      -138.31459
9.312                 0.95659104     -138.574016
9.313                0.956515608     -138.833881
9.314                0.956440415     -139.094186
9.315                0.956365464     -139.354927
9.316                 0.95629076     -139.616104
9.317                0.956216306     -139.877714
9.318                0.956142106     -140.139757
9.319                0.956068163     -140.402231
9.32                 0.955994482     -140.665134
9.321                0.955921066     -140.928464
9.322                0.955847919      -141.19222
9.323                0.955775045     -141.456399
9.324                0.955702448     -141.721002
9.325                0.955630131     -141.986024
9.326                0.955558099     -142.251466
9.327                0.955486355     -142.517324
9.328                0.955414902     -142.783598
9.329                0.955343746     -143.050285
9.33                 0.955272889     -143.317383
9.331                0.955202336     -143.584891
9.332                0.955132091     -143.852807
9.333                0.955062156     -144.121128
9.334                0.954992537     -144.389853
9.335                0.954923236      -144.65898
9.336                0.954854259     -144.928507
9.337                0.954785608     -145.198431
9.338                0.954717287     -145.468751
9.339                0.954649301     -145.739464
9.34                 0.954581653     -146.010569
9.341                0.954514347     -146.282063
9.342                0.954447387     -146.553944
9.343                0.954380777     -146.826211
9.344                 0.95431452      -147.09886
9.345                0.954248621      -147.37189
9.346                0.954183082     -147.645298
9.347                0.954117909     -147.919082
9.348                0.954053105      -148.19324
9.349                0.953988673     -148.467769
9.35                 0.953924618     -148.742668
9.351                0.953860943     -149.017933
9.352                0.953797651     -149.293563
9.353                0.953734748     -149.569554
9.354                0.953672236     -149.845905
9.355                 0.95361012     -150.122614
9.356                0.953548403     -150.399676
9.357                0.953487088     -150.677091
9.358                 0.95342618     -150.954856
9.359                0.953365683     -151.232968
9.36                 0.953305599     -151.511424
9.361                0.953245933     -151.790222
9.362                0.953186689     -152.069359
9.363                0.953127869     -152.348833
9.364                0.953069478     -152.628641
9.365                 0.95301152      -152.90878
9.366                0.952953997     -153.189248
9.367                0.952896914     -153.470041
9.368                0.952840274     -153.751158
9.369                0.952784081     -154.032595
9.37                 0.952728339      -154.31435
9.371                 0.95267305      -154.59642
9.372                0.952618218     -154.878801
9.373                0.952563848     -155.161492
9.374                0.952509942     -155.444488
9.375                0.952456503     -155.727789
9.376                0.952403537     -156.011389
9.377                0.952351044     -156.295287
9.378                 0.95229903     -156.579479
9.379                0.952247498     -156.863963
9.38                  0.95219645     -157.148736
9.381                0.952145891     -157.433794
9.382                0.952095823     -157.719135
9.383                 0.95204625     -158.004755
9.384                0.951997175     -158.290651
9.385                0.951948602      -158.57682
9.386                0.951900533      -158.86326
9.387                0.951852972     -159.149967
9.388                0.951805922     -159.436937
9.389                0.951759385     -159.724168
9.39                 0.951713367     -160.011657
9.391                0.951667868     -160.299399
9.392                0.951622893     -160.587393
9.393                0.951578444     -160.875635
9.394                0.951534525     -161.164121
9.395                0.951491138     -161.452848
9.396                0.951448286     -161.741813
