! TOUCHSTONE file generated by CST DESIGN STUDIO
! Date and time: Tue Feb  4 13:48:56 2025
! Project name: C:\Work\MatlabApps\UnitCellOptimizationMatlab\CST\unitcell.cst
! Tree item: Tasks\Sweep1\SPara1\S-Parameters
! Header version: 2024
! Port assignment regex: !\s*Touchstone port\s*([0-9]+)\s*=\s*(CST MWS port|CST DES external port|CST DES block port)\s*(.+)\s* \(\"(.*)\"\)(\s*mode\s*([0-9]+))?.*
! Touchstone port assignment:
! Touchstone port 1 = CST DES external port 1 ("")
# GHz S MA R 50
9                    0.981272538     -62.3895595
9.001                0.981234865     -62.4757086
9.002                 0.98119708     -62.5620567
9.003                0.981159181     -62.6486044
9.004                0.981121169     -62.7353525
9.005                0.981083044     -62.8223014
9.006                0.981044804     -62.9094519
9.007                 0.98100645     -62.9968044
9.008                0.980967981     -63.0843598
9.009                0.980929397     -63.1721185
9.01                 0.980890698     -63.2600813
9.011                0.980851883     -63.3482488
9.012                0.980812951     -63.4366215
9.013                0.980773904     -63.5252001
9.014                0.980734739     -63.6139854
9.015                0.980695456     -63.7029778
9.016                0.980656057     -63.7921781
9.017                0.980616539     -63.8815869
9.018                0.980576903     -63.9712048
9.019                0.980537148     -64.0610325
9.02                 0.980497274     -64.1510707
9.021                 0.98045728       -64.24132
9.022                0.980417167      -64.331781
9.023                0.980376934     -64.4224544
9.024                 0.98033658     -64.5133409
9.025                0.980296105     -64.6044411
9.026                0.980255508     -64.6957558
9.027                 0.98021479     -64.7872855
9.028                 0.98017395     -64.8790309
9.029                0.980132988     -64.9709927
9.03                 0.980091903     -65.0631716
9.031                0.980050695     -65.1555683
9.032                0.980009363     -65.2481834
9.033                0.979967907     -65.3410176
9.034                0.979926327     -65.4340716
9.035                0.979884622      -65.527346
9.036                0.979842793     -65.6208417
9.037                0.979800838     -65.7145591
9.038                0.979758757     -65.8084991
9.039                 0.97971655     -65.9026624
9.04                 0.979674216     -65.9970495
9.041                0.979631756     -66.0916613
9.042                0.979589168     -66.1864984
9.043                0.979546453     -66.2815616
9.044                 0.97950361     -66.3768514
9.045                0.979460638     -66.4723687
9.046                0.979417538     -66.5681142
9.047                0.979374308     -66.6640885
9.048                0.979330949     -66.7602923
9.049                 0.97928746     -66.8567264
9.05                  0.97924384     -66.9533916
9.051                 0.97920009     -67.0502884
9.052                0.979156209     -67.1474177
9.053                0.979112197     -67.2447802
9.054                0.979068053     -67.3423765
9.055                0.979023776     -67.4402074
9.056                0.978979367     -67.5382737
9.057                0.978934825     -67.6365761
9.058                 0.97889015     -67.7351153
9.059                0.978845341     -67.8338921
9.06                 0.978800397     -67.9329071
9.061                 0.97875532     -68.0321612
9.062                0.978710107     -68.1316551
9.063                 0.97866476     -68.2313894
9.064                0.978619276     -68.3313651
9.065                0.978573657     -68.4315828
9.066                0.978527901     -68.5320433
9.067                0.978482009     -68.6327473
9.068                0.978435979     -68.7336956
9.069                0.978389812     -68.8348889
9.07                 0.978343507     -68.9363281
9.071                0.978297064     -69.0380139
9.072                0.978250482      -69.139947
9.073                 0.97820376     -69.2421282
9.074                  0.9781569     -69.3445583
9.075                  0.9781099     -69.4472381
9.076                0.978062759     -69.5501684
9.077                0.978015478     -69.6533498
9.078                0.977968056     -69.7567833
9.079                0.977920492     -69.8604695
9.08                 0.977872787     -69.9644094
9.081                 0.97782494     -70.0686036
9.082                 0.97777695     -70.1730529
9.083                0.977728817     -70.2777582
9.084                0.977680541     -70.3827202
9.085                0.977632122     -70.4879398
9.086                0.977583558     -70.5934177
9.087                 0.97753485     -70.6991547
9.088                0.977485998     -70.8051517
9.089                   0.977437     -70.9114094
9.09                 0.977387856     -71.0179287
9.091                0.977338567     -71.1247104
9.092                0.977289132     -71.2317553
9.093                0.977239549     -71.3390641
9.094                 0.97718982     -71.4466378
9.095                0.977139943     -71.5544771
9.096                0.977089919     -71.6625829
9.097                0.977039746      -71.770956
9.098                0.976989425     -71.8795972
9.099                0.976938955     -71.9885074
9.1                  0.976888336     -72.0976873
9.101                0.976837567     -72.2071378
9.102                0.976786648     -72.3168598
9.103                0.976735578     -72.4268541
9.104                0.976684358     -72.5371215
9.105                0.976632987     -72.6476629
9.106                0.976581464     -72.7584792
9.107                0.976529789     -72.8695711
9.108                0.976477962     -72.9809395
9.109                0.976425983     -73.0925853
9.11                  0.97637385     -73.2045093
9.111                0.976321565     -73.3167125
9.112                0.976269125     -73.4291956
9.113                0.976216531     -73.5419595
9.114                0.976163783      -73.655005
9.115                0.976110881     -73.7683331
9.116                0.976057823     -73.8819447
9.117                0.976004609     -73.9958405
9.118                 0.97595124     -74.1100215
9.119                0.975897715     -74.2244885
9.12                 0.975844032     -74.3392424
9.121                0.975790194     -74.4542842
9.122                0.975736197     -74.5696146
9.123                0.975682043     -74.6852345
9.124                0.975627732      -74.801145
9.125                0.975573261     -74.9173467
9.126                0.975518633     -75.0338407
9.127                0.975463845     -75.1506279
9.128                0.975408898      -75.267709
9.129                0.975353791     -75.3850851
9.13                 0.975298524      -75.502757
9.131                0.975243097     -75.6207256
9.132                0.975187509     -75.7389919
9.133                 0.97513176     -75.8575567
9.134                0.975075849      -75.976421
9.135                0.975019777     -76.0955856
9.136                0.974963543     -76.2150515
9.137                0.974907147     -76.3348195
9.138                0.974850588     -76.4548907
9.139                0.974793866      -76.575266
9.14                  0.97473698     -76.6959462
9.141                0.974679931     -76.8169322
9.142                0.974622718     -76.9382251
9.143                 0.97456534     -77.0598257
9.144                0.974507798      -77.181735
9.145                0.974450091     -77.3039539
9.146                0.974392219     -77.4264833
9.147                0.974334182     -77.5493242
9.148                0.974275978     -77.6724775
9.149                0.974217608     -77.7959441
9.15                 0.974159072     -77.9197251
9.151                 0.97410037     -78.0438213
9.152                  0.9740415     -78.1682337
9.153                0.973982463     -78.2929633
9.154                0.973923258     -78.4180109
9.155                0.973863885     -78.5433776
9.156                0.973804345     -78.6690643
9.157                0.973744635      -78.795072
9.158                0.973684757     -78.9214016
9.159                 0.97362471      -79.048054
9.16                 0.973564494     -79.1750304
9.161                0.973504108     -79.3023315
9.162                0.973443553     -79.4299585
9.163                0.973382827     -79.5579121
9.164                0.973321931     -79.6861936
9.165                0.973260864     -79.8148037
9.166                0.973199627     -79.9437435
9.167                0.973138218     -80.0730139
9.168                0.973076638      -80.202616
9.169                0.973014886     -80.3325507
9.17                 0.972952963     -80.4628189
9.171                0.972890868     -80.5934218
9.172                  0.9728286     -80.7243602
9.173                 0.97276616     -80.8556352
9.174                0.972703547     -80.9872477
9.175                0.972640761     -81.1191988
9.176                0.972577801     -81.2514894
9.177                0.972514669     -81.3841205
9.178                0.972451363     -81.5170931
9.179                0.972387883     -81.6504083
9.18                 0.972324229      -81.784067
9.181                  0.9722604     -81.9180702
9.182                0.972196398     -82.0524189
9.183                 0.97213222     -82.1871141
9.184                0.972067868     -82.3221569
9.185                0.972003341     -82.4575482
9.186                0.971938639     -82.5932891
9.187                0.971873762     -82.7293806
9.188                0.971808709     -82.8658236
9.189                 0.97174348     -83.0026192
9.19                 0.971678076     -83.1397684
9.191                0.971612496     -83.2772722
9.192                0.971546739     -83.4151317
9.193                0.971480807     -83.5533478
9.194                0.971414698     -83.6919216
9.195                0.971348412     -83.8308541
9.196                 0.97128195     -83.9701463
9.197                0.971215312     -84.1097993
9.198                0.971148496      -84.249814
9.199                0.971081503     -84.3901916
9.2                  0.971014334     -84.5309329
9.201                0.970946987     -84.6720392
9.202                0.970879463     -84.8135113
9.203                0.970811761     -84.9553503
9.204                0.970743883     -85.0975573
9.205                0.970675826     -85.2401333
9.206                0.970607592     -85.3830793
9.207                0.970539181     -85.5263964
9.208                0.970470592     -85.6700855
9.209                0.970401825     -85.8141478
9.21                  0.97033288     -85.9585842
9.211                0.970263757     -86.1033959
9.212                0.970194457     -86.2485838
9.213                0.970124979      -86.394149
9.214                0.970055323     -86.5400925
9.215                0.969985489     -86.6864154
9.216                0.969915477     -86.8331187
9.217                0.969845287     -86.9802035
9.218                0.969774919     -87.1276708
9.219                0.969704374     -87.2755216
9.22                 0.969633651      -87.423757
9.221                0.969562749     -87.5723781
9.222                 0.96949167     -87.7213858
9.223                0.969420414     -87.8707813
9.224                 0.96934898     -88.0205656
9.225                0.969277368     -88.1707397
9.226                0.969205578     -88.3213046
9.227                0.969133611     -88.4722615
9.228                0.969061467     -88.6236114
9.229                0.968989146     -88.7753553
9.23                 0.968916647     -88.9274942
9.231                0.968843972     -89.0800293
9.232                0.968771119     -89.2329616
9.233                 0.96869809      -89.386292
9.234                0.968624884     -89.5400218
9.235                0.968551501     -89.6941518
9.236                0.968477942     -89.8486833
9.237                0.968404207     -90.0036171
9.238                0.968330296     -90.1589544
9.239                0.968256209     -90.3146962
9.24                 0.968181947     -90.4708436
9.241                0.968107509     -90.6273975
9.242                0.968032896     -90.7843592
9.243                0.967958108     -90.9417295
9.244                0.967883145     -91.0995096
9.245                0.967808007     -91.2577005
9.246                0.967732695     -91.4163032
9.247                 0.96765721     -91.5753188
9.248                 0.96758155     -91.7347484
9.249                0.967505717     -91.8945929
9.25                 0.967429711     -92.0548534
9.251                0.967353532      -92.215531
9.252                0.967277181     -92.3766267
9.253                0.967200657     -92.5381415
9.254                0.967123961     -92.7000765
9.255                0.967047094     -92.8624328
9.256                0.966970056     -93.0252112
9.257                0.966892847      -93.188413
9.258                0.966815467     -93.3520391
9.259                0.966737917     -93.5160905
9.26                 0.966660198     -93.6805684
9.261                0.966582309     -93.8454736
9.262                0.966504252     -94.0108073
9.263                0.966426026     -94.1765705
9.264                0.966347633     -94.3427642
9.265                0.966269072     -94.5093894
9.266                0.966190343     -94.6764472
9.267                0.966111449     -94.8439385
9.268                0.966032388     -95.0118644
9.269                0.965953162     -95.1802259
9.27                 0.965873771      -95.349024
9.271                0.965794216     -95.5182598
9.272                0.965714497     -95.6879342
9.273                0.965634614     -95.8580483
9.274                0.965554569      -96.028603
9.275                0.965474361     -96.1995994
9.276                0.965393993     -96.3710384
9.277                0.965313463     -96.5429211
9.278                0.965232773     -96.7152485
9.279                0.965151923     -96.8880215
9.28                 0.965070914     -97.0612411
9.281                0.964989747     -97.2349084
9.282                0.964908423     -97.4090243
9.283                0.964826942     -97.5835898
9.284                0.964745304     -97.7586059
9.285                0.964663511     -97.9340735
9.286                0.964581563     -98.1099937
9.287                0.964499462     -98.2863674
9.288                0.964417207     -98.4631955
9.289                  0.9643348     -98.6404791
9.29                 0.964252241      -98.818219
9.291                0.964169532     -98.9964163
9.292                0.964086673     -99.1750719
9.293                0.964003665     -99.3541868
9.294                0.963920509     -99.5337618
9.295                0.963837205      -99.713798
9.296                0.963753755     -99.8942962
9.297                 0.96367016     -100.075257
9.298                 0.96358642     -100.256683
9.299                0.963502537     -100.438573
9.3                  0.963418511     -100.620928
9.301                0.963334344     -100.803751
9.302                0.963250036     -100.987041
9.303                0.963165589       -101.1708
9.304                0.963081003     -101.355028
9.305                 0.96299628     -101.539726
9.306                 0.96291142     -101.724896
9.307                0.962826425     -101.910537
9.308                0.962741297     -102.096652
9.309                0.962656035      -102.28324
9.31                 0.962570641     -102.470303
9.311                0.962485116     -102.657842
9.312                0.962399462     -102.845857
9.313                 0.96231368      -103.03435
9.314                0.962227771     -103.223321
9.315                0.962141735      -103.41277
9.316                0.962055576       -103.6027
9.317                0.961969293      -103.79311
9.318                0.961882888     -103.984001
9.319                0.961796362     -104.175375
9.32                 0.961709717     -104.367232
9.321                0.961622954     -104.559573
9.322                0.961536074     -104.752399
9.323                 0.96144908      -104.94571
9.324                0.961361971     -105.139508
9.325                 0.96127475     -105.333792
9.326                0.961187418     -105.528565
9.327                0.961099977     -105.723826
9.328                0.961012428     -105.919577
9.329                0.960924773     -106.115817
9.33                 0.960837012     -106.312549
9.331                0.960749149     -106.509772
9.332                0.960661183     -106.707487
9.333                0.960573118     -106.905696
9.334                0.960484954     -107.104398
9.335                0.960396694     -107.303595
9.336                0.960308338     -107.503287
9.337                0.960219888     -107.703474
9.338                0.960131347     -107.904159
9.339                0.960042716      -108.10534
9.34                 0.959953997      -108.30702
9.341                0.959865191     -108.509198
9.342                0.959776301     -108.711875
9.343                0.959687328     -108.915052
9.344                0.959598273     -109.118729
9.345                 0.95950914     -109.322907
9.346                0.959419929     -109.527587
9.347                0.959330643      -109.73277
9.348                0.959241283     -109.938455
9.349                0.959151853     -110.144643
9.35                 0.959062352     -110.351336
9.351                0.958972784     -110.558533
9.352                0.958883151     -110.766235
9.353                0.958793454     -110.974443
9.354                0.958703696     -111.183157
9.355                0.958613879     -111.392378
9.356                0.958524005     -111.602106
9.357                0.958434076     -111.812341
9.358                0.958344094     -112.023085
9.359                0.958254061     -112.234337
9.36                  0.95816398     -112.446099
9.361                0.958073853      -112.65837
9.362                0.957983682     -112.871151
9.363                 0.95789347     -113.084442
9.364                0.957803218     -113.298244
9.365                0.957712929     -113.512558
9.366                0.957622606     -113.727383
9.367                0.957532251      -113.94272
9.368                0.957441866      -114.15857
9.369                0.957351454     -114.374932
9.37                 0.957261016     -114.591808
9.371                0.957170557     -114.809196
9.372                0.957080077     -115.027099
9.373                0.956989581     -115.245515
9.374                0.956899069     -115.464446
9.375                0.956808545     -115.683892
9.376                0.956718012     -115.903852
9.377                0.956627472     -116.124327
9.378                0.956536927     -116.345318
9.379                0.956446381     -116.566824
9.38                 0.956355836     -116.788846
9.381                0.956265295     -117.011384
9.382                0.956174761     -117.234439
9.383                0.956084236     -117.458009
9.384                0.955993723     -117.682096
9.385                0.955903225       -117.9067
9.386                0.955812745      -118.13182
9.387                0.955722286     -118.357457
9.388                 0.95563185     -118.583611
9.389                0.955541442     -118.810282
9.39                 0.955451062      -119.03747
9.391                0.955360716     -119.265175
9.392                0.955270405     -119.493397
9.393                0.955180132     -119.722136
9.394                0.955089901     -119.951393
9.395                0.954999715     -120.181166
9.396                0.954909577     -120.411457
