! TOUCHSTONE file generated by CST DESIGN STUDIO
! Date and time: Tue Feb  4 13:48:46 2025
! Project name: C:\Work\MatlabApps\UnitCellOptimizationMatlab\CST\unitcell.cst
! Tree item: Tasks\Sweep1\SPara1\S-Parameters
! Header version: 2024
! Port assignment regex: !\s*Touchstone port\s*([0-9]+)\s*=\s*(CST MWS port|CST DES external port|CST DES block port)\s*(.+)\s* \(\"(.*)\"\)(\s*mode\s*([0-9]+))?.*
! Touchstone port assignment:
! Touchstone port 1 = CST DES external port 1 ("")
# GHz S MA R 50
9                    0.979867377     -75.2539612
9.001                0.979818709     -75.3675758
9.002                0.979769894     -75.4814701
9.003                0.979720931      -75.595645
9.004                0.979671821     -75.7101014
9.005                0.979622563     -75.8248401
9.006                0.979573156     -75.9398619
9.007                0.979523601     -76.0551677
9.008                0.979473897     -76.1707583
9.009                0.979424043     -76.2866346
9.01                  0.97937404     -76.4027975
9.011                0.979323886     -76.5192477
9.012                0.979273582     -76.6359862
9.013                0.979223128     -76.7530138
9.014                0.979172522     -76.8703314
9.015                0.979121765     -76.9879397
9.016                0.979070857     -77.1058398
9.017                0.979019796     -77.2240324
9.018                0.978968583     -77.3425185
9.019                0.978917218     -77.4612988
9.02                   0.9788657     -77.5803744
9.021                0.978814028     -77.6997459
9.022                0.978762203     -77.8194144
9.023                0.978710224     -77.9393807
9.024                0.978658091     -78.0596456
9.025                0.978605803     -78.1802101
9.026                 0.97855336      -78.301075
9.027                0.978500763     -78.4222413
9.028                0.978448009     -78.5437098
9.029                0.978395101     -78.6654813
9.03                 0.978342036     -78.7875569
9.031                0.978288815     -78.9099374
9.032                0.978235437     -79.0326236
9.033                0.978181902     -79.1556165
9.034                 0.97812821      -79.278917
9.035                0.978074361     -79.4025259
9.036                0.978020354     -79.5264443
9.037                0.977966189     -79.6506729
9.038                0.977911865     -79.7752127
9.039                0.977857383     -79.9000646
9.04                 0.977802742     -80.0252295
9.041                0.977747941     -80.1507083
9.042                0.977692982     -80.2765019
9.043                0.977637862     -80.4026113
9.044                0.977582583     -80.5290373
9.045                0.977527143     -80.6557809
9.046                0.977471542      -80.782843
9.047                0.977415781     -80.9102245
9.048                0.977359859     -81.0379264
9.049                0.977303776     -81.1659495
9.05                  0.97724753     -81.2942948
9.051                0.977191124     -81.4229632
9.052                0.977134555     -81.5519556
9.053                0.977077823      -81.681273
9.054                0.977020929     -81.8109164
9.055                0.976963873     -81.9408865
9.056                0.976906653     -82.0711845
9.057                 0.97684927     -82.2018111
9.058                0.976791723     -82.3327674
9.059                0.976734013     -82.4640543
9.06                 0.976676139     -82.5956727
9.061                0.976618101     -82.7276236
9.062                0.976559898     -82.8599079
9.063                 0.97650153     -82.9925266
9.064                0.976442998     -83.1254805
9.065                0.976384301     -83.2587708
9.066                0.976325439     -83.3923982
9.067                0.976266411     -83.5263638
9.068                0.976207217     -83.6606685
9.069                0.976147858     -83.7953132
9.07                 0.976088332      -83.930299
9.071                0.976028641     -84.0656268
9.072                0.975968783     -84.2012974
9.073                0.975908759      -84.337312
9.074                0.975848567     -84.4736714
9.075                0.975788209     -84.6103766
9.076                0.975727684     -84.7474286
9.077                0.975666992     -84.8848283
9.078                0.975606132     -85.0225767
9.079                0.975545105     -85.1606748
9.08                  0.97548391     -85.2991235
9.081                0.975422547     -85.4379238
9.082                0.975361017     -85.5770766
9.083                0.975299318      -85.716583
9.084                0.975237451     -85.8564438
9.085                0.975175416     -85.9966602
9.086                0.975113212      -86.137233
9.087                 0.97505084     -86.2781631
9.088                0.974988299     -86.4194517
9.089                0.974925589     -86.5610997
9.09                  0.97486271     -86.7031079
9.091                0.974799663     -86.8454775
9.092                0.974736446     -86.9882094
9.093                 0.97467306     -87.1313045
9.094                0.974609505     -87.2747638
9.095                0.974545781     -87.4185884
9.096                0.974481887     -87.5627792
9.097                0.974417824     -87.7073371
9.098                0.974353592     -87.8522633
9.099                0.974289189     -87.9975585
9.1                  0.974224618     -88.1432238
9.101                0.974159877     -88.2892603
9.102                0.974094966     -88.4356688
9.103                0.974029885     -88.5824504
9.104                0.973964635      -88.729606
9.105                0.973899215     -88.8771367
9.106                0.973833625     -89.0250433
9.107                0.973767866      -89.173327
9.108                0.973701937     -89.3219886
9.109                0.973635839     -89.4710291
9.11                  0.97356957     -89.6204496
9.111                0.973503132     -89.7702511
9.112                0.973436525     -89.9204344
9.113                0.973369748     -90.0710006
9.114                0.973302801     -90.2219507
9.115                0.973235685     -90.3732856
9.116                  0.9731684     -90.5250063
9.117                0.973100945     -90.6771139
9.118                0.973033321     -90.8296093
9.119                0.972965528     -90.9824934
9.12                 0.972897566     -91.1357674
9.121                0.972829435      -91.289432
9.122                0.972761135     -91.4434884
9.123                0.972692666     -91.5979375
9.124                0.972624029     -91.7527803
9.125                0.972555223     -91.9080177
9.126                0.972486249     -92.0636508
9.127                0.972417107     -92.2196805
9.128                0.972347796     -92.3761078
9.129                0.972278318     -92.5329336
9.13                 0.972208672     -92.6901591
9.131                0.972138859      -92.847785
9.132                0.972068878     -93.0058125
9.133                 0.97199873     -93.1642424
9.134                0.971928416     -93.3230758
9.135                0.971857934     -93.4823136
9.136                0.971787286     -93.6419567
9.137                0.971716472     -93.8020063
9.138                0.971645492     -93.9624631
9.139                0.971574346     -94.1233283
9.14                 0.971503034     -94.2846027
9.141                0.971431558     -94.4462873
9.142                0.971359916     -94.6083831
9.143                 0.97128811     -94.7708911
9.144                 0.97121614     -94.9338122
9.145                0.971144006     -95.0971473
9.146                0.971071707     -95.2608974
9.147                0.970999246     -95.4250635
9.148                0.970926622     -95.5896466
9.149                0.970853834     -95.7546475
9.15                 0.970780885     -95.9200673
9.151                0.970707774     -96.0859068
9.152                0.970634501      -96.252167
9.153                0.970561067     -96.4188489
9.154                0.970487473     -96.5859534
9.155                0.970413718     -96.7534815
9.156                0.970339803      -96.921434
9.157                0.970265729     -97.0898119
9.158                0.970191496     -97.2586162
9.159                0.970117104     -97.4278478
9.16                 0.970042554     -97.5975076
9.161                0.969967847     -97.7675964
9.162                0.969892983     -97.9381154
9.163                0.969817962     -98.1090653
9.164                0.969742786     -98.2804471
9.165                0.969667454     -98.4522617
9.166                0.969591966       -98.62451
9.167                0.969516325     -98.7971929
9.168                 0.96944053     -98.9703113
9.169                0.969364582     -99.1438661
9.17                 0.969288481     -99.3178583
9.171                0.969212228     -99.4922887
9.172                0.969135824     -99.6671582
9.173                0.969059269     -99.8424676
9.174                0.968982564     -100.018218
9.175                 0.96890571      -100.19441
9.176                0.968828707     -100.371045
9.177                0.968751556     -100.548123
9.178                0.968674257     -100.725646
9.179                0.968596812     -100.903614
9.18                 0.968519222     -101.082028
9.181                0.968441486     -101.260888
9.182                0.968363606     -101.440197
9.183                0.968285582     -101.619955
9.184                0.968207416     -101.800162
9.185                0.968129107     -101.980819
9.186                0.968050658     -102.161927
9.187                0.967972068     -102.343488
9.188                0.967893339     -102.525501
9.189                0.967814471     -102.707968
9.19                 0.967735466     -102.890889
9.191                0.967656324     -103.074266
9.192                0.967577046     -103.258099
9.193                0.967497633     -103.442389
9.194                0.967418086     -103.627136
9.195                0.967338406     -103.812342
9.196                0.967258594     -103.998007
9.197                 0.96717865     -104.184132
9.198                0.967098577     -104.370718
9.199                0.967018375     -104.557766
9.2                  0.966938045     -104.745276
9.201                0.966857587     -104.933249
9.202                0.966777004     -105.121686
9.203                0.966696296     -105.310587
9.204                0.966615465     -105.499954
9.205                0.966534511     -105.689787
9.206                0.966453435     -105.880087
9.207                 0.96637224     -106.070854
9.208                0.966290925      -106.26209
9.209                0.966209492     -106.453794
9.21                 0.966127943     -106.645969
9.211                0.966046278     -106.838613
9.212                0.965964499     -107.031729
9.213                0.965882608     -107.225316
9.214                0.965800604     -107.419375
9.215                 0.96571849     -107.613908
9.216                0.965636267     -107.808914
9.217                0.965553937     -108.004395
9.218                  0.9654715     -108.200351
9.219                0.965388958     -108.396782
9.22                 0.965306313     -108.593689
9.221                0.965223565     -108.791074
9.222                0.965140717     -108.988935
9.223                 0.96505777     -109.187275
9.224                0.964974724     -109.386094
9.225                0.964891583     -109.585392
9.226                0.964808346     -109.785169
9.227                0.964725017     -109.985427
9.228                0.964641595     -110.186166
9.229                0.964558084     -110.387387
9.23                 0.964474483     -110.589089
9.231                0.964390796     -110.791274
9.232                0.964307024     -110.993943
9.233                0.964223167     -111.197094
9.234                0.964139229      -111.40073
9.235                 0.96405521     -111.604851
9.236                0.963971113     -111.809457
9.237                0.963886939     -112.014548
9.238                0.963802689     -112.220125
9.239                0.963718366     -112.426189
9.24                 0.963633972     -112.632739
9.241                0.963549508     -112.839777
9.242                0.963464975     -113.047303
9.243                0.963380377     -113.255317
9.244                0.963295714      -113.46382
9.245                0.963210988     -113.672811
9.246                0.963126203     -113.882292
9.247                0.963041358     -114.092263
9.248                0.962956457     -114.302724
9.249                0.962871502     -114.513675
9.25                 0.962786494     -114.725117
9.251                0.962701435     -114.937051
9.252                0.962616327     -115.149475
9.253                0.962531173     -115.362392
9.254                0.962445975       -115.5758
9.255                0.962360734     -115.789701
9.256                0.962275453     -116.004094
9.257                0.962190134      -116.21898
9.258                0.962104779     -116.434359
9.259                0.962019391     -116.650232
9.26                  0.96193397     -116.866598
9.261                0.961848521     -117.083457
9.262                0.961763044     -117.300811
9.263                0.961677543     -117.518658
9.264                0.961592019        -117.737
9.265                0.961506476     -117.955836
9.266                0.961420914     -118.175167
9.267                0.961335337     -118.394992
9.268                0.961249747     -118.615312
9.269                0.961164146     -118.836127
9.27                 0.961078537     -119.057437
9.271                0.960992922     -119.279241
9.272                0.960907304     -119.501541
9.273                0.960821686     -119.724336
9.274                0.960736068     -119.947626
9.275                0.960650456     -120.171411
9.276                 0.96056485     -120.395691
9.277                0.960479253     -120.620466
9.278                0.960393669     -120.845736
9.279                0.960308099     -121.071501
9.28                 0.960222546     -121.297761
9.281                0.960137013     -121.524516
9.282                0.960051503     -121.751766
9.283                0.959966019      -121.97951
9.284                0.959880562     -122.207749
9.285                0.959795137     -122.436482
9.286                0.959709745     -122.665709
9.287                0.959624389      -122.89543
9.288                0.959539073     -123.125645
9.289                0.959453799     -123.356354
9.29                 0.959368569     -123.587556
9.291                0.959283388     -123.819251
9.292                0.959198257     -124.051439
9.293                0.959113181     -124.284119
9.294                 0.95902816     -124.517292
9.295                  0.9589432     -124.750956
9.296                0.958858302     -124.985113
9.297                 0.95877347      -125.21976
9.298                0.958688706     -125.454899
9.299                0.958604014     -125.690528
9.3                  0.958519397     -125.926647
9.301                0.958434858     -126.163256
9.302                  0.9583504     -126.400354
9.303                0.958266026     -126.637941
9.304                0.958181739     -126.876017
9.305                0.958097543      -127.11458
9.306                0.958013441      -127.35363
9.307                0.957929435     -127.593167
9.308                 0.95784553     -127.833191
9.309                0.957761728       -128.0737
9.31                 0.957678033     -128.314694
9.311                0.957594448     -128.556173
9.312                0.957510976     -128.798136
9.313                0.957427621     -129.040581
9.314                0.957344386      -129.28351
9.315                0.957261274      -129.52692
9.316                0.957178289     -129.770811
9.317                0.957095434     -130.015183
9.318                0.957012712     -130.260034
9.319                0.956930128     -130.505364
9.32                 0.956847685     -130.751173
9.321                0.956765385     -130.997458
9.322                0.956683233      -131.24422
9.323                0.956601231     -131.491458
9.324                0.956519385     -131.739171
9.325                0.956437696     -131.987357
9.326                0.956356169     -132.236016
9.327                0.956274808     -132.485148
9.328                0.956193615      -132.73475
9.329                0.956112595     -132.984822
9.33                  0.95603175     -133.235364
9.331                0.955951086     -133.486373
9.332                0.955870605      -133.73785
9.333                0.955790311     -133.989793
9.334                0.955710207       -134.2422
9.335                0.955630298     -134.495071
9.336                0.955550588     -134.748405
9.337                0.955471079     -135.002201
9.338                0.955391776     -135.256456
9.339                0.955312682     -135.511171
9.34                 0.955233801     -135.766344
9.341                0.955155137     -136.021973
9.342                0.955076694     -136.278058
9.343                0.954998476     -136.534597
9.344                0.954920486     -136.791589
9.345                0.954842728     -137.049032
9.346                0.954765206     -137.306926
9.347                0.954687924     -137.565268
9.348                0.954610886     -137.824058
9.349                0.954534095     -138.083293
9.35                 0.954457556     -138.342973
9.351                0.954381272     -138.603096
9.352                0.954305248     -138.863661
9.353                0.954229487     -139.124666
9.354                0.954153992     -139.386109
9.355                0.954078769     -139.647989
9.356                0.954003821     -139.910305
9.357                0.953929151     -140.173054
9.358                0.953854764     -140.436235
9.359                0.953780664     -140.699847
9.36                 0.953706855     -140.963888
9.361                 0.95363334     -141.228356
9.362                0.953560124     -141.493249
9.363                0.953487211     -141.758566
9.364                0.953414604     -142.024304
9.365                0.953342307     -142.290463
9.366                0.953270325      -142.55704
9.367                0.953198662     -142.824033
9.368                0.953127321     -143.091441
9.369                0.953056306     -143.359262
9.37                 0.952985622     -143.627493
9.371                0.952915272     -143.896133
9.372                 0.95284526      -144.16518
9.373                0.952775591     -144.434632
9.374                0.952706268     -144.704487
9.375                0.952637296     -144.974742
9.376                0.952568677     -145.245397
9.377                0.952500418     -145.516448
9.378                 0.95243252     -145.787893
9.379                0.952364988     -146.059731
9.38                 0.952297827      -146.33196
9.381                 0.95223104     -146.604576
9.382                0.952164631     -146.877579
9.383                0.952098604     -147.150965
9.384                0.952032963     -147.424732
9.385                0.951967712     -147.698879
9.386                0.951902855     -147.973403
9.387                0.951838395     -148.248301
9.388                0.951774338     -148.523572
9.389                0.951710686     -148.799213
9.39                 0.951647444     -149.075221
9.391                0.951584615     -149.351594
9.392                0.951522203      -149.62833
9.393                0.951460213     -149.905426
9.394                0.951398648      -150.18288
9.395                0.951337511     -150.460689
9.396                0.951276808      -150.73885
