! TOUCHSTONE file generated by CST DESIGN STUDIO
! Date and time: Tue Feb  4 13:48:47 2025
! Project name: C:\Work\MatlabApps\UnitCellOptimizationMatlab\CST\unitcell.cst
! Tree item: Tasks\Sweep1\SPara1\S-Parameters
! Header version: 2024
! Port assignment regex: !\s*Touchstone port\s*([0-9]+)\s*=\s*(CST MWS port|CST DES external port|CST DES block port)\s*(.+)\s* \(\"(.*)\"\)(\s*mode\s*([0-9]+))?.*
! Touchstone port assignment:
! Touchstone port 1 = CST DES external port 1 ("")
# GHz S MA R 50
9                    0.980046378     -73.5174209
9.001                0.979999113     -73.6270228
9.002                0.979951705     -73.7368927
9.003                0.979904153     -73.8470315
9.004                0.979856457     -73.9574398
9.005                0.979808618     -74.0681186
9.006                0.979760633     -74.1790686
9.007                0.979712504     -74.2902907
9.008                0.979664229     -74.4017857
9.009                0.979615809     -74.5135545
9.01                 0.979567243     -74.6255977
9.011                0.979518531     -74.7379163
9.012                0.979469672     -74.8505111
9.013                0.979420666     -74.9633829
9.014                0.979371513     -75.0765326
9.015                0.979322212      -75.189961
9.016                0.979272764     -75.3036689
9.017                0.979223167     -75.4176571
9.018                0.979173421     -75.5319266
9.019                0.979123527     -75.6464781
9.02                 0.979073483     -75.7613125
9.021                0.979023289     -75.8764307
9.022                0.978972945     -75.9918335
9.023                0.978922452     -76.1075217
9.024                0.978871807     -76.2234961
9.025                0.978821012     -76.3397578
9.026                0.978770065     -76.4563075
9.027                0.978718967      -76.573146
9.028                0.978667716     -76.6902743
9.029                0.978616314     -76.8076931
9.03                 0.978564758     -76.9254035
9.031                 0.97851305     -77.0434061
9.032                0.978461189      -77.161702
9.033                0.978409174     -77.2802919
9.034                0.978357005     -77.3991768
9.035                0.978304682     -77.5183574
9.036                0.978252205     -77.6378348
9.037                0.978199572     -77.7576098
9.038                0.978146785     -77.8776832
9.039                0.978093842      -77.998056
9.04                 0.978040743      -78.118729
9.041                0.977987489     -78.2397031
9.042                0.977934078     -78.3609792
9.043                 0.97788051     -78.4825582
9.044                0.977826785     -78.6044409
9.045                0.977772903     -78.7266284
9.046                0.977718864     -78.8491215
9.047                0.977664667      -78.971921
9.048                0.977610311     -79.0950279
9.049                0.977555797     -79.2184431
9.05                 0.977501125     -79.3421674
9.051                0.977446293     -79.4662019
9.052                0.977391302     -79.5905473
9.053                0.977336152     -79.7152046
9.054                0.977280842     -79.8401748
9.055                0.977225372     -79.9654587
9.056                0.977169741     -80.0910572
9.057                0.977113949     -80.2169713
9.058                0.977057997     -80.3432019
9.059                0.977001884     -80.4697499
9.06                 0.976945609     -80.5966162
9.061                0.976889172     -80.7238017
9.062                0.976832573     -80.8513074
9.063                0.976775812     -80.9791342
9.064                0.976718889      -81.107283
9.065                0.976661803     -81.2357548
9.066                0.976604554     -81.3645504
9.067                0.976547141     -81.4936709
9.068                0.976489565     -81.6231171
9.069                0.976431826       -81.75289
9.07                 0.976373922     -81.8829905
9.071                0.976315855     -82.0134196
9.072                0.976257623     -82.1441782
9.073                0.976199226     -82.2752673
9.074                0.976140664     -82.4066877
9.075                0.976081938     -82.5384405
9.076                0.976023046     -82.6705265
9.077                0.975963988     -82.8029468
9.078                0.975904765     -82.9357023
9.079                0.975845376     -83.0687939
9.08                 0.975785821     -83.2022225
9.081                0.975726099     -83.3359892
9.082                0.975666211     -83.4700949
9.083                0.975606157     -83.6045406
9.084                0.975545935     -83.7393271
9.085                0.975485546     -83.8744556
9.086                0.975424991     -84.0099268
9.087                0.975364267     -84.1457418
9.088                0.975303376     -84.2819016
9.089                0.975242318     -84.4184071
9.09                 0.975181091     -84.5552592
9.091                0.975119696      -84.692459
9.092                0.975058134     -84.8300075
9.093                0.974996402     -84.9679054
9.094                0.974934503      -85.106154
9.095                0.974872434      -85.244754
9.096                0.974810197     -85.3837065
9.097                0.974747791     -85.5230125
9.098                0.974685216      -85.662673
9.099                0.974622471     -85.8026888
9.1                  0.974559558      -85.943061
9.101                0.974496475     -86.0837906
9.102                0.974433222     -86.2248785
9.103                  0.9743698     -86.3663257
9.104                0.974306208     -86.5081332
9.105                0.974242447      -86.650302
9.106                0.974178515      -86.792833
9.107                0.974114414     -86.9357272
9.108                0.974050142     -87.0789857
9.109                0.973985701     -87.2226094
9.11                 0.973921089     -87.3665992
9.111                0.973856307     -87.5109562
9.112                0.973791355     -87.6556813
9.113                0.973726233     -87.8007755
9.114                 0.97366094     -87.9462399
9.115                0.973595477     -88.0920754
9.116                0.973529843     -88.2382829
9.117                 0.97346404     -88.3848635
9.118                0.973398065     -88.5318181
9.119                 0.97333192     -88.6791478
9.12                 0.973265605     -88.8268535
9.121                 0.97319912     -88.9749363
9.122                0.973132464      -89.123397
9.123                0.973065637     -89.2722367
9.124                 0.97299864     -89.4214564
9.125                0.972931473     -89.5710571
9.126                0.972864136     -89.7210397
9.127                0.972796628     -89.8714052
9.128                 0.97272895     -90.0221547
9.129                0.972661102     -90.1732891
9.13                 0.972593084     -90.3248093
9.131                0.972524896     -90.4767165
9.132                0.972456538     -90.6290115
9.133                 0.97238801     -90.7816954
9.134                0.972319312     -90.9347692
9.135                0.972250445     -91.0882338
9.136                0.972181408     -91.2420902
9.137                0.972112202     -91.3963394
9.138                0.972042827     -91.5509824
9.139                0.971973283     -91.7060202
9.14                 0.971903569     -91.8614537
9.141                0.971833687      -92.017284
9.142                0.971763636      -92.173512
9.143                0.971693417     -92.3301387
9.144                 0.97162303     -92.4871651
9.145                0.971552474     -92.6445922
9.146                 0.97148175      -92.802421
9.147                0.971410859     -92.9606523
9.148                  0.9713398     -93.1192873
9.149                0.971268574     -93.2783268
9.15                 0.971197181      -93.437772
9.151                0.971125622     -93.5976236
9.152                0.971053895     -93.7578828
9.153                0.970982003     -93.9185504
9.154                0.970909944     -94.0796275
9.155                 0.97083772      -94.241115
9.156                0.970765331     -94.4030139
9.157                0.970692776     -94.5653252
9.158                0.970620056     -94.7280498
9.159                0.970547172     -94.8911887
9.16                 0.970474124     -95.0547428
9.161                0.970400912     -95.2187132
9.162                0.970327537     -95.3831007
9.163                0.970253999     -95.5479064
9.164                0.970180298     -95.7131311
9.165                0.970106434     -95.8787759
9.166                0.970032409     -96.0448417
9.167                0.969958222     -96.2113294
9.168                0.969883874       -96.37824
9.169                0.969809366     -96.5455744
9.17                 0.969734697     -96.7133337
9.171                0.969659868     -96.8815186
9.172                 0.96958488     -97.0501302
9.173                0.969509734     -97.2191694
9.174                0.969434429     -97.3886372
9.175                0.969358966     -97.5585344
9.176                0.969283346     -97.7288619
9.177                0.969207569     -97.8996208
9.178                0.969131636      -98.070812
9.179                0.969055547     -98.2424363
9.18                 0.968979303     -98.4144947
9.181                0.968902905     -98.5869881
9.182                0.968826352     -98.7599173
9.183                0.968749646     -98.9332834
9.184                0.968672788     -99.1070873
9.185                0.968595777     -99.2813297
9.186                0.968518614     -99.4560117
9.187                0.968441301     -99.6311341
9.188                0.968363838     -99.8066978
9.189                0.968286225     -99.9827037
9.19                 0.968208464     -100.159153
9.191                0.968130554     -100.336046
9.192                0.968052497     -100.513383
9.193                0.967974293     -100.691167
9.194                0.967895943     -100.869397
9.195                0.967817449     -101.048075
9.196                 0.96773881       -101.2272
9.197                0.967660027     -101.406775
9.198                0.967581102       -101.5868
9.199                0.967502034     -101.767276
9.2                  0.967422826     -101.948204
9.201                0.967343477     -102.129584
9.202                0.967263989     -102.311418
9.203                0.967184363     -102.493706
9.204                0.967104599     -102.676448
9.205                0.967024698     -102.859647
9.206                0.966944662     -103.043303
9.207                0.966864491     -103.227415
9.208                0.966784186     -103.411987
9.209                0.966703748     -103.597017
9.21                 0.966623178     -103.782507
9.211                0.966542478     -103.968458
9.212                0.966461647      -104.15487
9.213                0.966380688     -104.341745
9.214                0.966299601     -104.529083
9.215                0.966218388     -104.716884
9.216                0.966137048      -104.90515
9.217                0.966055585     -105.093881
9.218                0.965973998     -105.283078
9.219                0.965892289     -105.472742
9.22                 0.965810459     -105.662874
9.221                0.965728509     -105.853474
9.222                0.965646441     -106.044543
9.223                0.965564255     -106.236081
9.224                0.965481953      -106.42809
9.225                0.965399536      -106.62057
9.226                0.965317005     -106.813522
9.227                0.965234362     -107.006946
9.228                0.965151608     -107.200844
9.229                0.965068744     -107.395215
9.23                 0.964985771     -107.590061
9.231                0.964902692     -107.785382
9.232                0.964819507     -107.981179
9.233                0.964736217     -108.177452
9.234                0.964652825     -108.374203
9.235                0.964569331     -108.571431
9.236                0.964485737     -108.769138
9.237                0.964402045     -108.967323
9.238                0.964318256     -109.165988
9.239                0.964234371     -109.365133
9.24                 0.964150392      -109.56476
9.241                0.964066321     -109.764867
9.242                0.963982159     -109.965456
9.243                0.963897907     -110.166528
9.244                0.963813568     -110.368083
9.245                0.963729143     -110.570121
9.246                0.963644634     -110.772643
9.247                0.963560041      -110.97565
9.248                0.963475368     -111.179143
9.249                0.963390616      -111.38312
9.25                 0.963305786     -111.587584
9.251                 0.96322088     -111.792535
9.252                0.963135899     -111.997973
9.253                0.963050847     -112.203898
9.254                0.962965724     -112.410311
9.255                0.962880533     -112.617213
9.256                0.962795275     -112.824604
9.257                0.962709952     -113.032484
9.258                0.962624565     -113.240853
9.259                0.962539118     -113.449713
9.26                 0.962453612     -113.659064
9.261                0.962368048     -113.868905
9.262                 0.96228243     -114.079238
9.263                0.962196758     -114.290062
9.264                0.962111035     -114.501379
9.265                0.962025262     -114.713187
9.266                0.961939443     -114.925489
9.267                0.961853579     -115.138283
9.268                0.961767672     -115.351571
9.269                0.961681724     -115.565352
9.27                 0.961595737     -115.779627
9.271                0.961509714     -115.994396
9.272                0.961423657      -116.20966
9.273                0.961337568     -116.425418
9.274                0.961251449     -116.641671
9.275                0.961165303     -116.858419
9.276                0.961079132     -117.075662
9.277                0.960992937     -117.293401
9.278                0.960906723     -117.511635
9.279                 0.96082049     -117.730365
9.28                 0.960734241     -117.949591
9.281                0.960647978     -118.169313
9.282                0.960561705     -118.389532
9.283                0.960475423     -118.610246
9.284                0.960389135     -118.831457
9.285                0.960302844     -119.053165
9.286                0.960216551     -119.275368
9.287                 0.96013026     -119.498069
9.288                0.960043972     -119.721266
9.289                0.959957692      -119.94496
9.29                  0.95987142      -120.16915
9.291                 0.95978516     -120.393837
9.292                0.959698915     -120.619021
9.293                0.959612687     -120.844701
9.294                0.959526478     -121.070878
9.295                0.959440292     -121.297551
9.296                0.959354132     -121.524721
9.297                0.959267999     -121.752386
9.298                0.959181897     -121.980548
9.299                0.959095828     -122.209206
9.3                  0.959009796      -122.43836
9.301                0.958923803     -122.668009
9.302                0.958837852     -122.898154
9.303                0.958751946     -123.128795
9.304                0.958666087      -123.35993
9.305                 0.95858028      -123.59156
9.306                0.958494526     -123.823685
9.307                0.958408829     -124.056305
9.308                0.958323192     -124.289418
9.309                0.958237617     -124.523025
9.31                 0.958152109     -124.757126
9.311                0.958066669     -124.991719
9.312                  0.9579813     -125.226806
9.313                0.957896007     -125.462384
9.314                0.957810792     -125.698455
9.315                0.957725658     -125.935018
9.316                0.957640609     -126.172071
9.317                0.957555647     -126.409616
9.318                0.957470776      -126.64765
9.319                0.957385999     -126.886174
9.32                 0.957301319     -127.125188
9.321                 0.95721674      -127.36469
9.322                0.957132264     -127.604681
9.323                0.957047896     -127.845159
9.324                0.956963638     -128.086125
9.325                0.956879494     -128.327577
9.326                0.956795466     -128.569515
9.327                 0.95671156     -128.811938
9.328                0.956627777     -129.054845
9.329                0.956544122     -129.298237
9.33                 0.956460597     -129.542112
9.331                0.956377207     -129.786469
9.332                0.956293955     -130.031308
9.333                0.956210843     -130.276628
9.334                0.956127876     -130.522428
9.335                0.956045058     -130.768708
9.336                0.955962391     -131.015467
9.337                 0.95587988     -131.262703
9.338                0.955797528     -131.510416
9.339                0.955715338     -131.758606
9.34                 0.955633314      -132.00727
9.341                 0.95555146     -132.256409
9.342                 0.95546978     -132.506021
9.343                0.955388276     -132.756105
9.344                0.955306954     -133.006661
9.345                0.955225815     -133.257687
9.346                0.955144865     -133.509183
9.347                0.955064107     -133.761146
9.348                0.954983545     -134.013577
9.349                0.954903182     -134.266474
9.35                 0.954823022     -134.519836
9.351                0.954743068     -134.773662
9.352                0.954663326     -135.027951
9.353                0.954583798     -135.282701
9.354                0.954504489     -135.537911
9.355                0.954425402     -135.793581
9.356                 0.95434654     -136.049708
9.357                0.954267909     -136.306292
9.358                0.954189511     -136.563331
9.359                0.954111351     -136.820824
9.36                 0.954033433      -137.07877
9.361                 0.95395576     -137.337167
9.362                0.953878336     -137.596014
9.363                0.953801165      -137.85531
9.364                0.953724252     -138.115052
9.365                  0.9536476      -138.37524
9.366                0.953571213     -138.635872
9.367                0.953495095     -138.896947
9.368                 0.95341925     -139.158462
9.369                0.953343681     -139.420418
9.37                 0.953268394     -139.682811
9.371                0.953193392      -139.94564
9.372                0.953118678     -140.208905
9.373                0.953044258     -140.472602
9.374                0.952970134     -140.736731
9.375                0.952896312     -141.001289
9.376                0.952822794     -141.266276
9.377                0.952749585     -141.531689
9.378                 0.95267669     -141.797526
9.379                0.952604111     -142.063786
9.38                 0.952531853     -142.330467
9.381                0.952459921     -142.597567
9.382                0.952388317     -142.865085
9.383                0.952317047     -143.133017
9.384                0.952246113     -143.401363
9.385                0.952175521     -143.670121
9.386                0.952105274     -143.939288
9.387                0.952035377     -144.208863
9.388                0.951965833     -144.478844
9.389                0.951896646     -144.749228
9.39                  0.95182782     -145.020014
9.391                 0.95175936     -145.291199
9.392                0.951691269     -145.562781
9.393                0.951623552     -145.834759
9.394                0.951556212      -146.10713
9.395                0.951489254     -146.379891
9.396                0.951422681     -146.653042
