! TOUCHSTONE file generated by CST DESIGN STUDIO
! Date and time: Tue Feb  4 13:48:50 2025
! Project name: C:\Work\MatlabApps\UnitCellOptimizationMatlab\CST\unitcell.cst
! Tree item: Tasks\Sweep1\SPara1\S-Parameters
! Header version: 2024
! Port assignment regex: !\s*Touchstone port\s*([0-9]+)\s*=\s*(CST MWS port|CST DES external port|CST DES block port)\s*(.+)\s* \(\"(.*)\"\)(\s*mode\s*([0-9]+))?.*
! Touchstone port assignment:
! Touchstone port 1 = CST DES external port 1 ("")
# GHz S MA R 50
9                    0.980429635     -69.9102951
9.001                0.980385371     -70.0118447
9.002                0.980340974     -70.1136386
9.003                0.980296442     -70.2156777
9.004                0.980251775     -70.3179626
9.005                0.980206973     -70.4204941
9.006                0.980162035     -70.5232729
9.007                0.980116962     -70.6262999
9.008                0.980071752     -70.7295757
9.009                0.980026406     -70.8331011
9.01                 0.979980923      -70.936877
9.011                0.979935302      -71.040904
9.012                0.979889544     -71.1451829
9.013                0.979843647     -71.2497145
9.014                0.979797613     -71.3544996
9.015                0.979751439      -71.459539
9.016                0.979705126     -71.5648333
9.017                0.979658674     -71.6703835
9.018                0.979612082     -71.7761902
9.019                 0.97956535     -71.8822543
9.02                 0.979518477     -71.9885766
9.021                0.979471463     -72.0951578
9.022                0.979424308     -72.2019987
9.023                0.979377011     -72.3091001
9.024                0.979329573     -72.4164629
9.025                0.979281992     -72.5240877
9.026                0.979234268     -72.6319755
9.027                0.979186401      -72.740127
9.028                0.979138391      -72.848543
9.029                0.979090236     -72.9572243
9.03                 0.979041938     -73.0661717
9.031                0.978993495     -73.1753861
9.032                0.978944908     -73.2848682
9.033                0.978896175     -73.3946188
9.034                0.978847296     -73.5046389
9.035                0.978798272     -73.6149291
9.036                0.978749102     -73.7254904
9.037                0.978699784     -73.8363235
9.038                 0.97865032     -73.9474292
9.039                0.978600709     -74.0588085
9.04                  0.97855095      -74.170462
9.041                0.978501042     -74.2823907
9.042                0.978450987     -74.3945954
9.043                0.978400783     -74.5070769
9.044                0.978350429      -74.619836
9.045                0.978299927     -74.7328737
9.046                0.978249274     -74.8461907
9.047                0.978198472     -74.9597878
9.048                0.978147519      -75.073666
9.049                0.978096415     -75.1878261
9.05                 0.978045161     -75.3022688
9.051                0.977993755     -75.4169952
9.052                0.977942197      -75.532006
9.053                0.977890487     -75.6473021
9.054                0.977838624     -75.7628843
9.055                0.977786609     -75.8787535
9.056                0.977734441     -75.9949106
9.057                0.977682119     -76.1113564
9.058                0.977629644     -76.2280918
9.059                0.977577014     -76.3451177
9.06                  0.97752423      -76.462435
9.061                0.977471291     -76.5800444
9.062                0.977418198      -76.697947
9.063                0.977364949     -76.8161435
9.064                0.977311544     -76.9346348
9.065                0.977257983     -77.0534219
9.066                0.977204266     -77.1725056
9.067                0.977150392     -77.2918868
9.068                0.977096361     -77.4115664
9.069                0.977042173     -77.5315452
9.07                 0.976987828     -77.6518242
9.071                0.976933324     -77.7724043
9.072                0.976878662     -77.8932863
9.073                0.976823842     -78.0144711
9.074                0.976768863     -78.1359597
9.075                0.976713725      -78.257753
9.076                0.976658428     -78.3798518
9.077                 0.97660297     -78.5022571
9.078                0.976547353     -78.6249697
9.079                0.976491576     -78.7479906
9.08                 0.976435638     -78.8713207
9.081                0.976379539     -78.9949609
9.082                0.976323279     -79.1189121
9.083                0.976266858     -79.2431752
9.084                0.976210275     -79.3677512
9.085                 0.97615353     -79.4926409
9.086                0.976096622     -79.6178453
9.087                0.976039553     -79.7433654
9.088                 0.97598232      -79.869202
9.089                0.975924924      -79.995356
9.09                 0.975867365     -80.1218284
9.091                0.975809643     -80.2486202
9.092                0.975751756     -80.3757322
9.093                0.975693706     -80.5031653
9.094                0.975635491     -80.6309207
9.095                0.975577112      -80.758999
9.096                0.975518567     -80.8874014
9.097                0.975459858     -81.0161288
9.098                0.975400983      -81.145182
9.099                0.975341943      -81.274562
9.1                  0.975282737     -81.4042698
9.101                0.975223364     -81.5343064
9.102                0.975163826     -81.6646726
9.103                0.975104121     -81.7953694
9.104                0.975044249     -81.9263978
9.105                0.974984211     -82.0577588
9.106                0.974924005     -82.1894532
9.107                0.974863632     -82.3214821
9.108                0.974803091     -82.4538463
9.109                0.974742383      -82.586547
9.11                 0.974681506     -82.7195849
9.111                0.974620462     -82.8529612
9.112                0.974559249     -82.9866766
9.113                0.974497867     -83.1207323
9.114                0.974436317     -83.2551292
9.115                0.974374598     -83.3898682
9.116                 0.97431271     -83.5249504
9.117                0.974250652     -83.6603766
9.118                0.974188425     -83.7961479
9.119                0.974126029     -83.9322652
9.12                 0.974063463     -84.0687296
9.121                0.974000726     -84.2055419
9.122                 0.97393782     -84.3427032
9.123                0.973874744     -84.4802144
9.124                0.973811497     -84.6180766
9.125                 0.97374808     -84.7562906
9.126                0.973684492     -84.8948575
9.127                0.973620733     -85.0337783
9.128                0.973556804      -85.173054
9.129                0.973492703     -85.3126855
9.13                 0.973428432     -85.4526738
9.131                0.973363989     -85.5930199
9.132                0.973299375     -85.7337248
9.133                 0.97323459     -85.8747894
9.134                0.973169633     -86.0162149
9.135                0.973104505     -86.1580021
9.136                0.973039205     -86.3001521
9.137                0.972973733     -86.4426658
9.138                0.972908089     -86.5855443
9.139                0.972842274     -86.7287885
9.14                 0.972776286     -86.8723994
9.141                0.972710127      -87.016378
9.142                0.972643796     -87.1607254
9.143                0.972577293     -87.3054425
9.144                0.972510617     -87.4505303
9.145                 0.97244377     -87.5959897
9.146                 0.97237675     -87.7418219
9.147                0.972309558     -87.8880279
9.148                0.972242194     -88.0346085
9.149                0.972174658     -88.1815648
9.15                  0.97210695     -88.3288978
9.151                 0.97203907     -88.4766085
9.152                0.971971018     -88.6246979
9.153                0.971902793     -88.7731671
9.154                0.971834397     -88.9220169
9.155                0.971765828     -89.0712484
9.156                0.971697088     -89.2208627
9.157                0.971628175     -89.3708606
9.158                0.971559091     -89.5212433
9.159                0.971489835     -89.6720116
9.16                 0.971420408     -89.8231667
9.161                0.971350809     -89.9747095
9.162                0.971281038      -90.126641
9.163                0.971211096     -90.2789623
9.164                0.971140982     -90.4316742
9.165                0.971070698     -90.5847779
9.166                0.971000242     -90.7382743
9.167                0.970929615     -90.8921644
9.168                0.970858818     -91.0464492
9.169                 0.97078785     -91.2011298
9.17                 0.970716711     -91.3562071
9.171                0.970645403     -91.5116821
9.172                0.970573924     -91.6675558
9.173                0.970502275     -91.8238292
9.174                0.970430456     -91.9805033
9.175                0.970358468     -92.1375792
9.176                 0.97028631     -92.2950577
9.177                0.970213984       -92.45294
9.178                0.970141488     -92.6112269
9.179                0.970068824     -92.7699195
9.18                 0.969995991     -92.9290188
9.181                 0.96992299     -93.0885258
9.182                0.969849822     -93.2484414
9.183                0.969776485     -93.4087667
9.184                0.969702982     -93.5695026
9.185                0.969629311     -93.7306502
9.186                0.969555474     -93.8922104
9.187                 0.96948147     -94.0541841
9.188                  0.9694073     -94.2165725
9.189                0.969332965     -94.3793764
9.19                 0.969258464     -94.5425968
9.191                0.969183798     -94.7062348
9.192                0.969108967     -94.8702912
9.193                0.969033972     -95.0347671
9.194                0.968958813     -95.1996635
9.195                0.968883491     -95.3649813
9.196                0.968808006     -95.5307215
9.197                0.968732358     -95.6968851
9.198                0.968656548     -95.8634729
9.199                0.968580576     -96.0304861
9.2                  0.968504442     -96.1979255
9.201                0.968428148     -96.3657921
9.202                0.968351694     -96.5340869
9.203                 0.96827508     -96.7028108
9.204                0.968198306     -96.8719648
9.205                0.968121374     -97.0415499
9.206                0.968044283     -97.2115669
9.207                0.967967035     -97.3820168
9.208                 0.96788963     -97.5529006
9.209                0.967812068     -97.7242193
9.21                 0.967734349     -97.8959736
9.211                0.967656476     -98.0681647
9.212                0.967578448     -98.2407934
9.213                0.967500265     -98.4138606
9.214                0.967421929     -98.5873673
9.215                 0.96734344     -98.7613143
9.216                0.967264799     -98.9357027
9.217                0.967186006     -99.1105334
9.218                0.967107063     -99.2858072
9.219                0.967027969      -99.461525
9.22                 0.966948726     -99.6376878
9.221                0.966869334     -99.8142965
9.222                0.966789794     -99.9913519
9.223                0.966710107     -100.168855
9.224                0.966630273     -100.346807
9.225                0.966550294     -100.525208
9.226                 0.96647017     -100.704059
9.227                0.966389902     -100.883362
9.228                0.966309491     -101.063116
9.229                0.966228938     -101.243324
9.23                 0.966148243     -101.423985
9.231                0.966067408     -101.605102
9.232                0.965986433     -101.786673
9.233                0.965905319     -101.968701
9.234                0.965824067     -102.151187
9.235                0.965742679      -102.33413
9.236                0.965661154     -102.517532
9.237                0.965579495     -102.701394
9.238                0.965497702     -102.885717
9.239                0.965415775     -103.070501
9.24                 0.965333717     -103.255748
9.241                0.965251528     -103.441457
9.242                 0.96516921      -103.62763
9.243                0.965086762     -103.814268
9.244                0.965004187     -104.001371
9.245                0.964921485     -104.188941
9.246                0.964838658     -104.376977
9.247                0.964755707     -104.565482
9.248                0.964672633     -104.754455
9.249                0.964589436     -104.943897
9.25                 0.964506119      -105.13381
9.251                0.964422683     -105.324193
9.252                0.964339128     -105.515048
9.253                0.964255456     -105.706375
9.254                0.964171669     -105.898176
9.255                0.964087767      -106.09045
9.256                0.964003752     -106.283199
9.257                0.963919625     -106.476423
9.258                0.963835388     -106.670123
9.259                0.963751042     -106.864299
9.26                 0.963666588     -107.058953
9.261                0.963582027     -107.254085
9.262                0.963497362     -107.449696
9.263                0.963412593     -107.645786
9.264                0.963327723     -107.842357
9.265                0.963242751     -108.039408
9.266                0.963157681      -108.23694
9.267                0.963072514     -108.434954
9.268                 0.96298725     -108.633451
9.269                0.962901892     -108.832432
9.27                 0.962816441     -109.031896
9.271                0.962730899     -109.231844
9.272                0.962645267     -109.432278
9.273                0.962559548     -109.633198
9.274                0.962473742     -109.834603
9.275                0.962387851     -110.036496
9.276                0.962301878     -110.238876
9.277                0.962215823     -110.441743
9.278                0.962129689       -110.6451
9.279                0.962043477     -110.848945
9.28                  0.96195719      -111.05328
9.281                0.961870828     -111.258105
9.282                0.961784394      -111.46342
9.283                0.961697889     -111.669227
9.284                0.961611316     -111.875525
9.285                0.961524676     -112.082315
9.286                0.961437972     -112.289597
9.287                0.961351204     -112.497373
9.288                0.961264376     -112.705642
9.289                0.961177489     -112.914404
9.29                 0.961090545     -113.123661
9.291                0.961003546     -113.333413
9.292                0.960916495      -113.54366
9.293                0.960829392     -113.754402
9.294                0.960742241      -113.96564
9.295                0.960655043     -114.177374
9.296                0.960567801     -114.389605
9.297                0.960480517     -114.602332
9.298                0.960393192     -114.815557
9.299                 0.96030583     -115.029279
9.3                  0.960218432     -115.243499
9.301                   0.960131     -115.458218
9.302                0.960043537     -115.673434
9.303                0.959956045      -115.88915
9.304                0.959868527     -116.105364
9.305                0.959780985     -116.322078
9.306                 0.95969342     -116.539291
9.307                0.959605836     -116.757003
9.308                0.959518235     -116.975216
9.309                0.959430619     -117.193928
9.31                 0.959342991     -117.413141
9.311                0.959255354     -117.632854
9.312                0.959167709     -117.853068
9.313                0.959080059     -118.073782
9.314                0.958992407     -118.294998
9.315                0.958904755     -118.516714
9.316                0.958817106     -118.738931
9.317                0.958729463     -118.961649
9.318                0.958641828     -119.184868
9.319                0.958554204     -119.408589
9.32                 0.958466593     -119.632811
9.321                0.958378998     -119.857534
9.322                0.958291423     -120.082758
9.323                0.958203869     -120.308484
9.324                0.958116339     -120.534711
9.325                0.958028837     -120.761439
9.326                0.957941364     -120.988668
9.327                0.957853925     -121.216398
9.328                0.957766521     -121.444629
9.329                0.957679156     -121.673362
9.33                 0.957591833     -121.902595
9.331                0.957504553     -122.132328
9.332                0.957417322     -122.362562
9.333                 0.95733014     -122.593297
9.334                0.957243012     -122.824531
9.335                 0.95715594     -123.056266
9.336                0.957068928       -123.2885
9.337                0.956981978     -123.521234
9.338                0.956895094     -123.754467
9.339                0.956808279     -123.988198
9.34                 0.956721535     -124.222429
9.341                0.956634866     -124.457158
9.342                0.956548275     -124.692385
9.343                0.956461766     -124.928109
9.344                0.956375341     -125.164331
9.345                0.956289004      -125.40105
9.346                0.956202758     -125.638266
9.347                0.956116606     -125.875977
9.348                0.956030552     -126.114185
9.349                0.955944598     -126.352887
9.35                 0.955858749     -126.592085
9.351                0.955773008     -126.831777
9.352                0.955687378     -127.071962
9.353                0.955601862     -127.312641
9.354                0.955516464     -127.553813
9.355                0.955431187     -127.795476
9.356                0.955346035     -128.037632
9.357                0.955261011     -128.280278
9.358                0.955176119     -128.523414
9.359                0.955091362     -128.767041
9.36                 0.955006744     -129.011156
9.361                0.954922268      -129.25576
9.362                0.954837939     -129.500851
9.363                0.954753759     -129.746429
9.364                0.954669732     -129.992494
9.365                0.954585861     -130.239043
9.366                0.954502152     -130.486078
9.367                0.954418606     -130.733596
9.368                0.954335228     -130.981597
9.369                0.954252022      -131.23008
9.37                 0.954168991     -131.479045
9.371                0.954086139      -131.72849
9.372                 0.95400347     -131.978414
9.373                0.953920987     -132.228817
9.374                0.953838695     -132.479697
9.375                0.953756596     -132.731054
9.376                0.953674696     -132.982886
9.377                0.953592997     -133.235193
9.378                0.953511505     -133.487973
9.379                0.953430221     -133.741226
9.38                 0.953349151      -133.99495
9.381                0.953268298     -134.249145
9.382                0.953187667     -134.503808
9.383                 0.95310726     -134.758939
9.384                0.953027083     -135.014537
9.385                0.952947139     -135.270601
9.386                0.952867431     -135.527129
9.387                0.952787965      -135.78412
9.388                0.952708743     -136.041572
9.389                0.952629771     -136.299485
9.39                 0.952551051     -136.557858
9.391                0.952472588     -136.816688
9.392                0.952394387     -137.075974
9.393                 0.95231645     -137.335716
9.394                0.952238782     -137.595911
9.395                0.952161388     -137.856558
9.396                 0.95208427     -138.117657
