! TOUCHSTONE file generated by CST DESIGN STUDIO
! Date and time: Tue Feb  4 13:48:44 2025
! Project name: C:\Work\MatlabApps\UnitCellOptimizationMatlab\CST\unitcell.cst
! Tree item: Tasks\Sweep1\SPara1\S-Parameters
! Header version: 2024
! Port assignment regex: !\s*Touchstone port\s*([0-9]+)\s*=\s*(CST MWS port|CST DES external port|CST DES block port)\s*(.+)\s* \(\"(.*)\"\)(\s*mode\s*([0-9]+))?.*
! Touchstone port assignment:
! Touchstone port 1 = CST DES external port 1 ("")
# GHz S MA R 50
9                    0.979698365     -76.9284932
9.001                0.979648319     -77.0460516
9.002                0.979598124     -77.1639015
9.003                0.979547778     -77.2820435
9.004                0.979497282     -77.4004786
9.005                0.979446635     -77.5192077
9.006                0.979395837     -77.6382316
9.007                0.979344888     -77.7575513
9.008                0.979293787     -77.8771674
9.009                0.979242534     -77.9970811
9.01                 0.979191128      -78.117293
9.011                 0.97913957     -78.2378042
9.012                0.979087858     -78.3586154
9.013                0.979035994     -78.4797276
9.014                0.978983975     -78.6011416
9.015                0.978931803     -78.7228584
9.016                0.978879476     -78.8448788
9.017                0.978826995     -78.9672038
9.018                0.978774359     -79.0898341
9.019                0.978721568     -79.2127707
9.02                 0.978668622     -79.3360146
9.021                 0.97861552     -79.4595665
9.022                0.978562261     -79.5834274
9.023                0.978508847     -79.7075983
9.024                0.978455275     -79.8320799
9.025                0.978401547     -79.9568732
9.026                0.978347662     -80.0819792
9.027                0.978293619     -80.2073986
9.028                0.978239418     -80.3331325
9.029                 0.97818506     -80.4591817
9.03                 0.978130543     -80.5855472
9.031                0.978075867     -80.7122299
9.032                0.978021033     -80.8392306
9.033                0.977966039     -80.9665504
9.034                0.977910886       -81.09419
9.035                0.977855574     -81.2221505
9.036                0.977800101     -81.3504328
9.037                0.977744468     -81.4790378
9.038                0.977688675     -81.6079664
9.039                0.977632721     -81.7372195
9.04                 0.977576607     -81.8667981
9.041                0.977520331     -81.9967032
9.042                0.977463893     -82.1269355
9.043                0.977407294     -82.2574962
9.044                0.977350533      -82.388386
9.045                 0.97729361      -82.519606
9.046                0.977236525     -82.6511571
9.047                0.977179277     -82.7830402
9.048                0.977121866     -82.9152563
9.049                0.977064292     -83.0478062
9.05                 0.977006554     -83.1806911
9.051                0.976948654     -83.3139117
9.052                0.976890589     -83.4474691
9.053                0.976832361     -83.5813641
9.054                0.976773969     -83.7155978
9.055                0.976715412     -83.8501711
9.056                0.976656691     -83.9850849
9.057                0.976597805     -84.1203402
9.058                0.976538754      -84.255938
9.059                0.976479538     -84.3918792
9.06                 0.976420157     -84.5281647
9.061                 0.97636061     -84.6647956
9.062                0.976300898     -84.8017727
9.063                 0.97624102     -84.9390971
9.064                0.976180976     -85.0767697
9.065                0.976120766     -85.2147914
9.066                 0.97606039     -85.3531632
9.067                0.975999847     -85.4918861
9.068                0.975939138     -85.6309611
9.069                0.975878262     -85.7703891
9.07                  0.97581722     -85.9101711
9.071                 0.97575601      -86.050308
9.072                0.975694633     -86.1908009
9.073                0.975633089     -86.3316506
9.074                0.975571378     -86.4728582
9.075                0.975509499     -86.6144246
9.076                0.975447452     -86.7563508
9.077                0.975385238     -86.8986378
9.078                0.975322856     -87.0412865
9.079                0.975260307      -87.184298
9.08                 0.975197589     -87.3276731
9.081                0.975134703     -87.4714129
9.082                0.975071649     -87.6155184
9.083                0.975008427     -87.7599905
9.084                0.974945037     -87.9048301
9.085                0.974881478     -88.0500384
9.086                0.974817751     -88.1956161
9.087                0.974753856     -88.3415644
9.088                0.974689792     -88.4878843
9.089                 0.97462556     -88.6345766
9.09                 0.974561159     -88.7816423
9.091                0.974496589     -88.9290825
9.092                0.974431851     -89.0768981
9.093                0.974366945     -89.2250901
9.094                0.974301869     -89.3736595
9.095                0.974236626     -89.5226073
9.096                0.974171213     -89.6719343
9.097                0.974105632     -89.8216417
9.098                0.974039883     -89.9717304
9.099                0.973973965     -90.1222014
9.1                  0.973907878     -90.2730556
9.101                0.973841623     -90.4242941
9.102                  0.9737752     -90.5759177
9.103                0.973708608     -90.7279276
9.104                0.973641848     -90.8803246
9.105                 0.97357492     -91.0331098
9.106                0.973507823     -91.1862842
9.107                0.973440559     -91.3398486
9.108                0.973373126     -91.4938041
9.109                0.973305526     -91.6481516
9.11                 0.973237758     -91.8028923
9.111                0.973169822     -91.9580269
9.112                0.973101719     -92.1135565
9.113                0.973033449      -92.269482
9.114                0.972965011     -92.4258046
9.115                0.972896406      -92.582525
9.116                0.972827634     -92.7396443
9.117                0.972758695     -92.8971634
9.118                 0.97268959     -93.0550834
9.119                0.972620319     -93.2134052
9.12                 0.972550881     -93.3721297
9.121                0.972481277      -93.531258
9.122                0.972411507      -93.690791
9.123                0.972341572     -93.8507296
9.124                0.972271471     -94.0110749
9.125                0.972201205     -94.1718277
9.126                0.972130774     -94.3329891
9.127                0.972060179       -94.49456
9.128                0.971989419     -94.6565414
9.129                0.971918495     -94.8189342
9.13                 0.971847408     -94.9817395
9.131                0.971776156      -95.144958
9.132                0.971704742     -95.3085909
9.133                0.971633165     -95.4726389
9.134                0.971561425     -95.6371032
9.135                0.971489523     -95.8019846
9.136                0.971417459     -95.9672842
9.137                0.971345233     -96.1330027
9.138                0.971272846     -96.2991412
9.139                0.971200299     -96.4657006
9.14                 0.971127591     -96.6326819
9.141                0.971054722      -96.800086
9.142                0.970981695     -96.9679138
9.143                0.970908508     -97.1361662
9.144                0.970835162     -97.3048442
9.145                0.970761658     -97.4739487
9.146                0.970687997     -97.6434806
9.147                0.970614177     -97.8134409
9.148                0.970540201     -97.9838305
9.149                0.970466069     -98.1546502
9.15                  0.97039178      -98.325901
9.151                0.970317336     -98.4975839
9.152                0.970242738     -98.6696996
9.153                0.970167985     -98.8422491
9.154                0.970093078     -99.0152334
9.155                0.970018018     -99.1886533
9.156                0.969942805     -99.3625097
9.157                 0.96986744     -99.5368035
9.158                0.969791923     -99.7115355
9.159                0.969716256     -99.8867068
9.16                 0.969640439     -100.062318
9.161                0.969564472      -100.23837
9.162                0.969488356     -100.414864
9.163                0.969412091     -100.591801
9.164                0.969335679     -100.769181
9.165                0.969259121     -100.947006
9.166                0.969182416     -101.125276
9.167                0.969105565     -101.303992
9.168                 0.96902857     -101.483155
9.169                0.968951431     -101.662765
9.17                 0.968874149     -101.842825
9.171                0.968796724     -102.023334
9.172                0.968719157     -102.204293
9.173                 0.96864145     -102.385703
9.174                0.968563603     -102.567565
9.175                0.968485616      -102.74988
9.176                0.968407491     -102.932649
9.177                0.968329229     -103.115872
9.178                 0.96825083      -103.29955
9.179                0.968172296     -103.483685
9.18                 0.968093626     -103.668276
9.181                0.968014823     -103.853324
9.182                0.967935887     -104.038831
9.183                0.967856819     -104.224798
9.184                 0.96777762     -104.411224
9.185                0.967698291      -104.59811
9.186                0.967618833     -104.785459
9.187                0.967539247     -104.973269
9.188                0.967459535     -105.161542
9.189                0.967379696     -105.350279
9.19                 0.967299733     -105.539481
9.191                0.967219646     -105.729147
9.192                0.967139436      -105.91928
9.193                0.967059105     -106.109879
9.194                0.966978654     -106.300945
9.195                0.966898083     -106.492479
9.196                0.966817395     -106.684482
9.197                0.966736589     -106.876955
9.198                0.966655669     -107.069897
9.199                0.966574633     -107.263311
9.2                  0.966493485     -107.457195
9.201                0.966412225     -107.651552
9.202                0.966330854     -107.846381
9.203                0.966249374     -108.041684
9.204                0.966167787     -108.237461
9.205                0.966086092     -108.433712
9.206                0.966004292     -108.630439
9.207                0.965922389     -108.827642
9.208                0.965840383     -109.025321
9.209                0.965758276     -109.223477
9.21                 0.965676069     -109.422111
9.211                0.965593764     -109.621223
9.212                0.965511362     -109.820813
9.213                0.965428865     -110.020884
9.214                0.965346274     -110.221434
9.215                0.965263591     -110.422465
9.216                0.965180818     -110.623977
9.217                0.965097955      -110.82597
9.218                0.965015005     -111.028445
9.219                0.964931969     -111.231403
9.22                 0.964848848     -111.434844
9.221                0.964765645     -111.638769
9.222                0.964682361     -111.843178
9.223                0.964598997     -112.048071
9.224                0.964515556     -112.253449
9.225                0.964432039     -112.459313
9.226                0.964348448     -112.665663
9.227                0.964264784     -112.872499
9.228                 0.96418105     -113.079822
9.229                0.964097247     -113.287632
9.23                 0.964013377     -113.495929
9.231                0.963929442     -113.704715
9.232                0.963845444     -113.913988
9.233                0.963761384     -114.123751
9.234                0.963677264     -114.334002
9.235                0.963593087     -114.544743
9.236                0.963508855     -114.755974
9.237                0.963424569     -114.967695
9.238                0.963340231     -115.179906
9.239                0.963255843     -115.392608
9.24                 0.963171408       -115.6058
9.241                0.963086928     -115.819484
9.242                0.963002403      -116.03366
9.243                0.962917838     -116.248327
9.244                0.962833233     -116.463486
9.245                0.962748591     -116.679137
9.246                0.962663914     -116.895281
9.247                0.962579204     -117.111918
9.248                0.962494464     -117.329047
9.249                0.962409695     -117.546669
9.25                 0.962324901     -117.764784
9.251                0.962240082     -117.983393
9.252                0.962155242     -118.202495
9.253                0.962070382     -118.422091
9.254                0.961985506      -118.64218
9.255                0.961900615     -118.862763
9.256                0.961815712      -119.08384
9.257                0.961730799     -119.305411
9.258                0.961645878     -119.527475
9.259                0.961560953     -119.750034
9.26                 0.961476026     -119.973087
9.261                0.961391098     -120.196633
9.262                0.961306173     -120.420674
9.263                0.961221253     -120.645209
9.264                 0.96113634     -120.870237
9.265                0.961051438      -121.09576
9.266                0.960966549     -121.321776
9.267                0.960881675     -121.548286
9.268                0.960796819      -121.77529
9.269                0.960711983     -122.002787
9.27                 0.960627171     -122.230778
9.271                0.960542385     -122.459261
9.272                0.960457628     -122.688238
9.273                0.960372903     -122.917708
9.274                0.960288212     -123.147671
9.275                0.960203558     -123.378126
9.276                0.960118943     -123.609073
9.277                0.960034372     -123.840512
9.278                0.959949846     -124.072443
9.279                0.959865369     -124.304866
9.28                 0.959780943      -124.53778
9.281                0.959696571     -124.771184
9.282                0.959612257     -125.005079
9.283                0.959528002     -125.239465
9.284                0.959443811      -125.47434
9.285                0.959359686     -125.709704
9.286                0.959275631     -125.945558
9.287                0.959191647       -126.1819
9.288                0.959107739     -126.418731
9.289                0.959023909     -126.656049
9.29                  0.95894016     -126.893855
9.291                0.958856496     -127.132147
9.292                 0.95877292     -127.370925
9.293                0.958689435     -127.610189
9.294                0.958606043     -127.849939
9.295                0.958522749     -128.090173
9.296                0.958439556     -128.330891
9.297                0.958356466     -128.572092
9.298                0.958273483     -128.813776
9.299                0.958190611     -129.055943
9.3                  0.958107852      -129.29859
9.301                0.958025209     -129.541719
9.302                0.957942687     -129.785328
9.303                0.957860289     -130.029416
9.304                0.957778017     -130.273982
9.305                0.957695876     -130.519027
9.306                0.957613869     -130.764548
9.307                0.957531998     -131.010546
9.308                0.957450268     -131.257019
9.309                0.957368683     -131.503967
9.31                 0.957287244     -131.751389
9.311                0.957205957     -131.999283
9.312                0.957124824      -132.24765
9.313                0.957043849     -132.496487
9.314                0.956963036     -132.745794
9.315                0.956882388     -132.995571
9.316                0.956801908     -133.245815
9.317                0.956721601     -133.496527
9.318                0.956641469     -133.747704
9.319                0.956561517     -133.999347
9.32                 0.956481749     -134.251454
9.321                0.956402166     -134.504023
9.322                0.956322775     -134.757054
9.323                0.956243577     -135.010545
9.324                0.956164577     -135.264496
9.325                0.956085779     -135.518905
9.326                0.956007185     -135.773771
9.327                0.955928801     -136.029093
9.328                0.955850629     -136.284869
9.329                0.955772674     -136.541098
9.33                 0.955694939     -136.797779
9.331                0.955617427     -137.054911
9.332                0.955540144     -137.312492
9.333                0.955463092     -137.570521
9.334                0.955386275     -137.828996
9.335                0.955309697     -138.087916
9.336                0.955233362      -138.34728
9.337                0.955157274     -138.607086
9.338                0.955081436     -138.867333
9.339                0.955005853     -139.128019
9.34                 0.954930528     -139.389142
9.341                0.954855465     -139.650702
9.342                0.954780668     -139.912696
9.343                0.954706141     -140.175123
9.344                0.954631888     -140.437981
9.345                0.954557913     -140.701269
9.346                0.954484219     -140.964985
9.347                 0.95441081     -141.229127
9.348                0.954337691     -141.493693
9.349                0.954264866     -141.758683
9.35                 0.954192337     -142.024093
9.351                0.954120109     -142.289923
9.352                0.954048187      -142.55617
9.353                0.953976574     -142.822833
9.354                0.953905273      -143.08991
9.355                0.953834289     -143.357398
9.356                0.953763626     -143.625296
9.357                0.953693288     -143.893603
9.358                0.953623278     -144.162316
9.359                0.953553601     -144.431432
9.36                 0.953484261     -144.700951
9.361                 0.95341526      -144.97087
9.362                0.953346605     -145.241187
9.363                0.953278297       -145.5119
9.364                0.953210342     -145.783007
9.365                0.953142743     -146.054506
9.366                0.953075503     -146.326394
9.367                0.953008628      -146.59867
9.368                0.952942121     -146.871331
9.369                0.952875986     -147.144375
9.37                 0.952810226       -147.4178
9.371                0.952744846     -147.691604
9.372                0.952679849     -147.965783
9.373                 0.95261524     -148.240337
9.374                0.952551022     -148.515263
9.375                0.952487199     -148.790558
9.376                0.952423775     -149.066219
9.377                0.952360754     -149.342246
9.378                 0.95229814     -149.618634
9.379                0.952235936     -149.895382
9.38                 0.952174147     -150.172488
9.381                0.952112776     -150.449948
9.382                0.952051827      -150.72776
9.383                0.951991303     -151.005922
9.384                 0.95193121     -151.284431
9.385                0.951871549     -151.563284
9.386                0.951812326      -151.84248
9.387                0.951753543     -152.122015
9.388                0.951695205     -152.401886
9.389                0.951637316     -152.682091
9.39                 0.951579878     -152.962628
9.391                0.951522896     -153.243493
9.392                0.951466373     -153.524684
9.393                0.951410313     -153.806198
9.394                 0.95135472     -154.088033
9.395                0.951299597     -154.370185
9.396                0.951244947     -154.652651
