! TOUCHSTONE file generated by CST DESIGN STUDIO
! Date and time: Tue Feb  4 18:18:09 2025
! Project name: C:\Work\MatlabApps\UnitCellOptimizationMatlab\CST\unitcell.cst
! Tree item: Tasks\Sweep1\SPara1\S-Parameters
! Header version: 2024
! Port assignment regex: !\s*Touchstone port\s*([0-9]+)\s*=\s*(CST MWS port|CST DES external port|CST DES block port)\s*(.+)\s* \(\"(.*)\"\)(\s*mode\s*([0-9]+))?.*
! Touchstone port assignment:
! Touchstone port 1 = CST DES external port 1 ("")
# GHz S MA R 50
9                    0.965372598     -44.7120789
9.001                0.965327944     -44.7667659
9.002                0.965283646      -44.821384
9.003                0.965239705     -44.8759334
9.004                0.965196119     -44.9304145
9.005                0.965150907     -44.9855431
9.006                0.965106061     -45.0406008
9.007                0.965061582     -45.0955879
9.008                0.965017469     -45.1505047
9.009                0.964971568     -45.2061056
9.01                 0.964926043     -45.2616339
9.011                0.964880897     -45.3170895
9.012                0.964836129     -45.3724728
9.013                0.964789605     -45.4285331
9.014                0.964743471     -45.4845186
9.015                0.964697728     -45.5404293
9.016                0.964652376     -45.5962659
9.017                0.964605177     -45.6527831
9.018                0.964558382     -45.7092232
9.019                0.964511989     -45.7655866
9.02                 0.964466001     -45.8218736
9.021                0.964418117     -45.8788802
9.022                0.964370649     -45.9358078
9.023                0.964323599     -45.9926564
9.024                0.964276967     -46.0494264
9.025                0.964228432     -46.1069088
9.026                 0.96418033     -46.1643098
9.027                0.964132661     -46.2216295
9.028                0.964085425     -46.2788683
9.029                0.964036163       -46.33684
9.03                 0.963987351     -46.3947278
9.031                0.963938989     -46.4525319
9.032                0.963891075      -46.510253
9.033                0.963841081      -46.568702
9.034                0.963791553     -46.6270646
9.035                0.963742493     -46.6853412
9.036                  0.9636939     -46.7435322
9.037                0.963643247     -46.8024918
9.038                0.963593079     -46.8613627
9.039                0.963543399      -46.920145
9.04                 0.963494206     -46.9788392
9.041                0.963442723      -47.038305
9.042                0.963391746     -47.0976792
9.043                0.963341278     -47.1569623
9.044                0.963291317     -47.2161549
9.045                0.963239124     -47.2761098
9.046                0.963187462     -47.3359706
9.047                0.963136331     -47.3957376
9.048                0.963085733     -47.4554112
9.049                0.963032745     -47.5159015
9.05                 0.962980313      -47.576295
9.051                0.962928437     -47.6365919
9.052                0.962877118     -47.6967925
9.053                0.962823354     -47.7578031
9.054                0.962770175     -47.8187138
9.055                0.962717579      -47.879525
9.056                0.962665568     -47.9402373
9.057                0.962610985     -48.0017633
9.058                0.962557016     -48.0631864
9.059                0.962503663     -48.1245071
9.06                 0.962450928     -48.1857257
9.061                 0.96239554     -48.2477993
9.062                  0.9623408     -48.3097673
9.063                0.962286711     -48.3716296
9.064                0.962233275     -48.4333867
9.065                0.962176991     -48.4960033
9.066                0.962121395     -48.5585107
9.067                0.962066487     -48.6209091
9.068                 0.96201227     -48.6831994
9.069                0.961955135     -48.7463624
9.07                 0.961898732     -48.8094127
9.071                0.961843061     -48.8723508
9.072                0.961788123     -48.9351776
9.073                0.961730104     -48.9988787
9.074                0.961672865     -49.0624636
9.075                0.961616408     -49.1259328
9.076                0.961560734     -49.1892869
9.077                0.961501738     -49.2535697
9.078                0.961443579     -49.3177329
9.079                0.961386257     -49.3817766
9.08                 0.961329776     -49.4457015
9.081                0.961269931     -49.5105505
9.082                0.961210985     -49.5752756
9.083                0.961152941     -49.6398776
9.084                0.961095799     -49.7043573
9.085                  0.9610349     -49.7697715
9.086                0.960974975     -49.8350579
9.087                0.960916025     -49.9002171
9.088                0.960858052     -49.9652498
9.089                0.960796171     -50.0312568
9.09                 0.960735347     -50.0971321
9.091                0.960675583      -50.162876
9.092                0.960616883     -50.2284891
9.093                0.960554001     -50.2950886
9.094                0.960492277     -50.3615517
9.095                0.960431713      -50.427879
9.096                 0.96037231     -50.4940714
9.097                0.960308294     -50.5612577
9.098                 0.96024555     -50.6283029
9.099                0.960184083     -50.6952077
9.1                  0.960123895     -50.7619727
9.101                0.960058759      -50.829776
9.102                0.959995032     -50.8974337
9.103                0.959932721     -50.9649459
9.104                0.959871829     -51.0323134
9.105                0.959805481     -51.1007332
9.106                 0.95974071     -51.1690017
9.107                0.959677521     -51.2371195
9.108                0.959615915     -51.3050874
9.109                0.959548311     -51.3741186
9.11                 0.959482485     -51.4429927
9.111                 0.95941844     -51.5117105
9.112                0.959356183     -51.5802726
9.113                0.959287285     -51.6499471
9.114                0.959220408     -51.7194588
9.115                0.959155561      -51.788808
9.116                 0.95909275     -51.8579952
9.117                0.959022341     -51.9283117
9.118                0.958954261     -51.9984583
9.119                0.958888519     -52.0684354
9.12                 0.958825121      -52.138244
9.121                0.958753162     -52.2092084
9.122                0.958683922     -52.2799952
9.123                0.958617411     -52.3506048
9.124                0.958553631     -52.4210386
9.125                0.958479949     -52.4926438
9.126                0.958409483     -52.5640627
9.127                0.958342245     -52.6352961
9.128                0.958278244     -52.7063444
9.129                0.958202442      -52.778636
9.13                 0.958130516     -52.8507316
9.131                0.958062482     -52.9226313
9.132                0.957998353     -52.9943356
9.133                0.957920209     -53.0673099
9.134                0.957846831     -53.1400757
9.135                0.957778235     -53.2126331
9.136                 0.95771443     -53.2849829
9.137                0.957633382     -53.3586282
9.138                0.957558334     -53.4320498
9.139                0.957489306     -53.5052474
9.14                 0.957426318     -53.5782206
9.141                0.957341452     -53.6526008
9.142                0.957264367     -53.7267372
9.143                0.957195096     -53.8006279
9.144                0.957133666     -53.8742714
9.145                0.957043592     -53.9493865
9.146                0.956964018     -54.0242275
9.147                0.956894976     -54.0987912
9.148                0.956836488     -54.1730747
9.149                 0.95673889     -54.2489382
9.15                 0.956656136     -54.3244809
9.151                0.956588266     -54.3996952
9.152                0.956535316     -54.4745735
9.153                 0.95642504     -54.5512999
9.154                0.956337202     -54.6276226
9.155                0.956271871      -54.703522
9.156                 0.95622908     -54.7789795
9.157                0.956095402     -54.8567125
9.158                0.955999128     -54.9338672
9.159                0.955940243     -55.0103902
9.16                  0.95591867     -55.0862292
9.161                0.955731838     -55.1655055
9.162                 0.95561736     -55.2437561
9.163                0.955574658     -55.3207824
9.164                0.955602828     -55.3963934
9.165                 0.95526468     -55.4795189
9.166                0.955103392     -55.5601662
9.167                 0.95511226     -55.6371679
9.168                0.955282841     -55.7094179
9.169                0.954630036     -55.7992149
9.17                 0.954397155     -55.8859581
9.171                0.954532203     -55.9630868
9.172                0.954957873     -56.0254533
9.173                0.954332898     -56.0925491
9.174                 0.95402968     -56.1719151
9.175                0.954114584     -56.2580701
9.176                0.954628192     -56.3445206
9.177                0.954289556     -56.4224241
9.178                0.954117269     -56.5027276
9.179                0.954117013     -56.5844468
9.18                  0.95429302     -56.6665763
9.181                0.954090854     -56.7476484
9.182                 0.95396618     -56.8290049
9.183                0.953919977     -56.9104564
9.184                0.953952959     -56.9918129
9.185                0.953800462     -57.0741378
9.186                 0.95369195     -57.1563402
9.187                0.953627705     -57.2383644
9.188                0.953607949     -57.3201553
9.189                0.953477453     -57.4033889
9.19                 0.953375476     -57.4863831
9.191                0.953302164      -57.569117
9.192                0.953257661     -57.6515698
9.193                0.953138309     -57.7356853
9.194                0.953039181     -57.8195159
9.195                 0.95296041     -57.9030522
9.196                 0.95290209     -57.9862856
9.197                0.952788706     -58.0712459
9.198                0.952690648     -58.1558968
9.199                 0.95260799     -58.2402347
9.2                  0.952540791     -58.3242563
9.201                0.952430858     -58.4100537
9.202                0.952333084     -58.4955255
9.203                0.952247523     -58.5806708
9.204                0.952174227     -58.6654888
9.205                0.952066194     -58.7521458
9.206                0.951968137     -58.8384651
9.207                0.951880119     -58.9244461
9.208                0.951802182     -59.0100895
9.209                0.951694953     -59.0976175
9.21                 0.951596179     -59.1847949
9.211                  0.9515059     -59.2716228
9.212                0.951424146     -59.3581027
9.213                0.951317277     -59.4465047
9.214                0.951217737     -59.5345437
9.215                0.951125555     -59.6222217
9.216                0.951040748     -59.7095417
9.217                0.950933739      -59.798807
9.218                0.950833196     -59.8876973
9.219                0.950739145     -59.9762149
9.22                 0.950651607     -60.0643623
9.221                0.950544066     -60.1545512
9.222                0.950442328     -60.2443525
9.223                0.950346422     -60.3337685
9.224                0.950256367     -60.4228021
9.225                0.950148129     -60.5138986
9.226                0.950045179     -60.6045935
9.227                0.949947534     -60.6948901
9.228                0.949855206     -60.7847923
9.229                0.949746062     -60.8767971
9.23                 0.949641788     -60.9683865
9.231                0.949542399     -61.0595639
9.232                0.949447911     -61.1503329
9.233                 0.94933767     -61.2432959
9.234                0.949231963     -61.3358292
9.235                0.949130811     -61.4279359
9.236                0.949034227     -61.5196197
9.237                0.948922991     -61.6135355
9.238                0.948816026     -61.7070054
9.239                0.948713347     -61.8000334
9.24                  0.94861496      -61.892624
9.241                0.948502397     -61.9874854
9.242                0.948393882     -62.0818843
9.243                0.948289425     -62.1758254
9.244                0.948189037      -62.269313
9.245                 0.94807511     -62.3651709
9.246                0.947965045     -62.4605502
9.247                0.947858859     -62.5554544
9.248                 0.94775656     -62.6498882
9.249                0.947641218     -62.7467434
9.25                 0.947529598     -62.8431008
9.251                 0.94742171     -62.9389652
9.252                 0.94731756     -63.0343421
9.253                 0.94720084     -63.1322029
9.254                0.947087726     -63.2295464
9.255                0.946978226     -63.3263781
9.256                0.946872339     -63.4227047
9.257                0.946753952     -63.5215698
9.258                0.946639073     -63.6198975
9.259                0.946527708     -63.7176937
9.26                 0.946419863     -63.8149642
9.261                0.946300003     -63.9148867
9.262                0.946183577      -64.014251
9.263                0.946070591     -64.1130627
9.264                0.945961049     -64.2113282
9.265                0.945839527     -64.3123063
9.266                0.945721387     -64.4127029
9.267                0.945606631     -64.5125248
9.268                0.945495257     -64.6117798
9.269                0.945372044     -64.7138083
9.27                 0.945252168     -64.8152319
9.271                0.945135633     -64.9160577
9.272                 0.94502244      -65.016293
9.273                0.944897475     -65.1194165
9.274                0.944775815     -65.2219109
9.275                0.944657467     -65.3237829
9.276                0.944542431     -65.4250402
9.277                0.944415714     -65.5292698
9.278                0.944292294     -65.6328428
9.279                0.944172173     -65.7357674
9.28                 0.944055347     -65.8380527
9.281                0.943926894     -65.9433802
9.282                0.943801735     -66.0480232
9.283                0.943679871     -66.1519908
9.284                0.943561299     -66.2552917
9.285                0.943430919      -66.361779
9.286                0.943303838     -66.4675534
9.287                 0.94318006      -66.572623
9.288                0.943059583     -66.6769973
9.289                0.942927339      -66.784632
9.29                 0.942798418     -66.8915214
9.291                 0.94267282     -66.9976754
9.292                0.942550538     -67.1031051
9.293                0.942416339     -67.2119089
9.294                0.942285494     -67.3199339
9.295                0.942157998     -67.4271911
9.296                0.942033841     -67.5336935
9.297                0.941897652      -67.643673
9.298                0.941764857     -67.7528385
9.299                 0.94163545     -67.8612021
9.3                  0.941509426     -67.9687756
9.301                0.941371261     -68.0799767
9.302                0.941236537      -68.190327
9.303                0.941105251     -68.2998387
9.304                0.940977394      -68.408525
9.305                0.940837141     -68.5209479
9.306                0.940700393     -68.6324795
9.307                0.940567141     -68.7431339
9.308                0.940437371     -68.8529265
9.309                0.940295145     -68.9665712
9.31                 0.940156492     -69.0792828
9.311                0.940021404     -69.1910762
9.312                 0.93988987     -69.3019665
9.313                 0.93974553     -69.4169048
9.314                0.939604844     -69.5308656
9.315                0.939467805     -69.6438639
9.316                  0.9393344     -69.7559159
9.317                0.939187798      -69.872143
9.318                0.939044946     -69.9873428
9.319                0.938905831     -70.1015334
9.32                 0.938770435     -70.2147337
9.321                0.938621632     -70.3322484
9.322                0.938476682     -70.4486849
9.323                 0.93833557     -70.5640628
9.324                0.938198279     -70.6784008
9.325                0.938047227     -70.7972628
9.326                 0.93790014     -70.9149931
9.327                0.937757005     -71.0316108
9.328                0.937617806     -71.1471364
9.329                 0.93746448     -71.2673476
9.33                 0.937315252     -71.3863664
9.331                0.937170104     -71.5042154
9.332                 0.93702901     -71.6209185
9.333                0.936873298     -71.7424812
9.334                0.936721829     -71.8627883
9.335                0.936574578     -71.9818649
9.336                0.936431523     -72.0997357
9.337                0.936273528     -72.2227317
9.338                0.936119931     -72.3444056
9.339                0.935970713     -72.4647822
9.34                 0.935825847     -72.5838885
9.341                0.935665298     -72.7083018
9.342                0.935509327     -72.8313178
9.343                0.935357908     -72.9529659
9.344                0.935211005     -73.0732765
9.345                0.935047922     -73.1991479
9.346                0.934889617     -73.3235411
9.347                0.934736056     -73.4464893
9.348                0.934587193     -73.5680283
9.349                0.934421769     -73.6953493
9.35                 0.934261338     -73.8211067
9.351                0.934105859     -73.9453374
9.352                0.933955294     -74.0680771
9.353                0.933787161     -74.1969441
9.354                0.933624259     -74.3241544
9.355                0.933466551     -74.4497469
9.356                0.933313989     -74.5737616
9.357                0.933143193      -74.704159
9.358                  0.9329779     -74.8327959
9.359                0.932818058     -74.9597177
9.36                 0.932663609      -75.084971
9.361                0.932490105     -75.2169036
9.362                0.932322399     -75.3469652
9.363                0.932160433     -75.4752062
9.364                 0.93200415     -75.6016752
9.365                0.931827814     -75.7352522
9.366                0.931657601     -75.8668375
9.367                0.931493453     -75.9964846
9.368                0.931335304     -76.1242479
9.369                 0.93115613     -76.2594617
9.37                 0.930983463     -76.3925466
9.371                0.930817224     -76.5235658
9.372                0.930657334     -76.6525824
9.373                0.930475244     -76.7894629
9.374                0.930300078     -76.9240661
9.375                0.930131747     -77.0564632
9.376                0.929970166     -77.1867227
9.377                0.929784886     -77.3253393
9.378                0.929606985     -77.4615173
9.379                0.929436375     -77.5953329
9.38                 0.929272957     -77.7268632
9.381                0.929084533     -77.8672563
9.382                0.928904038     -78.0050235
9.383                0.928731358     -78.1402553
9.384                0.928566377     -78.2730414
9.385                 0.92837483     -78.4152486
9.386                0.928191828     -78.5546225
9.387                0.928017237      -78.691268
9.388                 0.92785091     -78.8252912
9.389                0.927655685     -78.9693569
9.39                 0.927469704     -79.1103579
9.391                0.927292808      -79.248415
9.392                0.927124847     -79.3836425
9.393                 0.92692602      -79.529684
9.394                0.926737249     -79.6723974
9.395                0.926558358     -79.8119201
9.396                0.926389166     -79.9483858
