! TOUCHSTONE file generated by CST DESIGN STUDIO
! Date and time: Tue Feb  4 18:18:07 2025
! Project name: C:\Work\MatlabApps\UnitCellOptimizationMatlab\CST\unitcell.cst
! Tree item: Tasks\Sweep1\SPara1\S-Parameters
! Header version: 2024
! Port assignment regex: !\s*Touchstone port\s*([0-9]+)\s*=\s*(CST MWS port|CST DES external port|CST DES block port)\s*(.+)\s* \(\"(.*)\"\)(\s*mode\s*([0-9]+))?.*
! Touchstone port assignment:
! Touchstone port 1 = CST DES external port 1 ("")
# GHz S MA R 50
9                    0.961952974     -48.3224439
9.001                0.961896088     -48.3830445
9.002                0.961839533     -48.4435628
9.003                0.961783309     -48.5039991
9.004                0.961727417     -48.5643539
9.005                0.961669895     -48.6254679
9.006                0.961612714     -48.6864973
9.007                0.961555875     -48.7474425
9.008                0.961499377     -48.8083038
9.009                0.961441076     -48.8699672
9.01                 0.961383126     -48.9315438
9.011                0.961325528     -48.9930339
9.012                0.961268282     -49.0544377
9.013                0.961209266     -49.1166352
9.014                0.961150613     -49.1787434
9.015                0.961092323     -49.2407626
9.016                0.961034396     -49.3026933
9.017                0.960974623     -49.3654233
9.018                0.960915224     -49.4280615
9.019                  0.9608562     -49.4906081
9.02                  0.96079755     -49.5530637
9.021                0.960736996     -49.6163632
9.022                0.960676828     -49.6795687
9.023                0.960617047     -49.7426801
9.024                0.960557654     -49.8056976
9.025                0.960496361     -49.8695518
9.026                0.960435468      -49.933309
9.027                0.960374976     -49.9969694
9.028                0.960314884     -50.0605335
9.029                0.960252768      -50.124958
9.03                 0.960191066     -50.1892826
9.031                0.960129781     -50.2535076
9.032                 0.96006891     -50.3176339
9.033                0.960005963     -50.3826154
9.034                0.959943447     -50.4474942
9.035                0.959881363     -50.5122707
9.036                 0.95981971     -50.5769452
9.037                0.959756004     -50.6425218
9.038                0.959692746     -50.7079929
9.039                0.959629936     -50.7733586
9.04                 0.959567575     -50.8386194
9.041                0.959502942     -50.9047874
9.042                0.959438775     -50.9708466
9.043                0.959375075     -51.0367973
9.044                0.959311842     -51.1026403
9.045                0.959246392     -51.1693802
9.046                 0.95918143     -51.2360082
9.047                0.959116955     -51.3025247
9.048                0.959052968     -51.3689301
9.049                 0.95898662     -51.4362946
9.05                 0.958920781     -51.5035441
9.051                 0.95885545     -51.5706787
9.052                0.958790629     -51.6376989
9.053                0.958723404      -51.705672
9.054                0.958656711     -51.7735265
9.055                0.958590551     -51.8412627
9.056                0.958524925     -51.9088813
9.057                0.958456767     -51.9774576
9.058                0.958389168     -52.0459116
9.059                0.958322131     -52.1142439
9.06                 0.958255654      -52.182455
9.061                0.958186581     -52.2516715
9.062                0.958118097     -52.3207626
9.063                0.958050203     -52.3897282
9.064                0.957982901     -52.4585689
9.065                0.957912823     -52.5284209
9.066                0.957843366     -52.5981433
9.067                0.957774533     -52.6677365
9.068                0.957706323     -52.7372011
9.069                0.957635281     -52.8076932
9.07                 0.957564898     -52.8780515
9.071                0.957495175     -52.9482766
9.072                0.957426112     -53.0183696
9.073                0.957354077     -53.0894928
9.074                0.957282743     -53.1604782
9.075                 0.95721211     -53.2313263
9.076                0.957142181     -53.3020378
9.077                0.957069041     -53.3738419
9.078                0.956996649     -53.4455041
9.079                0.956925006     -53.5170246
9.08                 0.956854114     -53.5884043
9.081                0.956780025     -53.6608725
9.082                0.956706736      -53.733194
9.083                 0.95663425     -53.8053694
9.084                0.956562566     -53.8773999
9.085                0.956487303     -53.9505315
9.086                0.956412901     -54.0235118
9.087                0.956339363     -54.0963415
9.088                 0.95626669     -54.1690211
9.089                0.956190328     -54.2428479
9.09                 0.956114898     -54.3165188
9.091                0.956040402      -54.390034
9.092                0.955966844     -54.4633944
9.093                0.955889367     -54.5379167
9.094                0.955812905     -54.6122774
9.095                0.955737461     -54.6864774
9.096                0.955663034     -54.7605177
9.097                0.955584315     -54.8357295
9.098                0.955506705     -54.9107745
9.099                0.955430209     -54.9856532
9.1                  0.955354828     -55.0603666
9.101                0.955274881     -55.1363033
9.102                0.955196157     -55.2120677
9.103                0.955118661     -55.2876601
9.104                0.955042396     -55.3630814
9.105                0.954961129     -55.4397423
9.106                0.954881223     -55.5162245
9.107                0.954802681     -55.5925285
9.108                0.954725506     -55.6686556
9.109                0.954642891     -55.7460357
9.11                 0.954561801     -55.8232304
9.111                 0.95448224     -55.9002405
9.112                0.954404212      -55.977067
9.113                0.954320216     -56.0552027
9.114                0.954237944     -56.1331467
9.115                0.954157403      -56.210899
9.116                  0.9540786     -56.2884604
9.117                0.953993021     -56.3673509
9.118                0.953909417     -56.4460413
9.119                0.953827796     -56.5245324
9.12                 0.953748163     -56.6028252
9.121                0.953660983     -56.6824784
9.122                0.953576096     -56.7619228
9.123                 0.95349351     -56.8411593
9.124                0.953413227     -56.9201894
9.125                 0.95332431     -57.0005964
9.126                0.953238091     -57.0807853
9.127                0.953154577     -57.1607568
9.128                0.953073779     -57.2405117
9.129                 0.95298275     -57.3217258
9.13                 0.952894954     -57.4027111
9.131                0.952810404     -57.4834677
9.132                0.952729109     -57.5639963
9.133                0.952635831     -57.6460128
9.134                0.952546507     -57.7277869
9.135                0.952461149     -57.8093191
9.136                0.952379765     -57.8906103
9.137                0.952283768     -57.9734157
9.138                0.952192724     -58.0559626
9.139                0.952106649     -58.1382512
9.14                  0.95202556     -58.2202815
9.141                 0.95192608      -58.303948
9.142                0.951832992     -58.3873352
9.143                0.951746325     -58.4704419
9.144                0.951666099     -58.5532672
9.145                0.951562009     -58.6377919
9.146                0.951466508     -58.7220068
9.147                0.951379624     -58.8059097
9.148                0.951301373     -58.8894985
9.149                0.951190852      -58.974892
9.15                 0.951092428     -59.0599298
9.151                0.951006133      -59.144606
9.152                0.950931998     -59.2289147
9.153                0.950810809     -59.3152947
9.154                0.950707845     -59.4012393
9.155                0.950623162     -59.4867328
9.156                0.950556782     -59.5717601
9.157                0.950416345     -59.6592529
9.158                0.950306204     -59.7461462
9.159                0.950226339     -59.8323967
9.16                 0.950176674     -59.9179624
9.161                0.949992971     -60.0070504
9.162                0.949867739     -60.0951267
9.163                0.949800457     -60.1820302
9.164                0.949790338     -60.2676068
9.165                0.949484655     -60.3602935
9.166                0.949321654     -60.4506477
9.167                0.949295534     -60.5377252
9.168                0.949399089     -60.6206338
9.169                0.948839805     -60.7194468
9.17                 0.948620126     -60.8151434
9.171                0.948695716     -60.9024365
9.172                0.949002076     -60.9772192
9.173                 0.94845649      -61.057751
9.174                 0.94817643     -61.1477926
9.175                0.948213891     -61.2427887
9.176                0.948599595     -61.3373863
9.177                0.948289282       -61.42665
9.178                0.948115035     -61.5175647
9.179                0.948081161     -61.6093205
9.18                 0.948190773     -61.7010911
9.181                0.947991555     -61.7930599
9.182                0.947855596     -61.8850633
9.183                0.947783639     -61.9769456
9.184                0.947776213     -62.0685514
9.185                0.947617025     -62.1617685
9.186                0.947493777     -62.2547272
9.187                0.947406687     -62.3473822
9.188                0.947355923      -62.439689
9.189                 0.94721417     -62.5339064
9.19                 0.947095775     -62.6277861
9.191                0.947000856     -62.7213116
9.192                0.946929524     -62.8144666
9.193                0.946796349     -62.9096948
9.194                0.946679793     -63.0045554
9.195                0.946579966      -63.099041
9.196                0.946496942      -63.193145
9.197                0.946368119     -63.2893593
9.198                0.946251942     -63.3851882
9.199                0.946148473     -63.4806291
9.2                  0.946057758     -63.5756805
9.201                0.945931268     -63.6728779
9.202                 0.94581486     -63.7696765
9.203                0.945708576     -63.8660764
9.204                0.945612459     -63.9620775
9.205                0.945487021     -64.0602883
9.206                0.945369897     -64.1580892
9.207                 0.94526114     -64.2554803
9.208                0.945160783     -64.3524628
9.209                0.945035475     -64.4517029
9.21                 0.944917253     -64.5505199
9.211                0.944806151     -64.6489154
9.212                0.944702193     -64.7468917
9.213                0.944576691      -64.847165
9.214                0.944457371     -64.9470017
9.215                0.944344254     -65.0464045
9.216                0.944237355     -65.1453769
9.217                0.944111227     -65.2466737
9.218                0.943990588     -65.3475203
9.219                0.943875458     -65.4479197
9.22                 0.943765854     -65.5478751
9.221                0.943638761     -65.6502646
9.222                0.943516628     -65.7521898
9.223                0.943399476     -65.8536532
9.224                0.943287322     -65.9546583
9.225                0.943159126      -66.058123
9.226                 0.94303548      -66.161107
9.227                0.942916396      -66.263614
9.228                0.942801884     -66.3656488
9.229                0.942672414     -66.4701912
9.23                 0.942547164     -66.5742365
9.231                0.942426145     -66.6777888
9.232                0.942309369     -66.7808522
9.233                0.942178453     -66.8865304
9.234                0.942051493     -66.9916947
9.235                0.941928507     -67.0963484
9.236                0.941809504     -67.2004961
9.237                0.941677274     -67.3073033
9.238                0.941548798     -67.4135771
9.239                0.941424087     -67.5193222
9.24                 0.941303144     -67.6245441
9.241                 0.94116925     -67.7324738
9.242                0.941038941     -67.8398505
9.243                0.940912224     -67.9466795
9.244                0.940789104     -68.0529659
9.245                0.940653527      -68.162077
9.246                0.940521395     -68.2706157
9.247                0.940392719     -68.3785862
9.248                0.940267506     -68.4859939
9.249                0.940130207     -68.5962883
9.25                 0.939996251     -68.7059874
9.251                0.939865646     -68.8150968
9.252                0.939738392     -68.9236228
9.253                0.939599419     -69.0351094
9.254                0.939463709     -69.1459773
9.255                0.939331264     -69.2562329
9.256                0.939202083     -69.3658841
9.257                0.939061135     -69.4785639
9.258                0.938923384     -69.5906009
9.259                0.938788832      -69.702002
9.26                 0.938657479      -69.812774
9.261                0.938514767     -69.9267067
9.262                0.938375204     -70.0399717
9.263                0.938238793     -70.1525754
9.264                0.938105536     -70.2645254
9.265                0.937960871     -70.3797107
9.266                0.937819328     -70.4942003
9.267                0.937680908     -70.6080021
9.268                0.937545604     -70.7211253
9.269                 0.93739896     -70.8375579
9.27                 0.937255419     -70.9532664
9.271                 0.93711498     -71.0682595
9.272                 0.93697764     -71.1825454
9.273                0.936828945     -71.3002768
9.274                0.936683344     -71.4172553
9.275                0.936540836     -71.5334885
9.276                0.936401421     -71.6489855
9.277                 0.93625069     -71.7680291
9.278                0.936103065     -71.8862866
9.279                 0.93595854     -72.0037677
9.28                 0.935817108     -72.1204831
9.281                0.935664364      -72.240829
9.282                0.935514741     -72.3603553
9.283                0.935368233     -72.4790727
9.284                0.935224834     -72.5969914
9.285                0.935069869     -72.7187124
9.286                0.934918047     -72.8395797
9.287                0.934769367     -72.9596026
9.288                0.934623822     -73.0787923
9.289                0.934466719     -73.2018748
9.29                 0.934312801     -73.3240645
9.291                 0.93416206     -73.4453731
9.292                0.934014487     -73.5658135
9.293                0.933855139     -73.6902822
9.294                0.933699022     -73.8138177
9.295                0.933546126     -73.9364331
9.296                0.933396435     -74.0581437
9.297                0.933234824      -74.184007
9.298                0.933076498     -74.3088949
9.299                0.932921448     -74.4328215
9.3                  0.932769662     -74.5558007
9.301                 0.93260579     -74.6831118
9.302                0.932445266     -74.8094031
9.303                0.932288081     -74.9346889
9.304                0.932134221     -75.0589848
9.305                0.931967988     -75.1877443
9.306                0.931805183     -75.3154352
9.307                0.931645788     -75.4420741
9.308                0.931489785     -75.5676792
9.309                0.931321314      -75.697887
9.31                 0.931156353     -75.8269757
9.311                0.930994885     -75.9549633
9.312                0.930836894     -76.0818672
9.313                0.930666036     -76.2136068
9.314                0.930498781     -76.3441739
9.315                0.930335116     -76.4735863
9.316                0.930175021     -76.6018632
9.317                0.930001632     -76.7351304
9.318                0.929831957     -76.8671653
9.319                0.929665975     -76.9979892
9.32                 0.929503659     -77.1276245
9.321                0.929327807     -77.2624151
9.322                0.929155786     -77.3959122
9.323                 0.92898757     -77.5281386
9.324                0.928823136     -77.6591167
9.325                0.928644774     -77.7955029
9.326                0.928470367     -77.9305309
9.327                0.928299894     -78.0642234
9.328                0.928133329     -78.1966047
9.329                 0.92795243     -78.3345884
9.33                 0.927775634     -78.4711408
9.331                0.927602911     -78.6062888
9.332                0.927434228     -78.7400607
9.333                0.927250698     -78.8796422
9.334                0.927071427     -79.0177162
9.335                0.926896382     -79.1543129
9.336                0.926725528     -79.2894611
9.337                0.926539465     -79.4307378
9.338                 0.92635783     -79.5704271
9.339                0.926180592     -79.7085583
9.34                 0.926007714     -79.8451636
9.341                0.925818851     -79.9881143
9.342                 0.92563461     -80.1293871
9.343                0.925454951     -80.2690169
9.344                0.925279829     -80.4070398
9.345                0.925088196     -80.5517158
9.346                0.924901399     -80.6946164
9.347                0.924719388     -80.8357812
9.348                0.924542106     -80.9752526
9.349                0.924347909     -81.1216384
9.35                 0.924158774     -81.2661462
9.351                0.923974648     -81.4088197
9.352                0.923795476     -81.5497014
9.353                0.923598348     -81.6979129
9.354                0.923406536     -81.8441341
9.355                0.923219982     -81.9884115
9.356                0.923038627     -82.1307926
9.357                0.922838613     -82.2808097
9.358                0.922644199     -82.4287117
9.359                0.922455314     -82.5745528
9.36                 0.922271882     -82.7183884
9.361                0.922068972     -82.8702175
9.362                0.921871969     -83.0197986
9.363                0.921680794     -83.1671916
9.364                0.921495372     -83.3124547
9.365                 0.92128941     -83.4662194
9.366                0.921089693      -83.617591
9.367                0.920896141     -83.7666332
9.368                0.920708667     -83.9134107
9.369                0.920499706     -84.0691052
9.37                 0.920297385     -84.2222415
9.371                0.920101601     -84.3728949
9.372                 0.91991225     -84.5211409
9.373                0.919700205     -84.6787973
9.374                0.919495226     -84.8337172
9.375                  0.9192972     -84.9859855
9.376                0.919106014     -85.1356838
9.377                0.918890594     -85.2953838
9.378                0.918682708     -85.4521531
9.379                0.918482238     -85.6060829
9.38                 0.918289057     -85.7572653
9.381                0.918070369     -85.9190537
9.382                0.917859773     -86.0776867
9.383                0.917657123     -86.2332722
9.384                0.917462267     -86.3859174
9.385                0.917240339     -86.5498396
9.386                0.917027128     -86.7103571
9.387                0.916822458     -86.8675954
9.388                0.916626146     -87.0216808
9.389                0.916400423     -87.1877853
9.39                 0.916184119     -87.3502069
9.391                0.915977032     -87.5090903
9.392                 0.91577897     -87.6645721
9.393                0.915549551     -87.8329974
9.394                0.915330366     -87.9974237
9.395                0.915121187     -88.1580153
9.396                0.914921786     -88.3149322
