! TOUCHSTONE file generated by CST DESIGN STUDIO
! Date and time: Tue Feb  4 17:51:50 2025
! Project name: C:\Work\MatlabApps\UnitCellOptimizationMatlab\CST\unitcell.cst
! Tree item: Tasks\Sweep1\SPara1\S-Parameters
! Header version: 2024
! Port assignment regex: !\s*Touchstone port\s*([0-9]+)\s*=\s*(CST MWS port|CST DES external port|CST DES block port)\s*(.+)\s* \(\"(.*)\"\)(\s*mode\s*([0-9]+))?.*
! Touchstone port assignment:
! Touchstone port 1 = CST DES external port 1 ("")
# GHz S MA R 50
9                    0.866261201     -87.1336374
9.001                 0.86579941     -87.3004087
9.002                0.865336267     -87.4677065
9.003                0.864871769      -87.635533
9.004                0.864405916     -87.8038902
9.005                0.863938707       -87.97278
9.006                0.863470141     -88.1422046
9.007                0.863000218     -88.3121659
9.008                0.862528937     -88.4826661
9.009                0.862056297     -88.6537071
9.01                 0.861582298     -88.8252911
9.011                 0.86110694       -88.99742
9.012                0.860630221      -89.170096
9.013                0.860152142     -89.3433212
9.014                0.859672703     -89.5170975
9.015                0.859191902     -89.6914272
9.016                0.858709741     -89.8663122
9.017                0.858226219     -90.0417547
9.018                0.857741335     -90.2177567
9.019                0.857255091     -90.3943204
9.02                 0.856767486     -90.5714479
9.021                 0.85627852     -90.7491413
9.022                0.855788194     -90.9274027
9.023                0.855296508     -91.1062342
9.024                0.854803463      -91.285638
9.025                0.854309059     -91.4656161
9.026                0.853813296     -91.6461708
9.027                0.853316175     -91.8273041
9.028                0.852817698     -92.0090181
9.029                0.852317864     -92.1913152
9.03                 0.851816676     -92.3741973
9.031                0.851314133     -92.5576666
9.032                0.850810236     -92.7417253
9.033                0.850304988     -92.9263756
9.034                 0.84979839     -93.1116196
9.035                0.849290442     -93.2974595
9.036                0.848781146     -93.4838975
9.037                0.848270504     -93.6709357
9.038                0.847758517     -93.8585764
9.039                0.847245187     -94.0468216
9.04                 0.846730516     -94.2356736
9.041                0.846214505     -94.4251346
9.042                0.845697158     -94.6152067
9.043                0.845178475     -94.8058923
9.044                 0.84465846     -94.9971933
9.045                0.844137114     -95.1891121
9.046                0.843614439     -95.3816509
9.047                0.843090439     -95.5748119
9.048                0.842565116     -95.7685972
9.049                0.842038473     -95.9630091
9.05                 0.841510513     -96.1580498
9.051                0.840981238     -96.3537215
9.052                0.840450652     -96.5500264
9.053                0.839918757     -96.7469668
9.054                0.839385558     -96.9445448
9.055                0.838851057     -97.1427627
9.056                0.838315259     -97.3416226
9.057                0.837778166     -97.5411269
9.058                0.837239783     -97.7412778
9.059                0.836700113     -97.9420774
9.06                 0.836159161      -98.143528
9.061                0.835616931     -98.3456319
9.062                0.835073426     -98.5483912
9.063                0.834528652     -98.7518081
9.064                0.833982613      -98.955885
9.065                0.833435314      -99.160624
9.066                0.832886759     -99.3660274
9.067                0.832336953     -99.5720973
9.068                0.831785902     -99.7788361
9.069                0.831233611     -99.9862459
9.07                 0.830680085     -100.194329
9.071                0.830125329     -100.403088
9.072                 0.82956935     -100.612524
9.073                0.829012153      -100.82264
9.074                0.828453744     -101.033438
9.075                0.827894128     -101.244921
9.076                0.827333314     -101.457091
9.077                0.826771306     -101.669949
9.078                0.826208111     -101.883498
9.079                0.825643737     -102.097741
9.08                 0.825078189     -102.312678
9.081                0.824511476     -102.528314
9.082                0.823943603      -102.74465
9.083                0.823374579     -102.961687
9.084                0.822804411     -103.179429
9.085                0.822233107     -103.397877
9.086                0.821660674     -103.617034
9.087                 0.82108712     -103.836902
9.088                0.820512455     -104.057483
9.089                0.819936685     -104.278779
9.09                  0.81935982     -104.500792
9.091                0.818781869     -104.723525
9.092                0.818202839     -104.946979
9.093                0.817622741     -105.171158
9.094                0.817041583     -105.396062
9.095                0.816459376     -105.621695
9.096                0.815876128     -105.848058
9.097                0.815291849     -106.075153
9.098                0.814706549     -106.302983
9.099                0.814120239     -106.531549
9.1                  0.813532929     -106.760855
9.101                 0.81294463     -106.990901
9.102                0.812355352      -107.22169
9.103                0.811765105     -107.453225
9.104                0.811173903     -107.685506
9.105                0.810581754     -107.918537
9.106                0.809988672     -108.152319
9.107                0.809394668     -108.386854
9.108                0.808799754     -108.622145
9.109                0.808203942     -108.858194
9.11                 0.807607245     -109.095001
9.111                0.807009674     -109.332571
9.112                0.806411243     -109.570903
9.113                0.805811966     -109.810002
9.114                0.805211854     -110.049867
9.115                0.804610921     -110.290502
9.116                0.804009182     -110.531909
9.117                 0.80340665     -110.774089
9.118                0.802803339     -111.017044
9.119                0.802199264     -111.260776
9.12                 0.801594438     -111.505288
9.121                0.800988877     -111.750581
9.122                0.800382596     -111.996656
9.123                 0.79977561     -112.243516
9.124                0.799167934     -112.491163
9.125                0.798559585     -112.739598
9.126                0.797950577     -112.988824
9.127                0.797340928     -113.238841
9.128                0.796730653     -113.489653
9.129                0.796119769      -113.74126
9.13                 0.795508293     -113.993664
9.131                0.794896242     -114.246868
9.132                0.794283634     -114.500872
9.133                0.793670486     -114.755679
9.134                0.793056815      -115.01129
9.135                0.792442641     -115.267707
9.136                 0.79182798     -115.524932
9.137                0.791212853     -115.782965
9.138                0.790597277      -116.04181
9.139                0.789981272     -116.301466
9.14                 0.789364856     -116.561937
9.141                0.788748051     -116.823223
9.142                0.788130874     -117.085326
9.143                0.787513347     -117.348248
9.144                 0.78689549     -117.611989
9.145                0.786277323     -117.876552
9.146                0.785658867     -118.141937
9.147                0.785040143     -118.408147
9.148                0.784421173     -118.675182
9.149                0.783801978     -118.943045
9.15                 0.783182579     -119.211735
9.151                   0.782563     -119.481255
9.152                0.781943263     -119.751605
9.153                 0.78132339     -120.022788
9.154                0.780703403     -120.294804
9.155                0.780083327     -120.567654
9.156                0.779463185      -120.84134
9.157                0.778842999     -121.115863
9.158                0.778222796     -121.391223
9.159                0.777602597     -121.667422
9.16                 0.776982429     -121.944461
9.161                0.776362315     -122.222341
9.162                0.775742281     -122.501063
9.163                0.775122352     -122.780628
9.164                0.774502553     -123.061036
9.165                0.773882911     -123.342289
9.166                0.773263451     -123.624387
9.167                  0.7726442     -123.907332
9.168                0.772025184     -124.191123
9.169                0.771406431     -124.475762
9.17                 0.770787966      -124.76125
9.171                0.770169818     -125.047586
9.172                0.769552015     -125.334772
9.173                0.768934584     -125.622809
9.174                0.768317553     -125.911696
9.175                0.767700951     -126.201434
9.176                0.767084806     -126.492024
9.177                0.766469148     -126.783466
9.178                0.765854005     -127.075761
9.179                0.765239408     -127.368908
9.18                 0.764625385     -127.662909
9.181                0.764011967     -127.957763
9.182                0.763399184      -128.25347
9.183                0.762787066     -128.550031
9.184                0.762175645     -128.847446
9.185                 0.76156495     -129.145715
9.186                0.760955015     -129.444838
9.187                0.760345869     -129.744815
9.188                0.759737544     -130.045646
9.189                0.759130073      -130.34733
9.19                 0.758523488     -130.649868
9.191                0.757917821     -130.953259
9.192                0.757313105     -131.257503
9.193                0.756709373       -131.5626
9.194                0.756106657     -131.868549
9.195                0.755504992      -132.17535
9.196                0.754904411     -132.483003
9.197                0.754304948     -132.791507
9.198                0.753706637     -133.100861
9.199                0.753109511     -133.411064
9.2                  0.752513607     -133.722117
9.201                0.751918957     -134.034017
9.202                0.751325598     -134.346766
9.203                0.750733565     -134.660361
9.204                0.750142892     -134.974801
9.205                0.749553615     -135.290086
9.206                0.748965771     -135.606215
9.207                0.748379394     -135.923186
9.208                0.747794522     -136.240999
9.209                 0.74721119     -136.559652
9.21                 0.746629436     -136.879144
9.211                0.746049295     -137.199473
9.212                0.745470805     -137.520639
9.213                0.744894002     -137.842639
9.214                0.744318925     -138.165473
9.215                 0.74374561     -138.489138
9.216                0.743174094     -138.813633
9.217                0.742604417     -139.138956
9.218                0.742036615     -139.465105
9.219                0.741470726     -139.792079
9.22                 0.740906789     -140.119876
9.221                0.740344843     -140.448493
9.222                0.739784924     -140.777929
9.223                0.739227073     -141.108181
9.224                0.738671328     -141.439248
9.225                0.738117727     -141.771126
9.226                 0.73756631     -142.103814
9.227                0.737017115     -142.437309
9.228                0.736470182      -142.77161
9.229                 0.73592555     -143.106712
9.23                 0.735383259     -143.442614
9.231                0.734843347     -143.779313
9.232                0.734305855     -144.116805
9.233                0.733770821      -144.45509
9.234                0.733238286     -144.794162
9.235                0.732708289      -145.13402
9.236                0.732180871      -145.47466
9.237                 0.73165607      -145.81608
9.238                0.731133927     -146.158275
9.239                0.730614482     -146.501243
9.24                 0.730097774      -146.84498
9.241                0.729583844     -147.189483
9.242                0.729072732     -147.534749
9.243                0.728564477     -147.880773
9.244                 0.72805912     -148.227552
9.245                  0.7275567     -148.575083
9.246                0.727057259     -148.923361
9.247                0.726560834     -149.272382
9.248                0.726067468     -149.622143
9.249                0.725577198      -149.97264
9.25                 0.725090067     -150.323868
9.251                0.724606112     -150.675823
9.252                0.724125374     -151.028501
9.253                0.723647894     -151.381897
9.254                0.723173709     -151.736007
9.255                 0.72270286     -152.090827
9.256                0.722235387     -152.446351
9.257                0.721771329     -152.802575
9.258                0.721310725     -153.159495
9.259                0.720853614     -153.517105
9.26                 0.720400036       -153.8754
9.261                0.719950029     -154.234376
9.262                0.719503632     -154.594027
9.263                0.719060884     -154.954348
9.264                0.718621824     -155.315334
9.265                0.718186489      -155.67698
9.266                0.717754918     -156.039279
9.267                0.717327149     -156.402227
9.268                0.716903221     -156.765818
9.269                0.716483169     -157.130046
9.27                 0.716067033     -157.494906
9.271                0.715654849     -157.860391
9.272                0.715246654     -158.226496
9.273                0.714842485     -158.593215
9.274                0.714442379     -158.960541
9.275                0.714046372     -159.328469
9.276                  0.7136545     -159.696993
9.277                0.713266799     -160.066105
9.278                0.712883304     -160.435799
9.279                0.712504052      -160.80607
9.28                 0.712129075     -161.176911
9.281                0.711758411     -161.548314
9.282                0.711392092     -161.920274
9.283                0.711030154     -162.292783
9.284                0.710672629     -162.665835
9.285                0.710319551     -163.039422
9.286                0.709970954     -163.413538
9.287                 0.70962687     -163.788176
9.288                0.709287331     -164.163329
9.289                 0.70895237     -164.538988
9.29                 0.708622019     -164.915148
9.291                0.708296308     -165.291801
9.292                0.707975269     -165.668938
9.293                0.707658931     -166.046553
9.294                0.707347326     -166.424639
9.295                0.707040483     -166.803187
9.296                0.706738432      -167.18219
9.297                0.706441201      -167.56164
9.298                0.706148818     -167.941529
9.299                0.705861312      -168.32185
9.3                  0.705578711     -168.702593
9.301                 0.70530104     -169.083753
9.302                0.705028328     -169.465319
9.303                0.704760601     -169.847285
9.304                0.704497883     -170.229641
9.305                0.704240201      -170.61238
9.306                0.703987578     -170.995494
9.307                 0.70374004     -171.378973
9.308                 0.70349761      -171.76281
9.309                0.703260311     -172.146996
9.31                 0.703028166     -172.531522
9.311                0.702801197      -172.91638
9.312                0.702579425     -173.301561
9.313                0.702362873     -173.687057
9.314                 0.70215156     -174.072858
9.315                0.701945507     -174.458957
9.316                0.701744733     -174.845343
9.317                0.701549256     -175.232009
9.318                0.701359096     -175.618945
9.319                 0.70117427     -176.006142
9.32                 0.700994795     -176.393591
9.321                0.700820688     -176.781284
9.322                0.700651965      -177.16921
9.323                0.700488642     -177.557362
9.324                0.700330732     -177.945729
9.325                0.700178252     -178.334303
9.326                0.700031213     -178.723074
9.327                0.699889629     -179.112033
9.328                0.699753514     -179.501171
9.329                0.699622877     -179.890479
9.33                 0.699497732      179.720054
9.331                0.699378087      179.330436
9.332                0.699263954      178.940677
9.333                0.699155341      178.550786
9.334                0.699052258      178.160773
9.335                0.698954712      177.770647
9.336                0.698862711      177.380417
9.337                0.698776261      176.990094
9.338                0.698695369      176.599686
9.339                 0.69862004      176.209203
9.34                 0.698550279      175.818656
9.341                0.698486091      175.428053
9.342                0.698427478      175.037403
9.343                0.698374445      174.646717
9.344                0.698326992      174.256005
9.345                0.698285122      173.865275
9.346                0.698248836      173.474537
9.347                0.698218135      173.083801
9.348                0.698193016      172.693077
9.349                0.698173481      172.302374
9.35                 0.698159527      171.911701
9.351                0.698151152      171.521069
9.352                0.698148353      171.130487
9.353                0.698151126      170.739964
9.354                0.698159468       170.34951
9.355                0.698173373      169.959135
9.356                0.698192837      169.568848
9.357                0.698217852      169.178658
9.358                0.698248412      168.788576
9.359                 0.69828451       168.39861
9.36                 0.698326138      168.008771
9.361                0.698373287      167.619067
9.362                0.698425948      167.229508
9.363                 0.69848411      166.840103
9.364                0.698547764      166.450863
9.365                0.698616898      166.061795
9.366                0.698691501       165.67291
9.367                0.698771559      165.284217
9.368                0.698857061      164.895725
9.369                0.698947991      164.507444
9.37                 0.699044337      164.119382
9.371                0.699146084      163.731548
9.372                0.699253215      163.343953
9.373                0.699365715      162.956604
9.374                0.699483568      162.569512
9.375                0.699606756      162.182684
9.376                0.699735262      161.796131
9.377                0.699869067       161.40986
9.378                0.700008152      161.023882
9.379                0.700152498      160.638204
9.38                 0.700302086      160.252835
9.381                0.700456894      159.867785
9.382                0.700616901      159.483062
9.383                0.700782087      159.098674
9.384                0.700952428       158.71463
9.385                0.701127902       158.33094
9.386                0.701308487       157.94761
9.387                0.701494158       157.56465
9.388                0.701684891      157.182068
9.389                0.701880662      156.799873
9.39                 0.702081445      156.418072
9.391                0.702287215      156.036673
9.392                0.702497946      155.655686
9.393                0.702713611      155.275118
9.394                0.702934183      154.894977
9.395                0.703159635      154.515271
9.396                0.703389939      154.136008
