! TOUCHSTONE file generated by CST DESIGN STUDIO
! Date and time: Tue Feb  4 17:52:01 2025
! Project name: C:\Work\MatlabApps\UnitCellOptimizationMatlab\CST\unitcell.cst
! Tree item: Tasks\Sweep1\SPara1\S-Parameters
! Header version: 2024
! Port assignment regex: !\s*Touchstone port\s*([0-9]+)\s*=\s*(CST MWS port|CST DES external port|CST DES block port)\s*(.+)\s* \(\"(.*)\"\)(\s*mode\s*([0-9]+))?.*
! Touchstone port assignment:
! Touchstone port 1 = CST DES external port 1 ("")
# GHz S MA R 50
9                    0.960049152     -45.5848035
9.001                 0.95999216     -45.6402701
9.002                0.959934966     -45.6958529
9.003                 0.95987757     -45.7515523
9.004                 0.95981997     -45.8073684
9.005                0.959762165     -45.8633018
9.006                0.959704156     -45.9193527
9.007                 0.95964594     -45.9755216
9.008                0.959587518     -46.0318088
9.009                0.959528888     -46.0882147
9.01                  0.95947005     -46.1447396
9.011                0.959411002     -46.2013839
9.012                0.959351745      -46.258148
9.013                0.959292276     -46.3150323
9.014                0.959232595      -46.372037
9.015                0.959172702     -46.4291627
9.016                0.959112596     -46.4864096
9.017                0.959052275     -46.5437782
9.018                0.958991738     -46.6012689
9.019                0.958930986     -46.6588819
9.02                 0.958870017     -46.7166177
9.021                 0.95880883     -46.7744767
9.022                0.958747424     -46.8324593
9.023                0.958685799     -46.8905658
9.024                0.958623953     -46.9487966
9.025                0.958561886     -47.0071522
9.026                0.958499597     -47.0656329
9.027                0.958437084     -47.1242391
9.028                0.958374348     -47.1829712
9.029                0.958311386     -47.2418296
9.03                 0.958248199     -47.3008147
9.031                0.958184785     -47.3599269
9.032                0.958121143     -47.4191666
9.033                0.958057273     -47.4785341
9.034                0.957993173       -47.53803
9.035                0.957928843     -47.5976546
9.036                0.957864281     -47.6574082
9.037                0.957799487     -47.7172914
9.038                 0.95773446     -47.7773045
9.039                0.957669198      -47.837448
9.04                 0.957603701     -47.8977222
9.041                0.957537968     -47.9581276
9.042                0.957471998     -48.0186645
9.043                 0.95740579     -48.0793334
9.044                0.957339343     -48.1401348
9.045                0.957272656      -48.201069
9.046                0.957205728     -48.2621364
9.047                0.957138558     -48.3233376
9.048                0.957071145     -48.3846728
9.049                0.957003488     -48.4461426
9.05                 0.956935586     -48.5077473
9.051                0.956867438     -48.5694874
9.052                0.956799043     -48.6313634
9.053                  0.9567304     -48.6933756
9.054                0.956661508     -48.7555245
9.055                0.956592366     -48.8178105
9.056                0.956522973     -48.8802341
9.057                0.956453328     -48.9427958
9.058                0.956383429     -49.0054958
9.059                0.956313277     -49.0683348
9.06                 0.956242869     -49.1313132
9.061                0.956172205     -49.1944313
9.062                0.956101284     -49.2576896
9.063                0.956030104     -49.3210887
9.064                0.955958665     -49.3846289
9.065                0.955886965     -49.4483107
9.066                0.955815004     -49.5121345
9.067                 0.95574278     -49.5761009
9.068                0.955670292     -49.6402103
9.069                0.955597539      -49.704463
9.07                  0.95552452     -49.7688597
9.071                0.955451234     -49.8334008
9.072                 0.95537768     -49.8980867
9.073                0.955303857     -49.9629179
9.074                0.955229763     -50.0278948
9.075                0.955155398      -50.093018
9.076                 0.95508076      -50.158288
9.077                0.955005848     -50.2237051
9.078                0.954930661     -50.2892699
9.079                0.954855198     -50.3549829
9.08                 0.954779458     -50.4208445
9.081                 0.95470344     -50.4868552
9.082                0.954627141     -50.5530156
9.083                0.954550563      -50.619326
9.084                0.954473702      -50.685787
9.085                0.954396558     -50.7523991
9.086                 0.95431913     -50.8191628
9.087                0.954241416     -50.8860786
9.088                0.954163416     -50.9531469
9.089                0.954085127     -51.0203683
9.09                  0.95400655     -51.0877432
9.091                0.953927682     -51.1552722
9.092                0.953848523     -51.2229558
9.093                0.953769071     -51.2907945
9.094                0.953689326     -51.3587887
9.095                0.953609285     -51.4269391
9.096                0.953528947     -51.4952461
9.097                0.953448312     -51.5637102
9.098                0.953367378      -51.632332
9.099                0.953286143      -51.701112
9.1                  0.953204608     -51.7700506
9.101                0.953122769     -51.8391485
9.102                0.953040627     -51.9084061
9.103                0.952958179     -51.9778239
9.104                0.952875424     -52.0474026
9.105                0.952792362     -52.1171426
9.106                 0.95270899     -52.1870445
9.107                0.952625308     -52.2571087
9.108                0.952541315     -52.3273359
9.109                0.952457008     -52.3977266
9.11                 0.952372386     -52.4682813
9.111                0.952287449     -52.5390006
9.112                0.952202195      -52.609885
9.113                0.952116622     -52.6809351
9.114                0.952030729     -52.7521514
9.115                0.951944516     -52.8235344
9.116                0.951857979     -52.8950848
9.117                0.951771119     -52.9668031
9.118                0.951683933     -53.0386898
9.119                0.951596421     -53.1107455
9.12                 0.951508581     -53.1829708
9.121                0.951420411     -53.2553662
9.122                0.951331911     -53.3279323
9.123                0.951243078     -53.4006697
9.124                0.951153911      -53.473579
9.125                 0.95106441     -53.5466606
9.126                0.950974572     -53.6199153
9.127                0.950884396     -53.6933436
9.128                 0.95079388      -53.766946
9.129                0.950703024     -53.8407232
9.13                 0.950611825     -53.9146758
9.131                0.950520283     -53.9888042
9.132                0.950428395     -54.0631092
9.133                0.950336161     -54.1375913
9.134                0.950243578     -54.2122511
9.135                0.950150646     -54.2870892
9.136                0.950057362     -54.3621063
9.137                0.949963726     -54.4373028
9.138                0.949869736     -54.5126795
9.139                 0.94977539     -54.5882369
9.14                 0.949680687     -54.6639757
9.141                0.949585625     -54.7398964
9.142                0.949490202     -54.8159997
9.143                0.949394418     -54.8922861
9.144                0.949298271     -54.9687564
9.145                0.949201758     -55.0454111
9.146                 0.94910488     -55.1222509
9.147                0.949007632     -55.1992764
9.148                0.948910016     -55.2764882
9.149                0.948812028     -55.3538869
9.15                 0.948713667     -55.4314732
9.151                0.948614932     -55.5092478
9.152                0.948515821     -55.5872112
9.153                0.948416332     -55.6653641
9.154                0.948316464     -55.7437072
9.155                0.948216215     -55.8222411
9.156                0.948115583     -55.9009664
9.157                0.948014567     -55.9798839
9.158                0.947913165     -56.0589941
9.159                0.947811376     -56.1382977
9.16                 0.947709198     -56.2177954
9.161                0.947606629     -56.2974879
9.162                0.947503667     -56.3773758
9.163                0.947400311     -56.4574597
9.164                0.947296559     -56.5377404
9.165                 0.94719241     -56.6182186
9.166                0.947087861     -56.6988949
9.167                0.946982911     -56.7797699
9.168                0.946877559     -56.8608444
9.169                0.946771802     -56.9421191
9.17                 0.946665638     -57.0235946
9.171                0.946559067     -57.1052716
9.172                0.946452086     -57.1871509
9.173                0.946344694     -57.2692331
9.174                0.946236888     -57.3515189
9.175                0.946128667      -57.434009
9.176                0.946020029     -57.5167042
9.177                0.945910973     -57.5996051
9.178                0.945801496     -57.6827125
9.179                0.945691597      -57.766027
9.18                 0.945581274     -57.8495493
9.181                0.945470525     -57.9332803
9.182                0.945359348     -58.0172206
9.183                0.945247742     -58.1013709
9.184                0.945135704     -58.1857319
9.185                0.945023233     -58.2703045
9.186                0.944910327     -58.3550893
9.187                0.944796983     -58.4400871
9.188                0.944683201     -58.5252985
9.189                0.944568978     -58.6107244
9.19                 0.944454313     -58.6963655
9.191                0.944339203     -58.7822225
9.192                0.944223646     -58.8682962
9.193                0.944107641     -58.9545873
9.194                0.943991185     -59.0410966
9.195                0.943874278     -59.1278249
9.196                0.943756916     -59.2147729
9.197                0.943639098     -59.3019413
9.198                0.943520821      -59.389331
9.199                0.943402085     -59.4769427
9.2                  0.943282886     -59.5647772
9.201                0.943163224     -59.6528353
9.202                0.943043095     -59.7411177
9.203                0.942922498     -59.8296252
9.204                0.942801432     -59.9183587
9.205                0.942679893     -60.0073189
9.206                 0.94255788     -60.0965065
9.207                0.942435391     -60.1859225
9.208                0.942312423     -60.2755675
9.209                0.942188976     -60.3654424
9.21                 0.942065046      -60.455548
9.211                0.941940631     -60.5458852
9.212                0.941815731     -60.6364546
9.213                0.941690341     -60.7272572
9.214                0.941564461     -60.8182937
9.215                0.941438089      -60.909565
9.216                0.941311221     -61.0010719
9.217                0.941183857     -61.0928151
9.218                0.941055993     -61.1847957
9.219                0.940927629     -61.2770143
9.22                 0.940798761     -61.3694718
9.221                0.940669387     -61.4621691
9.222                0.940539506      -61.555107
9.223                0.940409115     -61.6482863
9.224                0.940278212      -61.741708
9.225                0.940146795     -61.8353727
9.226                0.940014862     -61.9292815
9.227                 0.93988241     -62.0234351
9.228                0.939749437     -62.1178345
9.229                0.939615941     -62.2124805
9.23                  0.93948192     -62.3073739
9.231                0.939347372     -62.4025156
9.232                0.939212294     -62.4979066
9.233                0.939076684     -62.5935476
9.234                 0.93894054     -62.6894396
9.235                 0.93880386     -62.7855835
9.236                0.938666641     -62.8819801
9.237                0.938528881     -62.9786303
9.238                0.938390578     -63.0755351
9.239                0.938251729     -63.1726953
9.24                 0.938112332     -63.2701119
9.241                0.937972385     -63.3677857
9.242                0.937831886     -63.4657176
9.243                0.937690832     -63.5639087
9.244                0.937549221     -63.6623597
9.245                 0.93740705     -63.7610716
9.246                0.937264317     -63.8600453
9.247                0.937121021     -63.9592818
9.248                0.936977158      -64.058782
9.249                0.936832725     -64.1585468
9.25                 0.936687722     -64.2585771
9.251                0.936542145      -64.358874
9.252                0.936395992     -64.4594383
9.253                 0.93624926      -64.560271
9.254                0.936101947      -64.661373
9.255                0.935954051     -64.7627454
9.256                 0.93580557      -64.864389
9.257                  0.9356565     -64.9663048
9.258                0.935506839     -65.0684938
9.259                0.935356586      -65.170957
9.26                 0.935205737     -65.2736953
9.261                 0.93505429     -65.3767097
9.262                0.934902242     -65.4800012
9.263                0.934749592     -65.5835708
9.264                0.934596336     -65.6874194
9.265                0.934442472     -65.7915481
9.266                0.934287997     -65.8959579
9.267                 0.93413291     -66.0006497
9.268                0.933977208     -66.1056245
9.269                0.933820887     -66.2108835
9.27                 0.933663946     -66.3164274
9.271                0.933506381     -66.4222575
9.272                0.933348192     -66.5283747
9.273                0.933189374       -66.63478
9.274                0.933029925     -66.7414744
9.275                0.932869843     -66.8484591
9.276                0.932709125     -66.9557349
9.277                0.932547769      -67.063303
9.278                0.932385772     -67.1711643
9.279                0.932223131       -67.27932
9.28                 0.932059844     -67.3877711
9.281                0.931895909     -67.4965186
9.282                0.931731321     -67.6055636
9.283                 0.93156608     -67.7149071
9.284                0.931400183     -67.8245503
9.285                0.931233625     -67.9344941
9.286                0.931066407     -68.0447396
9.287                0.930898523      -68.155288
9.288                0.930729972     -68.2661403
9.289                0.930560752     -68.3772976
9.29                 0.930390859     -68.4887609
9.291                0.930220291     -68.6005314
9.292                0.930049045     -68.7126101
9.293                0.929877118     -68.8249982
9.294                0.929704508     -68.9376967
9.295                0.929531213     -69.0507068
9.296                0.929357229     -69.1640295
9.297                0.929182553     -69.2776661
9.298                0.929007184     -69.3916175
9.299                0.928831118     -69.5058849
9.3                  0.928654353     -69.6204695
9.301                0.928476885     -69.7353723
9.302                0.928298713     -69.8505946
9.303                0.928119833     -69.9661373
9.304                0.927940243     -70.0820018
9.305                 0.92775994     -70.1981891
9.306                0.927578921     -70.3147003
9.307                0.927397184     -70.4315367
9.308                0.927214725     -70.5486993
9.309                0.927031543     -70.6661894
9.31                 0.926847634     -70.7840081
9.311                0.926662995     -70.9021566
9.312                0.926477625      -71.020636
9.313                0.926291519     -71.1394475
9.314                0.926104675     -71.2585924
9.315                0.925917091     -71.3780717
9.316                0.925728764     -71.4978867
9.317                 0.92553969     -71.6180386
9.318                0.925349868     -71.7385285
9.319                0.925159294     -71.8593577
9.32                 0.924967966     -71.9805273
9.321                0.924775881     -72.1020386
9.322                0.924583035     -72.2238928
9.323                0.924389427     -72.3460912
9.324                0.924195053     -72.4686348
9.325                0.923999911      -72.591525
9.326                0.923803998     -72.7147629
9.327                0.923607311     -72.8383499
9.328                0.923409847     -72.9622871
9.329                0.923211604     -73.0865757
9.33                 0.923012579     -73.2112171
9.331                0.922812768     -73.3362125
9.332                 0.92261217     -73.4615631
9.333                0.922410781     -73.5872702
9.334                0.922208598      -73.713335
9.335                0.922005619     -73.8397588
9.336                0.921801841     -73.9665429
9.337                0.921597262     -74.0936885
9.338                0.921391877      -74.221197
9.339                0.921185686     -74.3490695
9.34                 0.920978684     -74.4773074
9.341                0.920770869      -74.605912
9.342                0.920562238     -74.7348846
9.343                0.920352789     -74.8642264
9.344                0.920142518     -74.9939388
9.345                0.919931424      -75.124023
9.346                0.919719502     -75.2544804
9.347                0.919506751     -75.3853123
9.348                0.919293167       -75.51652
9.349                0.919078748     -75.6481048
9.35                 0.918863492      -75.780068
9.351                0.918647394      -75.912411
9.352                0.918430453     -76.0451351
9.353                0.918212666     -76.1782416
9.354                 0.91799403     -76.3117319
9.355                0.917774542     -76.4456073
9.356                  0.9175542     -76.5798691
9.357                   0.917333     -76.7145188
9.358                0.917110941     -76.8495576
9.359                0.916888019     -76.9849869
9.36                 0.916664232     -77.1208081
9.361                0.916439577     -77.2570226
9.362                0.916214051     -77.3936317
9.363                0.915987651     -77.5306367
9.364                0.915760376     -77.6680392
9.365                0.915532222     -77.8058404
9.366                0.915303186     -77.9440417
9.367                0.915073267     -78.0826446
9.368                0.914842461     -78.2216503
9.369                0.914610765     -78.3610604
9.37                 0.914378177     -78.5008762
9.371                0.914144695     -78.6410991
9.372                0.913910316     -78.7817305
9.373                0.913675037     -78.9227719
9.374                0.913438855     -79.0642246
9.375                0.913201769       -79.20609
9.376                0.912963775     -79.3483697
9.377                0.912724871      -79.491065
9.378                0.912485054     -79.6341773
9.379                0.912244322     -79.7777081
9.38                 0.912002673     -79.9216588
9.381                0.911760103     -80.0660308
9.382                0.911516611     -80.2108256
9.383                0.911272193     -80.3560447
9.384                0.911026848     -80.5016895
9.385                0.910780574     -80.6477614
9.386                0.910533366     -80.7942619
9.387                0.910285224     -80.9411925
9.388                0.910036144     -81.0885546
9.389                0.909786125     -81.2363497
9.39                 0.909535164     -81.3845793
9.391                0.909283259     -81.5332448
9.392                0.909030407     -81.6823477
9.393                0.908776606     -81.8318895
9.394                0.908521854     -81.9818717
9.395                0.908266148     -82.1322958
9.396                0.908009486     -82.2831632
