! TOUCHSTONE file generated by CST DESIGN STUDIO
! Date and time: Tue Feb  4 17:51:48 2025
! Project name: C:\Work\MatlabApps\UnitCellOptimizationMatlab\CST\unitcell.cst
! Tree item: Tasks\Sweep1\SPara1\S-Parameters
! Header version: 2024
! Port assignment regex: !\s*Touchstone port\s*([0-9]+)\s*=\s*(CST MWS port|CST DES external port|CST DES block port)\s*(.+)\s* \(\"(.*)\"\)(\s*mode\s*([0-9]+))?.*
! Touchstone port assignment:
! Touchstone port 1 = CST DES external port 1 ("")
# GHz S MA R 50
9                    0.836182554     -100.130586
9.001                0.835582541     -100.342187
9.002                0.834981094     -100.554475
9.003                 0.83437822     -100.767452
9.004                0.833773925     -100.981121
9.005                0.833168216     -101.195484
9.006                0.832561099     -101.410543
9.007                0.831952584       -101.6263
9.008                0.831342675     -101.842758
9.009                0.830731382     -102.059919
9.01                 0.830118711     -102.277786
9.011                0.829504671      -102.49636
9.012                0.828889269     -102.715644
9.013                0.828272515      -102.93564
9.014                0.827654415      -103.15635
9.015                0.827034979     -103.377777
9.016                0.826414215     -103.599924
9.017                0.825792133     -103.822791
9.018                0.825168742     -104.046382
9.019                 0.82454405     -104.270699
9.02                 0.823918068     -104.495743
9.021                0.823290805     -104.721518
9.022                0.822662271     -104.948026
9.023                0.822032475     -105.175268
9.024                 0.82140143     -105.403247
9.025                0.820769144     -105.631966
9.026                0.820135629     -105.861426
9.027                0.819500895      -106.09163
9.028                0.818864954     -106.322579
9.029                0.818227816     -106.554277
9.03                 0.817589495     -106.786725
9.031                    0.81695     -107.019925
9.032                0.816309345      -107.25388
9.033                0.815667541     -107.488592
9.034                0.815024601     -107.724063
9.035                0.814380537     -107.960295
9.036                0.813735363     -108.197291
9.037                0.813089091     -108.435052
9.038                0.812441735     -108.673581
9.039                0.811793307      -108.91288
9.04                 0.811143823      -109.15295
9.041                0.810493296     -109.393795
9.042                0.809841739     -109.635415
9.043                0.809189168     -109.877814
9.044                0.808535598     -110.120993
9.045                0.807881043     -110.364955
9.046                0.807225518     -110.609701
9.047                0.806569038     -110.855233
9.048                0.805911621     -111.101554
9.049                 0.80525328     -111.348665
9.05                 0.804594033     -111.596569
9.051                0.803933896     -111.845268
9.052                0.803272885     -112.094763
9.053                0.802611018     -112.345056
9.054                0.801948311      -112.59615
9.055                0.801284782     -112.848046
9.056                0.800620449     -113.100746
9.057                 0.79995533     -113.354253
9.058                0.799289442     -113.608568
9.059                0.798622804     -113.863693
9.06                 0.797955435     -114.119629
9.061                0.797287354     -114.376379
9.062                 0.79661858     -114.633945
9.063                0.795949133     -114.892328
9.064                0.795279032      -115.15153
9.065                0.794608298     -115.411553
9.066                 0.79393695     -115.672398
9.067                 0.79326501     -115.934068
9.068                0.792592497     -116.196564
9.069                0.791919435     -116.459887
9.07                 0.791245842      -116.72404
9.071                0.790571743     -116.989024
9.072                0.789897157      -117.25484
9.073                0.789222108     -117.521491
9.074                0.788546619     -117.788978
9.075                0.787870711     -118.057302
9.076                0.787194409     -118.326465
9.077                0.786517735     -118.596468
9.078                0.785840713     -118.867313
9.079                0.785163367     -119.139001
9.08                 0.784485721     -119.411535
9.081                  0.7838078     -119.684914
9.082                0.783129629     -119.959141
9.083                0.782451233     -120.234217
9.084                0.781772636     -120.510143
9.085                0.781093866      -120.78692
9.086                0.780414947      -121.06455
9.087                0.779735906     -121.343034
9.088                 0.77905677     -121.622374
9.089                0.778377565     -121.902569
9.09                 0.777698318     -122.183622
9.091                0.777019058     -122.465534
9.092                0.776339811     -122.748305
9.093                0.775660605     -123.031937
9.094                 0.77498147     -123.316431
9.095                0.774302433     -123.601787
9.096                0.773623524     -123.888007
9.097                0.772944771     -124.175091
9.098                0.772266204     -124.463041
9.099                0.771587852     -124.751857
9.1                  0.770909747      -125.04154
9.101                0.770231918      -125.33209
9.102                0.769554395     -125.623509
9.103                 0.76887721     -125.915797
9.104                0.768200394     -126.208954
9.105                0.767523979     -126.502982
9.106                0.766847995     -126.797881
9.107                0.766172476     -127.093651
9.108                0.765497453     -127.390293
9.109                0.764822959     -127.687807
9.11                 0.764149027     -127.986193
9.111                0.763475691     -128.285453
9.112                0.762802983     -128.585585
9.113                0.762130938     -128.886591
9.114                0.761459589     -129.188471
9.115                0.760788971     -129.491225
9.116                0.760119118     -129.794852
9.117                0.759450066     -130.099353
9.118                0.758781848     -130.404729
9.119                0.758114502     -130.710978
9.12                 0.757448062       -131.0181
9.121                0.756782564     -131.326097
9.122                0.756118045     -131.634967
9.123                0.755454541      -131.94471
9.124                0.754792088     -132.255325
9.125                0.754130724     -132.566814
9.126                0.753470486     -132.879174
9.127                0.752811411     -133.192406
9.128                0.752153537     -133.506508
9.129                0.751496902     -133.821482
9.13                 0.750841544     -134.137325
9.131                0.750187501     -134.454037
9.132                0.749534813     -134.771617
9.133                0.748883518     -135.090065
9.134                0.748233655      -135.40938
9.135                0.747585263      -135.72956
9.136                0.746938383     -136.050605
9.137                0.746293054     -136.372514
9.138                0.745649315     -136.695285
9.139                0.745007208     -137.018917
9.14                 0.744366772     -137.343409
9.141                0.743728048      -137.66876
9.142                0.743091078     -137.994968
9.143                0.742455901     -138.322032
9.144                0.741822559      -138.64995
9.145                0.741191094     -138.978721
9.146                0.740561547     -139.308343
9.147                 0.73993396     -139.638815
9.148                0.739308375     -139.970134
9.149                0.738684833     -140.302298
9.15                 0.738063377     -140.635307
9.151                 0.73744405     -140.969157
9.152                0.736826894     -141.303846
9.153                0.736211951     -141.639373
9.154                0.735599264     -141.975736
9.155                0.734988877     -142.312931
9.156                0.734380832     -142.650957
9.157                0.733775172     -142.989811
9.158                0.733171941      -143.32949
9.159                0.732571183     -143.669993
9.16                  0.73197294     -144.011315
9.161                0.731377256     -144.353456
9.162                0.730784175     -144.696411
9.163                 0.73019374     -145.040177
9.164                0.729605997     -145.384753
9.165                0.729020987     -145.730134
9.166                0.728438756     -146.076318
9.167                0.727859347     -146.423301
9.168                0.727282804     -146.771081
9.169                0.726709172     -147.119653
9.17                 0.726138495     -147.469014
9.171                0.725570816      -147.81916
9.172                 0.72500618     -148.170089
9.173                0.724444631     -148.521796
9.174                0.723886213     -148.874277
9.175                0.723330971     -149.227529
9.176                0.722778948     -149.581548
9.177                0.722230188     -149.936329
9.178                0.721684736     -150.291869
9.179                0.721142637     -150.648162
9.18                 0.720603932     -151.005206
9.181                0.720068668     -151.362995
9.182                0.719536887     -151.721525
9.183                0.719008633     -152.080791
9.184                0.718483951      -152.44079
9.185                0.717962883     -152.801515
9.186                0.717445473     -153.162962
9.187                0.716931766     -153.525127
9.188                0.716421803     -153.888004
9.189                0.715915628     -154.251589
9.19                 0.715413285     -154.615875
9.191                0.714914815     -154.980859
9.192                0.714420263     -155.346534
9.193                 0.71392967     -155.712894
9.194                0.713443079     -156.079936
9.195                0.712960532     -156.447652
9.196                0.712482071     -156.816038
9.197                0.712007738     -157.185087
9.198                0.711537575     -157.554794
9.199                0.711071623     -157.925152
9.2                  0.710609923     -158.296156
9.201                0.710152517       -158.6678
9.202                0.709699444     -159.040077
9.203                0.709250746     -159.412981
9.204                0.708806462     -159.786505
9.205                0.708366632     -160.160644
9.206                0.707931297     -160.535391
9.207                0.707500495     -160.910738
9.208                0.707074266      -161.28668
9.209                0.706652647      -161.66321
9.21                 0.706235679      -162.04032
9.211                0.705823398     -162.418004
9.212                0.705415842     -162.796255
9.213                0.705013049     -163.175065
9.214                0.704615055     -163.554427
9.215                0.704221898     -163.934335
9.216                0.703833613      -164.31478
9.217                0.703450237     -164.695756
9.218                0.703071805     -165.077254
9.219                0.702698352     -165.459268
9.22                 0.702329913     -165.841789
9.221                0.701966521     -166.224809
9.222                0.701608211     -166.608322
9.223                0.701255016     -166.992319
9.224                0.700906969     -167.376791
9.225                0.700564102     -167.761732
9.226                0.700226448     -168.147133
9.227                0.699894037     -168.532985
9.228                0.699566901     -168.919281
9.229                 0.69924507     -169.306011
9.23                 0.698928575     -169.693169
9.231                0.698617444     -170.080745
9.232                0.698311707      -170.46873
9.233                0.698011393     -170.857116
9.234                0.697716528     -171.245895
9.235                0.697427141     -171.635058
9.236                0.697143258     -172.024595
9.237                0.696864905     -172.414499
9.238                0.696592109      -172.80476
9.239                0.696324894     -173.195369
9.24                 0.696063285     -173.586317
9.241                0.695807306     -173.977595
9.242                0.695556979     -174.369194
9.243                0.695312329     -174.761105
9.244                0.695073376     -175.153319
9.245                0.694840143     -175.545825
9.246                0.694612651     -175.938616
9.247                0.694390919     -176.331681
9.248                0.694174968     -176.725011
9.249                0.693964815     -177.118597
9.25                 0.693760481     -177.512429
9.251                0.693561982     -177.906497
9.252                0.693369335     -178.300792
9.253                0.693182557     -178.695305
9.254                0.693001664     -179.090025
9.255                0.692826671     -179.484943
9.256                0.692657591     -179.880049
9.257                0.692494439      179.724667
9.258                0.692337228      179.329214
9.259                 0.69218597      178.933603
9.26                 0.692040677      178.537842
9.261                 0.69190136      178.141943
9.262                0.691768028      177.745915
9.263                0.691640693      177.349768
9.264                0.691519361      176.953512
9.265                0.691404043      176.557157
9.266                0.691294744      176.160713
9.267                0.691191472       175.76419
9.268                0.691094233      175.367598
9.269                0.691003032      174.970947
9.27                 0.690917874      174.574248
9.271                0.690838762      174.177509
9.272                0.690765701      173.780742
9.273                0.690698691      173.383956
9.274                0.690637736      172.987162
9.275                0.690582836      172.590369
9.276                0.690533991      172.193588
9.277                0.690491201      171.796829
9.278                0.690454465      171.400102
9.279                0.690423781      171.003417
9.28                 0.690399147      170.606784
9.281                0.690380558      170.210212
9.282                0.690368012      169.813714
9.283                0.690361503      169.417297
9.284                0.690361027      169.020972
9.285                0.690366576       168.62475
9.286                0.690378144      168.228641
9.287                0.690395724      167.832653
9.288                0.690419307      167.436798
9.289                0.690448885      167.041085
9.29                 0.690484447      166.645525
9.291                0.690525984      166.250126
9.292                0.690573484      165.854899
9.293                0.690626936      165.459854
9.294                0.690686327      165.065001
9.295                0.690751644      164.670349
9.296                0.690822874      164.275908
9.297                0.690900002      163.881688
9.298                0.690983013      163.487699
9.299                0.691071891       163.09395
9.3                   0.69116662      162.700451
9.301                0.691267182      162.307211
9.302                0.691373561       161.91424
9.303                0.691485737      161.521547
9.304                0.691603692      161.129142
9.305                0.691727407      160.737034
9.306                 0.69185686      160.345233
9.307                0.691992031      159.953748
9.308                0.692132899      159.562587
9.309                0.692279442      159.171761
9.31                 0.692431636      158.781279
9.311                0.692589459      158.391149
9.312                0.692752887       158.00138
9.313                0.692921895      157.611982
9.314                0.693096459      157.222963
9.315                0.693276552      156.834332
9.316                0.693462149      156.446098
9.317                0.693653224       156.05827
9.318                0.693849748      155.670856
9.319                0.694051695      155.283866
9.32                 0.694259035      154.897306
9.321                0.694471741      154.511187
9.322                0.694689783      154.125516
9.323                0.694913131      153.740302
9.324                0.695141755      153.355552
9.325                0.695375624      152.971276
9.326                0.695614707      152.587481
9.327                0.695858973      152.204175
9.328                0.696108389      151.821367
9.329                0.696362922      151.439063
9.33                  0.69662254      151.057272
9.331                 0.69688721      150.676003
9.332                0.697156896      150.295261
9.333                0.697431566      149.915055
9.334                0.697711184      149.535393
9.335                0.697995715      149.156282
9.336                0.698285124      148.777729
9.337                0.698579375      148.399741
9.338                0.698878432      148.022326
9.339                0.699182259      147.645491
9.34                 0.699490817      147.269242
9.341                0.699804071      146.893587
9.342                0.700121983      146.518533
9.343                0.700444514      146.144086
9.344                0.700771626      145.770254
9.345                0.701103282      145.397042
9.346                0.701439442      145.024457
9.347                0.701780067      144.652506
9.348                0.702125118      144.281194
9.349                0.702474555      143.910529
9.35                 0.702828339      143.540517
9.351                0.703186429      143.171163
9.352                0.703548785      142.802473
9.353                0.703915367      142.434454
9.354                0.704286133      142.067111
9.355                0.704661043       141.70045
9.356                0.705040056      141.334477
9.357                 0.70542313      140.969197
9.358                0.705810224      140.604616
9.359                0.706201296      140.240739
9.36                 0.706596304      139.877572
9.361                0.706995206      139.515119
9.362                0.707397961      139.153386
9.363                0.707804525      138.792378
9.364                0.708214857        138.4321
9.365                0.708628914      138.072556
9.366                0.709046653      137.713752
9.367                0.709468032      137.355692
9.368                0.709893007      136.998381
9.369                0.710321537      136.641824
9.37                 0.710753578      136.286024
9.371                0.711189086      135.930986
9.372                 0.71162802      135.576715
9.373                0.712070335      135.223214
9.374                0.712515989      134.870488
9.375                0.712964939      134.518541
9.376                0.713417141      134.167376
9.377                0.713872552      133.816998
9.378                0.714331129       133.46741
9.379                0.714792829      133.118616
9.38                 0.715257608      132.770619
9.381                0.715725423      132.423424
9.382                0.716196232      132.077033
9.383                 0.71666999      131.731449
9.384                0.717146656      131.386677
9.385                0.717626185      131.042719
9.386                0.718108535      130.699579
9.387                0.718593664      130.357258
9.388                0.719081527      130.015761
9.389                0.719572082      129.675091
9.39                 0.720065288      129.335249
9.391                  0.7205611      128.996239
9.392                0.721059476      128.658063
9.393                0.721560375      128.320724
9.394                0.722063753      127.984224
9.395                0.722569569      127.648566
9.396                 0.72307778      127.313752
