! TOUCHSTONE file generated by CST DESIGN STUDIO
! Date and time: Tue Feb  4 17:48:23 2025
! Project name: C:\Work\MatlabApps\UnitCellOptimizationMatlab\CST\unitcell.cst
! Tree item: Tasks\Sweep1\SPara1\S-Parameters
! Header version: 2024
! Port assignment regex: !\s*Touchstone port\s*([0-9]+)\s*=\s*(CST MWS port|CST DES external port|CST DES block port)\s*(.+)\s* \(\"(.*)\"\)(\s*mode\s*([0-9]+))?.*
! Touchstone port assignment:
! Touchstone port 1 = CST DES external port 1 ("")
# GHz S MA R 50
9                    0.963760537     -43.2653194
9.001                0.963693161     -43.3155723
9.002                0.963625562     -43.3659226
9.003                0.963557739     -43.4163705
9.004                0.963489692     -43.4669163
9.005                 0.96342142     -43.5175603
9.006                0.963352921     -43.5683028
9.007                0.963284197      -43.619144
9.008                0.963215244     -43.6700842
9.009                0.963146063     -43.7211238
9.01                 0.963076653      -43.772263
9.011                0.963007013     -43.8235021
9.012                0.962937142     -43.8748414
9.013                0.962867039     -43.9262812
9.014                0.962796704     -43.9778218
9.015                0.962726136     -44.0294634
9.016                0.962655333     -44.0812065
9.017                0.962584295     -44.1330513
9.018                0.962513021      -44.184998
9.019                0.962441511      -44.237047
9.02                 0.962369763     -44.2891985
9.021                0.962297777      -44.341453
9.022                0.962225551     -44.3938106
9.023                0.962153085     -44.4462718
9.024                0.962080378     -44.4988367
9.025                0.962007429     -44.5515057
9.026                0.961934237     -44.6042791
9.027                0.961860802     -44.6571572
9.028                0.961787122     -44.7101404
9.029                0.961713197     -44.7632289
9.03                 0.961639025      -44.816423
9.031                0.961564606     -44.8697231
9.032                0.961489939     -44.9231295
9.033                0.961415023     -44.9766424
9.034                0.961339857     -45.0302623
9.035                 0.96126444     -45.0839894
9.036                0.961188771      -45.137824
9.037                 0.96111285     -45.1917665
9.038                0.961036675     -45.2458172
9.039                0.960960245     -45.2999763
9.04                  0.96088356     -45.3542443
9.041                0.960806619     -45.4086215
9.042                 0.96072942     -45.4631081
9.043                0.960651963     -45.5177046
9.044                0.960574247     -45.5724111
9.045                0.960496271     -45.6272282
9.046                0.960418033      -45.682156
9.047                0.960339533      -45.737195
9.048                0.960260771     -45.7923454
9.049                0.960181744     -45.8476076
9.05                 0.960102453      -45.902982
9.051                0.960022895     -45.9584688
9.052                0.959943071     -46.0140685
9.053                0.959862978     -46.0697812
9.054                0.959782617     -46.1256075
9.055                0.959701986     -46.1815476
9.056                0.959621084     -46.2376019
9.057                 0.95953991     -46.2937707
9.058                0.959458463     -46.3500543
9.059                0.959376743     -46.4064532
9.06                 0.959294747     -46.4629676
9.061                0.959212476     -46.5195979
9.062                0.959129928     -46.5763445
9.063                0.959047102     -46.6332077
9.064                0.958963996     -46.6901879
9.065                0.958880611     -46.7472854
9.066                0.958796945     -46.8045005
9.067                0.958712997     -46.8618337
9.068                0.958628765     -46.9192853
9.069                 0.95854425     -46.9768557
9.07                 0.958459449     -47.0345452
9.071                0.958374362     -47.0923541
9.072                0.958288987     -47.1502829
9.073                0.958203324     -47.2083319
9.074                0.958117372     -47.2665015
9.075                0.958031129     -47.3247921
9.076                0.957944595     -47.3832039
9.077                0.957857767     -47.4417375
9.078                0.957770646     -47.5003931
9.079                 0.95768323     -47.5591711
9.08                 0.957595518      -47.618072
9.081                0.957507509      -47.677096
9.082                0.957419202     -47.7362436
9.083                0.957330596     -47.7955152
9.084                0.957241689     -47.8549111
9.085                 0.95715248     -47.9144317
9.086                0.957062969     -47.9740774
9.087                0.956973154     -48.0338485
9.088                0.956883034     -48.0937456
9.089                0.956792608     -48.1537689
9.09                 0.956701875     -48.2139189
9.091                0.956610833     -48.2741958
9.092                0.956519482     -48.3346003
9.093                 0.95642782     -48.3951325
9.094                0.956335846      -48.455793
9.095                0.956243559     -48.5165821
9.096                0.956150958     -48.5775002
9.097                0.956058042     -48.6385478
9.098                0.955964809     -48.6997251
9.099                0.955871259     -48.7610327
9.1                  0.955777389     -48.8224709
9.101                0.955683199     -48.8840402
9.102                0.955588688     -48.9457409
9.103                0.955493855     -49.0075735
9.104                0.955398697     -49.0695383
9.105                0.955303215     -49.1316358
9.106                0.955207407     -49.1938665
9.107                0.955111271     -49.2562306
9.108                0.955014806     -49.3187286
9.109                0.954918012     -49.3813611
9.11                 0.954820886     -49.4441282
9.111                0.954723428     -49.5070306
9.112                0.954625637     -49.5700686
9.113                 0.95452751     -49.6332426
9.114                0.954429047     -49.6965531
9.115                0.954330247     -49.7600005
9.116                0.954231108     -49.8235853
9.117                 0.95413163     -49.8873078
9.118                 0.95403181     -49.9511685
9.119                0.953931647     -50.0151678
9.12                 0.953831141     -50.0793062
9.121                0.953730289     -50.1435841
9.122                0.953629091      -50.208002
9.123                0.953527545     -50.2725602
9.124                 0.95342565     -50.3372593
9.125                0.953323405     -50.4020997
9.126                0.953220808     -50.4670818
9.127                0.953117858     -50.5322061
9.128                0.953014554      -50.597473
9.129                0.952910894      -50.662883
9.13                 0.952806876     -50.7284365
9.131                0.952702501     -50.7941341
9.132                0.952597765      -50.859976
9.133                0.952492668     -50.9259629
9.134                0.952387209     -50.9920952
9.135                0.952281386     -51.0583733
9.136                0.952175198     -51.1247977
9.137                0.952068642     -51.1913689
9.138                0.951961719     -51.2580873
9.139                0.951854427     -51.3249534
9.14                 0.951746763     -51.3919677
9.141                0.951638727     -51.4591307
9.142                0.951530318     -51.5264428
9.143                0.951421533     -51.5939045
9.144                0.951312372     -51.6615163
9.145                0.951202833     -51.7292786
9.146                0.951092914      -51.797192
9.147                0.950982614      -51.865257
9.148                0.950871933     -51.9334739
9.149                0.950760867     -52.0018434
9.15                 0.950649416     -52.0703659
9.151                0.950537579     -52.1390419
9.152                0.950425353     -52.2078719
9.153                0.950312738     -52.2768564
9.154                0.950199731     -52.3459958
9.155                0.950086332     -52.4152908
9.156                0.949972539     -52.4847417
9.157                 0.94985835     -52.5543492
9.158                0.949743764     -52.6241136
9.159                0.949628779     -52.6940355
9.16                 0.949513394     -52.7641155
9.161                0.949397607      -52.834354
9.162                0.949281417     -52.9047516
9.163                0.949164823     -52.9753087
9.164                0.949047822     -53.0460259
9.165                0.948930413     -53.1169037
9.166                0.948812595     -53.1879426
9.167                0.948694365     -53.2591432
9.168                0.948575724      -53.330506
9.169                0.948456668     -53.4020314
9.17                 0.948337196     -53.4737201
9.171                0.948217307     -53.5455726
9.172                0.948096999     -53.6175893
9.173                 0.94797627     -53.6897709
9.174                 0.94785512     -53.7621179
9.175                0.947733545     -53.8346308
9.176                0.947611546     -53.9073102
9.177                0.947489119     -53.9801565
9.178                0.947366264     -54.0531705
9.179                0.947242978     -54.1263525
9.18                  0.94711926     -54.1997032
9.181                0.946995109      -54.273223
9.182                0.946870523     -54.3469127
9.183                  0.9467455     -54.4207727
9.184                0.946620038     -54.4948035
9.185                0.946494137     -54.5690058
9.186                0.946367793     -54.6433802
9.187                0.946241005     -54.7179271
9.188                0.946113773     -54.7926471
9.189                0.945986093     -54.8675408
9.19                 0.945857965     -54.9426089
9.191                0.945729386     -55.0178518
9.192                0.945600355     -55.0932702
9.193                 0.94547087     -55.1688646
9.194                0.945340929     -55.2446355
9.195                0.945210532     -55.3205837
9.196                0.945079675     -55.3967097
9.197                0.944948357      -55.473014
9.198                0.944816576     -55.5494973
9.199                0.944684332     -55.6261602
9.2                  0.944551621     -55.7030032
9.201                0.944418442     -55.7800269
9.202                0.944284793      -55.857232
9.203                0.944150673     -55.9346191
9.204                0.944016079     -56.0121887
9.205                0.943881011     -56.0899415
9.206                0.943745465      -56.167878
9.207                 0.94360944      -56.245999
9.208                0.943472935     -56.3243049
9.209                0.943335948     -56.4027965
9.21                 0.943198476     -56.4814744
9.211                0.943060518     -56.5603391
9.212                0.942922072     -56.6393912
9.213                0.942783136     -56.7186315
9.214                0.942643708     -56.7980606
9.215                0.942503787      -56.877679
9.216                 0.94236337     -56.9574875
9.217                0.942222456     -57.0374866
9.218                0.942081043      -57.117677
9.219                0.941939128     -57.1980593
9.22                 0.941796711     -57.2786342
9.221                0.941653788     -57.3594024
9.222                0.941510358     -57.4403644
9.223                0.941366419      -57.521521
9.224                 0.94122197     -57.6028727
9.225                0.941077008     -57.6844203
9.226                0.940931531     -57.7661644
9.227                0.940785537     -57.8481056
9.228                0.940639025     -57.9302447
9.229                0.940491992     -58.0125823
9.23                 0.940344437      -58.095119
9.231                0.940196357     -58.1778556
9.232                 0.94004775     -58.2607927
9.233                0.939898615      -58.343931
9.234                0.939748949     -58.4272712
9.235                0.939598751     -58.5108139
9.236                0.939448018     -58.5945599
9.237                0.939296748     -58.6785098
9.238                 0.93914494     -58.7626644
9.239                0.938992591     -58.8470243
9.24                 0.938839699     -58.9315902
9.241                0.938686262     -59.0163628
9.242                0.938532278     -59.1013428
9.243                0.938377745      -59.186531
9.244                0.938222662      -59.271928
9.245                0.938067025     -59.3575346
9.246                0.937910832     -59.4433514
9.247                0.937754083     -59.5293792
9.248                0.937596774     -59.6156187
9.249                0.937438903     -59.7020706
9.25                 0.937280469     -59.7887356
9.251                0.937121469     -59.8756146
9.252                0.936961901     -59.9627081
9.253                0.936801763     -60.0500169
9.254                0.936641053     -60.1375419
9.255                0.936479768     -60.2252836
9.256                0.936317907     -60.3132429
9.257                0.936155467     -60.4014205
9.258                0.935992446     -60.4898172
9.259                0.935828842     -60.5784336
9.26                 0.935664653     -60.6672706
9.261                0.935499876     -60.7563289
9.262                 0.93533451     -60.8456093
9.263                0.935168552     -60.9351125
9.264                0.935001999     -61.0248392
9.265                 0.93483485     -61.1147904
9.266                0.934667103     -61.2049667
9.267                0.934498755     -61.2953689
9.268                0.934329804     -61.3859978
9.269                0.934160248     -61.4768541
9.27                 0.933990084     -61.5679387
9.271                 0.93381931     -61.6592524
9.272                0.933647924     -61.7507958
9.273                0.933475924     -61.8425699
9.274                0.933303307     -61.9345754
9.275                0.933130071     -62.0268131
9.276                0.932956214     -62.1192838
9.277                0.932781733     -62.2119884
9.278                0.932606627     -62.3049276
9.279                0.932430892     -62.3981022
9.28                 0.932254527      -62.491513
9.281                0.932077529      -62.585161
9.282                0.931899896     -62.6790468
9.283                0.931721625     -62.7731714
9.284                0.931542714     -62.8675355
9.285                0.931363161     -62.9621399
9.286                0.931182964     -63.0569856
9.287                0.931002119     -63.1520733
9.288                0.930820625     -63.2474039
9.289                 0.93063848     -63.3429782
9.29                  0.93045568     -63.4387971
9.291                0.930272224     -63.5348615
9.292                0.930088108     -63.6311721
9.293                0.929903332     -63.7277298
9.294                0.929717891     -63.8245355
9.295                0.929531785     -63.9215901
9.296                0.929345009     -64.0188943
9.297                0.929157563     -64.1164492
9.298                0.928969443     -64.2142556
9.299                0.928780648     -64.3123142
9.3                  0.928591173     -64.4106261
9.301                0.928401018     -64.5091921
9.302                 0.92821018     -64.6080131
9.303                0.928018656     -64.7070899
9.304                0.927826443     -64.8064235
9.305                 0.92763354     -64.9060148
9.306                0.927439944     -65.0058646
9.307                0.927245652     -65.1059739
9.308                0.927050661     -65.2063435
9.309                 0.92685497     -65.3069745
9.31                 0.926658575     -65.4078676
9.311                0.926461475     -65.5090239
9.312                0.926263666     -65.6104441
9.313                0.926065147     -65.7121294
9.314                0.925865914     -65.8140805
9.315                0.925665965     -65.9162984
9.316                0.925465298     -66.0187841
9.317                 0.92526391     -66.1215384
9.318                0.925061798     -66.2245624
9.319                 0.92485896     -66.3278569
9.32                 0.924655394      -66.431423
9.321                0.924451096     -66.5352615
9.322                0.924246064     -66.6393735
9.323                0.924040296     -66.7437598
9.324                0.923833789     -66.8484215
9.325                 0.92362654     -66.9533595
9.326                0.923418547     -67.0585748
9.327                0.923209807     -67.1640683
9.328                0.923000318     -67.2698411
9.329                0.922790077      -67.375894
9.33                 0.922579081     -67.4822282
9.331                0.922367328     -67.5888446
9.332                0.922154815     -67.6957441
9.333                 0.92194154     -67.8029278
9.334                0.921727499     -67.9103967
9.335                0.921512691     -68.0181517
9.336                0.921297112     -68.1261939
9.337                0.921080761     -68.2345243
9.338                0.920863633     -68.3431439
9.339                0.920645728     -68.4520537
9.34                 0.920427041     -68.5612548
9.341                0.920207571     -68.6707481
9.342                0.919987314     -68.7805348
9.343                0.919766269     -68.8906157
9.344                0.919544432      -69.000992
9.345                  0.9193218     -69.1116647
9.346                0.919098372     -69.2226348
9.347                0.918874144     -69.3339035
9.348                0.918649113     -69.4454717
9.349                0.918423278     -69.5573404
9.35                 0.918196635     -69.6695109
9.351                0.917969182      -69.781984
9.352                0.917740915      -69.894761
9.353                0.917511833     -70.0078428
9.354                0.917281933     -70.1212305
9.355                0.917051211     -70.2349252
9.356                0.916819665      -70.348928
9.357                0.916587293       -70.46324
9.358                0.916354092     -70.5778622
9.359                0.916120059     -70.6927958
9.36                 0.915885191     -70.8080419
9.361                0.915649486     -70.9236015
9.362                0.915412941     -71.0394758
9.363                0.915175553     -71.1556658
9.364                 0.91493732     -71.2721727
9.365                0.914698239     -71.3889976
9.366                0.914458306     -71.5061417
9.367                0.914217521      -71.623606
9.368                0.913975879     -71.7413916
9.369                0.913733378     -71.8594997
9.37                 0.913490015     -71.9779315
9.371                0.913245788     -72.0966881
9.372                0.913000694     -72.2157706
9.373                 0.91275473     -72.3351801
9.374                0.912507894     -72.4549179
9.375                0.912260182      -72.574985
9.376                0.912011593     -72.6953827
9.377                0.911762123     -72.8161121
9.378                0.911511769     -72.9371744
9.379                 0.91126053     -73.0585707
9.38                 0.911008402     -73.1803022
9.381                0.910755383     -73.3023701
9.382                0.910501469     -73.4247756
9.383                0.910246659     -73.5475198
9.384                0.909990949     -73.6706041
9.385                0.909734338     -73.7940294
9.386                0.909476821     -73.9177971
9.387                0.909218397     -74.0419084
9.388                0.908959063     -74.1663645
9.389                0.908698816     -74.2911665
9.39                 0.908437653     -74.4163157
9.391                0.908175572     -74.5418133
9.392                0.907912571     -74.6676606
9.393                0.907648646     -74.7938587
9.394                0.907383795     -74.9204089
9.395                0.907118015     -75.0473124
9.396                0.906851303     -75.1745705
