! TOUCHSTONE file generated by CST DESIGN STUDIO
! Date and time: Tue Feb  4 17:48:15 2025
! Project name: C:\Work\MatlabApps\UnitCellOptimizationMatlab\CST\unitcell.cst
! Tree item: Tasks\Sweep1\SPara1\S-Parameters
! Header version: 2024
! Port assignment regex: !\s*Touchstone port\s*([0-9]+)\s*=\s*(CST MWS port|CST DES external port|CST DES block port)\s*(.+)\s* \(\"(.*)\"\)(\s*mode\s*([0-9]+))?.*
! Touchstone port assignment:
! Touchstone port 1 = CST DES external port 1 ("")
# GHz S MA R 50
9                    0.887983056     -68.4713753
9.001                0.887650987     -68.5843485
9.002                0.887317652     -68.6976509
9.003                0.886983048     -68.8112837
9.004                0.886647168     -68.9252483
9.005                0.886310008      -69.039546
9.006                0.885971563      -69.154178
9.007                0.885631828     -69.2691457
9.008                0.885290798     -69.3844505
9.009                0.884948469     -69.5000935
9.01                 0.884604835     -69.6160762
9.011                0.884259892     -69.7323999
9.012                0.883913634     -69.8490659
9.013                0.883566057     -69.9660756
9.014                0.883217155     -70.0834303
9.015                0.882866924     -70.2011313
9.016                0.882515359     -70.3191802
9.017                0.882162455     -70.4375781
9.018                0.881808206     -70.5563265
9.019                0.881452609     -70.6754267
9.02                 0.881095657     -70.7948802
9.021                0.880737345     -70.9146884
9.022                 0.88037767     -71.0348525
9.023                0.880016626     -71.1553742
9.024                0.879654207     -71.2762546
9.025                0.879290409     -71.3974953
9.026                0.878925227     -71.5190977
9.027                0.878558655     -71.6410633
9.028                0.878190689     -71.7633933
9.029                0.877821324     -71.8860894
9.03                 0.877450555     -72.0091529
9.031                0.877078376     -72.1325852
9.032                0.876704783     -72.2563879
9.033                 0.87632977     -72.3805625
9.034                0.875953332     -72.5051102
9.035                0.875575465     -72.6300328
9.036                0.875196164     -72.7553316
9.037                0.874815423     -72.8810081
9.038                0.874433237     -73.0070638
9.039                0.874049601     -73.1335002
9.04                  0.87366451     -73.2603189
9.041                 0.87327796     -73.3875212
9.042                0.872889944     -73.5151089
9.043                0.872500459     -73.6430833
9.044                0.872109498     -73.7714461
9.045                0.871717058     -73.9001987
9.046                0.871323132     -74.0293427
9.047                0.870927716     -74.1588797
9.048                0.870530805     -74.2888112
9.049                0.870132394     -74.4191388
9.05                 0.869732477      -74.549864
9.051                 0.86933105     -74.6809884
9.052                0.868928107     -74.8125137
9.053                0.868523645     -74.9444413
9.054                0.868117656     -75.0767729
9.055                0.867710138     -75.2095102
9.056                0.867301084     -75.3426546
9.057                0.866890489     -75.4762079
9.058                 0.86647835     -75.6101716
9.059                0.866064659     -75.7445474
9.06                 0.865649414      -75.879337
9.061                0.865232608     -76.0145418
9.062                0.864814236     -76.1501637
9.063                0.864394295     -76.2862043
9.064                0.863972778     -76.4226652
9.065                0.863549681      -76.559548
9.066                0.863124999     -76.6968546
9.067                0.862698728     -76.8345865
9.068                0.862270861     -76.9727454
9.069                0.861841394     -77.1113331
9.07                 0.861410323     -77.2503512
9.071                0.860977643     -77.3898015
9.072                0.860543348     -77.5296856
9.073                0.860107434     -77.6700053
9.074                0.859669896     -77.8107624
9.075                0.859230729     -77.9519585
9.076                0.858789929     -78.0935954
9.077                 0.85834749     -78.2356748
9.078                0.857903408     -78.3781986
9.079                0.857457679     -78.5211684
9.08                 0.857010297     -78.6645861
9.081                0.856561257     -78.8084534
9.082                0.856110556     -78.9527721
9.083                0.855658188      -79.097544
9.084                 0.85520415     -79.2427709
9.085                0.854748435     -79.3884546
9.086                 0.85429104     -79.5345969
9.087                 0.85383196     -79.6811996
9.088                 0.85337119     -79.8282645
9.089                0.852908727     -79.9757936
9.09                 0.852444565     -80.1237886
9.091                  0.8519787     -80.2722513
9.092                0.851511128     -80.4211837
9.093                0.851041844     -80.5705876
9.094                0.850570844     -80.7204648
9.095                0.850098123     -80.8708172
9.096                0.849623678     -81.0216467
9.097                0.849147503     -81.1729553
9.098                0.848669596     -81.3247447
9.099                 0.84818995     -81.4770169
9.1                  0.847708563     -81.6297738
9.101                0.847225429     -81.7830173
9.102                0.846740546     -81.9367493
9.103                0.846253909     -82.0909718
9.104                0.845765513     -82.2456867
9.105                0.845275355      -82.400896
9.106                0.844783431     -82.5566015
9.107                0.844289737     -82.7128053
9.108                0.843794269     -82.8695093
9.109                0.843297023     -83.0267155
9.11                 0.842797995     -83.1844258
9.111                0.842297182     -83.3426423
9.112                 0.84179458     -83.5013669
9.113                0.841290185     -83.6606016
9.114                0.840783994     -83.8203485
9.115                0.840276002     -83.9806095
9.116                0.839766207     -84.1413867
9.117                0.839254605     -84.3026821
9.118                0.838741192     -84.4644977
9.119                0.838225966     -84.6268356
9.12                 0.837708922     -84.7896978
9.121                0.837190058     -84.9530864
9.122                0.836669371     -85.1170033
9.123                0.836146856     -85.2814508
9.124                0.835622512     -85.4464308
9.125                0.835096334     -85.6119454
9.126                 0.83456832     -85.7779968
9.127                0.834038468      -85.944587
9.128                0.833506774     -86.1117181
9.129                0.832973235     -86.2793922
9.13                 0.832437849     -86.4476115
9.131                0.831900613      -86.616378
9.132                0.831361524     -86.7856939
9.133                 0.83082058     -86.9555613
9.134                0.830277779     -87.1259824
9.135                0.829733117     -87.2969592
9.136                0.829186593      -87.468494
9.137                0.828638204     -87.6405889
9.138                0.828087949     -87.8132461
9.139                0.827535825     -87.9864677
9.14                  0.82698183     -88.1602559
9.141                0.826425961     -88.3346129
9.142                0.825868219      -88.509541
9.143                0.825308599     -88.6850422
9.144                0.824747101     -88.8611188
9.145                0.824183724     -89.0377729
9.146                0.823618465     -89.2150069
9.147                0.823051323      -89.392823
9.148                0.822482297     -89.5712232
9.149                0.821911385       -89.75021
9.15                 0.821338587     -89.9297855
9.151                  0.8207639      -90.109952
9.152                0.820187325     -90.2907117
9.153                0.819608861     -90.4720668
9.154                0.819028506     -90.6540197
9.155                0.818446259     -90.8365726
9.156                0.817862121     -91.0197278
9.157                 0.81727609     -91.2034875
9.158                0.816688167     -91.3878541
9.159                0.816098351     -91.5728298
9.16                 0.815506641     -91.7584169
9.161                0.814913038     -91.9446178
9.162                0.814317542     -92.1314347
9.163                0.813720153     -92.3188699
9.164                0.813120871     -92.5069257
9.165                0.812519697     -92.6956046
9.166                 0.81191663     -92.8849087
9.167                0.811311672     -93.0748404
9.168                0.810704824     -93.2654022
9.169                0.810096086     -93.4565962
9.17                 0.809485459     -93.6484249
9.171                0.808872944     -93.8408905
9.172                0.808258542     -94.0339955
9.173                0.807642256     -94.2277423
9.174                0.807024086     -94.4221331
9.175                0.806404034     -94.6171703
9.176                0.805782101     -94.8128563
9.177                 0.80515829     -95.0091936
9.178                0.804532603     -95.2061843
9.179                0.803905042     -95.4038311
9.18                 0.803275609     -95.6021361
9.181                0.802644306     -95.8011019
9.182                0.802011137     -96.0007308
9.183                0.801376104     -96.2010252
9.184                 0.80073921     -96.4019875
9.185                0.800100457     -96.6036201
9.186                 0.79945985     -96.8059254
9.187                0.798817391     -97.0089059
9.188                0.798173085     -97.2125639
9.189                0.797526934     -97.4169019
9.19                 0.796878943     -97.6219222
9.191                0.796229115     -97.8276273
9.192                0.795577456     -98.0340197
9.193                0.794923968     -98.2411017
9.194                0.794268658     -98.4488758
9.195                0.793611528     -98.6573443
9.196                0.792952585     -98.8665098
9.197                0.792291834     -99.0763747
9.198                0.791629279     -99.2869413
9.199                0.790964926     -99.4982122
9.2                   0.79029878     -99.7101898
9.201                0.789630848     -99.9228764
9.202                0.788961136     -100.136275
9.203                0.788289648     -100.350387
9.204                0.787616393     -100.565215
9.205                0.786941377     -100.780763
9.206                0.786264605     -100.997032
9.207                0.785586086     -101.214024
9.208                0.784905826     -101.431743
9.209                0.784223832      -101.65019
9.21                 0.783540113     -101.869369
9.211                0.782854676      -102.08928
9.212                0.782167529     -102.309928
9.213                 0.78147868     -102.531314
9.214                0.780788138     -102.753441
9.215                0.780095911     -102.976312
9.216                0.779402008     -103.199928
9.217                0.778706438     -103.424292
9.218                0.778009211     -103.649406
9.219                0.777310335     -103.875274
9.22                 0.776609822     -104.101897
9.221                 0.77590768     -104.329277
9.222                 0.77520392     -104.557418
9.223                0.774498552     -104.786322
9.224                0.773791588     -105.015991
9.225                0.773083037     -105.246427
9.226                0.772372912     -105.477633
9.227                0.771661223     -105.709611
9.228                0.770947983     -105.942364
9.229                0.770233203     -106.175893
9.23                 0.769516895     -106.410203
9.231                0.768799072     -106.645294
9.232                0.768079746     -106.881169
9.233                0.767358931     -107.117831
9.234                 0.76663664     -107.355281
9.235                0.765912886     -107.593523
9.236                0.765187683     -107.832559
9.237                0.764461044      -108.07239
9.238                0.763732985      -108.31302
9.239                0.763003519      -108.55445
9.24                 0.762272662     -108.796684
9.241                0.761540429     -109.039722
9.242                0.760806834     -109.283568
9.243                0.760071895     -109.528224
9.244                0.759335626     -109.773692
9.245                0.758598043     -110.019974
9.246                0.757859165     -110.267073
9.247                0.757119006      -110.51499
9.248                0.756377584     -110.763729
9.249                0.755634918     -111.013291
9.25                 0.754891023     -111.263679
9.251                 0.75414592     -111.514894
9.252                0.753399624      -111.76694
9.253                0.752652156     -112.019817
9.254                0.751903535     -112.273529
9.255                0.751153778     -112.528078
9.256                0.750402907     -112.783464
9.257                 0.74965094     -113.039692
9.258                0.748897899     -113.296762
9.259                0.748143802     -113.554678
9.26                 0.747388672      -113.81344
9.261                0.746632529     -114.073052
9.262                0.745875395     -114.333514
9.263                0.745117291      -114.59483
9.264                 0.74435824     -114.857001
9.265                0.743598263     -115.120029
9.266                0.742837384     -115.383916
9.267                0.742075626     -115.648664
9.268                0.741313011     -115.914275
9.269                0.740549565     -116.180751
9.27                  0.73978531     -116.448094
9.271                0.739020271     -116.716306
9.272                0.738254473     -116.985388
9.273                 0.73748794     -117.255343
9.274                0.736720699     -117.526172
9.275                0.735952775     -117.797876
9.276                0.735184194     -118.070459
9.277                0.734414983     -118.343921
9.278                0.733645168     -118.618264
9.279                0.732874776     -118.893491
9.28                 0.732103834     -119.169601
9.281                0.731332372     -119.446598
9.282                0.730560416     -119.724483
9.283                0.729787995     -120.003257
9.284                0.729015138     -120.282923
9.285                0.728241875      -120.56348
9.286                0.727468234     -120.844932
9.287                0.726694246     -121.127279
9.288                 0.72591994     -121.410523
9.289                0.725145349     -121.694665
9.29                 0.724370501     -121.979707
9.291                 0.72359543      -122.26565
9.292                0.722820166     -122.552496
9.293                0.722044741     -122.840245
9.294                0.721269188     -123.128898
9.295                 0.72049354     -123.418458
9.296                0.719717829     -123.708925
9.297                0.718942089     -124.000301
9.298                0.718166354     -124.292585
9.299                0.717390658     -124.585781
9.3                  0.716615035     -124.879888
9.301                0.715839521     -125.174907
9.302                 0.71506415      -125.47084
9.303                0.714288958     -125.767687
9.304                0.713513981     -126.065449
9.305                0.712739255     -126.364128
9.306                0.711964817     -126.663723
9.307                0.711190703     -126.964236
9.308                0.710416952     -127.265667
9.309                  0.7096436     -127.568016
9.31                 0.708870686     -127.871286
9.311                0.708098247     -128.175475
9.312                0.707326324     -128.480585
9.313                0.706554953     -128.786616
9.314                0.705784176     -129.093568
9.315                0.705014032     -129.401441
9.316                 0.70424456     -129.710237
9.317                0.703475801     -130.019955
9.318                0.702707796     -130.330596
9.319                0.701940585     -130.642159
9.32                 0.701174211     -130.954645
9.321                0.700408714     -131.268054
9.322                0.699644137     -131.582385
9.323                0.698880522     -131.897639
9.324                0.698117912     -132.213816
9.325                0.697356349     -132.530915
9.326                0.696595877     -132.848936
9.327                 0.69583654     -133.167879
9.328                 0.69507838     -133.487743
9.329                0.694321443     -133.808528
9.33                 0.693565773     -134.130234
9.331                0.692811414      -134.45286
9.332                0.692058412     -134.776405
9.333                0.691306812     -135.100868
9.334                0.690556659      -135.42625
9.335                0.689807999     -135.752549
9.336                0.689060879     -136.079764
9.337                0.688315345     -136.407894
9.338                0.687571444     -136.736938
9.339                0.686829222     -137.066896
9.34                 0.686088727     -137.397766
9.341                0.685350006     -137.729546
9.342                0.684613107     -138.062236
9.343                0.683878078     -138.395834
9.344                0.683144967     -138.730339
9.345                0.682413822     -139.065748
9.346                0.681684692     -139.402062
9.347                0.680957626     -139.739277
9.348                0.680232673     -140.077392
9.349                0.679509882     -140.416406
9.35                 0.678789302     -140.756316
9.351                0.678070983      -141.09712
9.352                0.677354976     -141.438817
9.353                0.676641329     -141.781404
9.354                0.675930093     -142.124879
9.355                0.675221319     -142.469239
9.356                0.674515057     -142.814483
9.357                0.673811358     -143.160607
9.358                0.673110271      -143.50761
9.359                 0.67241185     -143.855488
9.36                 0.671716143     -144.204239
9.361                0.671023203      -144.55386
9.362                0.670333081     -144.904348
9.363                0.669645828       -145.2557
9.364                0.668961496     -145.607913
9.365                0.668280136     -145.960984
9.366                  0.6676018     -146.314909
9.367                0.666926539     -146.669685
9.368                0.666254406     -147.025309
9.369                0.665585453     -147.381778
9.37                  0.66491973     -147.739086
9.371                0.664257291     -148.097232
9.372                0.663598187      -148.45621
9.373                 0.66294247     -148.816018
9.374                0.662290191      -149.17665
9.375                0.661641404     -149.538104
9.376                 0.66099616     -149.900374
9.377                0.660354511     -150.263456
9.378                0.659716509     -150.627346
9.379                0.659082206      -150.99204
9.38                 0.658451653     -151.357533
9.381                0.657824903      -151.72382
9.382                0.657202007     -152.090896
9.383                0.656583016     -152.458756
9.384                0.655967983     -152.827396
9.385                0.655356959     -153.196811
9.386                0.654749994     -153.566994
9.387                0.654147141     -153.937941
9.388                0.653548451     -154.309647
9.389                0.652953973     -154.682106
9.39                  0.65236376     -155.055312
9.391                0.651777861      -155.42926
9.392                0.651196327     -155.803943
9.393                0.650619209     -156.179357
9.394                0.650046556     -156.555494
9.395                0.649478419     -156.932349
9.396                0.648914846     -157.309916
