! TOUCHSTONE file generated by CST DESIGN STUDIO
! Date and time: Tue Feb  4 17:48:19 2025
! Project name: C:\Work\MatlabApps\UnitCellOptimizationMatlab\CST\unitcell.cst
! Tree item: Tasks\Sweep1\SPara1\S-Parameters
! Header version: 2024
! Port assignment regex: !\s*Touchstone port\s*([0-9]+)\s*=\s*(CST MWS port|CST DES external port|CST DES block port)\s*(.+)\s* \(\"(.*)\"\)(\s*mode\s*([0-9]+))?.*
! Touchstone port assignment:
! Touchstone port 1 = CST DES external port 1 ("")
# GHz S MA R 50
9                    0.939287213     -52.6635506
9.001                0.939145695     -52.7336323
9.002                 0.93900367     -52.8038771
9.003                0.938861135     -52.8742857
9.004                0.938718089     -52.9448585
9.005                0.938574529     -53.0155961
9.006                0.938430454     -53.0864991
9.007                0.938285861      -53.157568
9.008                0.938140748     -53.2288034
9.009                0.937995113     -53.3002058
9.01                 0.937848954     -53.3717757
9.011                0.937702269     -53.4435138
9.012                0.937555056     -53.5154207
9.013                0.937407313     -53.5874968
9.014                0.937259037     -53.6597427
9.015                0.937110227     -53.7321591
9.016                 0.93696088     -53.8047464
9.017                0.936810994     -53.8775054
9.018                0.936660567     -53.9504364
9.019                0.936509597     -54.0235402
9.02                 0.936358081     -54.0968173
9.021                0.936206018     -54.1702683
9.022                0.936053406     -54.2438938
9.023                0.935900241     -54.3176944
9.024                0.935746522     -54.3916706
9.025                0.935592247      -54.465823
9.026                0.935437413     -54.5401524
9.027                0.935282018     -54.6146592
9.028                 0.93512606      -54.689344
9.029                0.934969537     -54.7642075
9.03                 0.934812446     -54.8392503
9.031                0.934654785      -54.914473
9.032                0.934496552     -54.9898761
9.033                0.934337744     -55.0654604
9.034                 0.93417836     -55.1412264
9.035                0.934018396     -55.2171747
9.036                0.933857851      -55.293306
9.037                0.933696722     -55.3696209
9.038                0.933535007       -55.44612
9.039                0.933372703      -55.522804
9.04                 0.933209809     -55.5996734
9.041                0.933046321      -55.676729
9.042                0.932882238     -55.7539713
9.043                0.932717557      -55.831401
9.044                0.932552275     -55.9090187
9.045                0.932386391     -55.9868251
9.046                0.932219901     -56.0648208
9.047                0.932052804     -56.1430066
9.048                0.931885096     -56.2213829
9.049                0.931716776     -56.2999506
9.05                 0.931547841     -56.3787102
9.051                0.931378289     -56.4576624
9.052                0.931208117     -56.5368079
9.053                0.931037322     -56.6161473
9.054                0.930865902     -56.6956813
9.055                0.930693855     -56.7754106
9.056                0.930521178     -56.8553359
9.057                0.930347868     -56.9354578
9.058                0.930173924      -57.015777
9.059                0.929999342     -57.0962943
9.06                  0.92982412     -57.1770102
9.061                0.929648255     -57.2579255
9.062                0.929471745     -57.3390408
9.063                0.929294587     -57.4203569
9.064                0.929116779     -57.5018745
9.065                0.928938317     -57.5835942
9.066                0.928759201     -57.6655168
9.067                0.928579425      -57.747643
9.068                 0.92839899     -57.8299734
9.069                 0.92821789     -57.9125089
9.07                 0.928036124       -57.99525
9.071                 0.92785369     -58.0781976
9.072                0.927670584     -58.1613523
9.073                0.927486804     -58.2447149
9.074                0.927302347      -58.328286
9.075                0.927117211     -58.4120665
9.076                0.926931392     -58.4960571
9.077                0.926744888     -58.5802584
9.078                0.926557697     -58.6646713
9.079                0.926369815     -58.7492964
9.08                  0.92618124     -58.8341346
9.081                0.925991968     -58.9191865
9.082                0.925801999     -59.0044529
9.083                0.925611327     -59.0899347
9.084                0.925419951     -59.1756324
9.085                0.925227869     -59.2615469
9.086                0.925035076      -59.347679
9.087                 0.92484157     -59.4340294
9.088                0.924647349     -59.5205989
9.089                 0.92445241     -59.6073882
9.09                 0.924256749     -59.6943982
9.091                0.924060364     -59.7816296
9.092                0.923863252     -59.8690832
9.093                0.923665411     -59.9567598
9.094                0.923466836     -60.0446601
9.095                0.923267526      -60.132785
9.096                0.923067477     -60.2211353
9.097                0.922866687     -60.3097117
9.098                0.922665152     -60.3985151
9.099                 0.92246287     -60.4875463
9.1                  0.922259838      -60.576806
9.101                0.922056052     -60.6662951
9.102                0.921851511     -60.7560144
9.103                0.921646209     -60.8459647
9.104                0.921440146     -60.9361469
9.105                0.921233318     -61.0265617
9.106                0.921025721     -61.1172101
9.107                0.920817353     -61.2080927
9.108                 0.92060821     -61.2992105
9.109                0.920398291     -61.3905643
9.11                 0.920187591      -61.482155
9.111                0.919976107     -61.5739833
9.112                0.919763837     -61.6660502
9.113                0.919550778     -61.7583565
9.114                0.919336925      -61.850903
9.115                0.919122277     -61.9436906
9.116                 0.91890683     -62.0367202
9.117                0.918690581     -62.1299926
9.118                0.918473527     -62.2235087
9.119                0.918255665     -62.3172694
9.12                 0.918036991     -62.4112755
9.121                0.917817503      -62.505528
9.122                0.917597196     -62.6000277
9.123                0.917376069     -62.6947755
9.124                0.917154118     -62.7897724
9.125                 0.91693134     -62.8850191
9.126                 0.91670773     -62.9805166
9.127                0.916483288     -63.0762658
9.128                0.916258008     -63.1722676
9.129                0.916031888     -63.2685229
9.13                 0.915804924     -63.3650327
9.131                0.915577114     -63.4617978
9.132                0.915348454     -63.5588191
9.133                0.915118941     -63.6560977
9.134                0.914888571     -63.7536344
9.135                0.914657341     -63.8514301
9.136                0.914425248     -63.9494858
9.137                0.914192289     -64.0478024
9.138                 0.91395846      -64.146381
9.139                0.913723757     -64.2452223
9.14                 0.913488179     -64.3443274
9.141                 0.91325172     -64.4436973
9.142                0.913014379     -64.5433328
9.143                0.912776151      -64.643235
9.144                0.912537033     -64.7434048
9.145                0.912297022     -64.8438432
9.146                0.912056114     -64.9445511
9.147                0.911814306     -65.0455296
9.148                0.911571595     -65.1467796
9.149                0.911327976     -65.2483022
9.15                 0.911083448     -65.3500982
9.151                0.910838006     -65.4521687
9.152                0.910591646     -65.5545148
9.153                0.910344366     -65.6571373
9.154                0.910096162     -65.7600373
9.155                 0.90984703     -65.8632159
9.156                0.909596967      -65.966674
9.157                 0.90934597     -66.0704127
9.158                0.909094034     -66.1744329
9.159                0.908841157     -66.2787357
9.16                 0.908587335     -66.3833222
9.161                0.908332565     -66.4881933
9.162                0.908076842     -66.5933502
9.163                0.907820164     -66.6987938
9.164                0.907562527     -66.8045252
9.165                0.907303927     -66.9105454
9.166                 0.90704436     -67.0168556
9.167                0.906783824     -67.1234568
9.168                0.906522314       -67.23035
9.169                0.906259828     -67.3375362
9.17                 0.905996361     -67.4450167
9.171                0.905731909     -67.5527925
9.172                 0.90546647     -67.6608645
9.173                 0.90520004      -67.769234
9.174                0.904932615     -67.8779021
9.175                0.904664191     -67.9868697
9.176                0.904394765      -68.096138
9.177                0.904124333     -68.2057082
9.178                0.903852892     -68.3155813
9.179                0.903580437     -68.4257584
9.18                 0.903306966     -68.5362407
9.181                0.903032474     -68.6470292
9.182                0.902756958     -68.7581252
9.183                0.902480415     -68.8695297
9.184                 0.90220284     -68.9812438
9.185                 0.90192423     -69.0932688
9.186                0.901644581     -69.2056057
9.187                 0.90136389     -69.3182557
9.188                0.901082153       -69.43122
9.189                0.900799366     -69.5444996
9.19                 0.900515525     -69.6580959
9.191                0.900230627     -69.7720098
9.192                0.899944668     -69.8862427
9.193                0.899657644     -70.0007956
9.194                0.899369552     -70.1156698
9.195                0.899080388     -70.2308665
9.196                0.898790149     -70.3463868
9.197                0.898498829     -70.4622319
9.198                0.898206426      -70.578403
9.199                0.897912937     -70.6949014
9.2                  0.897618356     -70.8117282
9.201                0.897322681     -70.9288846
9.202                0.897025908     -71.0463719
9.203                0.896728032     -71.1641913
9.204                0.896429051      -71.282344
9.205                0.896128961     -71.4008313
9.206                0.895827757     -71.5196543
9.207                0.895525436     -71.6388143
9.208                0.895221995     -71.7583126
9.209                0.894917429     -71.8781504
9.21                 0.894611734      -71.998329
9.211                0.894304908     -72.1188496
9.212                0.893996946     -72.2397135
9.213                0.893687844      -72.360922
9.214                0.893377599     -72.4824763
9.215                0.893066207     -72.6043777
9.216                0.892753665     -72.7266275
9.217                0.892439967      -72.849227
9.218                0.892125111     -72.9721774
9.219                0.891809094     -73.0954801
9.22                  0.89149191     -73.2191364
9.221                0.891173557     -73.3431476
9.222                 0.89085403      -73.467515
9.223                0.890533326     -73.5922399
9.224                0.890211442     -73.7173236
9.225                0.889888373     -73.8427675
9.226                0.889564115     -73.9685729
9.227                0.889238666     -74.0947411
9.228                 0.88891202     -74.2212734
9.229                0.888584175     -74.3481713
9.23                 0.888255127     -74.4754361
9.231                0.887924872     -74.6030691
9.232                0.887593406     -74.7310716
9.233                0.887260726     -74.8594451
9.234                0.886926827      -74.988191
9.235                0.886591707     -75.1173105
9.236                0.886255361     -75.2468051
9.237                0.885917786     -75.3766762
9.238                0.885578978     -75.5069252
9.239                0.885238933     -75.6375534
9.24                 0.884897648     -75.7685622
9.241                0.884555119     -75.8999531
9.242                0.884211343     -76.0317275
9.243                0.883866315     -76.1638868
9.244                0.883520033     -76.2964323
9.245                0.883172492     -76.4293656
9.246                0.882823688     -76.5626881
9.247                0.882473619     -76.6964012
9.248                0.882122281     -76.8305063
9.249                 0.88176967     -76.9650049
9.25                 0.881415782     -77.0998984
9.251                0.881060614     -77.2351884
9.252                0.880704163     -77.3708762
9.253                0.880346424     -77.5069633
9.254                0.879987395     -77.6434512
9.255                0.879627071     -77.7803414
9.256                 0.87926545     -77.9176353
9.257                0.878902527     -78.0553344
9.258                  0.8785383     -78.1934403
9.259                0.878172764     -78.3319544
9.26                 0.877805917     -78.4708783
9.261                0.877437754     -78.6102133
9.262                0.877068274     -78.7499611
9.263                0.876697471     -78.8901232
9.264                0.876325343      -79.030701
9.265                0.875951886     -79.1716962
9.266                0.875577097     -79.3131102
9.267                0.875200973     -79.4549445
9.268                0.874823511     -79.5972008
9.269                0.874444706     -79.7398805
9.27                 0.874064556     -79.8829853
9.271                0.873683057     -80.0265166
9.272                0.873300207      -80.170476
9.273                0.872916002     -80.3148651
9.274                0.872530439     -80.4596855
9.275                0.872143514     -80.6049388
9.276                0.871755225     -80.7506264
9.277                0.871365569     -80.8967501
9.278                0.870974542     -81.0433114
9.279                0.870582141     -81.1903119
9.28                 0.870188363     -81.3377531
9.281                0.869793205     -81.4856368
9.282                0.869396665     -81.6339645
9.283                0.868998739     -81.7827378
9.284                0.868599424     -81.9319583
9.285                0.868198718     -82.0816277
9.286                0.867796617     -82.2317477
9.287                0.867393118     -82.3823197
9.288                 0.86698822     -82.5333456
9.289                0.866581918     -82.6848269
9.29                 0.866174211     -82.8367652
9.291                0.865765095     -82.9891622
9.292                0.865354568     -83.1420197
9.293                0.864942627     -83.2953392
9.294                 0.86452927     -83.4491224
9.295                0.864114494     -83.6033709
9.296                0.863698296     -83.7580866
9.297                0.863280674      -83.913271
9.298                0.862861625     -84.0689258
9.299                0.862441147     -84.2250528
9.3                  0.862019238     -84.3816535
9.301                0.861595895     -84.5387298
9.302                0.861171115     -84.6962833
9.303                0.860744897     -84.8543158
9.304                0.860317239     -85.0128289
9.305                0.859888137     -85.1718243
9.306                0.859457591     -85.3313039
9.307                0.859025597     -85.4912692
9.308                0.858592154     -85.6517221
9.309                0.858157259     -85.8126643
9.31                 0.857720911     -85.9740975
9.311                0.857283108     -86.1360235
9.312                0.856843848      -86.298444
9.313                0.856403129     -86.4613608
9.314                0.855960949     -86.6247755
9.315                0.855517307     -86.7886901
9.316                  0.8550722     -86.9531063
9.317                0.854625628     -87.1180257
9.318                0.854177588     -87.2834503
9.319                0.853728079     -87.4493817
9.32                   0.8532771     -87.6158218
9.321                0.852824649     -87.7827723
9.322                0.852370724      -87.950235
9.323                0.851915326     -88.1182118
9.324                0.851458451     -88.2867044
9.325                  0.8510001     -88.4557146
9.326                 0.85054027     -88.6252442
9.327                0.850078962     -88.7952951
9.328                0.849616173      -88.965869
9.329                0.849151903     -89.1369678
9.33                 0.848686152     -89.3085932
9.331                0.848218917     -89.4807472
9.332                0.847750199     -89.6534315
9.333                0.847279997     -89.8266479
9.334                0.846808311     -90.0003983
9.335                0.846335138     -90.1746846
9.336                0.845860481     -90.3495085
9.337                0.845384337     -90.5248719
9.338                0.844906706     -90.7007767
9.339                0.844427589     -90.8772246
9.34                 0.843946985     -91.0542176
9.341                0.843464894     -91.2317575
9.342                0.842981317     -91.4098462
9.343                0.842496252     -91.5884855
9.344                  0.8420097     -91.7676773
9.345                0.841521662     -91.9474234
9.346                0.841032138     -92.1277257
9.347                0.840541127     -92.3085861
9.348                0.840048632     -92.4900065
9.349                0.839554651     -92.6719887
9.35                 0.839059186     -92.8545346
9.351                0.838562238     -93.0376461
9.352                0.838063808      -93.221325
9.353                0.837563895     -93.4055733
9.354                0.837062502     -93.5903929
9.355                0.836559629     -93.7757855
9.356                0.836055278     -93.9617532
9.357                0.835549449     -94.1482978
9.358                0.835042145     -94.3354212
9.359                0.834533366     -94.5231252
9.36                 0.834023115     -94.7114119
9.361                0.833511393      -94.900283
9.362                0.832998201     -95.0897405
9.363                0.832483542     -95.2797862
9.364                0.831967417     -95.4704222
9.365                0.831449829     -95.6616502
9.366                0.830930781     -95.8534722
9.367                0.830410273     -96.0458901
9.368                0.829888309     -96.2389057
9.369                0.829364891     -96.4325211
9.37                 0.828840021      -96.626738
9.371                0.828313703     -96.8215584
9.372                 0.82778594     -97.0169843
9.373                0.827256734     -97.2130174
9.374                0.826726088     -97.4096597
9.375                0.826194006     -97.6069132
9.376                0.825660491     -97.8047796
9.377                0.825125547      -98.003261
9.378                0.824589176     -98.2023592
9.379                0.824051383     -98.4020762
9.38                 0.823512172     -98.6024137
9.381                0.822971547     -98.8033738
9.382                0.822429511     -99.0049583
9.383                0.821886068     -99.2071692
9.384                0.821341225     -99.4100082
9.385                0.820794983     -99.6134774
9.386                0.820247349     -99.8175786
9.387                0.819698328     -100.022314
9.388                0.819147923     -100.227685
9.389                 0.81859614     -100.433693
9.39                 0.818042984     -100.640341
9.391                0.817488461     -100.847631
9.392                0.816932576     -101.055564
9.393                0.816375334     -101.264142
9.394                0.815816742     -101.473367
9.395                0.815256805     -101.683241
9.396                0.814695529     -101.893766
