! TOUCHSTONE file generated by CST DESIGN STUDIO
! Date and time: Tue Feb  4 17:48:21 2025
! Project name: C:\Work\MatlabApps\UnitCellOptimizationMatlab\CST\unitcell.cst
! Tree item: Tasks\Sweep1\SPara1\S-Parameters
! Header version: 2024
! Port assignment regex: !\s*Touchstone port\s*([0-9]+)\s*=\s*(CST MWS port|CST DES external port|CST DES block port)\s*(.+)\s* \(\"(.*)\"\)(\s*mode\s*([0-9]+))?.*
! Touchstone port assignment:
! Touchstone port 1 = CST DES external port 1 ("")
# GHz S MA R 50
9                    0.953614357       -47.41349
9.001                0.953518059     -47.4719264
9.002                0.953421431     -47.5304861
9.003                0.953324473     -47.5891696
9.004                0.953227182     -47.6479773
9.005                0.953129557     -47.7069095
9.006                0.953031598     -47.7659666
9.007                0.952933302      -47.825149
9.008                0.952834669     -47.8844572
9.009                0.952735697     -47.9438914
9.01                 0.952636386     -48.0034521
9.011                0.952536733     -48.0631397
9.012                0.952436737     -48.1229545
9.013                0.952336398      -48.182897
9.014                0.952235713     -48.2429676
9.015                0.952134682     -48.3031666
9.016                0.952033303     -48.3634946
9.017                0.951931575     -48.4239518
9.018                0.951829496     -48.4845386
9.019                0.951727066     -48.5452556
9.02                 0.951624282      -48.606103
9.021                0.951521143     -48.6670814
9.022                0.951417649      -48.728191
9.023                0.951313797     -48.7894324
9.024                0.951209587     -48.8508059
9.025                0.951105016      -48.912312
9.026                0.951000084     -48.9739511
9.027                0.950894789     -49.0357235
9.028                 0.95078913     -49.0976298
9.029                0.950683105     -49.1596703
9.03                 0.950576713     -49.2218454
9.031                0.950469953     -49.2841557
9.032                0.950362823     -49.3466014
9.033                0.950255321     -49.4091831
9.034                0.950147447     -49.4719012
9.035                0.950039198     -49.5347561
9.036                0.949930574     -49.5977482
9.037                0.949821573      -49.660878
9.038                0.949712193     -49.7241459
9.039                0.949602433     -49.7875524
9.04                 0.949492292     -49.8510978
9.041                0.949381767     -49.9147827
9.042                0.949270859     -49.9786075
9.043                0.949159564     -50.0425726
9.044                0.949047882     -50.1066784
9.045                0.948935811     -50.1709255
9.046                0.948823349     -50.2353143
9.047                0.948710496     -50.2998452
9.048                0.948597249     -50.3645186
9.049                0.948483607     -50.4293351
9.05                 0.948369569     -50.4942951
9.051                0.948255133     -50.5593991
9.052                0.948140297     -50.6246475
9.053                 0.94802506     -50.6900407
9.054                 0.94790942     -50.7555794
9.055                0.947793376     -50.8212638
9.056                0.947676926     -50.8870945
9.057                0.947560068      -50.953072
9.058                0.947442802     -51.0191967
9.059                0.947325125     -51.0854691
9.06                 0.947207036     -51.1518897
9.061                0.947088533     -51.2184589
9.062                0.946969614     -51.2851773
9.063                0.946850279     -51.3520453
9.064                0.946730525     -51.4190634
9.065                0.946610351     -51.4862321
9.066                0.946489754     -51.5535519
9.067                0.946368735     -51.6210232
9.068                 0.94624729     -51.6886466
9.069                0.946125418     -51.7564226
9.07                 0.946003118     -51.8243516
9.071                0.945880387     -51.8924342
9.072                0.945757225     -51.9606708
9.073                0.945633629     -52.0290619
9.074                0.945509598     -52.0976082
9.075                 0.94538513     -52.1663099
9.076                0.945260223     -52.2351678
9.077                0.945134876     -52.3041822
9.078                0.945009087     -52.3733537
9.079                0.944882854     -52.4426828
9.08                 0.944756176       -52.51217
9.081                 0.94462905     -52.5818159
9.082                0.944501475     -52.6516209
9.083                 0.94437345     -52.7215856
9.084                0.944244972     -52.7917104
9.085                 0.94411604     -52.8619961
9.086                0.943986651     -52.9324429
9.087                0.943856805     -53.0030516
9.088                0.943726499     -53.0738225
9.089                0.943595732     -53.1447563
9.09                 0.943464502     -53.2158535
9.091                0.943332806     -53.2871146
9.092                0.943200644     -53.3585402
9.093                0.943068012     -53.4301308
9.094                0.942934911      -53.501887
9.095                0.942801337     -53.5738092
9.096                0.942667289     -53.6458981
9.097                0.942532764     -53.7181542
9.098                0.942397762      -53.790578
9.099                 0.94226228     -53.8631702
9.1                  0.942126316     -53.9359312
9.101                0.941989869     -54.0088617
9.102                0.941852936     -54.0819621
9.103                0.941715516     -54.1552331
9.104                0.941577607     -54.2286752
9.105                0.941439206      -54.302289
9.106                0.941300313     -54.3760751
9.107                0.941160924      -54.450034
9.108                0.941021038     -54.5241664
9.109                0.940880654     -54.5984727
9.11                 0.940739768     -54.6729536
9.111                 0.94059838     -54.7476096
9.112                0.940456487     -54.8224414
9.113                0.940314087     -54.8974495
9.114                0.940171179     -54.9726345
9.115                0.940027759      -55.047997
9.116                0.939883827     -55.1235377
9.117                0.939739381      -55.199257
9.118                0.939594417     -55.2751556
9.119                0.939448935     -55.3512342
9.12                 0.939302931     -55.4274932
9.121                0.939156405     -55.5039334
9.122                0.939009354     -55.5805553
9.123                0.938861776     -55.6573595
9.124                0.938713669     -55.7343466
9.125                0.938565031     -55.8115174
9.126                 0.93841586     -55.8888723
9.127                0.938266154      -55.966412
9.128                 0.93811591     -56.0441371
9.129                0.937965126     -56.1220483
9.13                 0.937813802     -56.2001462
9.131                0.937661933     -56.2784314
9.132                0.937509519     -56.3569045
9.133                0.937356556     -56.4355662
9.134                0.937203044     -56.5144172
9.135                0.937048979      -56.593458
9.136                 0.93689436     -56.6726893
9.137                0.936739185     -56.7521117
9.138                0.936583451      -56.831726
9.139                0.936427155     -56.9115327
9.14                 0.936270297     -56.9915326
9.141                0.936112873     -57.0717262
9.142                0.935954882     -57.1521142
9.143                0.935796321     -57.2326973
9.144                0.935637189     -57.3134761
9.145                0.935477482     -57.3944514
9.146                0.935317198     -57.4756238
9.147                0.935156336     -57.5569939
9.148                0.934994893     -57.6385625
9.149                0.934832867     -57.7203302
9.15                 0.934670255     -57.8022977
9.151                0.934507056     -57.8844657
9.152                0.934343266     -57.9668348
9.153                0.934178884     -58.0494058
9.154                0.934013908     -58.1321793
9.155                0.933848335     -58.2151561
9.156                0.933682162     -58.2983369
9.157                0.933515388     -58.3817222
9.158                0.933348009      -58.465313
9.159                0.933180025     -58.5491097
9.16                 0.933011432     -58.6331132
9.161                0.932842227     -58.7173242
9.162                 0.93267241     -58.8017434
9.163                0.932501976     -58.8863715
9.164                0.932330925     -58.9712092
9.165                0.932159253     -59.0562572
9.166                0.931986958     -59.1415164
9.167                0.931814037     -59.2269873
9.168                0.931640489     -59.3126707
9.169                0.931466311     -59.3985674
9.17                   0.9312915     -59.4846782
9.171                0.931116053     -59.5710036
9.172                 0.93093997     -59.6575446
9.173                0.930763246     -59.7443018
9.174                0.930585879     -59.8312759
9.175                0.930407868     -59.9184678
9.176                0.930229209     -60.0058782
9.177                  0.9300499     -60.0935079
9.178                0.929869939     -60.1813575
9.179                0.929689322     -60.2694279
9.18                 0.929508049     -60.3577199
9.181                0.929326115     -60.4462342
9.182                0.929143518     -60.5349716
9.183                0.928960256     -60.6239328
9.184                0.928776327     -60.7131187
9.185                0.928591727       -60.80253
9.186                0.928406455     -60.8921675
9.187                0.928220507      -60.982032
9.188                0.928033881     -61.0721243
9.189                0.927846574     -61.1624452
9.19                 0.927658584     -61.2529955
9.191                0.927469909      -61.343776
9.192                0.927280544     -61.4347875
9.193                0.927090489     -61.5260307
9.194                 0.92689974     -61.6175066
9.195                0.926708295     -61.7092159
9.196                 0.92651615     -61.8011595
9.197                0.926323304     -61.8933381
9.198                0.926129754     -61.9857527
9.199                0.925935496     -62.0784039
9.2                  0.925740529     -62.1712927
9.201                0.925544849     -62.2644199
9.202                0.925348454     -62.3577863
9.203                0.925151341     -62.4513928
9.204                0.924953508     -62.5452402
9.205                0.924754951     -62.6393293
9.206                0.924555668     -62.7336611
9.207                0.924355657     -62.8282363
9.208                0.924154914     -62.9230558
9.209                0.923953436     -63.0181205
9.21                 0.923751222     -63.1134313
9.211                0.923548268     -63.2089889
9.212                0.923344571     -63.3047944
9.213                0.923140128     -63.4008485
9.214                0.922934937     -63.4971521
9.215                0.922728996     -63.5937062
9.216                  0.9225223     -63.6905116
9.217                0.922314848     -63.7875691
9.218                0.922106636     -63.8848798
9.219                0.921897662     -63.9824444
9.22                 0.921687922     -64.0802639
9.221                0.921477415     -64.1783392
9.222                0.921266137     -64.2766712
9.223                0.921054084     -64.3752608
9.224                0.920841256     -64.4741089
9.225                0.920627647     -64.5732164
9.226                0.920413256     -64.6725843
9.227                 0.92019808     -64.7722134
9.228                0.919982116     -64.8721048
9.229                 0.91976536     -64.9722593
9.23                 0.919547811     -65.0726778
9.231                0.919329464     -65.1733614
9.232                0.919110317     -65.2743109
9.233                0.918890368     -65.3755273
9.234                0.918669612     -65.4770115
9.235                0.918448048     -65.5787646
9.236                0.918225672     -65.6807874
9.237                0.918002482     -65.7830809
9.238                0.917778474     -65.8856461
9.239                0.917553645      -65.988484
9.24                 0.917327992     -66.0915955
9.241                0.917101513     -66.1949816
9.242                0.916874204     -66.2986432
9.243                0.916646062     -66.4025814
9.244                0.916417085     -66.5067972
9.245                0.916187269     -66.6112915
9.246                0.915956611     -66.7160654
9.247                0.915725108     -66.8211197
9.248                0.915492758     -66.9264557
9.249                0.915259557     -67.0320741
9.25                 0.915025502     -67.1379762
9.251                 0.91479059     -67.2441627
9.252                0.914554818     -67.3506349
9.253                0.914318183     -67.4573937
9.254                0.914080681     -67.5644401
9.255                0.913842311     -67.6717752
9.256                0.913603068        -67.7794
9.257                 0.91336295     -67.8873155
9.258                0.913121953     -67.9955228
9.259                0.912880074     -68.1040229
9.26                 0.912637311     -68.2128169
9.261                 0.91239366     -68.3219059
9.262                0.912149119     -68.4312908
9.263                0.911903683     -68.5409727
9.264                 0.91165735     -68.6509528
9.265                0.911410116      -68.761232
9.266                 0.91116198     -68.8718116
9.267                0.910912936     -68.9826924
9.268                0.910662983     -69.0938757
9.269                0.910412117     -69.2053624
9.27                 0.910160336     -69.3171538
9.271                0.909907635     -69.4292508
9.272                0.909654011     -69.5416547
9.273                0.909399462     -69.6543664
9.274                0.909143985     -69.7673871
9.275                0.908887576     -69.8807179
9.276                0.908630232       -69.99436
9.277                 0.90837195     -70.1083143
9.278                0.908112726     -70.2225822
9.279                0.907852558     -70.3371646
9.28                 0.907591442     -70.4520628
9.281                0.907329376     -70.5672778
9.282                0.907066355     -70.6828108
9.283                0.906802378     -70.7986629
9.284                 0.90653744     -70.9148354
9.285                0.906271538     -71.0313293
9.286                0.906004669     -71.1481457
9.287                0.905736831      -71.265286
9.288                0.905468019     -71.3827511
9.289                0.905198231     -71.5005424
9.29                 0.904927464     -71.6186609
9.291                0.904655714     -71.7371079
9.292                0.904382978     -71.8558845
9.293                0.904109252     -71.9749919
9.294                0.903834535     -72.0944313
9.295                0.903558822     -72.2142039
9.296                 0.90328211     -72.3343109
9.297                0.903004396     -72.4547536
9.298                0.902725677      -72.575533
9.299                 0.90244595     -72.6966505
9.3                  0.902165211     -72.8181072
9.301                0.901883458     -72.9399043
9.302                0.901600687     -73.0620432
9.303                0.901316894      -73.184525
9.304                0.901032078     -73.3073509
9.305                0.900746234     -73.4305222
9.306                0.900459359     -73.5540401
9.307                 0.90017145      -73.677906
9.308                0.899882505     -73.8021209
9.309                0.899592519     -73.9266863
9.31                  0.89930149     -74.0516033
9.311                0.899009414     -74.1768732
9.312                0.898716289     -74.3024973
9.313                0.898422111     -74.4284768
9.314                0.898126876     -74.5548131
9.315                0.897830583     -74.6815074
9.316                0.897533227      -74.808561
9.317                0.897234806     -74.9359752
9.318                0.896935317     -75.0637513
9.319                0.896634755     -75.1918906
9.32                 0.896333119     -75.3203943
9.321                0.896030405     -75.4492639
9.322                0.895726609     -75.5785006
9.323                 0.89542173     -75.7081057
9.324                0.895115763     -75.8380806
9.325                0.894808705     -75.9684266
9.326                0.894500555     -76.0991449
9.327                0.894191307      -76.230237
9.328                 0.89388096     -76.3617043
9.329                 0.89356951     -76.4935479
9.33                 0.893256955     -76.6257693
9.331                 0.89294329     -76.7583699
9.332                0.892628514     -76.8913509
9.333                0.892312623     -77.0247138
9.334                0.891995614     -77.1584599
9.335                0.891677484     -77.2925907
9.336                0.891358231     -77.4271073
9.337                 0.89103785     -77.5620113
9.338                 0.89071634     -77.6973041
9.339                0.890393696      -77.832987
9.34                 0.890069917     -77.9690613
9.341                0.889744999     -78.1055286
9.342                 0.88941894     -78.2423902
9.343                0.889091736     -78.3796475
9.344                0.888763384     -78.5173019
9.345                0.888433883     -78.6553549
9.346                0.888103228     -78.7938078
9.347                0.887771417     -78.9326622
9.348                0.887438447     -79.0719193
9.349                0.887104315     -79.2115806
9.35                 0.886769019     -79.3516477
9.351                0.886432555     -79.4921218
9.352                0.886094922     -79.6330045
9.353                0.885756115     -79.7742973
9.354                0.885416133     -79.9160015
9.355                0.885074973     -80.0581186
9.356                0.884732631     -80.2006501
9.357                0.884389106     -80.3435975
9.358                0.884044395     -80.4869622
9.359                0.883698494     -80.6307456
9.36                 0.883351402     -80.7749494
9.361                0.883003115     -80.9195749
9.362                0.882653632     -81.0646237
9.363                0.882302949     -81.2100972
9.364                0.881951064      -81.355997
9.365                0.881597975     -81.5023245
9.366                0.881243679     -81.6490812
9.367                0.880888173     -81.7962687
9.368                0.880531456     -81.9438885
9.369                0.880173524      -82.091942
9.37                 0.879814376     -82.2404309
9.371                0.879454008     -82.3893565
9.372                0.879092419     -82.5387205
9.373                0.878729607     -82.6885245
9.374                0.878365568     -82.8387698
9.375                0.878000301     -82.9894581
9.376                0.877633804     -83.1405909
9.377                0.877266074     -83.2921698
9.378                0.876897109     -83.4441963
9.379                0.876526907      -83.596672
9.38                 0.876155465     -83.7495984
9.381                0.875782783     -83.9029771
9.382                0.875408857     -84.0568097
9.383                0.875033686     -84.2110977
9.384                0.874657268     -84.3658427
9.385                0.874279601     -84.5210463
9.386                0.873900682     -84.6767101
9.387                0.873520511     -84.8328357
9.388                0.873139084     -84.9894246
9.389                0.872756401     -85.1464784
9.39                  0.87237246     -85.3039989
9.391                0.871987258     -85.4619874
9.392                0.871600794     -85.6204457
9.393                0.871213067     -85.7793754
9.394                0.870824075     -85.9387781
9.395                0.870433816     -86.0986554
9.396                0.870042289     -86.2590088
