! TOUCHSTONE file generated by CST DESIGN STUDIO
! Date and time: Tue Feb  4 17:03:26 2025
! Project name: C:\Work\MatlabApps\UnitCellOptimizationMatlab\CST\unitcell.cst
! Tree item: Tasks\Sweep1\SPara1\S-Parameters
! Header version: 2024
! Port assignment regex: !\s*Touchstone port\s*([0-9]+)\s*=\s*(CST MWS port|CST DES external port|CST DES block port)\s*(.+)\s* \(\"(.*)\"\)(\s*mode\s*([0-9]+))?.*
! Touchstone port assignment:
! Touchstone port 1 = CST DES external port 1 ("")
# GHz S MA R 50
9                    0.983570863     -71.2831154
9.001                 0.98353121     -71.3901066
9.002                0.983491429     -71.4973624
9.003                 0.98345152     -71.6048838
9.004                0.983411482     -71.7126716
9.005                0.983371316     -71.8207266
9.006                0.983331021     -71.9290496
9.007                0.983290597     -72.0376414
9.008                0.983250043      -72.146503
9.009                0.983209359     -72.2556351
9.01                 0.983168545     -72.3650385
9.011                0.983127601     -72.4747142
9.012                0.983086525      -72.584663
9.013                0.983045318     -72.6948857
9.014                 0.98300398     -72.8053832
9.015                0.982962509     -72.9161564
9.016                0.982920907      -73.027206
9.017                0.982879172      -73.138533
9.018                0.982837304     -73.2501382
9.019                0.982795302     -73.3620225
9.02                 0.982753168     -73.4741868
9.021                0.982710899     -73.5866318
9.022                0.982668496     -73.6993586
9.023                0.982625959     -73.8123679
9.024                0.982583287     -73.9256607
9.025                 0.98254048     -74.0392378
9.026                0.982497538     -74.1531001
9.027                0.982454459     -74.2672485
9.028                0.982411245     -74.3816838
9.029                0.982367894      -74.496407
9.03                 0.982324407      -74.611419
9.031                0.982280782     -74.7267206
9.032                 0.98223702     -74.8423128
9.033                0.982193121     -74.9581964
9.034                0.982149083     -75.0743724
9.035                0.982104908     -75.1908416
9.036                0.982060593     -75.3076049
9.037                 0.98201614     -75.4246633
9.038                0.981971548     -75.5420176
9.039                0.981926816     -75.6596689
9.04                 0.981881944     -75.7776179
9.041                0.981836933     -75.8958656
9.042                 0.98179178      -76.014413
9.043                0.981746487     -76.1332609
9.044                0.981701053     -76.2524102
9.045                0.981655478      -76.371862
9.046                0.981609761     -76.4916171
9.047                0.981563903     -76.6116764
9.048                0.981517902     -76.7320409
9.049                0.981471758     -76.8527116
9.05                 0.981425472     -76.9736893
9.051                0.981379042     -77.0949749
9.052                 0.98133247     -77.2165696
9.053                0.981285753     -77.3384741
9.054                0.981238893     -77.4606894
9.055                0.981191888     -77.5832165
9.056                0.981144739     -77.7060563
9.057                0.981097445     -77.8292098
9.058                0.981050006     -77.9526779
9.059                0.981002421     -78.0764616
9.06                 0.980954691     -78.2005618
9.061                0.980906815     -78.3249795
9.062                0.980858793     -78.4497157
9.063                0.980810624     -78.5747714
9.064                0.980762309     -78.7001474
9.065                0.980713846     -78.8258448
9.066                0.980665237     -78.9518645
9.067                0.980616479     -79.0782075
9.068                0.980567574     -79.2048748
9.069                0.980518521     -79.3318674
9.07                  0.98046932     -79.4591862
9.071                 0.98041997     -79.5868323
9.072                0.980370471     -79.7148065
9.073                0.980320823     -79.8431099
9.074                0.980271026     -79.9717435
9.075                0.980221079     -80.1007083
9.076                0.980170983     -80.2300052
9.077                0.980120736     -80.3596353
9.078                0.980070339     -80.4895996
9.079                0.980019791     -80.6198989
9.08                 0.979969093     -80.7505344
9.081                0.979918244     -80.8815071
9.082                0.979867243     -81.0128179
9.083                0.979816092     -81.1444678
9.084                0.979764788     -81.2764579
9.085                0.979713332     -81.4087891
9.086                0.979661725     -81.5414626
9.087                0.979609965     -81.6744792
9.088                0.979558053       -81.80784
9.089                0.979505987      -81.941546
9.09                 0.979453769     -82.0755982
9.091                0.979401398     -82.2099977
9.092                0.979348873     -82.3447454
9.093                0.979296195     -82.4798425
9.094                0.979243364     -82.6152898
9.095                0.979190378     -82.7510885
9.096                0.979137238     -82.8872395
9.097                0.979083944     -83.0237439
9.098                0.979030495     -83.1606027
9.099                0.978976892      -83.297817
9.1                  0.978923134     -83.4353878
9.101                0.978869221     -83.5733161
9.102                0.978815153     -83.7116029
9.103                0.978760929     -83.8502493
9.104                0.978706551     -83.9892564
9.105                0.978652016     -84.1286251
9.106                0.978597326     -84.2683565
9.107                 0.97854248     -84.4084517
9.108                0.978487478     -84.5489116
9.109                 0.97843232     -84.6897374
9.11                 0.978377005     -84.8309301
9.111                0.978321534     -84.9724907
9.112                0.978265907     -85.1144203
9.113                0.978210123     -85.2567199
9.114                0.978154182     -85.3993906
9.115                0.978098084     -85.5424335
9.116                 0.97804183     -85.6858495
9.117                0.977985418     -85.8296397
9.118                0.977928849     -85.9738053
9.119                0.977872123     -86.1183472
9.12                  0.97781524     -86.2632665
9.121                0.977758199     -86.4085643
9.122                0.977701001     -86.5542415
9.123                0.977643645     -86.7002994
9.124                0.977586132     -86.8467389
9.125                0.977528461     -86.9935612
9.126                0.977470632     -87.1407672
9.127                0.977412645      -87.288358
9.128                0.977354501     -87.4363347
9.129                0.977296199     -87.5846984
9.13                 0.977237739     -87.7334501
9.131                0.977179121     -87.8825909
9.132                0.977120345     -88.0321219
9.133                0.977061412      -88.182044
9.134                 0.97700232     -88.3323585
9.135                0.976943071     -88.4830663
9.136                0.976883663     -88.6341685
9.137                0.976824098     -88.7856663
9.138                0.976764375     -88.9375606
9.139                0.976704494     -89.0898525
9.14                 0.976644455     -89.2425431
9.141                0.976584259     -89.3956335
9.142                0.976523905     -89.5491247
9.143                0.976463393     -89.7030178
9.144                0.976402723     -89.8573139
9.145                0.976341896      -90.012014
9.146                0.976280912     -90.1671193
9.147                 0.97621977     -90.3226307
9.148                0.976158471     -90.4785494
9.149                0.976097015     -90.6348764
9.15                 0.976035401     -90.7916128
9.151                0.975973631     -90.9487596
9.152                0.975911704      -91.106318
9.153                 0.97584962      -91.264289
9.154                 0.97578738     -91.4226736
9.155                0.975724983     -91.5814729
9.156                 0.97566243     -91.7406881
9.157                 0.97559972     -91.9003201
9.158                0.975536855       -92.06037
9.159                0.975473834     -92.2208389
9.16                 0.975410657     -92.3817279
9.161                0.975347325      -92.543038
9.162                0.975283838     -92.7047702
9.163                0.975220195     -92.8669257
9.164                0.975156398     -93.0295055
9.165                0.975092447     -93.1925106
9.166                0.975028341     -93.3559422
9.167                0.974964081     -93.5198012
9.168                0.974899667     -93.6840888
9.169                0.974835099     -93.8488059
9.17                 0.974770379     -94.0139537
9.171                0.974705505     -94.1795332
9.172                0.974640478     -94.3455453
9.173                  0.9745753     -94.5119913
9.174                0.974509969     -94.6788721
9.175                0.974444486     -94.8461888
9.176                0.974378852     -95.0139424
9.177                0.974313067      -95.182134
9.178                0.974247131     -95.3507646
9.179                0.974181044     -95.5198352
9.18                 0.974114808     -95.6893469
9.181                0.974048422     -95.8593007
9.182                0.973981887     -96.0296976
9.183                0.973915203     -96.2005388
9.184                0.973848371     -96.3718251
9.185                 0.97378139     -96.5435576
9.186                0.973714262     -96.7157374
9.187                0.973646987     -96.8883655
9.188                0.973579566     -97.0614429
9.189                0.973511998     -97.2349705
9.19                 0.973444285     -97.4089495
9.191                0.973376426     -97.5833808
9.192                0.973308423     -97.7582655
9.193                0.973240275     -97.9336044
9.194                0.973171984     -98.1093987
9.195                 0.97310355     -98.2856494
9.196                0.973034974     -98.4623574
9.197                0.972966255     -98.6395237
9.198                0.972897395     -98.8171493
9.199                0.972828394     -98.9952352
9.2                  0.972759254     -99.1737824
9.201                0.972689973     -99.3527918
9.202                0.972620554     -99.5322645
9.203                0.972550996     -99.7122014
9.204                0.972481301     -99.8926034
9.205                0.972411469     -100.073472
9.206                  0.9723415     -100.254807
9.207                0.972271396      -100.43661
9.208                0.972201158     -100.618882
9.209                0.972130785     -100.801625
9.21                 0.972060278     -100.984838
9.211                 0.97198964     -101.168523
9.212                0.971918869      -101.35268
9.213                0.971847967     -101.537312
9.214                0.971776935     -101.722417
9.215                0.971705773     -101.907999
9.216                0.971634483     -102.094057
9.217                0.971563065     -102.280592
9.218                 0.97149152     -102.467605
9.219                0.971419849     -102.655098
9.22                 0.971348053      -102.84307
9.221                0.971276132     -103.031524
9.222                0.971204089     -103.220459
9.223                0.971131922     -103.409877
9.224                0.971059635     -103.599779
9.225                0.970987226     -103.790165
9.226                0.970914699     -103.981036
9.227                0.970842052     -104.172393
9.228                0.970769288     -104.364237
9.229                0.970696408     -104.556569
9.23                 0.970623412      -104.74939
9.231                0.970550302       -104.9427
9.232                0.970477078       -105.1365
9.233                0.970403742     -105.330792
9.234                0.970330295     -105.525575
9.235                0.970256738     -105.720851
9.236                0.970183072     -105.916621
9.237                0.970109299     -106.112885
9.238                0.970035419     -106.309644
9.239                0.969961433     -106.506898
9.24                 0.969887344     -106.704649
9.241                0.969813152     -106.902898
9.242                0.969738858     -107.101645
9.243                0.969664463      -107.30089
9.244                 0.96958997     -107.500635
9.245                0.969515379      -107.70088
9.246                0.969440691     -107.901627
9.247                0.969365908     -108.102874
9.248                0.969291032     -108.304625
9.249                0.969216063     -108.506878
9.25                 0.969141003     -108.709635
9.251                0.969065853     -108.912897
9.252                0.968990616     -109.116663
9.253                0.968915291     -109.320936
9.254                0.968839881     -109.525715
9.255                0.968764388        -109.731
9.256                0.968688812     -109.936794
9.257                0.968613156     -110.143095
9.258                0.968537421     -110.349906
9.259                0.968461608     -110.557226
9.26                 0.968385718     -110.765056
9.261                0.968309755     -110.973396
9.262                0.968233719     -111.182248
9.263                0.968157611     -111.391612
9.264                0.968081434     -111.601487
9.265                0.968005189     -111.811876
9.266                0.967928878     -112.022778
9.267                0.967852503     -112.234193
9.268                0.967776065     -112.446123
9.269                0.967699566     -112.658568
9.27                 0.967623008     -112.871528
9.271                0.967546393     -113.085004
9.272                0.967469723     -113.298996
9.273                0.967392998     -113.513505
9.274                0.967316222     -113.728531
9.275                0.967239397     -113.944074
9.276                0.967162523     -114.160135
9.277                0.967085603     -114.376715
9.278                0.967008639     -114.593813
9.279                0.966931633      -114.81143
9.28                 0.966854587     -115.029566
9.281                0.966777503     -115.248223
9.282                0.966700383     -115.467399
9.283                0.966623228     -115.687095
9.284                0.966546042     -115.907313
9.285                0.966468826     -116.128051
9.286                0.966391582      -116.34931
9.287                0.966314313     -116.571091
9.288                 0.96623702     -116.793394
9.289                0.966159706     -117.016219
9.29                 0.966082373     -117.239565
9.291                0.966005023     -117.463435
9.292                0.965927659     -117.687826
9.293                0.965850282     -117.912741
9.294                0.965772896     -118.138178
9.295                0.965695502     -118.364138
9.296                0.965618102     -118.590622
9.297                0.965540699     -118.817628
9.298                0.965463296     -119.045159
9.299                0.965385894     -119.273212
9.3                  0.965308497     -119.501789
9.301                0.965231107      -119.73089
9.302                0.965153725     -119.960514
9.303                0.965076355     -120.190661
9.304                0.964998999     -120.421333
9.305                 0.96492166     -120.652527
9.306                 0.96484434     -120.884246
9.307                0.964767042     -121.116488
9.308                0.964689768     -121.349253
9.309                0.964612521     -121.582541
9.31                 0.964535304     -121.816353
9.311                0.964458118     -122.050688
9.312                0.964380968     -122.285546
9.313                0.964303856     -122.520926
9.314                0.964226783     -122.756829
9.315                0.964149754     -122.993255
9.316                0.964072771     -123.230203
9.317                0.963995837     -123.467673
9.318                0.963918953     -123.705664
9.319                0.963842125     -123.944177
9.32                 0.963765353     -124.183211
9.321                0.963688641     -124.422766
9.322                0.963611992     -124.662842
9.323                0.963535409     -124.903437
9.324                0.963458895     -125.144553
9.325                0.963382452     -125.386188
9.326                0.963306084     -125.628342
9.327                0.963229794     -125.871015
9.328                0.963153584     -126.114205
9.329                0.963077458     -126.357914
9.33                 0.963001419     -126.602139
9.331                0.962925469     -126.846882
9.332                0.962849612      -127.09214
9.333                0.962773852     -127.337915
9.334                 0.96269819     -127.584204
9.335                0.962622631     -127.831008
9.336                0.962547177     -128.078325
9.337                0.962471832     -128.326156
9.338                0.962396599       -128.5745
9.339                0.962321481     -128.823355
9.34                 0.962246481     -129.072721
9.341                0.962171602     -129.322598
9.342                0.962096849     -129.572985
9.343                0.962022224     -129.823881
9.344                 0.96194773     -130.075285
9.345                0.961873371     -130.327196
9.346                 0.96179915     -130.579614
9.347                 0.96172507     -130.832537
9.348                0.961651136     -131.085965
9.349                 0.96157735     -131.339898
9.35                 0.961503715     -131.594333
9.351                0.961430236      -131.84927
9.352                0.961356915     -132.104708
9.353                0.961283756     -132.360647
9.354                0.961210763     -132.617084
9.355                0.961137939      -132.87402
9.356                0.961065287     -133.131452
9.357                0.960992811      -133.38938
9.358                0.960920515     -133.647803
9.359                0.960848403      -133.90672
9.36                 0.960776476     -134.166129
9.361                0.960704741      -134.42603
9.362                0.960633199      -134.68642
9.363                0.960561854     -134.947299
9.364                0.960490711     -135.208666
9.365                0.960419772     -135.470519
9.366                0.960349042     -135.732857
9.367                0.960278524     -135.995679
9.368                0.960208222     -136.258983
9.369                0.960138139     -136.522768
9.37                 0.960068279     -136.787032
9.371                0.959998646     -137.051775
9.372                0.959929243     -137.316994
9.373                0.959860075     -137.582688
9.374                0.959791144     -137.848855
9.375                0.959722455     -138.115495
9.376                0.959654012     -138.382605
9.377                0.959585817     -138.650185
9.378                0.959517876     -138.918231
9.379                0.959450192     -139.186743
9.38                 0.959382767     -139.455719
9.381                0.959315607     -139.725158
9.382                0.959248716     -139.995056
9.383                0.959182096     -140.265414
9.384                0.959115751     -140.536229
9.385                0.959049686     -140.807499
9.386                0.958983905     -141.079223
9.387                 0.95891841     -141.351398
9.388                0.958853207     -141.624023
9.389                0.958788298     -141.897095
9.39                 0.958723687     -142.170614
9.391                0.958659379     -142.444576
9.392                0.958595377     -142.718981
9.393                0.958531686     -142.993825
9.394                0.958468308     -143.269107
9.395                0.958405247     -143.544826
9.396                0.958342509     -143.820977
