! TOUCHSTONE file generated by CST DESIGN STUDIO
! Date and time: Tue Feb  4 17:03:18 2025
! Project name: C:\Work\MatlabApps\UnitCellOptimizationMatlab\CST\unitcell.cst
! Tree item: Tasks\Sweep1\SPara1\S-Parameters
! Header version: 2024
! Port assignment regex: !\s*Touchstone port\s*([0-9]+)\s*=\s*(CST MWS port|CST DES external port|CST DES block port)\s*(.+)\s* \(\"(.*)\"\)(\s*mode\s*([0-9]+))?.*
! Touchstone port assignment:
! Touchstone port 1 = CST DES external port 1 ("")
# GHz S MA R 50
9                    0.981099786     -79.6271287
9.001                0.981049773      -79.753809
9.002                0.980999605     -79.8808133
9.003                0.980949281     -80.0081423
9.004                0.980898801     -80.1357972
9.005                0.980848164     -80.2637788
9.006                0.980797371     -80.3920882
9.007                0.980746421     -80.5207263
9.008                0.980695313     -80.6496941
9.009                0.980644048     -80.7789926
9.01                 0.980592625     -80.9086227
9.011                0.980541044     -81.0385855
9.012                0.980489304     -81.1688818
9.013                0.980437406     -81.2995128
9.014                0.980385349     -81.4304793
9.015                0.980333132     -81.5617824
9.016                0.980280756     -81.6934231
9.017                 0.98022822     -81.8254023
9.018                0.980175524     -81.9577211
9.019                0.980122668     -82.0903804
9.02                 0.980069651     -82.2233812
9.021                0.980016473     -82.3567246
9.022                0.979963135     -82.4904114
9.023                0.979909634     -82.6244429
9.024                0.979855973     -82.7588198
9.025                0.979802149     -82.8935433
9.026                0.979748163     -83.0286144
9.027                0.979694015      -83.164034
9.028                0.979639705     -83.2998031
9.029                0.979585231     -83.4359228
9.03                 0.979530595     -83.5723941
9.031                0.979475795      -83.709218
9.032                0.979420832     -83.8463955
9.033                0.979365705     -83.9839277
9.034                0.979310414     -84.1218155
9.035                 0.97925496     -84.2600599
9.036                 0.97919934      -84.398662
9.037                0.979143557     -84.5376228
9.038                0.979087608     -84.6769434
9.039                0.979031495     -84.8166247
9.04                 0.978975216     -84.9566678
9.041                0.978918772     -85.0970736
9.042                0.978862163     -85.2378434
9.043                0.978805388     -85.3789779
9.044                0.978748447     -85.5204784
9.045                 0.97869134     -85.6623457
9.046                0.978634067     -85.8045811
9.047                0.978576628     -85.9471854
9.048                0.978519022     -86.0901597
9.049                 0.97846125      -86.233505
9.05                  0.97840331     -86.3772225
9.051                0.978345204     -86.5213131
9.052                0.978286931     -86.6657778
9.053                 0.97822849     -86.8106178
9.054                0.978169882      -86.955834
9.055                0.978111107     -87.1014274
9.056                0.978052164     -87.2473992
9.057                0.977993053     -87.3937504
9.058                0.977933774     -87.5404819
9.059                0.977874328      -87.687595
9.06                 0.977814714     -87.8350905
9.061                0.977754931     -87.9829695
9.062                0.977694981     -88.1312331
9.063                0.977634862     -88.2798823
9.064                0.977574574     -88.4289183
9.065                0.977514119     -88.5783419
9.066                0.977453495     -88.7281543
9.067                0.977392702     -88.8783565
9.068                0.977331741     -89.0289496
9.069                0.977270611     -89.1799346
9.07                 0.977209312     -89.3313125
9.071                0.977147845     -89.4830844
9.072                0.977086209     -89.6352514
9.073                0.977024405     -89.7878145
9.074                0.976962431     -89.9407747
9.075                0.976900289     -90.0941331
9.076                0.976837978     -90.2478908
9.077                0.976775499     -90.4020488
9.078                 0.97671285     -90.5566081
9.079                0.976650033     -90.7115698
9.08                 0.976587048     -90.8669349
9.081                0.976523893     -91.0227045
9.082                 0.97646057     -91.1788796
9.083                0.976397079     -91.3354614
9.084                0.976333419     -91.4924507
9.085                0.976269591     -91.6498487
9.086                0.976205594     -91.8076565
9.087                0.976141429      -91.965875
9.088                0.976077096     -92.1245053
9.089                0.976012595     -92.2835484
9.09                 0.975947926     -92.4430055
9.091                0.975883089     -92.6028774
9.092                0.975818084     -92.7631654
9.093                0.975752912     -92.9238704
9.094                0.975687572     -93.0849934
9.095                0.975622065     -93.2465356
9.096                0.975556391     -93.4084979
9.097                 0.97549055     -93.5708813
9.098                0.975424542      -93.733687
9.099                0.975358367     -93.8969159
9.1                  0.975292026     -94.0605691
9.101                0.975225519     -94.2246476
9.102                0.975158845     -94.3891524
9.103                0.975092006     -94.5540846
9.104                0.975025001     -94.7194453
9.105                0.974957831     -94.8852353
9.106                0.974890496     -95.0514558
9.107                0.974822996     -95.2181077
9.108                0.974755332     -95.3851922
9.109                0.974687503     -95.5527102
9.11                  0.97461951     -95.7206627
9.111                0.974551354     -95.8890507
9.112                0.974483034     -96.0578753
9.113                0.974414551     -96.2271375
9.114                0.974345905     -96.3968383
9.115                0.974277097     -96.5669786
9.116                0.974208127     -96.7375596
9.117                0.974138996     -96.9085821
9.118                0.974069702     -97.0800473
9.119                0.974000249      -97.251956
9.12                 0.973930634     -97.4243094
9.121                 0.97386086     -97.5971083
9.122                0.973790925     -97.7703538
9.123                0.973720832     -97.9440468
9.124                0.973650579     -98.1181884
9.125                0.973580169     -98.2927796
9.126                  0.9735096     -98.4678212
9.127                0.973438874     -98.6433143
9.128                0.973367991     -98.8192599
9.129                0.973296952     -98.9956589
9.13                 0.973225757     -99.1725123
9.131                0.973154406     -99.3498211
9.132                0.973082901     -99.5275861
9.133                0.973011241     -99.7058084
9.134                0.972939428      -99.884489
9.135                0.972867461     -100.063629
9.136                0.972795342     -100.243228
9.137                0.972723071     -100.423289
9.138                0.972650649     -100.603812
9.139                0.972578076     -100.784798
9.14                 0.972505353     -100.966247
9.141                0.972432481     -101.148162
9.142                 0.97235946     -101.330542
9.143                0.972286291     -101.513388
9.144                0.972212974     -101.696703
9.145                0.972139511     -101.880485
9.146                0.972065903     -102.064737
9.147                0.971992149     -102.249459
9.148                0.971918251     -102.434652
9.149                0.971844209     -102.620318
9.15                 0.971770025     -102.806456
9.151                0.971695698     -102.993067
9.152                0.971621231     -103.180154
9.153                0.971546623     -103.367716
9.154                0.971471875     -103.555754
9.155                 0.97139699     -103.744269
9.156                0.971321966     -103.933263
9.157                0.971246806     -104.122735
9.158                0.971171509     -104.312687
9.159                0.971096078      -104.50312
9.16                 0.971020513     -104.694034
9.161                0.970944815      -104.88543
9.162                0.970868985     -105.077309
9.163                0.970793023     -105.269672
9.164                0.970716932      -105.46252
9.165                0.970640712     -105.655853
9.166                0.970564363     -105.849672
9.167                0.970487888     -106.043978
9.168                0.970411287     -106.238772
9.169                0.970334561     -106.434054
9.17                 0.970257712     -106.629826
9.171                 0.97018074     -106.826087
9.172                0.970103647      -107.02284
9.173                0.970026434     -107.220084
9.174                0.969949101      -107.41782
9.175                0.969871651     -107.616049
9.176                0.969794085     -107.814771
9.177                0.969716403     -108.013988
9.178                0.969638607       -108.2137
9.179                0.969560699     -108.413908
9.18                 0.969482679     -108.614612
9.181                0.969404548     -108.815813
9.182                0.969326309     -109.017512
9.183                0.969247963     -109.219709
9.184                 0.96916951     -109.422405
9.185                0.969090953     -109.625601
9.186                0.969012293     -109.829297
9.187                 0.96893353     -110.033494
9.188                0.968854668     -110.238193
9.189                0.968775706     -110.443394
9.19                 0.968696647     -110.649097
9.191                0.968617492     -110.855304
9.192                0.968538242     -111.062014
9.193                  0.9684589     -111.269229
9.194                0.968379466     -111.476949
9.195                0.968299943     -111.685174
9.196                0.968220332     -111.893905
9.197                0.968140634     -112.103143
9.198                0.968060851     -112.312888
9.199                0.967980986      -112.52314
9.2                  0.967901038       -112.7339
9.201                0.967821012     -112.945169
9.202                0.967740907     -113.156947
9.203                0.967660725     -113.369234
9.204                 0.96758047     -113.582031
9.205                0.967500141     -113.795338
9.206                0.967419742     -114.009156
9.207                0.967339274     -114.223484
9.208                0.967258738     -114.438325
9.209                0.967178138     -114.653677
9.21                 0.967097474     -114.869541
9.211                0.967016748     -115.085918
9.212                0.966935963     -115.302808
9.213                 0.96685512     -115.520211
9.214                0.966774222     -115.738127
9.215                0.966693271     -115.956557
9.216                0.966612267     -116.175502
9.217                0.966531215     -116.394961
9.218                0.966450114     -116.614934
9.219                0.966368969     -116.835422
9.22                  0.96628778     -117.056426
9.221                0.966206551     -117.277945
9.222                0.966125282     -117.499979
9.223                0.966043977     -117.722529
9.224                0.965962638     -117.945596
9.225                0.965881266     -118.169178
9.226                0.965799864     -118.393276
9.227                0.965718434     -118.617891
9.228                0.965636979     -118.843022
9.229                0.965555501      -119.06867
9.23                 0.965474002     -119.294835
9.231                0.965392485     -119.521516
9.232                0.965310952     -119.748715
9.233                0.965229405      -119.97643
9.234                0.965147847     -120.204662
9.235                 0.96506628      -120.43341
9.236                0.964984707     -120.662676
9.237                0.964903131     -120.892459
9.238                0.964821553     -121.122758
9.239                0.964739976     -121.353574
9.24                 0.964658404     -121.584907
9.241                0.964576837     -121.816757
9.242                 0.96449528     -122.049123
9.243                0.964413735     -122.282005
9.244                0.964332204     -122.515404
9.245                 0.96425069     -122.749319
9.246                0.964169196     -122.983749
9.247                0.964087725     -123.218695
9.248                0.964006278     -123.454157
9.249                 0.96392486     -123.690134
9.25                 0.963843472     -123.926626
9.251                0.963762118     -124.163633
9.252                0.963680801     -124.401155
9.253                0.963599523      -124.63919
9.254                0.963518286     -124.877739
9.255                0.963437095     -125.116802
9.256                0.963355952     -125.356378
9.257                 0.96327486     -125.596467
9.258                0.963193822     -125.837068
9.259                0.963112841     -126.078181
9.26                 0.963031919     -126.319805
9.261                0.962951061     -126.561941
9.262                0.962870268     -126.804587
9.263                0.962789545     -127.047743
9.264                0.962708893     -127.291409
9.265                0.962628317     -127.535584
9.266                0.962547819     -127.780267
9.267                0.962467403     -128.025458
9.268                0.962387071     -128.271156
9.269                0.962306827     -128.517361
9.27                 0.962226675     -128.764072
9.271                0.962146616     -129.011288
9.272                0.962066656     -129.259009
9.273                0.961986796     -129.507234
9.274                 0.96190704     -129.755962
9.275                0.961827391     -130.005193
9.276                0.961747854     -130.254925
9.277                 0.96166843     -130.505159
9.278                0.961589124     -130.755892
9.279                0.961509939     -131.007125
9.28                 0.961430878     -131.258856
9.281                0.961351945     -131.511084
9.282                0.961273143     -131.763809
9.283                0.961194476      -132.01703
9.284                0.961115947     -132.270745
9.285                0.961037559     -132.524955
9.286                0.960959316     -132.779657
9.287                0.960881222     -133.034851
9.288                 0.96080328     -133.290535
9.289                0.960725494     -133.546709
9.29                 0.960647867     -133.803372
9.291                0.960570403     -134.060522
9.292                0.960493106     -134.318159
9.293                0.960415978      -134.57628
9.294                0.960339024     -134.834886
9.295                0.960262248     -135.093974
9.296                0.960185653     -135.353544
9.297                0.960109242     -135.613594
9.298                 0.96003302     -135.874123
9.299                 0.95995699     -136.135129
9.3                  0.959881156     -136.396613
9.301                0.959805522     -136.658571
9.302                0.959730091     -136.921002
9.303                0.959654867     -137.183906
9.304                0.959579854     -137.447281
9.305                0.959505055     -137.711125
9.306                0.959430475     -137.975437
9.307                0.959356117     -138.240215
9.308                0.959281985     -138.505458
9.309                0.959208084     -138.771164
9.31                 0.959134415     -139.037332
9.311                0.959060985     -139.303961
9.312                0.958987796     -139.571047
9.313                0.958914852     -139.838591
9.314                0.958842157     -140.106589
9.315                0.958769716     -140.375041
9.316                0.958697531     -140.643945
9.317                0.958625607     -140.913299
9.318                0.958553948     -141.183101
9.319                0.958482557     -141.453349
9.32                 0.958411439     -141.724042
9.321                0.958340597     -141.995177
9.322                0.958270036     -142.266753
9.323                0.958199759     -142.538768
9.324                 0.95812977     -142.811221
9.325                0.958060074     -143.084108
9.326                0.957990673     -143.357428
9.327                0.957921572     -143.631179
9.328                0.957852776     -143.905359
9.329                0.957784287     -144.179966
9.33                  0.95771611     -144.454998
9.331                 0.95764825     -144.730452
9.332                0.957580708     -145.006327
9.333                0.957513491     -145.282621
9.334                0.957446601      -145.55933
9.335                0.957380042     -145.836454
9.336                 0.95731382     -146.113989
9.337                0.957247936     -146.391934
9.338                0.957182396     -146.670286
9.339                0.957117204     -146.949042
9.34                 0.957052363     -147.228202
9.341                0.956987876     -147.507761
9.342                0.956923749     -147.787718
9.343                0.956859985     -148.068071
9.344                0.956796588     -148.348816
9.345                0.956733562     -148.629951
9.346                0.956670911     -148.911475
9.347                0.956608638     -149.193384
9.348                0.956546748     -149.475675
9.349                0.956485244     -149.758347
9.35                  0.95642413     -150.041397
9.351                0.956363411     -150.324821
9.352                 0.95630309     -150.608618
9.353                 0.95624317     -150.892784
9.354                0.956183656     -151.177317
9.355                0.956124551     -151.462215
9.356                 0.95606586     -151.747474
9.357                0.956007586     -152.033092
9.358                0.955949732     -152.319065
9.359                0.955892303     -152.605392
9.36                 0.955835302     -152.892069
9.361                0.955778734     -153.179093
9.362                0.955722601     -153.466461
9.363                0.955666908     -153.754171
9.364                0.955611657      -154.04222
9.365                0.955556854     -154.330604
9.366                0.955502501     -154.619321
9.367                0.955448602     -154.908367
9.368                0.955395161      -155.19774
9.369                0.955342181     -155.487436
9.37                 0.955289666     -155.777453
9.371                0.955237619     -156.067787
9.372                0.955186044     -156.358435
9.373                0.955134945     -156.649394
9.374                0.955084325      -156.94066
9.375                0.955034186     -157.232232
9.376                0.954984534     -157.524104
9.377                0.954935371     -157.816275
9.378                0.954886701      -158.10874
9.379                0.954838526     -158.401497
9.38                 0.954790851     -158.694543
9.381                0.954743678     -158.987873
9.382                0.954697012     -159.281484
9.383                0.954650854     -159.575374
9.384                0.954605209     -159.869538
9.385                0.954560079     -160.163974
9.386                0.954515469     -160.458678
9.387                 0.95447138     -160.753646
9.388                0.954427816     -161.048875
9.389                 0.95438478     -161.344361
9.39                 0.954342275     -161.640101
9.391                0.954300304     -161.936092
9.392                 0.95425887     -162.232329
9.393                0.954217977      -162.52881
9.394                0.954177626      -162.82553
9.395                0.954137821     -163.122486
9.396                0.954098565     -163.419675
