! TOUCHSTONE file generated by CST DESIGN STUDIO
! Date and time: Tue Feb  4 17:03:23 2025
! Project name: C:\Work\MatlabApps\UnitCellOptimizationMatlab\CST\unitcell.cst
! Tree item: Tasks\Sweep1\SPara1\S-Parameters
! Header version: 2024
! Port assignment regex: !\s*Touchstone port\s*([0-9]+)\s*=\s*(CST MWS port|CST DES external port|CST DES block port)\s*(.+)\s* \(\"(.*)\"\)(\s*mode\s*([0-9]+))?.*
! Touchstone port assignment:
! Touchstone port 1 = CST DES external port 1 ("")
# GHz S MA R 50
9                     0.98260304      -74.592416
9.001                0.982559561     -74.7069968
9.002                0.982515941     -74.8218653
9.003                0.982472179     -74.9370222
9.004                0.982428276     -75.0524685
9.005                0.982384231     -75.1682051
9.006                0.982340044     -75.2842328
9.007                0.982295715     -75.4005526
9.008                0.982251242     -75.5171653
9.009                0.982206627     -75.6340718
9.01                 0.982161867     -75.7512731
9.011                0.982116964       -75.86877
9.012                0.982071917     -75.9865635
9.013                0.982026725     -76.1046544
9.014                0.981981388     -76.2230437
9.015                0.981935907     -76.3417323
9.016                 0.98189028     -76.4607211
9.017                0.981844507      -76.580011
9.018                0.981798588      -76.699603
9.019                0.981752522     -76.8194979
9.02                  0.98170631     -76.9396967
9.021                0.981659951     -77.0602002
9.022                0.981613445     -77.1810095
9.023                0.981566791     -77.3021255
9.024                0.981519989     -77.4235491
9.025                0.981473038     -77.5452812
9.026                 0.98142594     -77.6673228
9.027                0.981378692     -77.7896747
9.028                0.981331295     -77.9123381
9.029                0.981283749     -78.0353137
9.03                 0.981236054     -78.1586025
9.031                0.981188208     -78.2822056
9.032                0.981140212     -78.4061237
9.033                0.981092065      -78.530358
9.034                0.981043767     -78.6549093
9.035                0.980995318     -78.7797786
9.036                0.980946718     -78.9049668
9.037                0.980897966     -79.0304749
9.038                0.980849062      -79.156304
9.039                0.980800006     -79.2824548
9.04                 0.980750797     -79.4089285
9.041                0.980701435     -79.5357259
9.042                 0.98065192     -79.6628481
9.043                0.980602252     -79.7902959
9.044                 0.98055243     -79.9180705
9.045                0.980502454     -80.0461727
9.046                0.980452323     -80.1746036
9.047                0.980402039     -80.3033641
9.048                0.980351599     -80.4324552
9.049                0.980301005     -80.5618779
9.05                 0.980250256     -80.6916331
9.051                 0.98019935     -80.8217219
9.052                 0.98014829     -80.9521452
9.053                0.980097073     -81.0829041
9.054                  0.9800457     -81.2139995
9.055                 0.97999417     -81.3454325
9.056                0.979942484     -81.4772039
9.057                0.979890641     -81.6093149
9.058                0.979838641     -81.7417664
9.059                0.979786483     -81.8745594
9.06                 0.979734168     -82.0076949
9.061                0.979681695      -82.141174
9.062                0.979629063     -82.2749975
9.063                0.979576274     -82.4091667
9.064                0.979523326     -82.5436823
9.065                0.979470219     -82.6785456
9.066                0.979416953     -82.8137574
9.067                0.979363528     -82.9493188
9.068                0.979309944     -83.0852308
9.069                  0.9792562     -83.2214944
9.07                 0.979202297     -83.3581107
9.071                0.979148233     -83.4950806
9.072                 0.97909401     -83.6324053
9.073                0.979039626     -83.7700856
9.074                0.978985082     -83.9081226
9.075                0.978930377     -84.0465174
9.076                0.978875511     -84.1852711
9.077                0.978820485     -84.3243845
9.078                0.978765297     -84.4638587
9.079                0.978709948     -84.6036949
9.08                 0.978654437     -84.7438939
9.081                0.978598765     -84.8844569
9.082                0.978542931     -85.0253849
9.083                0.978486935     -85.1666789
9.084                0.978430777     -85.3083399
9.085                0.978374457     -85.4503691
9.086                0.978317975     -85.5927673
9.087                 0.97826133     -85.7355358
9.088                0.978204523     -85.8786754
9.089                0.978147553     -86.0221873
9.09                  0.97809042     -86.1660726
9.091                0.978033124     -86.3103321
9.092                0.977975666     -86.4549671
9.093                0.977918044     -86.5999785
9.094                0.977860259     -86.7453673
9.095                0.977802311     -86.8911348
9.096                  0.9777442     -87.0372818
9.097                0.977685925     -87.1838094
9.098                0.977627487     -87.3307187
9.099                0.977568885     -87.4780108
9.1                   0.97751012     -87.6256866
9.101                0.977451191     -87.7737473
9.102                0.977392098     -87.9221939
9.103                0.977332842     -88.0710274
9.104                0.977273421      -88.220249
9.105                0.977213837     -88.3698596
9.106                 0.97715409     -88.5198603
9.107                0.977094178     -88.6702521
9.108                0.977034102     -88.8210362
9.109                0.976973863     -88.9722136
9.11                  0.97691346     -89.1237853
9.111                0.976852893     -89.2757524
9.112                0.976792162      -89.428116
9.113                0.976731268      -89.580877
9.114                0.976670209     -89.7340367
9.115                0.976608987     -89.8875959
9.116                0.976547601     -90.0415559
9.117                0.976486052     -90.1959175
9.118                0.976424339      -90.350682
9.119                0.976362463     -90.5058503
9.12                 0.976300423     -90.6614235
9.121                0.976238219     -90.8174027
9.122                0.976175853      -90.973789
9.123                0.976113323     -91.1305832
9.124                 0.97605063     -91.2877867
9.125                0.975987774     -91.4454003
9.126                0.975924755     -91.6034251
9.127                0.975861574     -91.7618623
9.128                 0.97579823     -91.9207128
9.129                0.975734723     -92.0799777
9.13                 0.975671054     -92.2396581
9.131                0.975607223      -92.399755
9.132                 0.97554323     -92.5602694
9.133                0.975479075     -92.7212025
9.134                0.975414759     -92.8825552
9.135                0.975350281     -93.0443287
9.136                0.975285641     -93.2065239
9.137                0.975220841     -93.3691418
9.138                 0.97515588     -93.5321837
9.139                0.975090758     -93.6956504
9.14                 0.975025476     -93.8595431
9.141                0.974960034     -94.0238628
9.142                0.974894432     -94.1886105
9.143                 0.97482867     -94.3537872
9.144                0.974762749     -94.5193941
9.145                0.974696669      -94.685432
9.146                 0.97463043     -94.8519022
9.147                0.974564033     -95.0188055
9.148                0.974497478     -95.1861431
9.149                0.974430764      -95.353916
9.15                 0.974363894     -95.5221251
9.151                0.974296866     -95.6907715
9.152                0.974229681     -95.8598563
9.153                 0.97416234     -96.0293805
9.154                0.974094843      -96.199345
9.155                 0.97402719     -96.3697509
9.156                0.973959382     -96.5405993
9.157                 0.97389142      -96.711891
9.158                0.973823302     -96.8836272
9.159                0.973755031     -97.0558089
9.16                 0.973686606      -97.228437
9.161                0.973618028     -97.4015125
9.162                0.973549297     -97.5750365
9.163                0.973480415       -97.74901
9.164                 0.97341138     -97.9234339
9.165                0.973342195     -98.0983092
9.166                0.973272858      -98.273637
9.167                0.973203372     -98.4494181
9.168                0.973133736     -98.6256537
9.169                0.973063951     -98.8023446
9.17                 0.972994017     -98.9794919
9.171                0.972923935     -99.1570965
9.172                0.972853706     -99.3351594
9.173                0.972783331     -99.5136816
9.174                0.972712809     -99.6926639
9.175                0.972642142     -99.8721075
9.176                 0.97257133     -100.052013
9.177                0.972500373     -100.232382
9.178                0.972429274     -100.413215
9.179                0.972358031     -100.594512
9.18                 0.972286646     -100.776276
9.181                 0.97221512     -100.958506
9.182                0.972143453     -101.141205
9.183                0.972071646     -101.324372
9.184                0.971999699     -101.508008
9.185                0.971927614     -101.692115
9.186                0.971855392     -101.876694
9.187                0.971783033     -102.061745
9.188                0.971710537     -102.247269
9.189                0.971637906     -102.433267
9.19                 0.971565141      -102.61974
9.191                0.971492242     -102.806689
9.192                 0.97141921     -102.994115
9.193                0.971346047     -103.182019
9.194                0.971272752     -103.370401
9.195                0.971199328     -103.559263
9.196                0.971125774     -103.748605
9.197                0.971052093     -103.938428
9.198                0.970978284     -104.128733
9.199                0.970904348      -104.31952
9.2                  0.970830288     -104.510792
9.201                0.970756103     -104.702548
9.202                0.970681796     -104.894789
9.203                0.970607366     -105.087516
9.204                0.970532814      -105.28073
9.205                0.970458143     -105.474432
9.206                0.970383353     -105.668622
9.207                0.970308445     -105.863302
9.208                0.970233421     -106.058472
9.209                0.970158281     -106.254132
9.21                 0.970083026     -106.450285
9.211                0.970007658     -106.646929
9.212                0.969932179     -106.844067
9.213                0.969856588     -107.041698
9.214                0.969780888     -107.239825
9.215                0.969705079     -107.438446
9.216                0.969629164     -107.637564
9.217                0.969553142     -107.837178
9.218                0.969477017      -108.03729
9.219                0.969400788       -108.2379
9.22                 0.969324457     -108.439008
9.221                0.969248026     -108.640617
9.222                0.969171495     -108.842725
9.223                0.969094867     -109.045335
9.224                0.969018143     -109.248446
9.225                0.968941324     -109.452059
9.226                0.968864412     -109.656175
9.227                0.968787407     -109.860794
9.228                0.968710312     -110.065917
9.229                0.968633129     -110.271545
9.23                 0.968555858     -110.477679
9.231                0.968478501     -110.684318
9.232                0.968401059     -110.891463
9.233                0.968323536     -111.099115
9.234                0.968245931     -111.307275
9.235                0.968168246     -111.515943
9.236                0.968090484      -111.72512
9.237                0.968012646     -111.934806
9.238                0.967934733     -112.145001
9.239                0.967856748     -112.355706
9.24                 0.967778692     -112.566922
9.241                0.967700566      -112.77865
9.242                0.967622373     -112.990888
9.243                0.967544114     -113.203639
9.244                0.967465792     -113.416903
9.245                0.967387407     -113.630679
9.246                0.967308962     -113.844968
9.247                0.967230459     -114.059772
9.248                0.967151899     -114.275089
9.249                0.967073285     -114.490921
9.25                 0.966994619     -114.707268
9.251                0.966915902      -114.92413
9.252                0.966837136     -115.141508
9.253                0.966758324     -115.359402
9.254                0.966679467     -115.577812
9.255                0.966600567     -115.796738
9.256                0.966521627     -116.016181
9.257                0.966442649     -116.236142
9.258                0.966363634      -116.45662
9.259                0.966284585     -116.677616
9.26                 0.966205505     -116.899129
9.261                0.966126394     -117.121161
9.262                0.966047256     -117.343711
9.263                0.965968092      -117.56678
9.264                0.965888905     -117.790367
9.265                0.965809698     -118.014473
9.266                0.965730471     -118.239099
9.267                0.965651229     -118.464243
9.268                0.965571972     -118.689907
9.269                0.965492704      -118.91609
9.27                 0.965413426     -119.142793
9.271                0.965334142     -119.370016
9.272                0.965254853     -119.597758
9.273                0.965175562     -119.826019
9.274                0.965096271     -120.054801
9.275                0.965016983     -120.284102
9.276                0.964937701     -120.513923
9.277                0.964858427     -120.744264
9.278                0.964779163     -120.975124
9.279                0.964699912     -121.206504
9.28                 0.964620677     -121.438404
9.281                 0.96454146     -121.670823
9.282                0.964462264     -121.903762
9.283                0.964383092      -122.13722
9.284                0.964303945     -122.371196
9.285                0.964224828     -122.605692
9.286                0.964145742     -122.840707
9.287                0.964066691      -123.07624
9.288                0.963987677     -123.312292
9.289                0.963908702     -123.548862
9.29                 0.963829771     -123.785949
9.291                0.963750885     -124.023555
9.292                0.963672047     -124.261678
9.293                0.963593261     -124.500317
9.294                0.963514529     -124.739474
9.295                0.963435854     -124.979147
9.296                0.963357238     -125.219336
9.297                0.963278686     -125.460041
9.298                  0.9632002     -125.701261
9.299                0.963121783     -125.942995
9.3                  0.963043438     -126.185245
9.301                0.962965167     -126.428008
9.302                0.962886975     -126.671284
9.303                0.962808864     -126.915074
9.304                0.962730837     -127.159376
9.305                0.962652898      -127.40419
9.306                0.962575049     -127.649515
9.307                0.962497293     -127.895352
9.308                0.962419635     -128.141698
9.309                0.962342076     -128.388554
9.31                 0.962264621     -128.635918
9.311                0.962187272     -128.883791
9.312                0.962110033     -129.132172
9.313                0.962032906     -129.381059
9.314                0.961955896     -129.630453
9.315                0.961879006     -129.880351
9.316                0.961802239     -130.130755
9.317                0.961725598     -130.381662
9.318                0.961649086     -130.633072
9.319                0.961572707     -130.884984
9.32                 0.961496465     -131.137398
9.321                0.961420363     -131.390312
9.322                0.961344404     -131.643725
9.323                0.961268592     -131.897637
9.324                 0.96119293     -132.152047
9.325                0.961117421     -132.406953
9.326                 0.96104207     -132.662354
9.327                0.960966879     -132.918251
9.328                0.960891852      -133.17464
9.329                0.960816994     -133.431522
9.33                 0.960742306     -133.688896
9.331                0.960667794      -133.94676
9.332                 0.96059346     -134.205113
9.333                0.960519308     -134.463953
9.334                0.960445341     -134.723281
9.335                0.960371564     -134.983094
9.336                 0.96029798     -135.243391
9.337                0.960224593     -135.504172
9.338                0.960151406     -135.765434
9.339                0.960078423     -136.027176
9.34                 0.960005647     -136.289397
9.341                0.959933083     -136.552097
9.342                0.959860734     -136.815272
9.343                0.959788604     -137.078923
9.344                0.959716696     -137.343046
9.345                0.959645015     -137.607642
9.346                0.959573564     -137.872709
9.347                0.959502347     -138.138244
9.348                0.959431367     -138.404247
9.349                0.959360629     -138.670716
9.35                 0.959290136     -138.937649
9.351                0.959219892     -139.205044
9.352                0.959149901     -139.472901
9.353                0.959080166     -139.741217
9.354                0.959010693     -140.009991
9.355                0.958941483     -140.279221
9.356                0.958872542     -140.548905
9.357                0.958803872     -140.819042
9.358                0.958735479     -141.089629
9.359                0.958667365     -141.360665
9.36                 0.958599535     -141.632148
9.361                0.958531992     -141.904076
9.362                0.958464741     -142.176448
9.363                0.958397785      -142.44926
9.364                0.958331127     -142.722513
9.365                0.958264773     -142.996202
9.366                0.958198726     -143.270327
9.367                 0.95813299     -143.544885
9.368                0.958067568     -143.819875
9.369                0.958002464     -144.095293
9.37                 0.957937683     -144.371139
9.371                0.957873229      -144.64741
9.372                0.957809104     -144.924103
9.373                0.957745314     -145.201218
9.374                0.957681861      -145.47875
9.375                 0.95761875     -145.756699
9.376                0.957555985     -146.035062
9.377                0.957493569     -146.313836
9.378                0.957431507     -146.593019
9.379                0.957369802      -146.87261
9.38                 0.957308459     -147.152605
9.381                 0.95724748     -147.433002
9.382                 0.95718687       -147.7138
9.383                0.957126632     -147.994994
9.384                0.957066772     -148.276583
9.385                0.957007291     -148.558565
9.386                0.956948195     -148.840936
9.387                0.956889486     -149.123695
9.388                 0.95683117     -149.406838
9.389                0.956773248     -149.690364
9.39                 0.956715727     -149.974269
9.391                0.956658608     -150.258551
9.392                0.956601896     -150.543207
9.393                0.956545595     -150.828234
9.394                0.956489708      -151.11363
9.395                0.956434239     -151.399392
9.396                0.956379192     -151.685517
