! TOUCHSTONE file generated by CST DESIGN STUDIO
! Date and time: Tue Feb  4 17:03:25 2025
! Project name: C:\Work\MatlabApps\UnitCellOptimizationMatlab\CST\unitcell.cst
! Tree item: Tasks\Sweep1\SPara1\S-Parameters
! Header version: 2024
! Port assignment regex: !\s*Touchstone port\s*([0-9]+)\s*=\s*(CST MWS port|CST DES external port|CST DES block port)\s*(.+)\s* \(\"(.*)\"\)(\s*mode\s*([0-9]+))?.*
! Touchstone port assignment:
! Touchstone port 1 = CST DES external port 1 ("")
# GHz S MA R 50
9                    0.983091752     -72.9291751
9.001                0.983049966      -73.039866
9.002                0.983008049      -73.150833
9.003                0.982965999     -73.2620769
9.004                0.982923816     -73.3735985
9.005                  0.9828815     -73.4853988
9.006                 0.98283905     -73.5974786
9.007                0.982796467     -73.7098387
9.008                0.982753749       -73.82248
9.009                0.982710897     -73.9354035
9.01                  0.98266791     -74.0486099
9.011                0.982624787     -74.1621001
9.012                0.982581529     -74.2758751
9.013                0.982538136     -74.3899357
9.014                0.982494606     -74.5042827
9.015                 0.98245094     -74.6189172
9.016                0.982407136     -74.7338399
9.017                0.982363196     -74.8490517
9.018                0.982319118     -74.9645536
9.019                0.982274903     -75.0803464
9.02                 0.982230549      -75.196431
9.021                0.982186057     -75.3128084
9.022                0.982141426     -75.4294794
9.023                0.982096656     -75.5464449
9.024                0.982051747     -75.6637059
9.025                0.982006698     -75.7812632
9.026                0.981961509     -75.8991178
9.027                 0.98191618     -76.0172705
9.028                 0.98187071     -76.1357223
9.029                0.981825099     -76.2544742
9.03                 0.981779347     -76.3735269
9.031                0.981733453     -76.4928815
9.032                0.981687417     -76.6125388
9.033                0.981641239     -76.7324999
9.034                0.981594919     -76.8527655
9.035                0.981548455     -76.9733368
9.036                0.981501849     -77.0942144
9.037                0.981455099     -77.2153996
9.038                0.981408206      -77.336893
9.039                0.981361168     -77.4586958
9.04                 0.981313986     -77.5808088
9.041                 0.98126666     -77.7032329
9.042                0.981219188     -77.8259692
9.043                0.981171572     -77.9490186
9.044                 0.98112381     -78.0723819
9.045                0.981075902     -78.1960603
9.046                0.981027848     -78.3200546
9.047                0.980979648     -78.4443657
9.048                0.980931301     -78.5689947
9.049                0.980882807     -78.6939426
9.05                 0.980834166     -78.8192101
9.051                0.980785377     -78.9447984
9.052                0.980736441     -79.0707084
9.053                0.980687357     -79.1969411
9.054                0.980638124     -79.3234974
9.055                0.980588743     -79.4503783
9.056                0.980539213     -79.5775848
9.057                0.980489533     -79.7051178
9.058                0.980439705     -79.8329784
9.059                0.980389726     -79.9611675
9.06                 0.980339598     -80.0896861
9.061                 0.98028932     -80.2185352
9.062                0.980238891     -80.3477157
9.063                0.980188312     -80.4772287
9.064                0.980137582     -80.6070752
9.065                  0.9800867     -80.7372561
9.066                0.980035667     -80.8677725
9.067                0.979984483     -80.9986252
9.068                0.979933146     -81.1298155
9.069                0.979881658     -81.2613441
9.07                 0.979830017     -81.3932122
9.071                0.979778223     -81.5254207
9.072                0.979726277     -81.6579706
9.073                0.979674178      -81.790863
9.074                0.979621925     -81.9240988
9.075                0.979569519     -82.0576791
9.076                0.979516959     -82.1916049
9.077                0.979464245     -82.3258772
9.078                0.979411377      -82.460497
9.079                0.979358355     -82.5954652
9.08                 0.979305178     -82.7307831
9.081                0.979251847     -82.8664515
9.082                0.979198361     -83.0024714
9.083                0.979144719      -83.138844
9.084                0.979090922     -83.2755702
9.085                 0.97903697      -83.412651
9.086                0.978982862     -83.5500875
9.087                0.978928598     -83.6878808
9.088                0.978874178     -83.8260317
9.089                0.978819602     -83.9645415
9.09                 0.978764869      -84.103411
9.091                 0.97870998     -84.2426414
9.092                0.978654934     -84.3822337
9.093                0.978599732     -84.5221888
9.094                0.978544372     -84.6625079
9.095                0.978488856      -84.803192
9.096                0.978433182     -84.9442422
9.097                 0.97837735     -85.0856594
9.098                0.978321361     -85.2274447
9.099                0.978265214     -85.3695992
9.1                   0.97820891     -85.5121238
9.101                0.978152447     -85.6550198
9.102                0.978095827      -85.798288
9.103                0.978039048     -85.9419296
9.104                0.977982111     -86.0859455
9.105                0.977925016     -86.2303369
9.106                0.977867762     -86.3751049
9.107                 0.97781035     -86.5202503
9.108                0.977752779     -86.6657744
9.109                 0.97769505     -86.8116781
9.11                 0.977637161     -86.9579626
9.111                0.977579114     -87.1046288
9.112                0.977520908     -87.2516778
9.113                0.977462543     -87.3991107
9.114                0.977404019     -87.5469286
9.115                0.977345336     -87.6951325
9.116                0.977286493     -87.8437234
9.117                0.977227492     -87.9927024
9.118                0.977168331     -88.1420706
9.119                0.977109011     -88.2918291
9.12                 0.977049532     -88.4419788
9.121                0.976989894     -88.5925209
9.122                0.976930096     -88.7434565
9.123                0.976870139     -88.8947865
9.124                0.976810023     -89.0465121
9.125                0.976749748     -89.1986342
9.126                0.976689313     -89.3511541
9.127                 0.97662872     -89.5040727
9.128                0.976567967     -89.6573911
9.129                0.976507055     -89.8111103
9.13                 0.976445984     -89.9652315
9.131                0.976384754     -90.1197557
9.132                0.976323365     -90.2746839
9.133                0.976261817     -90.4300172
9.134                0.976200111     -90.5857567
9.135                0.976138246     -90.7419035
9.136                0.976076222     -90.8984585
9.137                0.976014039     -91.0554229
9.138                0.975951698     -91.2127978
9.139                0.975889199     -91.3705841
9.14                 0.975826542      -91.528783
9.141                0.975763727     -91.6873955
9.142                0.975700753     -91.8464227
9.143                0.975637622     -92.0058656
9.144                0.975574334     -92.1657253
9.145                0.975510888     -92.3260028
9.146                0.975447284     -92.4866993
9.147                0.975383524     -92.6478157
9.148                0.975319606     -92.8093531
9.149                0.975255532     -92.9713126
9.15                 0.975191301     -93.1336952
9.151                0.975126914      -93.296502
9.152                0.975062371      -93.459734
9.153                0.974997673     -93.6233924
9.154                0.974932818      -93.787478
9.155                0.974867808      -93.951992
9.156                0.974802643     -94.1169354
9.157                0.974737323     -94.2823094
9.158                0.974671849     -94.4481148
9.159                 0.97460622     -94.6143528
9.16                 0.974540438     -94.7810243
9.161                0.974474501     -94.9481305
9.162                0.974408412     -95.1156724
9.163                0.974342169      -95.283651
9.164                0.974275774     -95.4520674
9.165                0.974209226     -95.6209225
9.166                0.974142526     -95.7902174
9.167                0.974075675     -95.9599531
9.168                0.974008673     -96.1301307
9.169                0.973941519     -96.3007512
9.17                 0.973874215     -96.4718156
9.171                0.973806762     -96.6433249
9.172                0.973739158     -96.8152801
9.173                0.973671406     -96.9876823
9.174                0.973603504     -97.1605325
9.175                0.973535455     -97.3338316
9.176                0.973467258     -97.5075807
9.177                0.973398913     -97.6817808
9.178                0.973330422     -97.8564328
9.179                0.973261784     -98.0315379
9.18                    0.973193     -98.2070969
9.181                0.973124071     -98.3831109
9.182                0.973054998     -98.5595808
9.183                 0.97298578     -98.7365077
9.184                0.972916419     -98.9138925
9.185                0.972846914     -99.0917362
9.186                0.972777267     -99.2700397
9.187                0.972707479     -99.4488041
9.188                0.972637549     -99.6280304
9.189                0.972567478     -99.8077194
9.19                 0.972497268     -99.9878721
9.191                0.972426918      -100.16849
9.192                 0.97235643     -100.349573
9.193                0.972285804     -100.531122
9.194                 0.97221504     -100.713139
9.195                 0.97214414     -100.895625
9.196                0.972073104      -101.07858
9.197                0.972001933     -101.262006
9.198                0.971930628     -101.445902
9.199                0.971859189     -101.630271
9.2                  0.971787618     -101.815113
9.201                0.971715914     -102.000429
9.202                 0.97164408      -102.18622
9.203                0.971572115     -102.372487
9.204                 0.97150002      -102.55923
9.205                0.971427797     -102.746451
9.206                0.971355446     -102.934151
9.207                0.971282968     -103.122329
9.208                0.971210365     -103.310989
9.209                0.971137636     -103.500129
9.21                 0.971064783     -103.689751
9.211                0.970991807     -103.879856
9.212                0.970918708     -104.070445
9.213                0.970845489     -104.261518
9.214                0.970772149     -104.453077
9.215                 0.97069869     -104.645122
9.216                0.970625113     -104.837654
9.217                0.970551418     -105.030674
9.218                0.970477608     -105.224182
9.219                0.970403682      -105.41818
9.22                 0.970329643     -105.612668
9.221                 0.97025549     -105.807648
9.222                0.970181226     -106.003119
9.223                0.970106852     -106.199082
9.224                0.970032368      -106.39554
9.225                0.969957775     -106.592491
9.226                0.969883076     -106.789937
9.227                0.969808271     -106.987879
9.228                0.969733362     -107.186317
9.229                0.969658349     -107.385253
9.23                 0.969583234     -107.584686
9.231                0.969508019     -107.784618
9.232                0.969432704     -107.985049
9.233                 0.96935729     -108.185981
9.234                 0.96928178     -108.387412
9.235                0.969206175     -108.589346
9.236                0.969130476     -108.791781
9.237                0.969054684     -108.994719
9.238                  0.9689788      -109.19816
9.239                0.968902827     -109.402106
9.24                 0.968826766     -109.606556
9.241                0.968750617     -109.811511
9.242                0.968674383     -110.016972
9.243                0.968598066      -110.22294
9.244                0.968521666     -110.429415
9.245                0.968445185     -110.636397
9.246                0.968368625     -110.843888
9.247                0.968291988     -111.051888
9.248                0.968215274     -111.260397
9.249                0.968138486     -111.469416
9.25                 0.968061625     -111.678945
9.251                0.967984693     -111.888986
9.252                0.967907692     -112.099538
9.253                0.967830623     -112.310602
9.254                0.967753488     -112.522178
9.255                0.967676289     -112.734268
9.256                0.967599028     -112.946871
9.257                0.967521705     -113.159988
9.258                0.967444324     -113.373619
9.259                0.967366886     -113.587765
9.26                 0.967289393     -113.802427
9.261                0.967211847     -114.017604
9.262                0.967134249     -114.233297
9.263                0.967056602     -114.449507
9.264                0.966978907     -114.666233
9.265                0.966901166     -114.883477
9.266                0.966823382     -115.101238
9.267                0.966745557     -115.319517
9.268                0.966667692     -115.538314
9.269                0.966589789      -115.75763
9.27                 0.966511851     -115.977465
9.271                0.966433879     -116.197818
9.272                0.966355876     -116.418691
9.273                0.966277844     -116.640084
9.274                0.966199785     -116.861996
9.275                0.966121701     -117.084429
9.276                0.966043595     -117.307382
9.277                0.965965468     -117.530855
9.278                0.965887322     -117.754849
9.279                0.965809161     -117.979364
9.28                 0.965730986       -118.2044
9.281                  0.9656528     -118.429957
9.282                0.965574605     -118.656035
9.283                0.965496403     -118.882634
9.284                0.965418197     -119.109755
9.285                0.965339989     -119.337398
9.286                0.965261781     -119.565562
9.287                0.965183576     -119.794248
9.288                0.965105376     -120.023455
9.289                0.965027185     -120.253184
9.29                 0.964949003     -120.483435
9.291                0.964870835     -120.714208
9.292                0.964792682     -120.945502
9.293                0.964714546     -121.177318
9.294                0.964636432     -121.409655
9.295                 0.96455834     -121.642513
9.296                0.964480274     -121.875893
9.297                0.964402237     -122.109794
9.298                 0.96432423     -122.344216
9.299                0.964246257     -122.579159
9.3                  0.964168321     -122.814623
9.301                0.964090424     -123.050607
9.302                0.964012569     -123.287112
9.303                0.963934759     -123.524136
9.304                0.963856996     -123.761681
9.305                0.963779283     -123.999745
9.306                0.963701624     -124.238328
9.307                 0.96362402      -124.47743
9.308                0.963546476     -124.717051
9.309                0.963468993      -124.95719
9.31                 0.963391576     -125.197847
9.311                0.963314225     -125.439022
9.312                0.963236946     -125.680713
9.313                 0.96315974     -125.922922
9.314                0.963082611     -126.165646
9.315                0.963005561     -126.408887
9.316                0.962928594     -126.652643
9.317                0.962851713     -126.896913
9.318                0.962774921     -127.141698
9.319                0.962698221     -127.386997
9.32                 0.962621615     -127.632809
9.321                0.962545108     -127.879133
9.322                0.962468703      -128.12597
9.323                0.962392402     -128.373317
9.324                0.962316209     -128.621176
9.325                0.962240126     -128.869544
9.326                0.962164158     -129.118422
9.327                0.962088308     -129.367809
9.328                0.962012578     -129.617703
9.329                0.961936972     -129.868105
9.33                 0.961861494     -130.119013
9.331                0.961786146     -130.370426
9.332                0.961710933     -130.622344
9.333                0.961635856     -130.874766
9.334                0.961560921     -131.127691
9.335                 0.96148613     -131.381118
9.336                0.961411486     -131.635046
9.337                0.961336993     -131.889475
9.338                0.961262655     -132.144403
9.339                0.961188475     -132.399829
9.34                 0.961114456     -132.655752
9.341                0.961040603     -132.912171
9.342                0.960966917     -133.169086
9.343                0.960893404     -133.426495
9.344                0.960820066     -133.684397
9.345                0.960746907     -133.942791
9.346                 0.96067393     -134.201675
9.347                 0.96060114     -134.461049
9.348                 0.96052854     -134.720911
9.349                0.960456133      -134.98126
9.35                 0.960383923     -135.242096
9.351                0.960311914     -135.503415
9.352                0.960240109     -135.765219
9.353                0.960168512     -136.027504
9.354                0.960097127     -136.290269
9.355                0.960025957     -136.553514
9.356                0.959955006     -136.817237
9.357                0.959884277     -137.081436
9.358                0.959813775      -137.34611
9.359                0.959743504     -137.611257
9.36                 0.959673466     -137.876876
9.361                0.959603666     -138.142966
9.362                0.959534107     -138.409525
9.363                0.959464793     -138.676551
9.364                0.959395728     -138.944043
9.365                0.959326916     -139.211999
9.366                0.959258361     -139.480417
9.367                0.959190065     -139.749296
9.368                0.959122034     -140.018634
9.369                0.959054271     -140.288429
9.37                 0.958986779      -140.55868
9.371                0.958919563     -140.829385
9.372                0.958852626     -141.100542
9.373                0.958785972     -141.372148
9.374                0.958719606     -141.644203
9.375                 0.95865353     -141.916705
9.376                0.958587748      -142.18965
9.377                0.958522266     -142.463039
9.378                0.958457085     -142.736868
9.379                0.958392211     -143.011135
9.38                 0.958327647     -143.285839
9.381                0.958263397     -143.560977
9.382                0.958199464     -143.836548
9.383                0.958135853     -144.112549
9.384                0.958072567     -144.388979
9.385                0.958009611     -144.665834
9.386                0.957946988     -144.943113
9.387                0.957884702     -145.220814
9.388                0.957822756     -145.498934
9.389                0.957761155     -145.777472
9.39                 0.957699903     -146.056424
9.391                0.957639003     -146.335789
9.392                0.957578459     -146.615564
9.393                0.957518275     -146.895747
9.394                0.957458455     -147.176335
9.395                0.957399002     -147.457327
9.396                0.957339921     -147.738719
