! TOUCHSTONE file generated by CST DESIGN STUDIO
! Date and time: Tue Feb  4 17:03:19 2025
! Project name: C:\Work\MatlabApps\UnitCellOptimizationMatlab\CST\unitcell.cst
! Tree item: Tasks\Sweep1\SPara1\S-Parameters
! Header version: 2024
! Port assignment regex: !\s*Touchstone port\s*([0-9]+)\s*=\s*(CST MWS port|CST DES external port|CST DES block port)\s*(.+)\s* \(\"(.*)\"\)(\s*mode\s*([0-9]+))?.*
! Touchstone port assignment:
! Touchstone port 1 = CST DES external port 1 ("")
# GHz S MA R 50
9                    0.981604455     -77.9488062
9.001                0.981556862     -78.0714144
9.002                0.981509117     -78.1943342
9.003                0.981461218     -78.3175665
9.004                0.981413166     -78.4411122
9.005                 0.98136496     -78.5649723
9.006                0.981316601     -78.6891477
9.007                0.981268087     -78.8136395
9.008                0.981219418     -78.9384485
9.009                0.981170594     -79.0635756
9.01                 0.981121615      -79.189022
9.011                 0.98107248     -79.3147884
9.012                 0.98102319     -79.4408758
9.013                0.980973743     -79.5672853
9.014                 0.98092414     -79.6940178
9.015                 0.98087438     -79.8210743
9.016                0.980824463     -79.9484556
9.017                0.980774389     -80.0761628
9.018                0.980724157     -80.2041969
9.019                0.980673767     -80.3325588
9.02                 0.980623219     -80.4612495
9.021                0.980572512       -80.59027
9.022                0.980521647     -80.7196212
9.023                0.980470623     -80.8493042
9.024                0.980419439     -80.9793199
9.025                0.980368096     -81.1096692
9.026                0.980316594     -81.2403533
9.027                0.980264931      -81.371373
9.028                0.980213108     -81.5027294
9.029                0.980161124     -81.6344234
9.03                 0.980108979     -81.7664561
9.031                0.980056673     -81.8988284
9.032                0.980004206     -82.0315413
9.033                0.979951577     -82.1645958
9.034                0.979898787      -82.297993
9.035                0.979845834     -82.4317338
9.036                0.979792719     -82.5658192
9.037                0.979739442     -82.7002502
9.038                0.979686001     -82.8350279
9.039                0.979632398     -82.9701533
9.04                 0.979578631     -83.1056272
9.041                0.979524701     -83.2414509
9.042                0.979470608     -83.3776252
9.043                 0.97941635     -83.5141511
9.044                0.979361928     -83.6510298
9.045                0.979307342     -83.7882622
9.046                0.979252592     -83.9258494
9.047                0.979197677     -84.0637922
9.048                0.979142596     -84.2020919
9.049                0.979087351     -84.3407493
9.05                 0.979031941     -84.4797656
9.051                0.978976365     -84.6191416
9.052                0.978920623     -84.7588786
9.053                0.978864716     -84.8989774
9.054                0.978808642     -85.0394392
9.055                0.978752402     -85.1802649
9.056                0.978695996     -85.3214555
9.057                0.978639424     -85.4630122
9.058                0.978582685     -85.6049359
9.059                0.978525779     -85.7472277
9.06                 0.978468706     -85.8898885
9.061                0.978411466     -86.0329195
9.062                0.978354059     -86.1763217
9.063                0.978296484     -86.3200961
9.064                0.978238742     -86.4642438
9.065                0.978180833     -86.6087657
9.066                0.978122756      -86.753663
9.067                 0.97806451     -86.8989366
9.068                0.978006097     -87.0445877
9.069                0.977947516     -87.1906172
9.07                 0.977888767     -87.3370261
9.071                 0.97782985     -87.4838157
9.072                0.977770764     -87.6309868
9.073                 0.97771151     -87.7785405
9.074                0.977652087     -87.9264779
9.075                0.977592496     -88.0748001
9.076                0.977532736      -88.223508
9.077                0.977472808     -88.3726027
9.078                 0.97741271     -88.5220853
9.079                0.977352445     -88.6719567
9.08                  0.97729201     -88.8222182
9.081                0.977231406     -88.9728706
9.082                0.977170634     -89.1239151
9.083                0.977109693     -89.2753527
9.084                0.977048583     -89.4271845
9.085                0.976987304     -89.5794114
9.086                0.976925856     -89.7320346
9.087                0.976864239     -89.8850551
9.088                0.976802454      -90.038474
9.089                0.976740499     -90.1922923
9.09                 0.976678376      -90.346511
9.091                0.976616084     -90.5011312
9.092                0.976553623     -90.6561539
9.093                0.976490993     -90.8115803
9.094                0.976428195     -90.9674113
9.095                0.976365228      -91.123648
9.096                0.976302093     -91.2802915
9.097                0.976238789     -91.4373427
9.098                0.976175317     -91.5948028
9.099                0.976111677     -91.7526728
9.1                  0.976047868     -91.9109537
9.101                0.975983892     -92.0696466
9.102                0.975919747     -92.2287525
9.103                0.975855435     -92.3882725
9.104                0.975790955     -92.5482076
9.105                0.975726307     -92.7085588
9.106                0.975661492     -92.8693273
9.107                 0.97559651      -93.030514
9.108                0.975531361       -93.19212
9.109                0.975466045     -93.3541463
9.11                 0.975400562      -93.516594
9.111                0.975334912     -93.6794641
9.112                0.975269097     -93.8427576
9.113                0.975203115     -94.0064755
9.114                0.975136967      -94.170619
9.115                0.975070654     -94.3351891
9.116                0.975004175     -94.5001866
9.117                0.974937532     -94.6656128
9.118                0.974870723     -94.8314686
9.119                 0.97480375     -94.9977551
9.12                 0.974736612     -95.1644732
9.121                 0.97466931     -95.3316241
9.122                0.974601844     -95.4992086
9.123                0.974534215      -95.667228
9.124                0.974466423      -95.835683
9.125                0.974398468     -96.0045748
9.126                0.974330351     -96.1739045
9.127                0.974262071     -96.3436729
9.128                 0.97419363     -96.5138811
9.129                0.974125028     -96.6845301
9.13                 0.974056264      -96.855621
9.131                 0.97398734     -97.0271547
9.132                0.973918255     -97.1991322
9.133                0.973849011     -97.3715545
9.134                0.973779607     -97.5444226
9.135                0.973710045     -97.7177375
9.136                0.973640324     -97.8915003
9.137                0.973570445     -98.0657118
9.138                0.973500409      -98.240373
9.139                0.973430215      -98.415485
9.14                 0.973359865     -98.5910487
9.141                0.973289359     -98.7670651
9.142                0.973218698     -98.9435352
9.143                0.973147881     -99.1204599
9.144                 0.97307691     -99.2978402
9.145                0.973005786     -99.4756771
9.146                0.972934508     -99.6539715
9.147                0.972863077     -99.8327243
9.148                0.972791494     -100.011937
9.149                 0.97271976     -100.191609
9.15                 0.972647875     -100.371743
9.151                 0.97257584     -100.552339
9.152                0.972503655     -100.733398
9.153                0.972431322     -100.914922
9.154                 0.97235884      -101.09691
9.155                 0.97228621     -101.279365
9.156                0.972213434     -101.462286
9.157                0.972140512     -101.645675
9.158                0.972067445     -101.829533
9.159                0.971994233      -102.01386
9.16                 0.971920877     -102.198658
9.161                0.971847378     -102.383927
9.162                0.971773737     -102.569668
9.163                0.971699955     -102.755883
9.164                0.971626032     -102.942572
9.165                 0.97155197     -103.129735
9.166                0.971477768     -103.317374
9.167                0.971403429      -103.50549
9.168                0.971328952     -103.694084
9.169                0.971254339     -103.883155
9.17                 0.971179591     -104.072706
9.171                0.971104709     -104.262737
9.172                0.971029693     -104.453249
9.173                0.970954545     -104.644242
9.174                0.970879265     -104.835718
9.175                0.970803855     -105.027677
9.176                0.970728316      -105.22012
9.177                0.970652648     -105.413049
9.178                0.970576853     -105.606462
9.179                0.970500932     -105.800363
9.18                 0.970424885      -105.99475
9.181                0.970348715     -106.189626
9.182                0.970272421     -106.384991
9.183                0.970196006     -106.580845
9.184                 0.97011947     -106.777189
9.185                0.970042815     -106.974024
9.186                0.969966041     -107.171352
9.187                 0.96988915     -107.369171
9.188                0.969812144     -107.567484
9.189                0.969735023     -107.766291
9.19                 0.969657788     -107.965593
9.191                0.969580442      -108.16539
9.192                0.969502985     -108.365683
9.193                0.969425418     -108.566473
9.194                0.969347743      -108.76776
9.195                0.969269962     -108.969545
9.196                0.969192075     -109.171829
9.197                0.969114084     -109.374612
9.198                0.969035991     -109.577896
9.199                0.968957796      -109.78168
9.2                  0.968879502     -109.985965
9.201                 0.96880111     -110.190752
9.202                0.968722621     -110.396041
9.203                0.968644036     -110.601834
9.204                0.968565358      -110.80813
9.205                0.968486588      -111.01493
9.206                0.968407728     -111.222235
9.207                0.968328778     -111.430045
9.208                0.968249741     -111.638361
9.209                0.968170619     -111.847184
9.21                 0.968091412     -112.056513
9.211                0.968012123      -112.26635
9.212                0.967932753     -112.476694
9.213                0.967853304     -112.687547
9.214                0.967773778     -112.898909
9.215                0.967694177      -113.11078
9.216                0.967614502     -113.323161
9.217                0.967534754     -113.536052
9.218                0.967454937     -113.749454
9.219                0.967375052     -113.963367
9.22                   0.9672951     -114.177791
9.221                0.967215083     -114.392727
9.222                0.967135004     -114.608175
9.223                0.967054864     -114.824136
9.224                0.966974665     -115.040609
9.225                 0.96689441     -115.257596
9.226                0.966814099     -115.475097
9.227                0.966733736     -115.693111
9.228                0.966653322      -115.91164
9.229                 0.96657286     -116.130683
9.23                  0.96649235     -116.350241
9.231                0.966411796     -116.570314
9.232                  0.9663312     -116.790903
9.233                0.966250563     -117.012006
9.234                0.966169889     -117.233626
9.235                0.966089178     -117.455762
9.236                0.966008433     -117.678413
9.237                0.965927657     -117.901582
9.238                0.965846852     -118.125266
9.239                 0.96576602     -118.349467
9.24                 0.965685163     -118.574185
9.241                0.965604283      -118.79942
9.242                0.965523384     -119.025172
9.243                0.965442467     -119.251441
9.244                0.965361534     -119.478228
9.245                0.965280589     -119.705531
9.246                0.965199633     -119.933352
9.247                0.965118669      -120.16169
9.248                  0.9650377     -120.390545
9.249                0.964956727     -120.619918
9.25                 0.964875754     -120.849808
9.251                0.964794783     -121.080215
9.252                0.964713816     -121.311139
9.253                0.964632857     -121.542581
9.254                0.964551907     -121.774539
9.255                 0.96447097     -122.007015
9.256                0.964390048     -122.240007
9.257                0.964309143     -122.473516
9.258                0.964228259     -122.707542
9.259                0.964147398     -122.942083
9.26                 0.964066562     -123.177141
9.261                0.963985756     -123.412715
9.262                 0.96390498     -123.648805
9.263                0.963824239      -123.88541
9.264                0.963743535      -124.12253
9.265                0.963662871     -124.360165
9.266                 0.96358225     -124.598315
9.267                0.963501674     -124.836978
9.268                0.963421146     -125.076156
9.269                0.963340671     -125.315848
9.27                 0.963260249     -125.556052
9.271                0.963179885      -125.79677
9.272                0.963099582        -126.038
9.273                0.963019341     -126.279742
9.274                0.962939168     -126.521995
9.275                0.962859063     -126.764759
9.276                0.962779032     -127.008034
9.277                0.962699076     -127.251819
9.278                0.962619199     -127.496113
9.279                0.962539404     -127.740916
9.28                 0.962459694     -127.986227
9.281                0.962380072     -128.232047
9.282                0.962300542     -128.478373
9.283                0.962221107     -128.725205
9.284                0.962141769     -128.972544
9.285                0.962062533     -129.220387
9.286                0.961983402     -129.468735
9.287                0.961904378     -129.717587
9.288                0.961825465     -129.966942
9.289                0.961746667     -130.216798
9.29                 0.961667987     -130.467156
9.291                0.961589428     -130.718015
9.292                0.961510993     -130.969373
9.293                0.961432687     -131.221231
9.294                0.961354512     -131.473586
9.295                0.961276472     -131.726438
9.296                0.961198571     -131.979786
9.297                0.961120811      -132.23363
9.298                0.961043196     -132.487967
9.299                0.960965731     -132.742798
9.3                  0.960888418     -132.998121
9.301                0.960811261     -133.253936
9.302                0.960734263      -133.51024
9.303                0.960657429     -133.767033
9.304                0.960580761     -134.024315
9.305                0.960504263     -134.282082
9.306                 0.96042794     -134.540336
9.307                0.960351794     -134.799074
9.308                0.960275829     -135.058295
9.309                0.960200049     -135.317998
9.31                 0.960124458     -135.578182
9.311                0.960049059     -135.838845
9.312                0.959973856     -136.099986
9.313                0.959898853     -136.361605
9.314                0.959824053     -136.623698
9.315                0.959749461     -136.886266
9.316                0.959675079     -137.149306
9.317                0.959600912     -137.412817
9.318                0.959526964     -137.676799
9.319                0.959453238     -137.941248
9.32                 0.959379738     -138.206164
9.321                0.959306468     -138.471546
9.322                0.959233432     -138.737391
9.323                0.959160633     -139.003699
9.324                0.959088076     -139.270467
9.325                0.959015764     -139.537693
9.326                0.958943701     -139.805377
9.327                0.958871891     -140.073517
9.328                0.958800338     -140.342111
9.329                0.958729045     -140.611156
9.33                 0.958658018     -140.880652
9.331                0.958587259     -141.150597
9.332                0.958516772     -141.420988
9.333                0.958446562     -141.691824
9.334                0.958376632     -141.963104
9.335                0.958306986     -142.234824
9.336                0.958237628     -142.506984
9.337                0.958168562     -142.779582
9.338                0.958099792     -143.052614
9.339                0.958031322      -143.32608
9.34                 0.957963156     -143.599978
9.341                0.957895297     -143.874305
9.342                 0.95782775     -144.149059
9.343                0.957760519     -144.424238
9.344                0.957693607      -144.69984
9.345                0.957627019     -144.975864
9.346                0.957560758     -145.252306
9.347                0.957494828     -145.529164
9.348                0.957429234     -145.806437
9.349                0.957363978     -146.084123
9.35                 0.957299066     -146.362217
9.351                0.957234501      -146.64072
9.352                0.957170287     -146.919628
9.353                0.957106428     -147.198938
9.354                0.957042928     -147.478649
9.355                 0.95697979     -147.758758
9.356                0.956917019     -148.039263
9.357                0.956854618     -148.320161
9.358                0.956792592      -148.60145
9.359                0.956730944     -148.883127
9.36                 0.956669678     -149.165189
9.361                0.956608798     -149.447635
9.362                0.956548308     -149.730461
9.363                0.956488212     -150.013665
9.364                0.956428513     -150.297245
9.365                0.956369216     -150.581197
9.366                0.956310324     -150.865519
9.367                 0.95625184     -151.150209
9.368                 0.95619377     -151.435263
9.369                0.956136116     -151.720678
9.37                 0.956078883     -152.006453
9.371                0.956022073     -152.292584
9.372                0.955965691     -152.579068
9.373                0.955909741     -152.865903
9.374                0.955854226     -153.153085
9.375                 0.95579915     -153.440612
9.376                0.955744517     -153.728481
9.377                 0.95569033     -154.016689
9.378                0.955636593     -154.305232
9.379                0.955583309     -154.594109
9.38                 0.955530482     -154.883315
9.381                0.955478117     -155.172848
9.382                0.955426215     -155.462705
9.383                0.955374781     -155.752882
9.384                0.955323819     -156.043377
9.385                0.955273331     -156.334186
9.386                0.955223322     -156.625307
9.387                0.955173794     -156.916735
9.388                0.955124752     -157.208468
9.389                0.955076198     -157.500503
9.39                 0.955028136     -157.792836
9.391                0.954980569     -158.085464
9.392                0.954933502     -158.378384
9.393                0.954886936     -158.671592
9.394                0.954840875     -158.965086
9.395                0.954795323     -159.258861
9.396                0.954750282     -159.552914
