! TOUCHSTONE file generated by CST DESIGN STUDIO
! Date and time: Tue Feb  4 17:03:11 2025
! Project name: C:\Work\MatlabApps\UnitCellOptimizationMatlab\CST\unitcell.cst
! Tree item: Tasks\Sweep1\SPara1\S-Parameters
! Header version: 2024
! Port assignment regex: !\s*Touchstone port\s*([0-9]+)\s*=\s*(CST MWS port|CST DES external port|CST DES block port)\s*(.+)\s* \(\"(.*)\"\)(\s*mode\s*([0-9]+))?.*
! Touchstone port assignment:
! Touchstone port 1 = CST DES external port 1 ("")
# GHz S MA R 50
9                    0.979158603     -86.0049439
9.001                0.979100862     -86.1479499
9.002                0.979042945      -86.291327
9.003                0.978984852     -86.4350762
9.004                0.978926583     -86.5791986
9.005                0.978868137     -86.7236952
9.006                0.978809515      -86.868567
9.007                0.978750716     -87.0138151
9.008                0.978691741     -87.1594404
9.009                0.978632588     -87.3054442
9.01                 0.978573258     -87.4518273
9.011                0.978513751     -87.5985909
9.012                0.978454066      -87.745736
9.013                0.978394203     -87.8932636
9.014                0.978334163     -88.0411748
9.015                0.978273945     -88.1894705
9.016                0.978213548      -88.338152
9.017                0.978152974     -88.4872201
9.018                0.978092221      -88.636676
9.019                 0.97803129     -88.7865207
9.02                  0.97797018     -88.9367552
9.021                0.977908892     -89.0873806
9.022                0.977847425      -89.238398
9.023                0.977785779     -89.3898084
9.024                0.977723954     -89.5416127
9.025                 0.97766195     -89.6938122
9.026                0.977599768     -89.8464078
9.027                0.977537406     -89.9994006
9.028                0.977474865     -90.1527916
9.029                0.977412145     -90.3065819
9.03                 0.977349246     -90.4607725
9.031                0.977286167     -90.6153645
9.032                 0.97722291     -90.7703589
9.033                0.977159473     -90.9257567
9.034                0.977095856     -91.0815591
9.035                0.977032061      -91.237767
9.036                0.976968085     -91.3943816
9.037                0.976903931     -91.5514038
9.038                0.976839598     -91.7088347
9.039                0.976775085     -91.8666754
9.04                 0.976710393     -92.0249268
9.041                0.976645521     -92.1835901
9.042                0.976580471     -92.3426663
9.043                0.976515241     -92.5021564
9.044                0.976449833     -92.6620615
9.045                0.976384245     -92.8223825
9.046                0.976318479     -92.9831207
9.047                0.976252534     -93.1442769
9.048                 0.97618641     -93.3058522
9.049                0.976120107     -93.4678478
9.05                 0.976053627     -93.6302645
9.051                0.975986967     -93.7931034
9.052                 0.97592013     -93.9563657
9.053                0.975853114     -94.1200522
9.054                0.975785921     -94.2841641
9.055                0.975718549     -94.4487024
9.056                0.975651001      -94.613668
9.057                0.975583274     -94.7790621
9.058                0.975515371     -94.9448856
9.059                 0.97544729     -95.1111397
9.06                 0.975379033     -95.2778252
9.061                0.975310599     -95.4449432
9.062                0.975241988     -95.6124948
9.063                0.975173202      -95.780481
9.064                0.975104239     -95.9489027
9.065                0.975035101      -96.117761
9.066                0.974965788     -96.2870569
9.067                0.974896299     -96.4567915
9.068                0.974826635     -96.6269656
9.069                0.974756797     -96.7975804
9.07                 0.974686785     -96.9686368
9.071                0.974616599     -97.1401359
9.072                 0.97454624     -97.3120785
9.073                0.974475707     -97.4844658
9.074                0.974405001     -97.6572987
9.075                0.974334123     -97.8305782
9.076                0.974263073     -98.0043053
9.077                0.974191851      -98.178481
9.078                0.974120458     -98.3531062
9.079                0.974048894     -98.5281819
9.08                 0.973977159     -98.7037092
9.081                0.973905254      -98.879689
9.082                 0.97383318     -99.0561222
9.083                0.973760937     -99.2330098
9.084                0.973688525     -99.4103528
9.085                0.973615945     -99.5881521
9.086                0.973543197     -99.7664088
9.087                0.973470282     -99.9451236
9.088                  0.9733972     -100.124298
9.089                0.973323953     -100.303932
9.09                 0.973250539     -100.484027
9.091                0.973176961     -100.664584
9.092                0.973103219     -100.845605
9.093                0.973029313     -101.027089
9.094                0.972955243     -101.209038
9.095                0.972881012     -101.391452
9.096                0.972806618     -101.574334
9.097                0.972732063     -101.757682
9.098                0.972657347       -101.9415
9.099                0.972582472     -102.125786
9.1                  0.972507437     -102.310543
9.101                0.972432244     -102.495771
9.102                0.972356893     -102.681471
9.103                0.972281385     -102.867644
9.104                0.972205721      -103.05429
9.105                0.972129901     -103.241411
9.106                0.972053927     -103.429008
9.107                0.971977798     -103.617081
9.108                0.971901517     -103.805632
9.109                0.971825083      -103.99466
9.11                 0.971748498     -104.184167
9.111                0.971671762     -104.374155
9.112                0.971594877     -104.564622
9.113                0.971517843     -104.755571
9.114                0.971440661     -104.947003
9.115                0.971363332     -105.138917
9.116                0.971285857     -105.331315
9.117                0.971208238     -105.524198
9.118                0.971130474     -105.717566
9.119                0.971052567      -105.91142
9.12                 0.970974518     -106.105762
9.121                0.970896328     -106.300591
9.122                0.970817998     -106.495909
9.123                 0.97073953     -106.691715
9.124                0.970660923     -106.888012
9.125                 0.97058218       -107.0848
9.126                0.970503302     -107.282079
9.127                0.970424289     -107.479851
9.128                0.970345143     -107.678115
9.129                0.970265864     -107.876873
9.13                 0.970186455     -108.076126
9.131                0.970106917     -108.275873
9.132                0.970027249     -108.476117
9.133                0.969947455     -108.676856
9.134                0.969867535     -108.878093
9.135                 0.96978749     -109.079828
9.136                0.969707322     -109.282061
9.137                0.969627032     -109.484793
9.138                0.969546621     -109.688024
9.139                0.969466091     -109.891756
9.14                 0.969385443     -110.095989
9.141                0.969304679     -110.300724
9.142                  0.9692238      -110.50596
9.143                0.969142807     -110.711699
9.144                0.969061702     -110.917942
9.145                0.968980486     -111.124688
9.146                0.968899161     -111.331939
9.147                0.968817729     -111.539695
9.148                0.968736191     -111.747956
9.149                0.968654548     -111.956724
9.15                 0.968572803     -112.165998
9.151                0.968490956     -112.375778
9.152                0.968409009     -112.586067
9.153                0.968326965     -112.796863
9.154                0.968244824     -113.008168
9.155                0.968162589     -113.219982
9.156                 0.96808026     -113.432306
9.157                0.967997841     -113.645139
9.158                0.967915332     -113.858482
9.159                0.967832736     -114.072336
9.16                 0.967750054     -114.286702
9.161                0.967667288     -114.501578
9.162                 0.96758444     -114.716967
9.163                0.967501511     -114.932868
9.164                0.967418505     -115.149281
9.165                0.967335422     -115.366207
9.166                0.967252264     -115.583647
9.167                0.967169034       -115.8016
9.168                0.967085733     -116.020067
9.169                0.967002364     -116.239048
9.17                 0.966918928     -116.458544
9.171                0.966835428     -116.678554
9.172                0.966751865     -116.899079
9.173                0.966668243     -117.120119
9.174                0.966584561     -117.341675
9.175                0.966500824     -117.563746
9.176                0.966417033     -117.786333
9.177                0.966333191     -118.009436
9.178                0.966249299     -118.233055
9.179                0.966165359     -118.457191
9.18                 0.966081375     -118.681843
9.181                0.965997348     -118.907011
9.182                0.965913281     -119.132696
9.183                0.965829175     -119.358898
9.184                0.965745034     -119.585616
9.185                0.965660859     -119.812852
9.186                0.965576654     -120.040604
9.187                 0.96549242     -120.268873
9.188                 0.96540816     -120.497659
9.189                0.965323876     -120.726962
9.19                 0.965239571     -120.956782
9.191                0.965155247     -121.187119
9.192                0.965070908     -121.417973
9.193                0.964986555     -121.649343
9.194                 0.96490219      -121.88123
9.195                0.964817818     -122.113634
9.196                 0.96473344     -122.346553
9.197                0.964649058      -122.57999
9.198                0.964564677     -122.813942
9.199                0.964480298      -123.04841
9.2                  0.964395923     -123.283394
9.201                0.964311557     -123.518894
9.202                0.964227201     -123.754908
9.203                0.964142858     -123.991438
9.204                0.964058532     -124.228483
9.205                0.963974224     -124.466042
9.206                0.963889938     -124.704116
9.207                0.963805677     -124.942703
9.208                0.963721444     -125.181803
9.209                0.963637241     -125.421417
9.21                 0.963553072     -125.661544
9.211                0.963468939     -125.902183
9.212                0.963384846     -126.143334
9.213                0.963300795     -126.384997
9.214                 0.96321679     -126.627171
9.215                0.963132833     -126.869855
9.216                0.963048929     -127.113049
9.217                0.962965078     -127.356753
9.218                0.962881286     -127.600966
9.219                0.962797555     -127.845688
9.22                 0.962713888     -128.090917
9.221                0.962630289     -128.336654
9.222                 0.96254676     -128.582898
9.223                0.962463305     -128.829647
9.224                0.962379927     -129.076902
9.225                 0.96229663     -129.324662
9.226                0.962213417     -129.572925
9.227                 0.96213029     -129.821692
9.228                0.962047254     -130.070961
9.229                0.961964312     -130.320732
9.23                 0.961881467     -130.571005
9.231                0.961798722     -130.821777
9.232                0.961716082     -131.073048
9.233                0.961633548     -131.324818
9.234                0.961551126     -131.577086
9.235                0.961468818      -131.82985
9.236                0.961386628      -132.08311
9.237                0.961304559     -132.336864
9.238                0.961222615     -132.591113
9.239                  0.9611408     -132.845854
9.24                 0.961059117     -133.101087
9.241                0.960977569     -133.356811
9.242                 0.96089616     -133.613024
9.243                0.960814895     -133.869726
9.244                0.960733776     -134.126916
9.245                0.960652807     -134.384592
9.246                0.960571992     -134.642753
9.247                0.960491334     -134.901398
9.248                0.960410838     -135.160525
9.249                0.960330506     -135.420135
9.25                 0.960250344     -135.680225
9.251                0.960170354     -135.940793
9.252                 0.96009054      -136.20184
9.253                0.960010906     -136.463363
9.254                0.959931456     -136.725361
9.255                0.959852194     -136.987832
9.256                0.959773123     -137.250776
9.257                0.959694247     -137.514191
9.258                0.959615571     -137.778075
9.259                0.959537098     -138.042427
9.26                 0.959458831     -138.307245
9.261                0.959380776     -138.572528
9.262                0.959302935     -138.838275
9.263                0.959225312     -139.104483
9.264                0.959147913     -139.371152
9.265                 0.95907074     -139.638279
9.266                0.958993797     -139.905863
9.267                0.958917089     -140.173902
9.268                0.958840619     -140.442394
9.269                0.958764391     -140.711339
9.27                  0.95868841     -140.980733
9.271                0.958612679     -141.250575
9.272                0.958537202     -141.520864
9.273                0.958461984     -141.791598
9.274                0.958387028     -142.062774
9.275                0.958312338     -142.334391
9.276                0.958237919     -142.606447
9.277                0.958163774      -142.87894
9.278                0.958089907     -143.151869
9.279                0.958016323      -143.42523
9.28                 0.957943026     -143.699022
9.281                0.957870019     -143.973243
9.282                0.957797307     -144.247892
9.283                0.957724894     -144.522965
9.284                0.957652783      -144.79846
9.285                0.957580979     -145.074377
9.286                0.957509486     -145.350712
9.287                0.957438308     -145.627463
9.288                0.957367449     -145.904628
9.289                0.957296913     -146.182205
9.29                 0.957226704     -146.460191
9.291                0.957156827     -146.738585
9.292                0.957087284     -147.017383
9.293                0.957018081     -147.296584
9.294                0.956949222     -147.576186
9.295                0.956880709     -147.856185
9.296                0.956812548     -148.136579
9.297                0.956744743     -148.417366
9.298                0.956677297     -148.698544
9.299                0.956610215      -148.98011
9.3                  0.956543501     -149.262061
9.301                0.956477158     -149.544395
9.302                 0.95641119     -149.827109
9.303                0.956345603     -150.110201
9.304                0.956280399     -150.393667
9.305                0.956215582     -150.677507
9.306                0.956151157     -150.961716
9.307                0.956087128     -151.246291
9.308                0.956023499     -151.531232
9.309                0.955960273     -151.816533
9.31                 0.955897454     -152.102194
9.311                0.955835047      -152.38821
9.312                0.955773055      -152.67458
9.313                0.955711482     -152.961299
9.314                0.955650332     -153.248366
9.315                0.955589609     -153.535778
9.316                0.955529317     -153.823531
9.317                 0.95546946     -154.111623
9.318                0.955410041      -154.40005
9.319                0.955351065      -154.68881
9.32                 0.955292534       -154.9779
9.321                0.955234454     -155.267316
9.322                0.955176827     -155.557056
9.323                0.955119657     -155.847116
9.324                0.955062948     -156.137493
9.325                0.955006704     -156.428185
9.326                0.954950929     -156.719188
9.327                0.954895625     -157.010498
9.328                0.954840798     -157.302113
9.329                0.954786449     -157.594029
9.33                 0.954732584     -157.886244
9.331                0.954679205     -158.178753
9.332                0.954626316     -158.471554
9.333                0.954573921     -158.764643
9.334                0.954522023     -159.058018
9.335                0.954470625     -159.351673
9.336                0.954419731     -159.645607
9.337                0.954369344     -159.939816
9.338                0.954319468     -160.234296
9.339                0.954270106     -160.529044
9.34                 0.954221262     -160.824056
9.341                0.954172938      -161.11933
9.342                0.954125138     -161.414861
9.343                0.954077866     -161.710645
9.344                0.954031124     -162.006681
9.345                0.953984915     -162.302963
9.346                0.953939243     -162.599488
9.347                0.953894111     -162.896253
9.348                0.953849521     -163.193254
9.349                0.953805478     -163.490487
9.35                 0.953761984      -163.78795
9.351                0.953719041     -164.085637
9.352                0.953676653     -164.383546
9.353                0.953634823     -164.681672
9.354                0.953593554     -164.980013
9.355                0.953552848     -165.278563
9.356                0.953512708      -165.57732
9.357                0.953473137      -165.87628
9.358                0.953434137     -166.175439
9.359                0.953395712     -166.474793
9.36                 0.953357864     -166.774338
9.361                0.953320596      -167.07407
9.362                0.953283909     -167.373986
9.363                0.953247808     -167.674082
9.364                0.953212293     -167.974354
9.365                0.953177368     -168.274798
9.366                0.953143034     -168.575409
9.367                0.953109295     -168.876185
9.368                0.953076152     -169.177121
9.369                0.953043609     -169.478213
9.37                 0.953011666     -169.779458
9.371                0.952980326     -170.080851
9.372                0.952949592     -170.382388
9.373                0.952919465     -170.684065
9.374                0.952889947     -170.985879
9.375                0.952861041     -171.287825
9.376                0.952832748       -171.5899
9.377                 0.95280507     -171.892098
9.378                0.952778009     -172.194417
9.379                0.952751567     -172.496852
9.38                 0.952725746     -172.799399
9.381                0.952700547     -173.102053
9.382                0.952675972     -173.404812
9.383                0.952652023     -173.707671
9.384                  0.9526287     -174.010625
9.385                0.952606007      -174.31367
9.386                0.952583943     -174.616803
9.387                0.952562511      -174.92002
9.388                0.952541712     -175.223315
9.389                0.952521547     -175.526686
9.39                 0.952502017     -175.830127
9.391                0.952483124     -176.133635
9.392                0.952464869     -176.437206
9.393                0.952447252     -176.740835
9.394                0.952430276     -177.044518
9.395                0.952413941     -177.348251
9.396                0.952398247      -177.65203
