! TOUCHSTONE file generated by CST DESIGN STUDIO
! Date and time: Tue Feb  4 17:03:13 2025
! Project name: C:\Work\MatlabApps\UnitCellOptimizationMatlab\CST\unitcell.cst
! Tree item: Tasks\Sweep1\SPara1\S-Parameters
! Header version: 2024
! Port assignment regex: !\s*Touchstone port\s*([0-9]+)\s*=\s*(CST MWS port|CST DES external port|CST DES block port)\s*(.+)\s* \(\"(.*)\"\)(\s*mode\s*([0-9]+))?.*
! Touchstone port assignment:
! Touchstone port 1 = CST DES external port 1 ("")
# GHz S MA R 50
9                    0.979615975     -84.5106992
9.001                0.979560107     -84.6498182
9.002                0.979504068     -84.7892972
9.003                0.979447856     -84.9291371
9.004                0.979391471      -85.069339
9.005                0.979334913     -85.2099038
9.006                0.979278183     -85.3508327
9.007                0.979221279     -85.4921267
9.008                0.979164201     -85.6337867
9.009                 0.97910695     -85.7758138
9.01                 0.979049525     -85.9182091
9.011                0.978991926     -86.0609736
9.012                0.978934153     -86.2041082
9.013                0.978876205     -86.3476141
9.014                0.978818083     -86.4914923
9.015                0.978759785     -86.6357438
9.016                0.978701313     -86.7803696
9.017                0.978642666     -86.9253708
9.018                0.978583843     -87.0707485
9.019                0.978524845     -87.2165036
9.02                 0.978465671     -87.3626372
9.021                0.978406322     -87.5091504
9.022                0.978346797     -87.6560441
9.023                0.978287095     -87.8033195
9.024                0.978227218     -87.9509775
9.025                0.978167164     -88.0990192
9.026                0.978106934     -88.2474457
9.027                0.978046527      -88.396258
9.028                0.977985944     -88.5454572
9.029                0.977925184     -88.6950442
9.03                 0.977864247     -88.8450202
9.031                0.977803134     -88.9953861
9.032                0.977741843     -89.1461431
9.033                0.977680375     -89.2972922
9.034                0.977618731     -89.4488343
9.035                0.977556909     -89.6007707
9.036                0.977494909     -89.7531022
9.037                0.977432733       -89.90583
9.038                0.977370379     -90.0589551
9.039                0.977307848     -90.2124786
9.04                 0.977245139     -90.3664014
9.041                0.977182253     -90.5207247
9.042                 0.97711919     -90.6754496
9.043                0.977055949     -90.8305769
9.044                 0.97699253     -90.9861078
9.045                0.976928934     -91.1420434
9.046                0.976865161     -91.2983846
9.047                 0.97680121     -91.4551326
9.048                0.976737082     -91.6122883
9.049                0.976672777     -91.7698529
9.05                 0.976608294     -91.9278273
9.051                0.976543634     -92.0862126
9.052                0.976478796     -92.2450098
9.053                0.976413782     -92.4042201
9.054                 0.97634859     -92.5638443
9.055                0.976283222     -92.7238837
9.056                0.976217676     -92.8843391
9.057                0.976151954     -93.0452117
9.058                0.976086055     -93.2065025
9.059                0.976019979     -93.3682125
9.06                 0.975953727     -93.5303427
9.061                0.975887298     -93.6928943
9.062                0.975820694     -93.8558682
9.063                0.975753913     -94.0192654
9.064                0.975686956      -94.183087
9.065                0.975619824     -94.3473341
9.066                0.975552516     -94.5120076
9.067                0.975485033     -94.6771086
9.068                0.975417374     -94.8426381
9.069                0.975349541     -95.0085971
9.07                 0.975281533     -95.1749867
9.071                 0.97521335     -95.3418079
9.072                0.975144993     -95.5090616
9.073                0.975076462      -95.676749
9.074                0.975007757     -95.8448709
9.075                0.974938879     -96.0134286
9.076                0.974869827     -96.1824228
9.077                0.974800603     -96.3518548
9.078                0.974731206     -96.5217254
9.079                0.974661636     -96.6920356
9.08                 0.974591894     -96.8627866
9.081                0.974521981     -97.0339792
9.082                0.974451897     -97.2056145
9.083                0.974381641     -97.3776935
9.084                0.974311215     -97.5502171
9.085                0.974240618     -97.7231864
9.086                0.974169852     -97.8966023
9.087                0.974098916     -98.0704658
9.088                0.974027811      -98.244778
9.089                0.973956537     -98.4195397
9.09                 0.973885095      -98.594752
9.091                0.973813485     -98.7704158
9.092                0.973741708     -98.9465321
9.093                0.973669765     -99.1231019
9.094                0.973597654     -99.3001261
9.095                0.973525378     -99.4776058
9.096                0.973452937     -99.6555417
9.097                0.973380331      -99.833935
9.098                 0.97330756     -100.012786
9.099                0.973234626     -100.192097
9.1                  0.973161528     -100.371868
9.101                0.973088268       -100.5521
9.102                0.973014846     -100.732794
9.103                0.972941263     -100.913951
9.104                0.972867518     -101.095571
9.105                0.972793614     -101.277657
9.106                 0.97271955     -101.460208
9.107                0.972645327     -101.643226
9.108                0.972570946     -101.826711
9.109                0.972496407     -102.010665
9.11                 0.972421712     -102.195088
9.111                 0.97234686     -102.379981
9.112                0.972271853     -102.565345
9.113                0.972196692     -102.751181
9.114                0.972121376      -102.93749
9.115                0.972045908     -103.124273
9.116                0.971970287     -103.311531
9.117                0.971894515     -103.499264
9.118                0.971818592     -103.687473
9.119                0.971742519     -103.876159
9.12                 0.971666298     -104.065323
9.121                0.971589928     -104.254966
9.122                0.971513411     -104.445089
9.123                0.971436748     -104.635693
9.124                0.971359939     -104.826777
9.125                0.971282986     -105.018344
9.126                0.971205889     -105.210394
9.127                 0.97112865     -105.402927
9.128                0.971051269     -105.595945
9.129                0.970973748     -105.789448
9.13                 0.970896087     -105.983438
9.131                0.970818288     -106.177914
9.132                0.970740351     -106.372878
9.133                0.970662278      -106.56833
9.134                 0.97058407     -106.764272
9.135                0.970505728     -106.960703
9.136                0.970427252     -107.157625
9.137                0.970348645     -107.355039
9.138                0.970269907     -107.552944
9.139                0.970191039     -107.751342
9.14                 0.970112043     -107.950234
9.141                 0.97003292      -108.14962
9.142                0.969953671     -108.349501
9.143                0.969874297     -108.549877
9.144                  0.9697948      -108.75075
9.145                0.969715181      -108.95212
9.146                0.969635441     -109.153987
9.147                0.969555582     -109.356352
9.148                0.969475604     -109.559217
9.149                 0.96939551     -109.762581
9.15                 0.969315301     -109.966444
9.151                0.969234977     -110.170809
9.152                0.969154541     -110.375675
9.153                0.969073995     -110.581043
9.154                0.968993338     -110.786913
9.155                0.968912574     -110.993287
9.156                0.968831702     -111.200164
9.157                0.968750726     -111.407545
9.158                0.968669647     -111.615431
9.159                0.968588465     -111.823822
9.16                 0.968507183     -112.032719
9.161                0.968425803     -112.242123
9.162                0.968344325     -112.452033
9.163                0.968262752      -112.66245
9.164                0.968181085     -112.873375
9.165                0.968099326     -113.084809
9.166                0.968017476     -113.296751
9.167                0.967935538     -113.509202
9.168                0.967853514     -113.722163
9.169                0.967771404     -113.935633
9.17                 0.967689211     -114.149615
9.171                0.967606936     -114.364106
9.172                0.967524582      -114.57911
9.173                 0.96744215     -114.794624
9.174                0.967359642     -115.010651
9.175                0.967277061     -115.227189
9.176                0.967194407     -115.444241
9.177                0.967111683     -115.661805
9.178                0.967028891     -115.879882
9.179                0.966946034     -116.098473
9.18                 0.966863112     -116.317578
9.181                0.966780128     -116.537197
9.182                0.966697084      -116.75733
9.183                0.966613983     -116.977978
9.184                0.966530825      -117.19914
9.185                0.966447614     -117.420818
9.186                0.966364352      -117.64301
9.187                0.966281041     -117.865718
9.188                0.966197682     -118.088942
9.189                0.966114279     -118.312681
9.19                 0.966030833     -118.536937
9.191                0.965947346     -118.761708
9.192                0.965863822     -118.986995
9.193                0.965780262     -119.212798
9.194                0.965696669     -119.439118
9.195                0.965613045     -119.665954
9.196                0.965529392     -119.893307
9.197                0.965445713     -120.121176
9.198                0.965362011     -120.349561
9.199                0.965278287     -120.578463
9.2                  0.965194544     -120.807881
9.201                0.965110785     -121.037816
9.202                0.965027012     -121.268267
9.203                0.964943228     -121.499234
9.204                0.964859436     -121.730718
9.205                0.964775637     -121.962718
9.206                0.964691835     -122.195233
9.207                0.964608032     -122.428265
9.208                0.964524231     -122.661812
9.209                0.964440434     -122.895875
9.21                 0.964356645     -123.130453
9.211                0.964272866     -123.365547
9.212                  0.9641891     -123.601155
9.213                0.964105349     -123.837278
9.214                0.964021616     -124.073916
9.215                0.963937905     -124.311068
9.216                0.963854218     -124.548734
9.217                0.963770557     -124.786913
9.218                0.963686927     -125.025605
9.219                0.963603329     -125.264811
9.22                 0.963519766     -125.504529
9.221                0.963436243     -125.744759
9.222                 0.96335276     -125.985501
9.223                0.963269323     -126.226755
9.224                0.963185933     -126.468519
9.225                0.963102594     -126.710793
9.226                0.963019308     -126.953578
9.227                 0.96293608     -127.196872
9.228                0.962852911     -127.440675
9.229                0.962769805     -127.684986
9.23                 0.962686766     -127.929805
9.231                0.962603796     -128.175132
9.232                0.962520898     -128.420964
9.233                0.962438077     -128.667303
9.234                0.962355334     -128.914147
9.235                0.962272674     -129.161496
9.236                0.962190099     -129.409349
9.237                0.962107614     -129.657705
9.238                0.962025221     -129.906564
9.239                0.961942923     -130.155924
9.24                 0.961860724     -130.405785
9.241                0.961778628     -130.656147
9.242                0.961696637     -130.907007
9.243                0.961614755     -131.158367
9.244                0.961532987     -131.410224
9.245                0.961451334     -131.662577
9.246                0.961369801     -131.915427
9.247                 0.96128839     -132.168771
9.248                0.961207107      -132.42261
9.249                0.961125953     -132.676941
9.25                 0.961044934     -132.931764
9.251                0.960964051     -133.187078
9.252                0.960883309     -133.442883
9.253                0.960802712     -133.699175
9.254                0.960722263     -133.955956
9.255                0.960641965     -134.213223
9.256                0.960561823     -134.470976
9.257                 0.96048184     -134.729213
9.258                 0.96040202     -134.987933
9.259                0.960322366     -135.247135
9.26                 0.960242882     -135.506818
9.261                0.960163572      -135.76698
9.262                 0.96008444      -136.02762
9.263                0.960005489     -136.288737
9.264                0.959926723     -136.550329
9.265                0.959848146     -136.812395
9.266                0.959769762     -137.074934
9.267                0.959691575     -137.337945
9.268                0.959613588     -137.601425
9.269                0.959535805     -137.865373
9.27                 0.959458231     -138.129789
9.271                0.959380868      -138.39467
9.272                0.959303722     -138.660015
9.273                0.959226795     -138.925822
9.274                0.959150092     -139.192089
9.275                0.959073616     -139.458816
9.276                0.958997372     -139.726001
9.277                0.958921364     -139.993641
9.278                0.958845594     -140.261735
9.279                0.958770068     -140.530282
9.28                  0.95869479      -140.79928
9.281                0.958619762     -141.068726
9.282                 0.95854499      -141.33862
9.283                0.958470478     -141.608958
9.284                0.958396228     -141.879741
9.285                0.958322245     -142.150965
9.286                0.958248534     -142.422628
9.287                0.958175098      -142.69473
9.288                0.958101941     -142.967267
9.289                0.958029068     -143.240239
9.29                 0.957956482     -143.513642
9.291                0.957884187     -143.787475
9.292                0.957812187     -144.061736
9.293                0.957740487     -144.336423
9.294                 0.95766909     -144.611533
9.295                   0.957598     -144.887065
9.296                0.957527222     -145.163017
9.297                 0.95745676     -145.439385
9.298                0.957386617     -145.716169
9.299                0.957316797     -145.993366
9.3                  0.957247305     -146.270973
9.301                0.957178145     -146.548988
9.302                0.957109321      -146.82741
9.303                0.957040836     -147.106235
9.304                0.956972695     -147.385461
9.305                0.956904902     -147.665087
9.306                 0.95683746     -147.945108
9.307                0.956770374     -148.225524
9.308                0.956703648     -148.506332
9.309                0.956637286     -148.787529
9.31                 0.956571292     -149.069112
9.311                 0.95650567      -149.35108
9.312                0.956440423     -149.633429
9.313                0.956375556     -149.916157
9.314                0.956311073     -150.199261
9.315                0.956246978     -150.482739
9.316                0.956183274     -150.766588
9.317                0.956119966     -151.050806
9.318                0.956057057     -151.335389
9.319                0.955994552     -151.620336
9.32                 0.955932455     -151.905642
9.321                0.955870768     -152.191306
9.322                0.955809497     -152.477324
9.323                0.955748645     -152.763694
9.324                0.955688216     -153.050414
9.325                0.955628214     -153.337479
9.326                0.955568642     -153.624887
9.327                0.955509505     -153.912635
9.328                0.955450805     -154.200721
9.329                0.955392548     -154.489141
9.33                 0.955334737     -154.777892
9.331                0.955277375     -155.066971
9.332                0.955220467     -155.356376
9.333                0.955164015     -155.646103
9.334                0.955108024     -155.936148
9.335                0.955052498      -156.22651
9.336                0.954997439     -156.517184
9.337                0.954942852     -156.808168
9.338                 0.95488874     -157.099459
9.339                0.954835107     -157.391052
9.34                 0.954781957     -157.682946
9.341                0.954729292     -157.975136
9.342                0.954677117      -158.26762
9.343                0.954625434     -158.560394
9.344                0.954574248     -158.853454
9.345                0.954523562     -159.146799
9.346                0.954473379     -159.440423
9.347                0.954423703     -159.734324
9.348                0.954374537     -160.028498
9.349                0.954325884     -160.322943
9.35                 0.954277747     -160.617653
9.351                0.954230131     -160.912627
9.352                0.954183037      -161.20786
9.353                 0.95413647      -161.50335
9.354                0.954090432     -161.799091
9.355                0.954044927     -162.095082
9.356                0.953999958     -162.391318
9.357                0.953955528     -162.687796
9.358                 0.95391164     -162.984512
9.359                0.953868296     -163.281463
9.36                 0.953825501     -163.578645
9.361                0.953783256     -163.876054
9.362                0.953741565     -164.173686
9.363                0.953700431     -164.471539
9.364                0.953659856     -164.769608
9.365                0.953619843     -165.067889
9.366                0.953580396     -165.366379
9.367                0.953541516     -165.665074
9.368                0.953503207      -165.96397
9.369                0.953465471     -166.263064
9.37                  0.95342831     -166.562351
9.371                0.953391728     -166.861828
9.372                0.953355727     -167.161491
9.373                0.953320309     -167.461337
9.374                0.953285477      -167.76136
9.375                0.953251233     -168.061558
9.376                 0.95321758     -168.361926
9.377                 0.95318452     -168.662461
9.378                0.953152054     -168.963159
9.379                0.953120186     -169.264015
9.38                 0.953088918     -169.565026
9.381                0.953058252     -169.866188
9.382                0.953028189     -170.167496
9.383                0.952998732     -170.468948
9.384                0.952969883     -170.770538
9.385                0.952941644     -171.072263
9.386                0.952914017     -171.374119
9.387                0.952887004     -171.676102
9.388                0.952860606     -171.978208
9.389                0.952834825     -172.280432
9.39                 0.952809663     -172.582771
9.391                0.952785123     -172.885221
9.392                0.952761204     -173.187777
9.393                 0.95273791     -173.490435
9.394                0.952715241     -173.793192
9.395                0.952693199     -174.096043
9.396                0.952671785     -174.398984
