! TOUCHSTONE file generated by CST DESIGN STUDIO
! Date and time: Tue Feb  4 14:35:51 2025
! Project name: C:\Work\MatlabApps\UnitCellOptimizationMatlab\CST\unitcell.cst
! Tree item: Tasks\Sweep1\SPara1\S-Parameters
! Header version: 2024
! Port assignment regex: !\s*Touchstone port\s*([0-9]+)\s*=\s*(CST MWS port|CST DES external port|CST DES block port)\s*(.+)\s* \(\"(.*)\"\)(\s*mode\s*([0-9]+))?.*
! Touchstone port assignment:
! Touchstone port 1 = CST DES external port 1 ("")
# GHz S MA R 50
9                     0.92537388     -62.8050008
9.001                0.925132215     -62.9068594
9.002                0.924889543     -63.0090119
9.003                 0.92464586     -63.1114596
9.004                0.924401161     -63.2142035
9.005                0.924155441     -63.3172451
9.006                0.923908696     -63.4205854
9.007                0.923660922     -63.5242257
9.008                0.923412113     -63.6281672
9.009                0.923162266     -63.7324111
9.01                 0.922911376     -63.8369588
9.011                0.922659438     -63.9418114
9.012                0.922406447     -64.0469702
9.013                0.922152399     -64.1524365
9.014                0.921897289     -64.2582115
9.015                0.921641113     -64.3642965
9.016                0.921383865     -64.4706928
9.017                0.921125542     -64.5774016
9.018                0.920866137     -64.6844242
9.019                0.920605648      -64.791762
9.02                 0.920344068     -64.8994163
9.021                0.920081393     -65.0073882
9.022                0.919817618     -65.1156793
9.023                0.919552739     -65.2242907
9.024                 0.91928675     -65.3332238
9.025                0.919019647       -65.44248
9.026                0.918751424     -65.5520605
9.027                0.918482077     -65.6619668
9.028                0.918211601     -65.7722002
9.029                0.917939991     -65.8827619
9.03                 0.917667241     -65.9936535
9.031                0.917393348     -66.1048763
9.032                0.917118306     -66.2164316
9.033                0.916842109     -66.3283208
9.034                0.916564754     -66.4405453
9.035                0.916286234     -66.5531066
9.036                0.916006545      -66.666006
9.037                0.915725681     -66.7792449
9.038                0.915443638     -66.8928248
9.039                0.915160411      -67.006747
9.04                 0.914875994     -67.1210131
9.041                0.914590381     -67.2356243
9.042                0.914303569     -67.3505823
9.043                0.914015552     -67.4658884
9.044                0.913726323     -67.5815441
9.045                0.913435879     -67.6975509
9.046                0.913144215     -67.8139102
9.047                0.912851323     -67.9306234
9.048                  0.9125572     -68.0476922
9.049                0.912261841      -68.165118
9.05                 0.911965239     -68.2829022
9.051                0.911667389     -68.4010465
9.052                0.911368286     -68.5195522
9.053                0.911067926     -68.6384209
9.054                0.910766301     -68.7576542
9.055                0.910463407     -68.8772536
9.056                0.910159239     -68.9972206
9.057                0.909853791     -69.1175568
9.058                0.909547058     -69.2382637
9.059                0.909239033      -69.359343
9.06                 0.908929712      -69.480796
9.061                0.908619089     -69.6026245
9.062                0.908307159     -69.7248301
9.063                0.907993916     -69.8474142
9.064                0.907679355     -69.9703786
9.065                0.907363469     -70.0937248
9.066                0.907046253     -70.2174545
9.067                0.906727703     -70.3415692
9.068                0.906407811     -70.4660706
9.069                0.906086573     -70.5909603
9.07                 0.905763983       -70.71624
9.071                0.905440036     -70.8419113
9.072                0.905114724      -70.967976
9.073                0.904788044     -71.0944355
9.074                0.904459989     -71.2212917
9.075                0.904130553     -71.3485463
9.076                0.903799731     -71.4762008
9.077                0.903467518      -71.604257
9.078                0.903133906     -71.7327167
9.079                0.902798891     -71.8615814
9.08                 0.902462467      -71.990853
9.081                0.902124628     -72.1205332
9.082                0.901785368     -72.2506237
9.083                0.901444681     -72.3811263
9.084                0.901102562     -72.5120426
9.085                0.900759005     -72.6433746
9.086                0.900414004     -72.7751238
9.087                0.900067553     -72.9072922
9.088                0.899719646     -73.0398815
9.089                0.899370278     -73.1728935
9.09                 0.899019442       -73.30633
9.091                0.898667133     -73.4401929
9.092                0.898313344     -73.5744838
9.093                0.897958071     -73.7092047
9.094                0.897601306     -73.8443574
9.095                0.897243045     -73.9799437
9.096                 0.89688328     -74.1159655
9.097                0.896522007     -74.2524246
9.098                0.896159219      -74.389323
9.099                0.895794911     -74.5266624
9.1                  0.895429076     -74.6644448
9.101                0.895061708      -74.802672
9.102                0.894692802     -74.9413461
9.103                0.894322352     -75.0804687
9.104                0.893950351      -75.220042
9.105                0.893576794     -75.3600678
9.106                0.893201674      -75.500548
9.107                0.892824987     -75.6414846
9.108                0.892446725     -75.7828795
9.109                0.892066883     -75.9247348
9.11                 0.891685454     -76.0670523
9.111                0.891302434     -76.2098341
9.112                0.890917815      -76.353082
9.113                0.890531593     -76.4967983
9.114                 0.89014376     -76.6409847
9.115                0.889754311     -76.7856434
9.116                 0.88936324     -76.9307763
9.117                0.888970542     -77.0763855
9.118                0.888576209      -77.222473
9.119                0.888180237     -77.3690409
9.12                 0.887782618     -77.5160913
9.121                0.887383348     -77.6636261
9.122                 0.88698242     -77.8116475
9.123                0.886579829     -77.9601575
9.124                0.886175568     -78.1091582
9.125                0.885769632     -78.2586518
9.126                0.885362014     -78.4086403
9.127                0.884952708     -78.5591259
9.128                 0.88454171     -78.7101106
9.129                0.884129012     -78.8615966
9.13                  0.88371461     -79.0135861
9.131                0.883298496     -79.1660812
9.132                0.882880666     -79.3190841
9.133                0.882461113     -79.4725969
9.134                0.882039832     -79.6266218
9.135                0.881616817      -79.781161
9.136                0.881192062     -79.9362167
9.137                0.880765561     -80.0917912
9.138                0.880337309     -80.2478865
9.139                0.879907299     -80.4045049
9.14                 0.879475526     -80.5616488
9.141                0.879041985     -80.7193202
9.142                0.878606669     -80.8775215
9.143                0.878169573     -81.0362549
9.144                0.877730691     -81.1955228
9.145                0.877290018     -81.3553272
9.146                0.876847548     -81.5156706
9.147                0.876403276     -81.6765553
9.148                0.875957195     -81.8379835
9.149                0.875509301     -81.9999576
9.15                 0.875059588     -82.1624798
9.151                 0.87460805     -82.3255526
9.152                0.874154682     -82.4891782
9.153                0.873699478      -82.653359
9.154                0.873242434     -82.8180974
9.155                0.872783544     -82.9833956
9.156                0.872322802     -83.1492562
9.157                0.871860203     -83.3156815
9.158                0.871395743     -83.4826738
9.159                0.870929415     -83.6502356
9.16                 0.870461215     -83.8183693
9.161                0.869991137     -83.9870773
9.162                0.869519176      -84.156362
9.163                0.869045328     -84.3262259
9.164                0.868569587     -84.4966714
9.165                0.868091949      -84.667701
9.166                0.867612408     -84.8393171
9.167                0.867130959     -85.0115223
9.168                0.866647598     -85.1843189
9.169                 0.86616232     -85.3577095
9.17                  0.86567512     -85.5316965
9.171                0.865185994     -85.7062826
9.172                0.864694937     -85.8814702
9.173                0.864201943     -86.0572617
9.174                 0.86370701     -86.2336599
9.175                0.863210132     -86.4106671
9.176                0.862711305      -86.588286
9.177                0.862210524     -86.7665191
9.178                0.861707785      -86.945369
9.179                0.861203085     -87.1248382
9.18                 0.860696418     -87.3049294
9.181                0.860187782     -87.4856451
9.182                0.859677171     -87.6669879
9.183                0.859164581     -87.8489604
9.184                 0.85865001     -88.0315653
9.185                0.858133453     -88.2148052
9.186                0.857614905     -88.3986827
9.187                0.857094365     -88.5832005
9.188                0.856571828     -88.7683612
9.189                 0.85604729     -88.9541674
9.19                 0.855520748     -89.1406219
9.191                0.854992199     -89.3277272
9.192                0.854461639     -89.5154862
9.193                0.853929065     -89.7039014
9.194                0.853394475     -89.8929756
9.195                0.852857865     -90.0827115
9.196                0.852319232     -90.2731118
9.197                0.851778573     -90.4641791
9.198                0.851235886     -90.6559163
9.199                0.850691167     -90.8483261
9.2                  0.850144415     -91.0414112
9.201                0.849595628     -91.2351743
9.202                0.849044801     -91.4296183
9.203                0.848491934     -91.6247458
9.204                0.847937024     -91.8205597
9.205                 0.84738007     -92.0170627
9.206                0.846821068     -92.2142576
9.207                0.846260018     -92.4121473
9.208                0.845696918     -92.6107344
9.209                0.845131766     -92.8100218
9.21                  0.84456456     -93.0100123
9.211                  0.8439953     -93.2107088
9.212                0.843423984      -93.412114
9.213                0.842850611     -93.6142308
9.214                 0.84227518      -93.817062
9.215                 0.84169769     -94.0206104
9.216                 0.84111814      -94.224879
9.217                0.840536531     -94.4298705
9.218                 0.83995286     -94.6355878
9.219                0.839367129     -94.8420338
9.22                 0.838779337     -95.0492113
9.221                0.838189484     -95.2571233
9.222                0.837597569     -95.4657725
9.223                0.837003594      -95.675162
9.224                0.836407559     -95.8852944
9.225                0.835809464     -96.0961729
9.226                 0.83520931     -96.3078002
9.227                0.834607098     -96.5201792
9.228                0.834002829      -96.733313
9.229                0.833396503     -96.9472043
9.23                 0.832788124      -97.161856
9.231                0.832177691     -97.3772712
9.232                0.831565207     -97.5934527
9.233                0.830950674     -97.8104035
9.234                0.830334093     -98.0281264
9.235                0.829715467     -98.2466245
9.236                0.829094798     -98.4659005
9.237                0.828472089     -98.6859576
9.238                0.827847343     -98.9067986
9.239                0.827220563     -99.1284264
9.24                 0.826591751      -99.350844
9.241                0.825960911     -99.5740543
9.242                0.825328047     -99.7980604
9.243                0.824693162     -100.022865
9.244                0.824056261     -100.248471
9.245                0.823417348     -100.474882
9.246                0.822776426       -100.7021
9.247                0.822133501     -100.930129
9.248                0.821488577     -101.158971
9.249                0.820841659      -101.38863
9.25                 0.820192753     -101.619107
9.251                0.819541864     -101.850407
9.252                0.818888997     -102.082532
9.253                0.818234159     -102.315486
9.254                0.817577356      -102.54927
9.255                0.816918594     -102.783888
9.256                 0.81625788     -103.019344
9.257                 0.81559522     -103.255639
9.258                0.814930622     -103.492777
9.259                0.814264093     -103.730761
9.26                 0.813595641     -103.969594
9.261                0.812925274     -104.209278
9.262                0.812252999     -104.449817
9.263                0.811578825     -104.691214
9.264                0.810902761     -104.933471
9.265                0.810224815     -105.176591
9.266                0.809544998     -105.420577
9.267                0.808863317     -105.665433
9.268                0.808179784     -105.911161
9.269                0.807494407     -106.157763
9.27                 0.806807198     -106.405244
9.271                0.806118167     -106.653605
9.272                0.805427324      -106.90285
9.273                0.804734682     -107.152982
9.274                 0.80404025     -107.404002
9.275                0.803344042     -107.655915
9.276                0.802646069     -107.908723
9.277                0.801946344     -108.162429
9.278                0.801244879     -108.417035
9.279                0.800541687     -108.672545
9.28                 0.799836782     -108.928962
9.281                0.799130176     -109.186287
9.282                0.798421885     -109.444525
9.283                0.797711923     -109.703677
9.284                0.797000303     -109.963746
9.285                0.796287041     -110.224736
9.286                0.795572152     -110.486648
9.287                0.794855652     -110.749487
9.288                0.794137557     -111.013253
9.289                0.793417883     -111.277951
9.29                 0.792696646     -111.543582
9.291                0.791973864      -111.81015
9.292                0.791249554     -112.077657
9.293                0.790523733     -112.346105
9.294                 0.78979642     -112.615498
9.295                0.789067633     -112.885838
9.296                0.788337391     -113.157127
9.297                0.787605713     -113.429368
9.298                0.786872618     -113.702564
9.299                0.786138127     -113.976717
9.3                   0.78540226     -114.251829
9.301                0.784665036     -114.527904
9.302                0.783926479     -114.804943
9.303                0.783186607      -115.08295
9.304                0.782445445     -115.361925
9.305                0.781703013     -115.641873
9.306                0.780959335     -115.922795
9.307                0.780214432     -116.204693
9.308                 0.77946833      -116.48757
9.309                0.778721051     -116.771429
9.31                  0.77797262     -117.056271
9.311                0.777223061     -117.342098
9.312                0.776472399     -117.628914
9.313                 0.77572066      -117.91672
9.314                0.774967869     -118.205518
9.315                0.774214053      -118.49531
9.316                0.773459239     -118.786099
9.317                0.772703453     -119.077886
9.318                0.771946723     -119.370675
9.319                0.771189077     -119.664465
9.32                 0.770430544     -119.959261
9.321                0.769671151     -120.255063
9.322                0.768910929     -120.551873
9.323                0.768149906     -120.849694
9.324                0.767388114     -121.148527
9.325                0.766625582     -121.448373
9.326                0.765862342     -121.749236
9.327                0.765098424     -122.051116
9.328                0.764333861     -122.354015
9.329                0.763568685     -122.657935
9.33                 0.762802929     -122.962877
9.331                0.762036626     -123.268843
9.332                0.761269808     -123.575835
9.333                0.760502512     -123.883853
9.334                 0.75973477       -124.1929
9.335                0.758966618     -124.502977
9.336                0.758198091     -124.814084
9.337                0.757429225     -125.126224
9.338                0.756660056     -125.439398
9.339                0.755890622     -125.753606
9.34                 0.755120958      -126.06885
9.341                0.754351104     -126.385131
9.342                0.753581096     -126.702451
9.343                0.752810973     -127.020809
9.344                0.752040775     -127.340207
9.345                 0.75127054     -127.660646
9.346                0.750500309     -127.982127
9.347                0.749730121      -128.30465
9.348                0.748960018     -128.628216
9.349                0.748190041     -128.952826
9.35                 0.747420231     -129.278481
9.351                 0.74665063      -129.60518
9.352                0.745881281     -129.932925
9.353                0.745112227     -130.261715
9.354                0.744343511     -130.591552
9.355                0.743575177     -130.922434
9.356                0.742807269     -131.254364
9.357                0.742039832      -131.58734
9.358                0.741272911     -131.921364
9.359                0.740506551     -132.256434
9.36                 0.739740799      -132.59255
9.361                  0.7389757     -132.929714
9.362                0.738211302     -133.267924
9.363                0.737447652      -133.60718
9.364                0.736684797     -133.947482
9.365                0.735922785     -134.288829
9.366                0.735161665     -134.631221
9.367                0.734401486     -134.974658
9.368                0.733642296     -135.319138
9.369                0.732884146     -135.664661
9.37                 0.732127085     -136.011226
9.371                0.731371164     -136.358833
9.372                0.730616433      -136.70748
9.373                0.729862944     -137.057166
9.374                0.729110748      -137.40789
9.375                0.728359897     -137.759651
9.376                0.727610443     -138.112447
9.377                0.726862438     -138.466278
9.378                0.726115937     -138.821141
9.379                0.725370991     -139.177035
9.38                 0.724627655     -139.533959
9.381                0.723885982      -139.89191
9.382                0.723146026     -140.250887
9.383                0.722407843     -140.610887
9.384                0.721671487      -140.97191
9.385                0.720937013     -141.333952
9.386                0.720204476     -141.697011
9.387                0.719473933     -142.061086
9.388                0.718745439     -142.426173
9.389                0.718019051      -142.79227
9.39                 0.717294825     -143.159374
9.391                0.716572817     -143.527484
9.392                0.715853086     -143.896595
9.393                0.715135688     -144.266704
9.394                0.714420681      -144.63781
9.395                0.713708122     -145.009909
9.396                 0.71299807     -145.382997
