! TOUCHSTONE file generated by CST DESIGN STUDIO
! Date and time: Tue Feb  4 14:35:48 2025
! Project name: C:\Work\MatlabApps\UnitCellOptimizationMatlab\CST\unitcell.cst
! Tree item: Tasks\Sweep1\SPara1\S-Parameters
! Header version: 2024
! Port assignment regex: !\s*Touchstone port\s*([0-9]+)\s*=\s*(CST MWS port|CST DES external port|CST DES block port)\s*(.+)\s* \(\"(.*)\"\)(\s*mode\s*([0-9]+))?.*
! Touchstone port assignment:
! Touchstone port 1 = CST DES external port 1 ("")
# GHz S MA R 50
9                    0.848650343     -84.3496484
9.001                0.848084173      -84.529329
9.002                0.847515562     -84.7096773
9.003                0.846944506     -84.8906963
9.004                0.846370996     -85.0723893
9.005                0.845795027     -85.2547592
9.006                0.845216591     -85.4378093
9.007                0.844635682     -85.6215427
9.008                0.844052292     -85.8059626
9.009                0.843466417     -85.9910721
9.01                 0.842878048     -86.1768744
9.011                0.842287181     -86.3633728
9.012                0.841693808     -86.5505704
9.013                0.841097923     -86.7384704
9.014                0.840499521     -86.9270762
9.015                0.839898595     -87.1163909
9.016                0.839295139     -87.3064179
9.017                0.838689148     -87.4971604
9.018                0.838080615     -87.6886217
9.019                0.837469536     -87.8808051
9.02                 0.836855905      -88.073714
9.021                0.836239716     -88.2673516
9.022                0.835620963     -88.4617213
9.023                0.834999643     -88.6568265
9.024                0.834375749     -88.8526706
9.025                0.833749276     -89.0492568
9.026                0.833120221     -89.2465887
9.027                0.832488577     -89.4446697
9.028                0.831854341     -89.6435031
9.029                0.831217507     -89.8430924
9.03                 0.830578072      -90.043441
9.031                0.829936032     -90.2445525
9.032                0.829291381     -90.4464302
9.033                0.828644117     -90.6490777
9.034                0.827994234     -90.8524985
9.035                0.827341731      -91.056696
9.036                0.826686602     -91.2616738
9.037                0.826028845     -91.4674355
9.038                0.825368457     -91.6739845
9.039                0.824705433     -91.8813245
9.04                 0.824039772      -92.089459
9.041                0.823371471     -92.2983916
9.042                0.822700526     -92.5081259
9.043                0.822026935     -92.7186654
9.044                0.821350697     -92.9300139
9.045                0.820671809      -93.142175
9.046                0.819990269     -93.3551522
9.047                0.819306075     -93.5689493
9.048                0.818619226     -93.7835698
9.049                 0.81792972     -93.9990176
9.05                 0.817237556     -94.2152962
9.051                0.816542733     -94.4324094
9.052                 0.81584525     -94.6503608
9.053                0.815145108     -94.8691543
9.054                0.814442304     -95.0887934
9.055                0.813736839      -95.309282
9.056                0.813028714     -95.5306238
9.057                0.812317928     -95.7528226
9.058                0.811604481     -95.9758821
9.059                0.810888375     -96.1998062
9.06                  0.81016961     -96.4245985
9.061                0.809448188      -96.650263
9.062                0.808724109     -96.8768033
9.063                0.807997376     -97.1042234
9.064                 0.80726799      -97.332527
9.065                0.806535954     -97.5617181
9.066                0.805801269     -97.7918003
9.067                0.805063939     -98.0227776
9.068                0.804323965     -98.2546539
9.069                0.803581352      -98.487433
9.07                 0.802836103     -98.7211187
9.071                0.802088221     -98.9557151
9.072                 0.80133771     -99.1912258
9.073                0.800584575      -99.427655
9.074                 0.79982882     -99.6650064
9.075                 0.79907045     -99.9032839
9.076                 0.79830947     -100.142492
9.077                0.797545886     -100.382633
9.078                0.796779702     -100.623713
9.079                0.796010926     -100.865734
9.08                 0.795239563     -101.108701
9.081                 0.79446562     -101.352618
9.082                0.793689105     -101.597489
9.083                0.792910024     -101.843318
9.084                0.792128385     -102.090107
9.085                0.791344196     -102.337863
9.086                0.790557465     -102.586588
9.087                0.789768201     -102.836287
9.088                0.788976414     -103.086963
9.089                0.788182112      -103.33862
9.09                 0.787385305     -103.591263
9.091                0.786586003     -103.844895
9.092                0.785784218     -104.099521
9.093                0.784979958     -104.355144
9.094                0.784173237     -104.611769
9.095                0.783364065     -104.869398
9.096                0.782552455     -105.128037
9.097                0.781738419     -105.387689
9.098                0.780921969     -105.648359
9.099                 0.78010312      -105.91005
9.1                  0.779281884     -106.172766
9.101                0.778458276     -106.436511
9.102                 0.77763231     -106.701289
9.103                0.776804002     -106.967104
9.104                0.775973365     -107.233961
9.105                0.775140418     -107.501862
9.106                0.774305174     -107.770812
9.107                0.773467652     -108.040816
9.108                0.772627868     -108.311876
9.109                 0.77178584     -108.583997
9.11                 0.770941586     -108.857183
9.111                0.770095125     -109.131437
9.112                0.769246475     -109.406764
9.113                0.768395656     -109.683167
9.114                0.767542689     -109.960651
9.115                0.766687592     -110.239219
9.116                0.765830389     -110.518875
9.117                0.764971099     -110.799623
9.118                0.764109745     -111.081467
9.119                 0.76324635      -111.36441
9.12                 0.762380936     -111.648457
9.121                0.761513527     -111.933611
9.122                0.760644146     -112.219876
9.123                 0.75977282     -112.507257
9.124                0.758899572     -112.795755
9.125                0.758024429     -113.085377
9.126                0.757147417     -113.376124
9.127                0.756268562     -113.668001
9.128                0.755387891     -113.961012
9.129                0.754505433     -114.255159
9.13                 0.753621217     -114.550448
9.131                 0.75273527     -114.846881
9.132                0.751847623     -115.144462
9.133                0.750958307     -115.443195
9.134                 0.75006735     -115.743083
9.135                0.749174786     -116.044129
9.136                0.748280646     -116.346338
9.137                0.747384963     -116.649713
9.138                0.746487769     -116.954257
9.139                0.745589099     -117.259973
9.14                 0.744688987     -117.566866
9.141                0.743787468     -117.874937
9.142                0.742884578     -118.184192
9.143                0.741980352     -118.494632
9.144                0.741074828     -118.806262
9.145                0.740168043     -119.119084
9.146                0.739260036     -119.433102
9.147                0.738350844     -119.748319
9.148                0.737440508     -120.064737
9.149                0.736529068     -120.382361
9.15                 0.735616564     -120.701193
9.151                0.734703038     -121.021236
9.152                0.733788532     -121.342492
9.153                0.732873088     -121.664966
9.154                 0.73195675      -121.98866
9.155                0.731039561     -122.313576
9.156                0.730121567     -122.639717
9.157                0.729202813     -122.967086
9.158                0.728283345     -123.295687
9.159                0.727363209      -123.62552
9.16                 0.726442453      -123.95659
9.161                0.725521125     -124.288898
9.162                0.724599274     -124.622447
9.163                0.723676948     -124.957239
9.164                0.722754199     -125.293276
9.165                0.721831076     -125.630562
9.166                0.720907631     -125.969097
9.167                0.719983917     -126.308885
9.168                0.719059986     -126.649928
9.169                0.718135892     -126.992226
9.17                 0.717211689     -127.335783
9.171                0.716287431       -127.6806
9.172                0.715363174     -128.026679
9.173                0.714438974     -128.374022
9.174                0.713514889      -128.72263
9.175                0.712590976     -129.072505
9.176                0.711667292     -129.423649
9.177                0.710743898     -129.776063
9.178                0.709820852     -130.129747
9.179                0.708898215     -130.484705
9.18                 0.707976048     -130.840936
9.181                0.707054412     -131.198442
9.182                0.706133369     -131.557224
9.183                0.705212984     -131.917283
9.184                0.704293318     -132.278619
9.185                0.703374437     -132.641234
9.186                0.702456405     -133.005127
9.187                0.701539288       -133.3703
9.188                0.700623152     -133.736754
9.189                0.699708064     -134.104487
9.19                 0.698794091     -134.473501
9.191                0.697881302     -134.843796
9.192                0.696969765     -135.215372
9.193                0.696059549     -135.588228
9.194                0.695150724     -135.962365
9.195                0.694243362     -136.337783
9.196                0.693337532      -136.71448
9.197                0.692433307     -137.092456
9.198                 0.69153076     -137.471712
9.199                0.690629962     -137.852245
9.2                  0.689730987     -138.234055
9.201                 0.68883391     -138.617142
9.202                0.687938805     -139.001503
9.203                0.687045746     -139.387139
9.204                 0.68615481     -139.774046
9.205                0.685266073     -140.162225
9.206                0.684379611     -140.551673
9.207                0.683495502     -140.942388
9.208                0.682613823     -141.334369
9.209                0.681734651     -141.727614
9.21                 0.680858067      -142.12212
9.211                0.679984148     -142.517885
9.212                0.679112974     -142.914906
9.213                0.678244625     -143.313182
9.214                0.677379182     -143.712709
9.215                0.676516725     -144.113484
9.216                0.675657334     -144.515504
9.217                0.674801092     -144.918767
9.218                 0.67394808     -145.323268
9.219                0.673098381     -145.729004
9.22                 0.672252076     -146.135972
9.221                0.671409249     -146.544168
9.222                0.670569983     -146.953587
9.223                 0.66973436     -147.364226
9.224                0.668902466      -147.77608
9.225                0.668074382     -148.189144
9.226                0.667250194     -148.603415
9.227                0.666429986     -149.018887
9.228                0.665613841     -149.435555
9.229                0.664801846     -149.853414
9.23                 0.663994084     -150.272458
9.231                0.663190641     -150.692683
9.232                0.662391601     -151.114082
9.233                0.661597049     -151.536649
9.234                0.660807071     -151.960379
9.235                0.660021753     -152.385265
9.236                0.659241178     -152.811301
9.237                0.658465433      -153.23848
9.238                0.657694603     -153.666796
9.239                0.656928773     -154.096241
9.24                 0.656168028     -154.526807
9.241                0.655412453     -154.958489
9.242                0.654662133     -155.391278
9.243                0.653917153     -155.825167
9.244                0.653177598     -156.260147
9.245                0.652443553      -156.69621
9.246                0.651715101     -157.133349
9.247                0.650992326     -157.571554
9.248                0.650275313     -158.010817
9.249                0.649564146     -158.451129
9.25                 0.648858907     -158.892481
9.251                0.648159679     -159.334863
9.252                0.647466545     -159.778267
9.253                0.646779588     -160.222682
9.254                0.646098889     -160.668098
9.255                 0.64542453     -161.114506
9.256                0.644756592     -161.561896
9.257                0.644095155     -162.010255
9.258                0.643440299     -162.459575
9.259                0.642792104     -162.909844
9.26                 0.642150649     -163.361051
9.261                0.641516013     -163.813185
9.262                0.640888272     -164.266234
9.263                0.640267505     -164.720188
9.264                0.639653787     -165.175033
9.265                0.639047196     -165.630757
9.266                0.638447805      -166.08735
9.267                0.637855689     -166.544798
9.268                0.637270922     -167.003088
9.269                0.636693577     -167.462209
9.27                 0.636123726     -167.922146
9.271                 0.63556144     -168.382887
9.272                 0.63500679     -168.844418
9.273                0.634459844     -169.306727
9.274                0.633920672     -169.769798
9.275                0.633389342     -170.233619
9.276                0.632865919     -170.698175
9.277                 0.63235047     -171.163452
9.278                0.631843059     -171.629435
9.279                0.631343751     -172.096111
9.28                 0.630852607     -172.563463
9.281                0.630369689     -173.031478
9.282                0.629895059     -173.500141
9.283                0.629428774     -173.969435
9.284                0.628970893     -174.439346
9.285                0.628521473     -174.909858
9.286                 0.62808057     -175.380955
9.287                0.627648239     -175.852622
9.288                0.627224532     -176.324843
9.289                0.626809503       -176.7976
9.29                 0.626403201     -177.270879
9.291                0.626005677     -177.744663
9.292                0.625616978     -178.218934
9.293                0.625237151     -178.693677
9.294                0.624866242     -179.168875
9.295                0.624504295      -179.64451
9.296                0.624151353      179.879434
9.297                0.623807457      179.402975
9.298                0.623472646       178.92613
9.299                0.623146961      178.448915
9.3                  0.622830436       177.97135
9.301                0.622523109      177.493451
9.302                0.622225013      177.015235
9.303                 0.62193618      176.536722
9.304                0.621656643      176.057928
9.305                0.621386429      175.578871
9.306                0.621125568      175.099571
9.307                0.620874085      174.620043
9.308                0.620632007      174.140308
9.309                0.620399355      173.660382
9.31                 0.620176152      173.180285
9.311                0.619962418      172.700034
9.312                0.619758172      172.219648
9.313                 0.61956343      171.739146
9.314                0.619378208      171.258545
9.315                 0.61920252      170.777865
9.316                0.619036379      170.297124
9.317                0.618879794       169.81634
9.318                0.618732774      169.335532
9.319                0.618595328      168.854718
9.32                  0.61846746      168.373917
9.321                0.618349175      167.893148
9.322                0.618240476       167.41243
9.323                0.618141362       166.93178
9.324                0.618051835      166.451218
9.325                 0.61797189      165.970761
9.326                0.617901524      165.490429
9.327                0.617840732       165.01024
9.328                0.617789506      164.530213
9.329                0.617747837      164.050365
9.33                 0.617715716      163.570716
9.331                 0.61769313      163.091283
9.332                0.617680065      162.612085
9.333                0.617676507      162.133141
9.334                0.617682438      161.654468
9.335                0.617697841      161.176084
9.336                0.617722695      160.698008
9.337                0.617756979      160.220257
9.338                0.617800671       159.74285
9.339                0.617853745      159.265804
9.34                 0.617916177      158.789136
9.341                0.617987938      158.312866
9.342                   0.618069      157.837009
9.343                0.618159332      157.361584
9.344                0.618258903      156.886607
9.345                0.618367679      156.412097
9.346                0.618485626       155.93807
9.347                0.618612708      155.464543
9.348                0.618748887      154.991532
9.349                0.618894125      154.519056
9.35                 0.619048381       154.04713
9.351                0.619211614       153.57577
9.352                0.619383782      153.104994
9.353                0.619564839      152.634816
9.354                0.619754742      152.165254
9.355                0.619953443      151.696323
9.356                0.620160894       151.22804
9.357                0.620377047      150.760418
9.358                0.620601851      150.293475
9.359                0.620835255      149.827224
9.36                 0.621077207      149.361683
9.361                0.621327653      148.896864
9.362                0.621586538      148.432783
9.363                0.621853806      147.969455
9.364                0.622129401      147.506894
9.365                0.622413265      147.045114
9.366                0.622705339       146.58413
9.367                0.623005562      146.123955
9.368                0.623313875      145.664603
9.369                0.623630216      145.206087
9.37                 0.623954521      144.748421
9.371                0.624286728      144.291618
9.372                0.624626772      143.835692
9.373                0.624974588      143.380653
9.374                0.625330109      142.926516
9.375                 0.62569327      142.473293
9.376                0.626064002      142.020996
9.377                0.626442237      141.569636
9.378                0.626827907      141.119226
9.379                0.627220941      140.669777
9.38                  0.62762127      140.221301
9.381                0.628028822      139.773809
9.382                0.628443526      139.327311
9.383                0.628865309      138.881819
9.384                  0.6292941      138.437343
9.385                0.629729824      137.993893
9.386                0.630172408      137.551481
9.387                0.630621779      137.110115
9.388                 0.63107786      136.669805
9.389                0.631540578      136.230562
9.39                 0.632009857      135.792394
9.391                 0.63248562       135.35531
9.392                0.632967792       134.91932
9.393                0.633456296      134.484432
9.394                0.633951055      134.050655
9.395                0.634451993      133.617998
9.396                0.634959031      133.186467
