! TOUCHSTONE file generated by CST DESIGN STUDIO
! Date and time: Tue Feb  4 14:35:54 2025
! Project name: C:\Work\MatlabApps\UnitCellOptimizationMatlab\CST\unitcell.cst
! Tree item: Tasks\Sweep1\SPara1\S-Parameters
! Header version: 2024
! Port assignment regex: !\s*Touchstone port\s*([0-9]+)\s*=\s*(CST MWS port|CST DES external port|CST DES block port)\s*(.+)\s* \(\"(.*)\"\)(\s*mode\s*([0-9]+))?.*
! Touchstone port assignment:
! Touchstone port 1 = CST DES external port 1 ("")
# GHz S MA R 50
9                    0.958082012     -51.0651671
9.001                0.957963863     -51.1338883
9.002                0.957845312     -51.2027691
9.003                0.957726356     -51.2718101
9.004                0.957606996     -51.3410118
9.005                0.957487227     -51.4103748
9.006                0.957367051     -51.4798997
9.007                0.957246463     -51.5495871
9.008                0.957125464     -51.6194375
9.009                0.957004051     -51.6894514
9.01                 0.956882222     -51.7596296
9.011                0.956759977     -51.8299725
9.012                0.956637313     -51.9004807
9.013                0.956514228     -51.9711549
9.014                0.956390721     -52.0419956
9.015                0.956266791     -52.1130034
9.016                0.956142435     -52.1841789
9.017                0.956017651     -52.2555227
9.018                0.955892439     -52.3270354
9.019                0.955766796     -52.3987176
9.02                 0.955640721     -52.4705699
9.021                0.955514211      -52.542593
9.022                0.955387265     -52.6147873
9.023                0.955259882     -52.6871536
9.024                0.955132059     -52.7596925
9.025                0.955003795     -52.8324045
9.026                0.954875087     -52.9052903
9.027                0.954745935     -52.9783506
9.028                0.954616336     -53.0515858
9.029                0.954486288     -53.1249968
9.03                  0.95435579      -53.198584
9.031                 0.95422484     -53.2723482
9.032                0.954093435       -53.34629
9.033                0.953961575     -53.4204099
9.034                0.953829256     -53.4947087
9.035                0.953696478     -53.5691871
9.036                0.953563238     -53.6438455
9.037                0.953429535     -53.7186848
9.038                0.953295366     -53.7937055
9.039                 0.95316073     -53.8689084
9.04                 0.953025624      -53.944294
9.041                0.952890047      -54.019863
9.042                0.952753997     -54.0956161
9.043                0.952617471      -54.171554
9.044                0.952480469     -54.2476774
9.045                0.952342987     -54.3239868
9.046                0.952205024      -54.400483
9.047                0.952066578     -54.4771667
9.048                0.951927646     -54.5540386
9.049                0.951788228     -54.6310993
9.05                  0.95164832     -54.7083495
9.051                0.951507921     -54.7857899
9.052                0.951367028     -54.8634213
9.053                 0.95122564     -54.9412442
9.054                0.951083754     -55.0192595
9.055                0.950941369     -55.0974677
9.056                0.950798483     -55.1758697
9.057                0.950655092     -55.2544662
9.058                0.950511196     -55.3332578
9.059                0.950366791     -55.4122452
9.06                 0.950221876     -55.4914292
9.061                0.950076449     -55.5708105
9.062                0.949930508     -55.6503899
9.063                0.949784049      -55.730168
9.064                0.949637072     -55.8101456
9.065                0.949489574     -55.8903235
9.066                0.949341552     -55.9707023
9.067                0.949193005     -56.0512828
9.068                0.949043931     -56.1320658
9.069                0.948894326     -56.2130519
9.07                 0.948744189     -56.2942421
9.071                0.948593518     -56.3756369
9.072                 0.94844231     -56.4572372
9.073                0.948290563     -56.5390437
9.074                0.948138275     -56.6210573
9.075                0.947985443     -56.7032785
9.076                0.947832066     -56.7857084
9.077                 0.94767814     -56.8683475
9.078                0.947523663     -56.9511967
9.079                0.947368634     -57.0342568
9.08                 0.947213049     -57.1175286
9.081                0.947056906     -57.2010128
9.082                0.946900204     -57.2847102
9.083                0.946742939     -57.3686217
9.084                0.946585109      -57.452748
9.085                0.946426712     -57.5370899
9.086                0.946267745     -57.6216483
9.087                0.946108206     -57.7064239
9.088                0.945948093     -57.7914176
9.089                0.945787402     -57.8766302
9.09                 0.945626132     -57.9620625
9.091                 0.94546428     -58.0477153
9.092                0.945301844     -58.1335895
9.093                 0.94513882     -58.2196858
9.094                0.944975207     -58.3060052
9.095                0.944811001     -58.3925484
9.096                0.944646202     -58.4793164
9.097                0.944480804     -58.5663099
9.098                0.944314808     -58.6535298
9.099                0.944148208     -58.7409769
9.1                  0.943981004     -58.8286522
9.101                0.943813192     -58.9165564
9.102                 0.94364477     -59.0046905
9.103                0.943475736     -59.0930553
9.104                0.943306086     -59.1816517
9.105                0.943135817     -59.2704805
9.106                0.942964928     -59.3595426
9.107                0.942793416      -59.448839
9.108                0.942621277     -59.5383705
9.109                0.942448509      -59.628138
9.11                  0.94227511     -59.7181424
9.111                0.942101077     -59.8083846
9.112                0.941926406     -59.8988655
9.113                0.941751096      -59.989586
9.114                0.941575143      -60.080547
9.115                0.941398545     -60.1717495
9.116                0.941221299     -60.2631943
9.117                0.941043401     -60.3548824
9.118                 0.94086485     -60.4468148
9.119                0.940685643     -60.5389922
9.12                 0.940505775     -60.6314158
9.121                0.940325246     -60.7240863
9.122                0.940144052     -60.8170049
9.123                0.939962189     -60.9101723
9.124                0.939779655     -61.0035896
9.125                0.939596448     -61.0972577
9.126                0.939412564     -61.1911776
9.127                   0.939228     -61.2853503
9.128                0.939042754     -61.3797767
9.129                0.938856821     -61.4744578
9.13                 0.938670201     -61.5693945
9.131                0.938482889     -61.6645879
9.132                0.938294882     -61.7600389
9.133                0.938106178     -61.8557486
9.134                0.937916773     -61.9517179
9.135                0.937726665     -62.0479478
9.136                0.937535849     -62.1444394
9.137                0.937344325     -62.2411936
9.138                0.937152087     -62.3382115
9.139                0.936959134      -62.435494
9.14                 0.936765461     -62.5330422
9.141                0.936571067     -62.6308572
9.142                0.936375947     -62.7289399
9.143                0.936180099     -62.8272914
9.144                 0.93598352     -62.9259127
9.145                0.935786206     -63.0248049
9.146                0.935588154      -63.123969
9.147                0.935389361      -63.223406
9.148                0.935189824     -63.3231172
9.149                0.934989539     -63.4231034
9.15                 0.934788504     -63.5233657
9.151                0.934586715     -63.6239054
9.152                0.934384169     -63.7247233
9.153                0.934180862     -63.8258206
9.154                0.933976792     -63.9271984
9.155                0.933771954     -64.0288578
9.156                0.933566347     -64.1307998
9.157                0.933359966     -64.2330257
9.158                0.933152807     -64.3355364
9.159                0.932944869      -64.438333
9.16                 0.932736147     -64.5414168
9.161                0.932526638     -64.6447888
9.162                0.932316339     -64.7484502
9.163                0.932105246      -64.852402
9.164                0.931893355     -64.9566454
9.165                0.931680665     -65.0611816
9.166                 0.93146717     -65.1660117
9.167                0.931252867     -65.2711368
9.168                0.931037754     -65.3765582
9.169                0.930821827     -65.4822769
9.17                 0.930605081     -65.5882941
9.171                0.930387514      -65.694611
9.172                0.930169122     -65.8012288
9.173                0.929949902     -65.9081486
9.174                 0.92972985     -66.0153716
9.175                0.929508963     -66.1228991
9.176                0.929287236     -66.2307322
9.177                0.929064667     -66.3388721
9.178                0.928841252     -66.4473201
9.179                0.928616987     -66.5560773
9.18                 0.928391869     -66.6651449
9.181                0.928165893     -66.7745242
9.182                0.927939057     -66.8842164
9.183                0.927711357     -66.9942227
9.184                0.927482789     -67.1045444
9.185                0.927253349     -67.2151827
9.186                0.927023034     -67.3261389
9.187                 0.92679184     -67.4374141
9.188                0.926559764     -67.5490098
9.189                0.926326801     -67.6609271
9.19                 0.926092948     -67.7731672
9.191                0.925858201     -67.8857316
9.192                0.925622557     -67.9986214
9.193                0.925386011     -68.1118379
9.194                0.925148561     -68.2253825
9.195                0.924910201     -68.3392564
9.196                0.924670929     -68.4534609
9.197                0.924430741     -68.5679974
9.198                0.924189632     -68.6828671
9.199                0.923947599     -68.7980714
9.2                  0.923704638     -68.9136115
9.201                0.923460745     -69.0294889
9.202                0.923215917     -69.1457049
9.203                0.922970149     -69.2622607
9.204                0.922723438     -69.3791578
9.205                 0.92247578     -69.4963975
9.206                 0.92222717     -69.6139811
9.207                0.921977605     -69.7319101
9.208                0.921727082     -69.8501858
9.209                0.921475595     -69.9688095
9.21                 0.921223142     -70.0877826
9.211                0.920969718     -70.2071066
9.212                0.920715319     -70.3267828
9.213                0.920459941     -70.4468126
9.214                0.920203581     -70.5671975
9.215                0.919946234     -70.6879387
9.216                0.919687897     -70.8090379
9.217                0.919428565     -70.9304963
9.218                0.919168234     -71.0523154
9.219                  0.9189069     -71.1744966
9.22                  0.91864456     -71.2970414
9.221                0.918381209     -71.4199512
9.222                0.918116843     -71.5432275
9.223                0.917851458     -71.6668717
9.224                0.917585051     -71.7908853
9.225                0.917317616     -71.9152697
9.226                0.917049151     -72.0400265
9.227                 0.91677965     -72.1651571
9.228                 0.91650911      -72.290663
9.229                0.916237527     -72.4165457
9.23                 0.915964896     -72.5428067
9.231                0.915691214     -72.6694474
9.232                0.915416476     -72.7964695
9.233                0.915140679     -72.9238744
9.234                0.914863817     -73.0516636
9.235                0.914585888     -73.1798388
9.236                0.914306887     -73.3084013
9.237                0.914026809     -73.4373528
9.238                0.913745651     -73.5666948
9.239                0.913463408     -73.6964289
9.24                 0.913180077     -73.8265566
9.241                0.912895652     -73.9570794
9.242                0.912610131     -74.0879991
9.243                0.912323508      -74.219317
9.244                 0.91203578     -74.3510349
9.245                0.911746943     -74.4831543
9.246                0.911456991     -74.6156768
9.247                0.911165922     -74.7486041
9.248                0.910873731     -74.8819376
9.249                0.910580413     -75.0156792
9.25                 0.910285965     -75.1498302
9.251                0.909990382     -75.2843925
9.252                 0.90969366     -75.4193676
9.253                0.909395796     -75.5547572
9.254                0.909096784     -75.6905629
9.255                 0.90879662     -75.8267864
9.256                0.908495301     -75.9634293
9.257                0.908192823     -76.1004934
9.258                 0.90788918     -76.2379802
9.259                0.907584369     -76.3758914
9.26                 0.907278385     -76.5142289
9.261                0.906971226     -76.6529941
9.262                0.906662885     -76.7921889
9.263                0.906353359      -76.931815
9.264                0.906042644      -77.071874
9.265                0.905730736     -77.2123676
9.266                0.905417631     -77.3532977
9.267                0.905103324     -77.4946659
9.268                0.904787811      -77.636474
9.269                0.904471088     -77.7787237
9.27                 0.904153151     -77.9214168
9.271                0.903833995     -78.0645549
9.272                0.903513618       -78.20814
9.273                0.903192013     -78.3521737
9.274                0.902869178     -78.4966579
9.275                0.902545108     -78.6415942
9.276                0.902219799     -78.7869846
9.277                0.901893248     -78.9328307
9.278                0.901565449     -79.0791345
9.279                0.901236398     -79.2258977
9.28                 0.900906093      -79.373122
9.281                0.900574528     -79.5208095
9.282                0.900241699     -79.6689618
9.283                0.899907603     -79.8175808
9.284                0.899572236     -79.9666683
9.285                0.899235592     -80.1162263
9.286                 0.89889767     -80.2662564
9.287                0.898558463     -80.4167607
9.288                0.898217969      -80.567741
9.289                0.897876184      -80.719199
9.29                 0.897533102     -80.8711368
9.291                0.897188722     -81.0235563
9.292                0.896843038     -81.1764592
9.293                0.896496046     -81.3298475
9.294                0.896147743      -81.483723
9.295                0.895798126     -81.6380878
9.296                0.895447189     -81.7929437
9.297                0.895094929     -81.9482927
9.298                0.894741343     -82.1041366
9.299                0.894386426     -82.2604775
9.3                  0.894030175     -82.4173171
9.301                0.893672586     -82.5746576
9.302                0.893313655     -82.7325008
9.303                0.892953379     -82.8908487
9.304                0.892591753     -83.0497033
9.305                0.892228775     -83.2090666
9.306                 0.89186444     -83.3689404
9.307                0.891498745     -83.5293269
9.308                0.891131686      -83.690228
9.309                 0.89076326     -83.8516456
9.31                 0.890393464     -84.0135819
9.311                0.890022292     -84.1760387
9.312                0.889649743     -84.3390182
9.313                0.889275813     -84.5025223
9.314                0.888900498      -84.666553
9.315                0.888523795     -84.8311125
9.316                  0.8881457     -84.9962026
9.317                 0.88776621     -85.1618256
9.318                0.887385323     -85.3279833
9.319                0.887003034      -85.494678
9.32                  0.88661934     -85.6619115
9.321                0.886234239     -85.8296861
9.322                0.885847727     -85.9980038
9.323                  0.8854598     -86.1668665
9.324                0.885070457     -86.3362766
9.325                0.884679693     -86.5062359
9.326                0.884287506     -86.6767467
9.327                0.883893893     -86.8478109
9.328                0.883498851     -87.0194308
9.329                0.883102377     -87.1916084
9.33                 0.882704469     -87.3643458
9.331                0.882305123     -87.5376452
9.332                0.881904336     -87.7115087
9.333                0.881502107     -87.8859384
9.334                0.881098432     -88.0609364
9.335                0.880693309      -88.236505
9.336                0.880286736     -88.4126461
9.337                0.879878709     -88.5893621
9.338                0.879469227     -88.7666549
9.339                0.879058286     -88.9445269
9.34                 0.878645886     -89.1229802
9.341                0.878232023     -89.3020168
9.342                0.877816695     -89.4816391
9.343                  0.8773999     -89.6618492
9.344                0.876981636     -89.8426492
9.345                0.876561901     -90.0240414
9.346                0.876140693     -90.2060279
9.347                 0.87571801      -90.388611
9.348                0.875293851     -90.5717928
9.349                0.874868213     -90.7555755
9.35                 0.874441094     -90.9399614
9.351                0.874012494     -91.1249526
9.352                 0.87358241     -91.3105515
9.353                0.873150841     -91.4967601
9.354                0.872717786     -91.6835807
9.355                0.872283243     -91.8710156
9.356                0.871847211     -92.0590669
9.357                0.871409689      -92.247737
9.358                0.870970675      -92.437028
9.359                0.870530168     -92.6269421
9.36                 0.870088169     -92.8174817
9.361                0.869644674      -93.008649
9.362                0.869199685     -93.2004462
9.363                  0.8687532     -93.3928756
9.364                0.868305218     -93.5859394
9.365                0.867855739     -93.7796398
9.366                0.867404762     -93.9739792
9.367                0.866952287     -94.1689599
9.368                0.866498314     -94.3645839
9.369                0.866042842     -94.5608537
9.37                 0.865585872     -94.7577716
9.371                0.865127403     -94.9553396
9.372                0.864667436     -95.1535603
9.373                 0.86420597     -95.3524357
9.374                0.863743006     -95.5519682
9.375                0.863278544     -95.7521601
9.376                0.862812585     -95.9530137
9.377                0.862345129     -96.1545312
9.378                0.861876177     -96.3567148
9.379                 0.86140573      -96.559567
9.38                 0.860933789     -96.7630899
9.381                0.860460354     -96.9672859
9.382                0.859985427     -97.1721572
9.383                0.859509009     -97.3777061
9.384                0.859031102     -97.5839349
9.385                0.858551706     -97.7908459
9.386                0.858070824     -97.9984414
9.387                0.857588457     -98.2067236
9.388                0.857104607     -98.4156948
9.389                0.856619276     -98.6253573
9.39                 0.856132466     -98.8357134
9.391                0.855644179     -99.0467654
9.392                0.855154418     -99.2585155
9.393                0.854663184     -99.4709661
9.394                0.854170482     -99.6841193
9.395                0.853676312     -99.8979775
9.396                0.853180679     -100.112543
