! TOUCHSTONE file generated by CST DESIGN STUDIO
! Date and time: Tue Feb  4 14:35:45 2025
! Project name: C:\Work\MatlabApps\UnitCellOptimizationMatlab\CST\unitcell.cst
! Tree item: Tasks\Sweep1\SPara1\S-Parameters
! Header version: 2024
! Port assignment regex: !\s*Touchstone port\s*([0-9]+)\s*=\s*(CST MWS port|CST DES external port|CST DES block port)\s*(.+)\s* \(\"(.*)\"\)(\s*mode\s*([0-9]+))?.*
! Touchstone port assignment:
! Touchstone port 1 = CST DES external port 1 ("")
# GHz S MA R 50
9                    0.677831649     -129.436973
9.001                0.676804393     -129.815893
9.002                0.675777874     -130.196359
9.003                0.674752171     -130.578372
9.004                0.673727368     -130.961934
9.005                0.672703546     -131.347048
9.006                0.671680788     -131.733715
9.007                 0.67065918     -132.121939
9.008                0.669638805      -132.51172
9.009                0.668619751      -132.90306
9.01                 0.667602105     -133.295962
9.011                0.666585954     -133.690426
9.012                0.665571388     -134.086454
9.013                0.664558497     -134.484047
9.014                0.663547371     -134.883207
9.015                0.662538102     -135.283933
9.016                0.661530782     -135.686227
9.017                0.660525506      -136.09009
9.018                0.659522368     -136.495521
9.019                0.658521462     -136.902522
9.02                 0.657522885     -137.311092
9.021                0.656526734     -137.721231
9.022                0.655533106     -138.132939
9.023                  0.6545421     -138.546216
9.024                0.653553816     -138.961061
9.025                0.652568352     -139.377474
9.026                0.651585811     -139.795453
9.027                0.650606294     -140.214997
9.028                0.649629903     -140.636106
9.029                0.648656741     -141.058777
9.03                 0.647686913     -141.483009
9.031                0.646720522       -141.9088
9.032                0.645757673     -142.336148
9.033                0.644798474      -142.76505
9.034                0.643843029     -143.195505
9.035                0.642891446     -143.627509
9.036                0.641943833     -144.061059
9.037                0.641000298     -144.496153
9.038                0.640060949     -144.932787
9.039                0.639125896     -145.370957
9.04                 0.638195249      -145.81066
9.041                0.637269118     -146.251891
9.042                0.636347614     -146.694646
9.043                0.635430847      -147.13892
9.044                 0.63451893      -147.58471
9.045                0.633611974     -148.032009
9.046                0.632710091     -148.480813
9.047                0.631813394     -148.931115
9.048                0.630921997     -149.382911
9.049                0.630036011     -149.836193
9.05                 0.629155551     -150.290956
9.051                0.628280731     -150.747194
9.052                0.627411662     -151.204899
9.053                0.626548461     -151.664063
9.054                 0.62569124     -152.124681
9.055                0.624840114     -152.586744
9.056                0.623995197     -153.050243
9.057                0.623156603     -153.515172
9.058                0.622324445     -153.981521
9.059                0.621498839     -154.449282
9.06                 0.620679898     -154.918445
9.061                0.619867736     -155.389002
9.062                0.619062466     -155.860942
9.063                0.618264202     -156.334255
9.064                0.617473057     -156.808932
9.065                0.616689144     -157.284961
9.066                0.615912576     -157.762332
9.067                0.615143464     -158.241034
9.068                0.614381921     -158.721055
9.069                0.613628058     -159.202384
9.07                 0.612881986     -159.685009
9.071                0.612143814     -160.168916
9.072                0.611413654     -160.654094
9.073                0.610691615     -161.140529
9.074                0.609977804     -161.628209
9.075                 0.60927233      -162.11712
9.076                  0.6085753     -162.607247
9.077                 0.60788682     -163.098577
9.078                0.607206996     -163.591095
9.079                0.606535933     -164.084786
9.08                 0.605873734     -164.579636
9.081                0.605220503     -165.075628
9.082                0.604576342     -165.572748
9.083                 0.60394135     -166.070979
9.084                0.603315629     -166.570305
9.085                0.602699278     -167.070709
9.086                0.602092392     -167.572174
9.087                 0.60149507     -168.074684
9.088                0.600907406      -168.57822
9.089                0.600329494     -169.082765
9.09                 0.599761427     -169.588301
9.091                0.599203296      -170.09481
9.092                0.598655191     -170.602272
9.093                0.598117201      -171.11067
9.094                0.597589412     -171.619983
9.095                0.597071909     -172.130193
9.096                0.596564777     -172.641279
9.097                0.596068098     -173.153222
9.098                0.595581953     -173.666002
9.099                 0.59510642     -174.179597
9.1                  0.594641577     -174.693988
9.101                0.594187499     -175.209152
9.102                 0.59374426      -175.72507
9.103                0.593311932     -176.241719
9.104                0.592890586     -176.759077
9.105                0.592480288     -177.277123
9.106                0.592081106     -177.795835
9.107                0.591693104      -178.31519
9.108                0.591316344     -178.835166
9.109                0.590950886     -179.355739
9.11                 0.590596789     -179.876887
9.111                0.590254108      179.601413
9.112                0.589922899      179.079185
9.113                0.589603212      178.556453
9.114                0.589295098      178.033239
9.115                0.588998604      177.509568
9.116                0.588713776      176.985465
9.117                0.588440656      176.460952
9.118                0.588179286      175.936055
9.119                0.587929705      175.410798
9.12                 0.587691948      174.885206
9.121                 0.58746605      174.359302
9.122                0.587252042      173.833113
9.123                0.587049955      173.306663
9.124                0.586859814      172.779977
9.125                0.586681644       172.25308
9.126                0.586515469      171.725997
9.127                0.586361307      171.198754
9.128                0.586219176      170.671376
9.129                0.586089091      170.143888
9.13                 0.585971065      169.616315
9.131                0.585865108      169.088684
9.132                0.585771228      168.561019
9.133                 0.58568943      168.033346
9.134                0.585619717       167.50569
9.135                0.585562089      166.978078
9.136                0.585516546      166.450534
9.137                0.585483081      165.923084
9.138                0.585461689      165.395754
9.139                 0.58545236      164.868568
9.14                 0.585455083      164.341552
9.141                0.585469844      163.814732
9.142                0.585496625      163.288132
9.143                0.585535409      162.761779
9.144                0.585586174      162.235696
9.145                0.585648897      161.709909
9.146                0.585723551      161.184443
9.147                0.585810109      160.659323
9.148                 0.58590854      160.134573
9.149                0.586018811      159.610219
9.15                 0.586140886      159.086283
9.151                 0.58627473      158.562792
9.152                0.586420301      158.039768
9.153                0.586577558      157.517237
9.154                0.586746457      156.995221
9.155                0.586926952      156.473745
9.156                0.587118994      155.952832
9.157                0.587322533      155.432505
9.158                0.587537517      154.912789
9.159                0.587763891      154.393704
9.16                 0.588001598      153.875275
9.161                0.588250579      153.357524
9.162                0.588510774      152.840474
9.163                0.588782121      152.324145
9.164                0.589064555      151.808562
9.165                0.589358009      151.293744
9.166                0.589662416      150.779713
9.167                0.589977706      150.266492
9.168                0.590303806        149.7541
9.169                0.590640644      149.242558
9.17                 0.590988144      148.731888
9.171                 0.59134623      148.222108
9.172                0.591714823      147.713239
9.173                0.592093843      147.205301
9.174                0.592483209      146.698313
9.175                0.592882837      146.192294
9.176                0.593292644      145.687264
9.177                0.593712543      145.183239
9.178                0.594142448       144.68024
9.179                0.594582269      144.178283
9.18                 0.595031916      143.677386
9.181                  0.5954913      143.177568
9.182                0.595960326      142.678844
9.183                0.596438902      142.181232
9.184                0.596926933      141.684748
9.185                0.597424324      141.189409
9.186                0.597930977       140.69523
9.187                0.598446795      140.202227
9.188                0.598971679      139.710414
9.189                 0.59950553      139.219808
9.19                 0.600048246      138.730423
9.191                0.600599727      138.242273
9.192                0.601159871      137.755371
9.193                0.601728574      137.269733
9.194                0.602305732      136.785371
9.195                0.602891243      136.302298
9.196                   0.603485      135.820527
9.197                0.604086898       135.34007
9.198                0.604696832      134.860941
9.199                0.605314694       134.38315
9.2                  0.605940377      133.906709
9.201                0.606573775      133.431629
9.202                0.607214778      132.957922
9.203                 0.60786328      132.485598
9.204                0.608519171      132.014666
9.205                0.609182343      131.545139
9.206                0.609852686      131.077024
9.207                0.610530092      130.610331
9.208                0.611214451      130.145071
9.209                0.611905653       129.68125
9.21                 0.612603588      129.218878
9.211                0.613308148      128.757964
9.212                0.614019222      128.298515
9.213                  0.6147367      127.840538
9.214                0.615460473      127.384042
9.215                0.616190431      126.929033
9.216                0.616926464      126.475518
9.217                0.617668464      126.023503
9.218                 0.61841632      125.572996
9.219                0.619169925      125.124001
9.22                 0.619929168      124.676526
9.221                0.620693942      124.230574
9.222                0.621464137      123.786152
9.223                0.622239647      123.343264
9.224                0.623020363      122.901915
9.225                0.623806178       122.46211
9.226                0.624596985      122.023852
9.227                0.625392677      121.587146
9.228                0.626193149      121.151996
9.229                0.626998294      120.718404
9.23                 0.627808008      120.286375
9.231                0.628622186       119.85591
9.232                0.629440724      119.427014
9.233                0.630263517      118.999688
9.234                0.631090464      118.573934
9.235                0.631921461      118.149756
9.236                0.632756406      117.727154
9.237                0.633595199      117.306131
9.238                0.634437739      116.886688
9.239                0.635283925      116.468826
9.24                 0.636133659      116.052547
9.241                0.636986842      115.637851
9.242                0.637843375      115.224739
9.243                0.638703162      114.813211
9.244                0.639566107      114.403268
9.245                0.640432113       113.99491
9.246                0.641301085      113.588137
9.247                 0.64217293      113.182949
9.248                0.643047553      112.779345
9.249                0.643924863      112.377324
9.25                 0.644804767      111.976887
9.251                0.645687175      111.578031
9.252                0.646571996      111.180757
9.253                 0.64745914      110.785063
9.254                 0.64834852      110.390947
9.255                0.649240047      109.998408
9.256                0.650133635      109.607444
9.257                0.651029198      109.218054
9.258                0.651926651      108.830236
9.259                0.652825909      108.443987
9.26                 0.653726889      108.059306
9.261                0.654629508       107.67619
9.262                0.655533686      107.294636
9.263                0.656439341      106.914643
9.264                0.657346394      106.536207
9.265                0.658254765      106.159326
9.266                0.659164377      105.783996
9.267                0.660075153      105.410215
9.268                0.660987017      105.037979
9.269                0.661899892      104.667286
9.27                 0.662813706      104.298131
9.271                0.663728384      103.930512
9.272                0.664643854      103.564426
9.273                0.665560044      103.199867
9.274                0.666476884      102.836833
9.275                0.667394305      102.475319
9.276                0.668312236      102.115323
9.277                 0.66923061      101.756839
9.278                0.670149361      101.399865
9.279                0.671068421      101.044394
9.28                 0.671987727      100.690425
9.281                0.672907213      100.337951
9.282                0.673826816      99.9869696
9.283                0.674746474      99.6374752
9.284                0.675666125      99.2894637
9.285                0.676585708      98.9429305
9.286                0.677505164       98.597871
9.287                0.678424434      98.2542804
9.288                0.679343459      97.9121541
9.289                0.680262182      97.5714872
9.29                 0.681180548      97.2322748
9.291                0.682098501      96.8945122
9.292                0.683015986      96.5581942
9.293                 0.68393295      96.2233159
9.294                0.684849339      95.8898722
9.295                0.685765103      95.5578581
9.296                0.686680189      95.2272684
9.297                0.687594548      94.8980979
9.298                 0.68850813      94.5703414
9.299                0.689420886      94.2439937
9.3                  0.690332769      93.9190494
9.301                0.691243733      93.5955033
9.302                 0.69215373      93.2733499
9.303                0.693062715      92.9525838
9.304                0.693970644      92.6331998
9.305                0.694877474      92.3151922
9.306                0.695783161      91.9985557
9.307                0.696687663      91.6832847
9.308                0.697590939      91.3693737
9.309                0.698492948      91.0568172
9.31                  0.69939365      90.7456095
9.311                0.700293007      90.4357452
9.312                 0.70119098      90.1272186
9.313                0.702087532      89.8200241
9.314                0.702982625      89.5141561
9.315                0.703876223      89.2096089
9.316                0.704768292      88.9063768
9.317                0.705658796      88.6044541
9.318                0.706547702      88.3038353
9.319                0.707434975      88.0045145
9.32                 0.708320585      87.7064861
9.321                0.709204498      87.4097444
9.322                0.710086684      87.1142836
9.323                0.710967112       86.820098
9.324                0.711845752      86.5271819
9.325                0.712722576      86.2355296
9.326                0.713597553      85.9451352
9.327                0.714470657      85.6559932
9.328                0.715341861      85.3680976
9.329                0.716211136      85.0814428
9.33                 0.717078459      84.7960231
9.331                0.717943802      84.5118327
9.332                0.718807142      84.2288658
9.333                0.719668454      83.9471167
9.334                0.720527714      83.6665797
9.335                  0.7213849      83.3872491
9.336                0.722239988      83.1091191
9.337                0.723092957      82.8321839
9.338                0.723943787       82.556438
9.339                0.724792455      82.2818756
9.34                 0.725638941      82.0084909
9.341                0.726483227      81.7362784
9.342                0.727325292      81.4652322
9.343                0.728165118      81.1953468
9.344                0.729002688      80.9266164
9.345                0.729837983      80.6590355
9.346                0.730670986      80.3925983
9.347                 0.73150168      80.1272993
9.348                0.732330051      79.8631327
9.349                0.733156081      79.6000931
9.35                 0.733979756      79.3381747
9.351                0.734801061      79.0773721
9.352                0.735619982      78.8176797
9.353                0.736436504      78.5590918
9.354                0.737250616       78.301603
9.355                0.738062303      78.0452076
9.356                0.738871554      77.7899003
9.357                0.739678357      77.5356756
9.358                0.740482699      77.2825278
9.359                0.741284569      77.0304516
9.36                 0.742083958      76.7794415
9.361                0.742880854       76.529492
9.362                0.743675248      76.2805979
9.363                0.744467129      76.0327536
9.364                 0.74525649      75.7859537
9.365                0.746043321       75.540193
9.366                0.746827613      75.2954661
9.367                0.747609359      75.0517676
9.368                 0.74838855      74.8090922
9.369                 0.74916518      74.5674346
9.37                 0.749939242      74.3267897
9.371                0.750710728       74.087152
9.372                0.751479633      73.8485164
9.373                0.752245951      73.6108777
9.374                0.753009676      73.3742307
9.375                0.753770802      73.1385702
9.376                0.754529324       72.903891
9.377                0.755285239       72.670188
9.378                0.756038541      72.4374561
9.379                0.756789227      72.2056903
9.38                 0.757537292      71.9748853
9.381                0.758282733      71.7450363
9.382                0.759025548      71.5161381
9.383                0.759765732      71.2881857
9.384                0.760503283      71.0611742
9.385                0.761238199      70.8350986
9.386                0.761970478       70.609954
9.387                0.762700118      70.3857353
9.388                0.763427117      70.1624378
9.389                0.764151474      69.9400565
9.39                 0.764873187      69.7185866
9.391                0.765592257      69.4980232
9.392                0.766308681      69.2783616
9.393                0.767022461      69.0595969
9.394                0.767733595      68.8417243
9.395                0.768442083      68.6247391
9.396                0.769147926      68.4086366
