! TOUCHSTONE file generated by CST DESIGN STUDIO
! Date and time: Tue Feb  4 18:30:40 2025
! Project name: C:\Work\MatlabApps\UnitCellOptimizationMatlab\CST\unitcell.cst
! Tree item: Tasks\Sweep1\SPara1\S-Parameters
! Header version: 2024
! Port assignment regex: !\s*Touchstone port\s*([0-9]+)\s*=\s*(CST MWS port|CST DES external port|CST DES block port)\s*(.+)\s* \(\"(.*)\"\)(\s*mode\s*([0-9]+))?.*
! Touchstone port assignment:
! Touchstone port 1 = CST DES external port 1 ("")
# GHz S MA R 50
9                    0.962482674     -60.9001692
9.001                0.962401857     -60.9839847
9.002                0.962320792     -61.0679952
9.003                0.962239476     -61.1522012
9.004                 0.96215791     -61.2366035
9.005                0.962076093     -61.3212025
9.006                0.961994024     -61.4059989
9.007                0.961911701     -61.4909934
9.008                0.961829125     -61.5761866
9.009                0.961746294     -61.6615791
9.01                 0.961663208     -61.7471715
9.011                0.961579866     -61.8329645
9.012                0.961496266     -61.9189587
9.013                0.961412409     -62.0051548
9.014                0.961328293     -62.0915533
9.015                0.961243917      -62.178155
9.016                0.961159281     -62.2649604
9.017                0.961074383     -62.3519702
9.018                0.960989224     -62.4391851
9.019                0.960903801     -62.5266057
9.02                 0.960818115     -62.6142327
9.021                0.960732164     -62.7020667
9.022                0.960645947     -62.7901084
9.023                0.960559465     -62.8783584
9.024                0.960472715     -62.9668174
9.025                0.960385696     -63.0554861
9.026                0.960298409     -63.1443651
9.027                0.960210852     -63.2334551
9.028                0.960123025     -63.3227568
9.029                0.960034926     -63.4122709
9.03                 0.959946555     -63.5019979
9.031                 0.95985791     -63.5919387
9.032                0.959768991     -63.6820938
9.033                0.959679798      -63.772464
9.034                0.959590328       -63.86305
9.035                0.959500582     -63.9538524
9.036                0.959410558     -64.0448719
9.037                0.959320256     -64.1361092
9.038                0.959229674      -64.227565
9.039                0.959138813     -64.3192401
9.04                  0.95904767      -64.411135
9.041                0.958956245     -64.5032506
9.042                0.958864537     -64.5955874
9.043                0.958772546     -64.6881463
9.044                 0.95868027     -64.7809279
9.045                0.958587708      -64.873933
9.046                 0.95849486     -64.9671622
9.047                0.958401725     -65.0606163
9.048                0.958308301     -65.1542959
9.049                0.958214589     -65.2482019
9.05                 0.958120586     -65.3423349
9.051                0.958026293     -65.4366956
9.052                0.957931708     -65.5312848
9.053                 0.95783683     -65.6261033
9.054                0.957741658     -65.7211517
9.055                0.957646193     -65.8164307
9.056                0.957550431     -65.9119412
9.057                0.957454374     -66.0076839
9.058                0.957358019     -66.1036594
9.059                0.957261367     -66.1998686
9.06                 0.957164415     -66.2963122
9.061                0.957067163     -66.3929909
9.062                0.956969611     -66.4899055
9.063                0.956871757     -66.5870568
9.064                  0.9567736     -66.6844454
9.065                 0.95667514     -66.7820723
9.066                0.956576376     -66.8799381
9.067                0.956477306     -66.9780435
9.068                0.956377929     -67.0763895
9.069                0.956278246     -67.1749766
9.07                 0.956178255     -67.2738058
9.071                0.956077954     -67.3728777
9.072                0.955977344     -67.4721932
9.073                0.955876423     -67.5717531
9.074                 0.95577519      -67.671558
9.075                0.955673644     -67.7716089
9.076                0.955571785     -67.8719065
9.077                0.955469611     -67.9724515
9.078                0.955367122     -68.0732448
9.079                0.955264316     -68.1742872
9.08                 0.955161193     -68.2755794
9.081                0.955057752     -68.3771223
9.082                0.954953992     -68.4789167
9.083                0.954849912     -68.5809634
9.084                0.954745511     -68.6832631
9.085                0.954640787     -68.7858167
9.086                0.954535742     -68.8886251
9.087                0.954430372     -68.9916889
9.088                0.954324678     -69.0950091
9.089                0.954218658     -69.1985865
9.09                 0.954112311     -69.3024218
9.091                0.954005638      -69.406516
9.092                0.953898636     -69.5108698
9.093                0.953791304     -69.6154841
9.094                0.953683642     -69.7203596
9.095                 0.95357565     -69.8254973
9.096                0.953467325      -69.930898
9.097                0.953358667     -70.0365625
9.098                0.953249675     -70.1424917
9.099                0.953140349     -70.2486864
9.1                  0.953030687     -70.3551474
9.101                0.952920688     -70.4618757
9.102                0.952810351      -70.568872
9.103                0.952699676     -70.6761373
9.104                0.952588662     -70.7836723
9.105                0.952477307      -70.891478
9.106                0.952365611     -70.9995552
9.107                0.952253573     -71.1079047
9.108                0.952141192     -71.2165275
9.109                0.952028467     -71.3254245
9.11                 0.951915396     -71.4345964
9.111                 0.95180198     -71.5440442
9.112                0.951688218     -71.6537688
9.113                0.951574107      -71.763771
9.114                0.951459648     -71.8740517
9.115                0.951344839     -71.9846118
9.116                0.951229681     -72.0954523
9.117                 0.95111417     -72.2065739
9.118                0.950998308     -72.3179776
9.119                0.950882092     -72.4296644
9.12                 0.950765523      -72.541635
9.121                0.950648598     -72.6538904
9.122                0.950531318     -72.7664315
9.123                0.950413681     -72.8792593
9.124                0.950295686     -72.9923746
9.125                0.950177333     -73.1057783
9.126                0.950058621     -73.2194713
9.127                0.949939548     -73.3334547
9.128                0.949820114     -73.4477292
9.129                0.949700318     -73.5622959
9.13                 0.949580159     -73.6771556
9.131                0.949459636     -73.7923093
9.132                0.949338749      -73.907758
9.133                0.949217495     -74.0235024
9.134                0.949095876     -74.1395437
9.135                0.948973889     -74.2558827
9.136                0.948851534     -74.3725204
9.137                 0.94872881     -74.4894577
9.138                0.948605716     -74.6066955
9.139                0.948482251     -74.7242349
9.14                 0.948358414     -74.8420768
9.141                0.948234205      -74.960222
9.142                0.948109623     -75.0786717
9.143                0.947984666     -75.1974267
9.144                0.947859335      -75.316488
9.145                0.947733627     -75.4358567
9.146                0.947607543     -75.5555335
9.147                0.947481082     -75.6755196
9.148                0.947354241     -75.7958158
9.149                0.947227022     -75.9164233
9.15                 0.947099423     -76.0373428
9.151                0.946971443     -76.1585756
9.152                0.946843081     -76.2801224
9.153                0.946714336     -76.4019843
9.154                0.946585209     -76.5241623
9.155                0.946455697     -76.6466574
9.156                  0.9463258     -76.7694705
9.157                0.946195518     -76.8926028
9.158                0.946064849     -77.0160551
9.159                0.945933794     -77.1398284
9.16                  0.94580235     -77.2639239
9.161                0.945670517     -77.3883424
9.162                0.945538294      -77.513085
9.163                0.945405682     -77.6381527
9.164                0.945272678     -77.7635465
9.165                0.945139283     -77.8892675
9.166                0.945005494     -78.0153166
9.167                0.944871313     -78.1416949
9.168                0.944736738     -78.2684033
9.169                0.944601767      -78.395443
9.17                 0.944466402     -78.5228149
9.171                 0.94433064     -78.6505201
9.172                0.944194481     -78.7785596
9.173                0.944057924     -78.9069344
9.174                0.943920969     -79.0356456
9.175                0.943783615     -79.1646942
9.176                0.943645862     -79.2940813
9.177                0.943507708     -79.4238079
9.178                0.943369153      -79.553875
9.179                0.943230196     -79.6842837
9.18                 0.943090837     -79.8150351
9.181                0.942951075     -79.9461302
9.182                0.942810909       -80.07757
9.183                0.942670339     -80.2093556
9.184                0.942529364     -80.3414882
9.185                0.942387984     -80.4739686
9.186                0.942246197      -80.606798
9.187                0.942104004     -80.7399775
9.188                0.941961403     -80.8735081
9.189                0.941818394      -81.007391
9.19                 0.941674977      -81.141627
9.191                0.941531151     -81.2762175
9.192                0.941386915     -81.4111633
9.193                0.941242269     -81.5464657
9.194                0.941097213     -81.6821256
9.195                0.940951745     -81.8181442
9.196                0.940805865     -81.9545225
9.197                0.940659574     -82.0912617
9.198                0.940512869     -82.2283627
9.199                0.940365751     -82.3658268
9.2                   0.94021822      -82.503655
9.201                0.940070274     -82.6418483
9.202                0.939921914      -82.780408
9.203                0.939773138      -82.919335
9.204                0.939623947     -83.0586305
9.205                 0.93947434     -83.1982956
9.206                0.939324317     -83.3383314
9.207                0.939173877      -83.478739
9.208                 0.93902302     -83.6195195
9.209                0.938871745     -83.7606739
9.21                 0.938720052     -83.9022035
9.211                0.938567942     -84.0441093
9.212                0.938415412     -84.1863924
9.213                0.938262464      -84.329054
9.214                0.938109096     -84.4720951
9.215                0.937955309     -84.6155169
9.216                0.937801102     -84.7593205
9.217                0.937646475      -84.903507
9.218                0.937491427     -85.0480775
9.219                0.937335959     -85.1930332
9.22                  0.93718007     -85.3383752
9.221                 0.93702376     -85.4841046
9.222                0.936867029     -85.6302225
9.223                0.936709876     -85.7767301
9.224                0.936552301     -85.9236285
9.225                0.936394305     -86.0709188
9.226                0.936235887     -86.2186021
9.227                0.936077046     -86.3666796
9.228                0.935917784     -86.5151525
9.229                0.935758099     -86.6640217
9.23                 0.935597991     -86.8132886
9.231                0.935437461     -86.9629542
9.232                0.935276509     -87.1130196
9.233                0.935115134     -87.2634861
9.234                0.934953337     -87.4143546
9.235                0.934791116     -87.5656265
9.236                0.934628474     -87.7173027
9.237                0.934465408     -87.8693845
9.238                0.934301921     -88.0218731
9.239                 0.93413801     -88.1747694
9.24                 0.933973678     -88.3280747
9.241                0.933808923     -88.4817902
9.242                0.933643746      -88.635917
9.243                0.933478147     -88.7904561
9.244                0.933312127     -88.9454088
9.245                0.933145685     -89.1007763
9.246                0.932978821     -89.2565595
9.247                0.932811536     -89.4127598
9.248                 0.93264383     -89.5693783
9.249                0.932475704      -89.726416
9.25                 0.932307157     -89.8838742
9.251                0.932138189     -90.0417539
9.252                0.931968803     -90.2000564
9.253                0.931798996     -90.3587828
9.254                0.931628771     -90.5179342
9.255                0.931458127     -90.6775118
9.256                0.931287064     -90.8375167
9.257                0.931115584     -90.9979501
9.258                0.930943686     -91.1588131
9.259                0.930771372     -91.3201069
9.26                 0.930598641     -91.4818326
9.261                0.930425494     -91.6439913
9.262                0.930251932     -91.8065843
9.263                0.930077955     -91.9696126
9.264                0.929903564     -92.1330774
9.265                0.929728759     -92.2969798
9.266                0.929553542      -92.461321
9.267                0.929377912     -92.6261021
9.268                0.929201871     -92.7913243
9.269                0.929025419     -92.9569887
9.27                 0.928848557     -93.1230964
9.271                0.928671285     -93.2896486
9.272                0.928493606     -93.4566465
9.273                0.928315518      -93.624091
9.274                0.928137024     -93.7919835
9.275                0.927958124      -93.960325
9.276                0.927778819     -94.1291167
9.277                 0.92759911     -94.2983596
9.278                0.927418997      -94.468055
9.279                0.927238483     -94.6382039
9.28                 0.927057568     -94.8088074
9.281                0.926876253     -94.9798668
9.282                0.926694538     -95.1513831
9.283                0.926512426     -95.3233574
9.284                0.926329918     -95.4957909
9.285                0.926147014     -95.6686846
9.286                0.925963715     -95.8420398
9.287                0.925780024     -96.0158574
9.288                0.925595941     -96.1901387
9.289                0.925411467     -96.3648847
9.29                 0.925226605     -96.5400965
9.291                0.925041354     -96.7157753
9.292                0.924855718     -96.8919221
9.293                0.924669696      -97.068538
9.294                0.924483291     -97.2456242
9.295                0.924296504     -97.4231816
9.296                0.924109336     -97.6012116
9.297                 0.92392179      -97.779715
9.298                0.923733866     -97.9586929
9.299                0.923545567     -98.1381466
9.3                  0.923356894      -98.318077
9.301                0.923167848     -98.4984852
9.302                0.922978432     -98.6793723
9.303                0.922788647     -98.8607394
9.304                0.922598496     -99.0425875
9.305                0.922407979     -99.2249177
9.306                0.922217099      -99.407731
9.307                0.922025858     -99.5910286
9.308                0.921834258     -99.7748113
9.309                  0.9216423     -99.9590804
9.31                 0.921449987     -100.143837
9.311                0.921257321     -100.329082
9.312                0.921064304     -100.514816
9.313                0.920870938      -100.70104
9.314                0.920677226     -100.887756
9.315                0.920483168     -101.074965
9.316                0.920288769     -101.262667
9.317                 0.92009403     -101.450863
9.318                0.919898953     -101.639555
9.319                0.919703542     -101.828744
9.32                 0.919507797      -102.01843
9.321                0.919311723     -102.208614
9.322                0.919115321     -102.399298
9.323                0.918918594     -102.590482
9.324                0.918721544     -102.782168
9.325                0.918524174     -102.974356
9.326                0.918326488     -103.167048
9.327                0.918128487     -103.360244
9.328                0.917930175     -103.553945
9.329                0.917731553     -103.748152
9.33                 0.917532626     -103.942866
9.331                0.917333397     -104.138089
9.332                0.917133867      -104.33382
9.333                 0.91693404     -104.530061
9.334                0.916733919     -104.726813
9.335                0.916533508     -104.924077
9.336                0.916332809     -105.121853
9.337                0.916131825     -105.320143
9.338                0.915930561     -105.518947
9.339                0.915729018     -105.718267
9.34                 0.915527201     -105.918102
9.341                0.915325113     -106.118455
9.342                0.915122757     -106.319325
9.343                0.914920137     -106.520714
9.344                0.914717257     -106.722622
9.345                0.914514119     -106.925051
9.346                0.914310728     -107.128001
9.347                0.914107087     -107.331473
9.348                  0.9139032     -107.535467
9.349                0.913699071     -107.739985
9.35                 0.913494704     -107.945028
9.351                0.913290102     -108.150595
9.352                 0.91308527     -108.356689
9.353                0.912880211     -108.563309
9.354                 0.91267493     -108.770456
9.355                 0.91246943     -108.978132
9.356                0.912263717     -109.186336
9.357                0.912057793      -109.39507
9.358                0.911851663     -109.604334
9.359                0.911645332     -109.814129
9.36                 0.911438804     -110.024455
9.361                0.911232084     -110.235314
9.362                0.911025175     -110.446706
9.363                0.910818083     -110.658632
9.364                0.910610812     -110.871092
9.365                0.910403366     -111.084086
9.366                0.910195751     -111.297616
9.367                 0.90998797     -111.511683
9.368                 0.90978003     -111.726286
9.369                0.909571934     -111.941426
9.37                 0.909363688     -112.157105
9.371                0.909155297     -112.373321
9.372                0.908946765     -112.590077
9.373                0.908738098     -112.807372
9.374                0.908529301     -113.025208
9.375                0.908320379     -113.243584
9.376                0.908111337     -113.462501
9.377                0.907902182     -113.681959
9.378                0.907692917      -113.90196
9.379                0.907483548     -114.122503
9.38                 0.907274082     -114.343589
9.381                0.907064523     -114.565218
9.382                0.906854878     -114.787392
9.383                0.906645151     -115.010109
9.384                0.906435349     -115.233371
9.385                0.906225477     -115.457178
9.386                0.906015541     -115.681531
9.387                0.905805547     -115.906429
9.388                0.905595501     -116.131873
9.389                 0.90538541     -116.357863
9.39                 0.905175278       -116.5844
9.391                0.904965113     -116.811484
9.392                 0.90475492     -117.039115
9.393                0.904544705     -117.267294
9.394                0.904334476      -117.49602
9.395                0.904124238     -117.725295
9.396                0.903913998     -117.955117
