! TOUCHSTONE file generated by CST DESIGN STUDIO
! Date and time: Tue Feb  4 18:30:47 2025
! Project name: C:\Work\MatlabApps\UnitCellOptimizationMatlab\CST\unitcell.cst
! Tree item: Tasks\Sweep1\SPara1\S-Parameters
! Header version: 2024
! Port assignment regex: !\s*Touchstone port\s*([0-9]+)\s*=\s*(CST MWS port|CST DES external port|CST DES block port)\s*(.+)\s* \(\"(.*)\"\)(\s*mode\s*([0-9]+))?.*
! Touchstone port assignment:
! Touchstone port 1 = CST DES external port 1 ("")
# GHz S MA R 50
9                    0.968618151     -46.8123591
9.001                0.968566846     -46.8704729
9.002                0.968515388     -46.9287034
9.003                0.968463777      -46.987051
9.004                0.968412012      -47.045516
9.005                0.968360093     -47.1040989
9.006                0.968308018     -47.1627999
9.007                0.968255788     -47.2216194
9.008                0.968203402     -47.2805578
9.009                0.968150859     -47.3396154
9.01                  0.96809816     -47.3987926
9.011                0.968045302     -47.4580897
9.012                0.967992287     -47.5175071
9.013                0.967939113     -47.5770451
9.014                0.967885779     -47.6367042
9.015                0.967832286     -47.6964847
9.016                0.967778633     -47.7563869
9.017                0.967724819     -47.8164112
9.018                0.967670844      -47.876558
9.019                0.967616707     -47.9368277
9.02                 0.967562407     -47.9972206
9.021                0.967507944     -48.0577371
9.022                0.967453318     -48.1183775
9.023                0.967398528     -48.1791423
9.024                0.967343574     -48.2400318
9.025                0.967288454     -48.3010464
9.026                0.967233168     -48.3621865
9.027                0.967177717     -48.4234524
9.028                0.967122098     -48.4848445
9.029                0.967066312     -48.5463633
9.03                 0.967010359     -48.6080091
9.031                0.966954237     -48.6697823
9.032                0.966897945     -48.7316832
9.033                0.966841484     -48.7937123
9.034                0.966784853     -48.8558699
9.035                0.966728052     -48.9181565
9.036                0.966671078     -48.9805724
9.037                0.966613933     -49.0431181
9.038                0.966556616     -49.1057939
9.039                0.966499125     -49.1686002
9.04                 0.966441461     -49.2315374
9.041                0.966383623     -49.2946059
9.042                 0.96632561     -49.3578062
9.043                0.966267421     -49.4211386
9.044                0.966209056     -49.4846035
9.045                0.966150515     -49.5482013
9.046                0.966091797     -49.6119325
9.047                0.966032901     -49.6757974
9.048                0.965973826     -49.7397965
9.049                0.965914573     -49.8039302
9.05                  0.96585514     -49.8681988
9.051                0.965795527     -49.9326029
9.052                0.965735733     -49.9971427
9.053                0.965675758     -50.0618188
9.054                  0.9656156     -50.1266315
9.055                 0.96555526     -50.1915814
9.056                0.965494737     -50.2566687
9.057                 0.96543403     -50.3218939
9.058                0.965373139     -50.3872574
9.059                0.965312062     -50.4527598
9.06                   0.9652508     -50.5184013
9.061                0.965189351     -50.5841825
9.062                0.965127715     -50.6501037
9.063                0.965065892     -50.7161654
9.064                0.965003881      -50.782368
9.065                 0.96494168      -50.848712
9.066                 0.96487929     -50.9151978
9.067                 0.96481671     -50.9818259
9.068                 0.96475394     -51.0485966
9.069                0.964690977     -51.1155104
9.07                 0.964627823     -51.1825678
9.071                0.964564476     -51.2497693
9.072                0.964500935     -51.3171152
9.073                0.964437201      -51.384606
9.074                0.964373272     -51.4522422
9.075                0.964309147     -51.5200241
9.076                0.964244826     -51.5879524
9.077                0.964180309     -51.6560274
9.078                0.964115595     -51.7242495
9.079                0.964050682     -51.7926194
9.08                 0.963985571     -51.8611373
9.081                 0.96392026     -51.9298037
9.082                0.963854749     -51.9986192
9.083                0.963789038     -52.0675843
9.084                0.963723125     -52.1366992
9.085                 0.96365701     -52.2059646
9.086                0.963590693     -52.2753809
9.087                0.963524172     -52.3449486
9.088                0.963457446     -52.4146682
9.089                0.963390516       -52.48454
9.09                 0.963323381     -52.5545647
9.091                0.963256039     -52.6247427
9.092                0.963188491     -52.6950744
9.093                0.963120734     -52.7655604
9.094                 0.96305277     -52.8362011
9.095                0.962984596      -52.906997
9.096                0.962916213     -52.9779487
9.097                0.962847619     -53.0490565
9.098                0.962778815     -53.1203211
9.099                0.962709798     -53.1917428
9.1                  0.962640569     -53.2633223
9.101                0.962571126     -53.3350599
9.102                 0.96250147     -53.4069562
9.103                0.962431598     -53.4790117
9.104                0.962361512     -53.5512269
9.105                0.962291209     -53.6236022
9.106                0.962220689     -53.6961383
9.107                0.962149951     -53.7688356
9.108                0.962078996     -53.8416946
9.109                0.962007821     -53.9147158
9.11                 0.961936426     -53.9878998
9.111                 0.96186481     -54.0612471
9.112                0.961792973     -54.1347581
9.113                0.961720914     -54.2084335
9.114                0.961648633     -54.2822736
9.115                0.961576127     -54.3562791
9.116                0.961503397     -54.4304505
9.117                0.961430443     -54.5047883
9.118                0.961357262     -54.5792931
9.119                0.961283854     -54.6539653
9.12                  0.96121022     -54.7288055
9.121                0.961136357     -54.8038142
9.122                0.961062265      -54.878992
9.123                0.960987943     -54.9543394
9.124                0.960913391      -55.029857
9.125                0.960838608     -55.1055453
9.126                0.960763592     -55.1814048
9.127                0.960688344     -55.2574361
9.128                0.960612862     -55.3336398
9.129                0.960537146     -55.4100164
9.13                 0.960461194     -55.4865664
9.131                0.960385007     -55.5632904
9.132                0.960308583     -55.6401889
9.133                0.960231921     -55.7172626
9.134                0.960155021      -55.794512
9.135                0.960077882     -55.8719376
9.136                0.960000502     -55.9495401
9.137                0.959922882     -56.0273199
9.138                0.959845021     -56.1052777
9.139                0.959766917      -56.183414
9.14                  0.95968857     -56.2617294
9.141                0.959609979     -56.3402244
9.142                0.959531143     -56.4188998
9.143                0.959452061      -56.497756
9.144                0.959372733     -56.5767935
9.145                0.959293157     -56.6560131
9.146                0.959213334     -56.7354153
9.147                0.959133261     -56.8150007
9.148                0.959052939     -56.8947698
9.149                0.958972366     -56.9747234
9.15                 0.958891541     -57.0548618
9.151                0.958810465     -57.1351859
9.152                0.958729135     -57.2156961
9.153                0.958647551      -57.296393
9.154                0.958565712     -57.3772774
9.155                0.958483618     -57.4583497
9.156                0.958401267     -57.5396106
9.157                0.958318658     -57.6210607
9.158                0.958235792     -57.7027006
9.159                0.958152666     -57.7845309
9.16                 0.958069281     -57.8665523
9.161                0.957985634     -57.9487653
9.162                0.957901726     -58.0311707
9.163                0.957817555     -58.1137689
9.164                0.957733121     -58.1965607
9.165                0.957648423     -58.2795466
9.166                0.957563459     -58.3627274
9.167                0.957478229     -58.4461036
9.168                0.957392733     -58.5296758
9.169                0.957306969     -58.6134448
9.17                 0.957220935     -58.6974111
9.171                0.957134633     -58.7815755
9.172                 0.95704806     -58.8659384
9.173                0.956961215     -58.9505007
9.174                0.956874098     -59.0352629
9.175                0.956786708     -59.1202257
9.176                0.956699045     -59.2053897
9.177                0.956611106     -59.2907557
9.178                0.956522891     -59.3763242
9.179                0.956434399     -59.4620959
9.18                  0.95634563     -59.5480715
9.181                0.956256583     -59.6342517
9.182                0.956167255     -59.7206372
9.183                0.956077648     -59.8072285
9.184                0.955987759     -59.8940264
9.185                0.955897588     -59.9810315
9.186                0.955807134     -60.0682446
9.187                0.955716395     -60.1556663
9.188                0.955625372     -60.2432973
9.189                0.955534063     -60.3311383
9.19                 0.955442467       -60.41919
9.191                0.955350583      -60.507453
9.192                0.955258411     -60.5959281
9.193                0.955165949      -60.684616
9.194                0.955073196     -60.7735173
9.195                0.954980152     -60.8626328
9.196                0.954886815     -60.9519631
9.197                0.954793185      -61.041509
9.198                0.954699261     -61.1312712
9.199                0.954605041     -61.2212504
9.2                  0.954510526     -61.3114473
9.201                0.954415713     -61.4018626
9.202                0.954320602     -61.4924971
9.203                0.954225191     -61.5833514
9.204                0.954129481     -61.6744263
9.205                 0.95403347     -61.7657225
9.206                0.953937157     -61.8572408
9.207                0.953840541     -61.9489818
9.208                0.953743621     -62.0409464
9.209                0.953646396     -62.1331352
9.21                 0.953548866      -62.225549
9.211                0.953451028     -62.3181886
9.212                0.953352883     -62.4110546
9.213                 0.95325443     -62.5041479
9.214                0.953155666     -62.5974691
9.215                0.953056592     -62.6910191
9.216                0.952957206     -62.7847986
9.217                0.952857508     -62.8788083
9.218                0.952757496      -62.973049
9.219                 0.95265717     -63.0675215
9.22                 0.952556528     -63.1622266
9.221                0.952455569     -63.2571649
9.222                0.952354293     -63.3523374
9.223                0.952252699     -63.4477447
9.224                0.952150785     -63.5433876
9.225                 0.95204855      -63.639267
9.226                0.951945994     -63.7353835
9.227                0.951843116     -63.8317381
9.228                0.951739914     -63.9283314
9.229                0.951636387     -64.0251643
9.23                 0.951532535     -64.1222376
9.231                0.951428357      -64.219552
9.232                0.951323851     -64.3171084
9.233                0.951219017     -64.4149075
9.234                0.951113853     -64.5129502
9.235                0.951008359     -64.6112373
9.236                0.950902534     -64.7097695
9.237                0.950796376     -64.8085478
9.238                0.950689884     -64.9075729
9.239                0.950583058     -65.0068456
9.24                 0.950475897     -65.1063668
9.241                0.950368399     -65.2061373
9.242                0.950260563     -65.3061578
9.243                0.950152389     -65.4064293
9.244                0.950043876     -65.5069526
9.245                0.949935022     -65.6077285
9.246                0.949825826     -65.7087579
9.247                0.949716288     -65.8100415
9.248                0.949606406     -65.9115803
9.249                 0.94949618     -66.0133751
9.25                 0.949385608     -66.1154267
9.251                0.949274689      -66.217736
9.252                0.949163423     -66.3203039
9.253                0.949051808     -66.4231311
9.254                0.948939844     -66.5262186
9.255                0.948827529     -66.6295673
9.256                0.948714862      -66.733178
9.257                0.948601842     -66.8370515
9.258                0.948488469     -66.9411888
9.259                0.948374741     -67.0455907
9.26                 0.948260657     -67.1502581
9.261                0.948146216     -67.2551919
9.262                0.948031418      -67.360393
9.263                 0.94791626     -67.4658622
9.264                0.947800743     -67.5716005
9.265                0.947684865     -67.6776087
9.266                0.947568625     -67.7838878
9.267                0.947452022     -67.8904386
9.268                0.947335056     -67.9972621
9.269                0.947217724     -68.1043591
9.27                 0.947100026     -68.2117306
9.271                0.946981962     -68.3193775
9.272                0.946863529     -68.4273006
9.273                0.946744727      -68.535501
9.274                0.946625556     -68.6439795
9.275                0.946506013     -68.7527371
9.276                0.946386098     -68.8617746
9.277                 0.94626581      -68.971093
9.278                0.946145148     -69.0806933
9.279                0.946024111     -69.1905764
9.28                 0.945902698     -69.3007432
9.281                0.945780908     -69.4111947
9.282                 0.94565874     -69.5219318
9.283                0.945536192     -69.6329554
9.284                0.945413265     -69.7442665
9.285                0.945289956     -69.8558661
9.286                0.945166265     -69.9677551
9.287                0.945042191     -70.0799345
9.288                0.944917733     -70.1924052
9.289                 0.94479289     -70.3051683
9.29                  0.94466766     -70.4182246
9.291                0.944542044     -70.5315752
9.292                0.944416039      -70.645221
9.293                0.944289645      -70.759163
9.294                0.944162862     -70.8734022
9.295                0.944035687     -70.9879395
9.296                 0.94390812      -71.102776
9.297                0.943780159     -71.2179127
9.298                0.943651805     -71.3333505
9.299                0.943523056     -71.4490904
9.3                  0.943393911     -71.5651335
9.301                0.943264369     -71.6814807
9.302                0.943134429      -71.798133
9.303                 0.94300409     -71.9150915
9.304                0.942873351     -72.0323572
9.305                0.942742211      -72.149931
9.306                 0.94261067      -72.267814
9.307                0.942478726     -72.3860073
9.308                0.942346378     -72.5045118
9.309                0.942213625     -72.6233285
9.31                 0.942080467     -72.7424585
9.311                0.941946903     -72.8619029
9.312                 0.94181293     -72.9816626
9.313                 0.94167855     -73.1017388
9.314                 0.94154376     -73.2221323
9.315                 0.94140856     -73.3428444
9.316                0.941272948      -73.463876
9.317                0.941136925     -73.5852282
9.318                0.941000488      -73.706902
9.319                0.940863638     -73.8288985
9.32                 0.940726372     -73.9512188
9.321                0.940588691     -74.0738638
9.322                0.940450594     -74.1968348
9.323                0.940312078     -74.3201327
9.324                0.940173145     -74.4437586
9.325                0.940033792     -74.5677137
9.326                0.939894018     -74.6919988
9.327                0.939753824     -74.8166153
9.328                0.939613208     -74.9415641
9.329                0.939472169     -75.0668463
9.33                 0.939330706      -75.192463
9.331                0.939188819     -75.3184153
9.332                0.939046506     -75.4447042
9.333                0.938903768      -75.571331
9.334                0.938760602     -75.6982967
9.335                0.938617008     -75.8256024
9.336                0.938472986     -75.9532491
9.337                0.938328534     -76.0812381
9.338                0.938183652     -76.2095704
9.339                0.938038339     -76.3382472
9.34                 0.937892594     -76.4672694
9.341                0.937746416     -76.5966384
9.342                0.937599805     -76.7263551
9.343                 0.93745276     -76.8564208
9.344                0.937305279     -76.9868365
9.345                0.937157363     -77.1176034
9.346                0.937009011     -77.2487226
9.347                0.936860221     -77.3801953
9.348                0.936710993     -77.5120226
9.349                0.936561326     -77.6442055
9.35                  0.93641122     -77.7767454
9.351                0.936260674     -77.9096433
9.352                0.936109688     -78.0429004
9.353                0.935958259     -78.1765177
9.354                0.935806389     -78.3104966
9.355                0.935654075     -78.4448381
9.356                0.935501318     -78.5795434
9.357                0.935348117     -78.7146137
9.358                0.935194471     -78.8500501
9.359                 0.93504038     -78.9858538
9.36                 0.934885842      -79.122026
9.361                0.934730858     -79.2585678
9.362                0.934575426     -79.3954805
9.363                0.934419547     -79.5327651
9.364                0.934263219     -79.6704229
9.365                0.934106442     -79.8084551
9.366                0.933949215     -79.9468629
9.367                0.933791538     -80.0856473
9.368                0.933633411     -80.2248097
9.369                0.933474832     -80.3643512
9.37                 0.933315802     -80.5042731
9.371                0.933156319     -80.6445764
9.372                0.932996384     -80.7852625
9.373                0.932835995     -80.9263325
9.374                0.932675153     -81.0677876
9.375                0.932513857      -81.209629
9.376                0.932352106      -81.351858
9.377                  0.9321899     -81.4944757
9.378                0.932027238     -81.6374834
9.379                0.931864121     -81.7808823
9.38                 0.931700548     -81.9246735
9.381                0.931536518     -82.0688584
9.382                0.931372031     -82.2134381
9.383                0.931207087     -82.3584139
9.384                0.931041685     -82.5037869
9.385                0.930875826     -82.6495585
9.386                0.930709508     -82.7957299
9.387                0.930542732     -82.9423022
9.388                0.930375497     -83.0892767
9.389                0.930207803     -83.2366546
9.39                  0.93003965     -83.3844373
9.391                0.929871037     -83.5326259
9.392                0.929701965     -83.6812216
9.393                0.929532433     -83.8302257
9.394                0.929362441     -83.9796395
9.395                0.929191989     -84.1294642
9.396                0.929021077      -84.279701
