! TOUCHSTONE file generated by CST DESIGN STUDIO
! Date and time: Tue Feb  4 18:30:31 2025
! Project name: C:\Work\MatlabApps\UnitCellOptimizationMatlab\CST\unitcell.cst
! Tree item: Tasks\Sweep1\SPara1\S-Parameters
! Header version: 2024
! Port assignment regex: !\s*Touchstone port\s*([0-9]+)\s*=\s*(CST MWS port|CST DES external port|CST DES block port)\s*(.+)\s* \(\"(.*)\"\)(\s*mode\s*([0-9]+))?.*
! Touchstone port assignment:
! Touchstone port 1 = CST DES external port 1 ("")
# GHz S MA R 50
9                    0.955194281     -79.3407385
9.001                0.955076322     -79.4679675
9.002                0.954958005     -79.5955266
9.003                0.954839328     -79.7234166
9.004                0.954720291     -79.8516386
9.005                0.954600893     -79.9801937
9.006                0.954481134     -80.1090828
9.007                0.954361012      -80.238307
9.008                0.954240527     -80.3678672
9.009                0.954119678     -80.4977645
9.01                 0.953998465     -80.6279998
9.011                0.953876887     -80.7585743
9.012                0.953754943      -80.889489
9.013                0.953632633     -81.0207448
9.014                0.953509956     -81.1523428
9.015                0.953386911     -81.2842841
9.016                0.953263497     -81.4165696
9.017                0.953139715     -81.5492004
9.018                0.953015563     -81.6821775
9.019                 0.95289104     -81.8155021
9.02                 0.952766147      -81.949175
9.021                0.952640882     -82.0831974
9.022                0.952515246     -82.2175702
9.023                0.952389236     -82.3522946
9.024                0.952262853     -82.4873716
9.025                0.952136096     -82.6228023
9.026                0.952008965     -82.7585876
9.027                0.951881459     -82.8947286
9.028                0.951753577     -83.0312265
9.029                0.951625319     -83.1680822
9.03                 0.951496684     -83.3052968
9.031                0.951367672     -83.4428714
9.032                0.951238282      -83.580807
9.033                0.951108514     -83.7191047
9.034                0.950978367     -83.8577656
9.035                0.950847841     -83.9967907
9.036                0.950716935     -84.1361811
9.037                0.950585648     -84.2759378
9.038                0.950453981      -84.416062
9.039                0.950321933     -84.5565547
9.04                 0.950189503     -84.6974169
9.041                0.950056691     -84.8386498
9.042                0.949923496     -84.9802544
9.043                0.949789919     -85.1222319
9.044                0.949655958     -85.2645832
9.045                0.949521613     -85.4073094
9.046                0.949386884     -85.5504118
9.047                 0.94925177     -85.6938912
9.048                0.949116271     -85.8377489
9.049                0.948980387     -85.9819858
9.05                 0.948844117     -86.1266032
9.051                0.948707462      -86.271602
9.052                0.948570419     -86.4169834
9.053                0.948432991     -86.5627484
9.054                0.948295175     -86.7088982
9.055                0.948156972     -86.8554338
9.056                0.948018381     -87.0023564
9.057                0.947879403     -87.1496669
9.058                0.947740036     -87.2973666
9.059                0.947600281     -87.4454565
9.06                 0.947460138     -87.5939377
9.061                0.947319605     -87.7428113
9.062                0.947178684     -87.8920784
9.063                0.947037374     -88.0417402
9.064                0.946895674     -88.1917976
9.065                0.946753585     -88.3422518
9.066                0.946611106     -88.4931039
9.067                0.946468237     -88.6443551
9.068                0.946324978     -88.7960063
9.069                0.946181329     -88.9480588
9.07                  0.94603729     -89.1005136
9.071                0.945892861     -89.2533718
9.072                0.945748042     -89.4066345
9.073                0.945602832     -89.5603029
9.074                0.945457232      -89.714378
9.075                0.945311242     -89.8688609
9.076                0.945164861     -90.0237527
9.077                 0.94501809     -90.1790547
9.078                0.944870929     -90.3347677
9.079                0.944723377      -90.490893
9.08                 0.944575436     -90.6474317
9.081                0.944427104     -90.8043849
9.082                0.944278382     -90.9617536
9.083                 0.94412927      -91.119539
9.084                0.943979769     -91.2777422
9.085                0.943829878     -91.4363643
9.086                0.943679597     -91.5954064
9.087                0.943528928     -91.7548696
9.088                0.943377869     -91.9147549
9.089                0.943226422     -92.0750636
9.09                 0.943074586     -92.2357967
9.091                0.942922362     -92.3969553
9.092                 0.94276975     -92.5585406
9.093                 0.94261675     -92.7205535
9.094                0.942463363     -92.8829952
9.095                0.942309589     -93.0458669
9.096                0.942155428     -93.2091696
9.097                0.942000882     -93.3729044
9.098                0.941845949     -93.5370724
9.099                0.941690631     -93.7016747
9.1                  0.941534928     -93.8667124
9.101                0.941378841     -94.0321866
9.102                 0.94122237     -94.1980984
9.103                0.941065515     -94.3644489
9.104                0.940908278     -94.5312391
9.105                0.940750658     -94.6984702
9.106                0.940592657     -94.8661433
9.107                0.940434274     -95.0342593
9.108                0.940275511     -95.2028195
9.109                0.940116368     -95.3718249
9.11                 0.939956846     -95.5412766
9.111                0.939796946     -95.7111756
9.112                0.939636668     -95.8815231
9.113                0.939476013     -96.0523201
9.114                0.939314982     -96.2235677
9.115                0.939153576     -96.3952669
9.116                0.938991795     -96.5674188
9.117                0.938829641     -96.7400246
9.118                0.938667114     -96.9130852
9.119                0.938504215     -97.0866017
9.12                 0.938340945     -97.2605752
9.121                0.938177305     -97.4350068
9.122                0.938013297     -97.6098974
9.123                 0.93784892     -97.7852482
9.124                0.937684177     -97.9610602
9.125                0.937519068     -98.1373344
9.126                0.937353594      -98.314072
9.127                0.937187757     -98.4912738
9.128                0.937021557      -98.668941
9.129                0.936854996     -98.8470746
9.13                 0.936688076     -99.0256757
9.131                0.936520796     -99.2047452
9.132                 0.93635316     -99.3842842
9.133                0.936185167     -99.5642937
9.134                0.936016819     -99.7447747
9.135                0.935848118     -99.9257283
9.136                0.935679065     -100.107155
9.137                0.935509662     -100.289057
9.138                0.935339909     -100.471434
9.139                 0.93516981     -100.654288
9.14                 0.934999364     -100.837619
9.141                0.934828573     -101.021429
9.142                 0.93465744     -101.205719
9.143                0.934485966     -101.390488
9.144                0.934314152      -101.57574
9.145                   0.934142     -101.761474
9.146                0.933969512     -101.947691
9.147                 0.93379669     -102.134392
9.148                0.933623535     -102.321579
9.149                 0.93345005     -102.509253
9.15                 0.933276236     -102.697413
9.151                0.933102095     -102.886062
9.152                0.932927629       -103.0752
9.153                 0.93275284     -103.264827
9.154                 0.93257773     -103.454946
9.155                0.932402301     -103.645557
9.156                0.932226556     -103.836661
9.157                0.932050496     -104.028258
9.158                0.931874123      -104.22035
9.159                 0.93169744     -104.412937
9.16                 0.931520449     -104.606021
9.161                0.931343153     -104.799602
9.162                0.931165553     -104.993681
9.163                0.930987652     -105.188259
9.164                0.930809452     -105.383338
9.165                0.930630956     -105.578917
9.166                0.930452166     -105.774997
9.167                0.930273085      -105.97158
9.168                0.930093716     -106.168666
9.169                 0.92991406     -106.366257
9.17                 0.929734121     -106.564352
9.171                0.929553902     -106.762953
9.172                0.929373404     -106.962061
9.173                0.929192631     -107.161676
9.174                0.929011586     -107.361799
9.175                0.928830272     -107.562431
9.176                 0.92864869     -107.763573
9.177                0.928466845     -107.965225
9.178                0.928284739     -108.167389
9.179                0.928102376     -108.370064
9.18                 0.927919758     -108.573253
9.181                0.927736888     -108.776954
9.182                 0.92755377      -108.98117
9.183                0.927370407     -109.185901
9.184                0.927186802     -109.391147
9.185                0.927002959      -109.59691
9.186                 0.92681888     -109.803189
9.187                0.926634569     -110.009987
9.188                 0.92645003     -110.217302
9.189                0.926265266     -110.425137
9.19                  0.92608028     -110.633491
9.191                0.925895077     -110.842365
9.192                0.925709659      -111.05176
9.193                0.925524031     -111.261677
9.194                0.925338196     -111.472116
9.195                0.925152157     -111.683078
9.196                 0.92496592     -111.894562
9.197                0.924779487     -112.106571
9.198                0.924592862     -112.319104
9.199                 0.92440605     -112.532162
9.2                  0.924219054     -112.745746
9.201                0.924031879     -112.959856
9.202                0.923844528     -113.174492
9.203                0.923657006     -113.389655
9.204                0.923469317     -113.605346
9.205                0.923281465     -113.821564
9.206                0.923093454     -114.038312
9.207                0.922905289     -114.255588
9.208                0.922716975     -114.473393
9.209                0.922528514     -114.691729
9.21                 0.922339914     -114.910594
9.211                0.922151176     -115.129991
9.212                0.921962307     -115.349918
9.213                0.921773311     -115.570376
9.214                0.921584193     -115.791367
9.215                0.921394956     -116.012889
9.216                0.921205607     -116.234944
9.217                 0.92101615     -116.457532
9.218                 0.92082659     -116.680653
9.219                0.920636932     -116.904307
9.22                 0.920447181     -117.128494
9.221                0.920257342     -117.353216
9.222                0.920067419     -117.578472
9.223                0.919877419     -117.804262
9.224                0.919687346     -118.030587
9.225                0.919497207     -118.257446
9.226                0.919307005     -118.484841
9.227                0.919116746      -118.71277
9.228                0.918926436     -118.941235
9.229                0.918736081     -119.170235
9.23                 0.918545685     -119.399771
9.231                0.918355255     -119.629843
9.232                0.918164796      -119.86045
9.233                0.917974314     -120.091594
9.234                0.917783814     -120.323273
9.235                0.917593302     -120.555488
9.236                0.917402785     -120.788239
9.237                0.917212267     -121.021526
9.238                0.917021756     -121.255349
9.239                0.916831256     -121.489708
9.24                 0.916640774     -121.724602
9.241                0.916450317     -121.960033
9.242                 0.91625989     -122.195999
9.243                0.916069499     -122.432501
9.244                0.915879151     -122.669538
9.245                0.915688852     -122.907111
9.246                0.915498609     -123.145219
9.247                0.915308427     -123.383862
9.248                0.915118314     -123.623039
9.249                0.914928275     -123.862752
9.25                 0.914738318     -124.102999
9.251                0.914548449     -124.343779
9.252                0.914358675     -124.585094
9.253                0.914169002     -124.826942
9.254                0.913979438     -125.069324
9.255                0.913789988     -125.312238
9.256                 0.91360066     -125.555685
9.257                0.913411461     -125.799664
9.258                0.913222398     -126.044175
9.259                0.913033478     -126.289218
9.26                 0.912844708     -126.534791
9.261                0.912656095     -126.780894
9.262                0.912467646     -127.027528
9.263                0.912279368     -127.274691
9.264                 0.91209127     -127.522383
9.265                0.911903357     -127.770604
9.266                0.911715638     -128.019352
9.267                0.911528119     -128.268628
9.268                0.911340809      -128.51843
9.269                0.911153714     -128.768758
9.27                 0.910966843     -129.019612
9.271                0.910780203      -129.27099
9.272                0.910593802     -129.522892
9.273                0.910407646     -129.775318
9.274                0.910221745     -130.028266
9.275                0.910036105     -130.281735
9.276                0.909850736     -130.535726
9.277                0.909665643     -130.790237
9.278                0.909480836     -131.045267
9.279                0.909296323     -131.300815
9.28                  0.90911211     -131.556881
9.281                0.908928207     -131.813463
9.282                0.908744622     -132.070561
9.283                0.908561362     -132.328174
9.284                0.908378436     -132.586301
9.285                0.908195852      -132.84494
9.286                0.908013618     -133.104091
9.287                0.907831742     -133.363752
9.288                0.907650233     -133.623923
9.289                0.907469099     -133.884602
9.29                 0.907288349     -134.145789
9.291                 0.90710799     -134.407481
9.292                0.906928032     -134.669678
9.293                0.906748483      -134.93238
9.294                0.906569351     -135.195583
9.295                0.906390645     -135.459288
9.296                0.906212374     -135.723492
9.297                0.906034545     -135.988196
9.298                0.905857169     -136.253396
9.299                0.905680253     -136.519092
9.3                  0.905503806     -136.785283
9.301                0.905327837     -137.051966
9.302                0.905152354     -137.319141
9.303                0.904977368     -137.586807
9.304                0.904802885      -137.85496
9.305                0.904628916     -138.123601
9.306                0.904455468     -138.392728
9.307                0.904282552     -138.662338
9.308                0.904110175      -138.93243
9.309                0.903938347     -139.203003
9.31                 0.903767077     -139.474056
9.311                0.903596374     -139.745585
9.312                0.903426246      -140.01759
9.313                0.903256703     -140.290069
9.314                0.903087754      -140.56302
9.315                0.902919407     -140.836441
9.316                0.902751673      -141.11033
9.317                0.902584559     -141.384686
9.318                0.902418076     -141.659507
9.319                0.902252232      -141.93479
9.32                 0.902087036     -142.210534
9.321                0.901922497     -142.486737
9.322                0.901758625     -142.763397
9.323                0.901595429     -143.040512
9.324                0.901432918     -143.318079
9.325                  0.9012711     -143.596097
9.326                0.901109986     -143.874563
9.327                0.900949584     -144.153476
9.328                0.900789904     -144.432833
9.329                0.900630955     -144.712632
9.33                 0.900472746     -144.992871
9.331                0.900315285     -145.273548
9.332                0.900158583      -145.55466
9.333                0.900002649     -145.836204
9.334                0.899847491      -146.11818
9.335                0.899693118     -146.400583
9.336                0.899539541     -146.683413
9.337                0.899386768     -146.966666
9.338                0.899234808      -147.25034
9.339                0.899083671     -147.534432
9.34                 0.898933365     -147.818941
9.341                  0.8987839     -148.103862
9.342                0.898635284     -148.389195
9.343                0.898487528     -148.674937
9.344                0.898340639     -148.961083
9.345                0.898194627     -149.247633
9.346                0.898049501     -149.534584
9.347                 0.89790527     -149.821932
9.348                0.897761944     -150.109675
9.349                 0.89761953      -150.39781
9.35                 0.897478038     -150.686335
9.351                0.897337476     -150.975246
9.352                0.897197855     -151.264541
9.353                0.897059182     -151.554217
9.354                0.896921467     -151.844271
9.355                0.896784717       -152.1347
9.356                0.896648943     -152.425501
9.357                0.896514153     -152.716671
9.358                0.896380355     -153.008208
9.359                0.896247558     -153.300107
9.36                 0.896115771     -153.592367
9.361                0.895985003     -153.884984
9.362                0.895855261     -154.177955
9.363                0.895726555     -154.471276
9.364                0.895598893     -154.764945
9.365                0.895472283     -155.058958
9.366                0.895346734     -155.353313
9.367                0.895222255     -155.648006
9.368                0.895098852     -155.943033
9.369                0.894976536     -156.238392
9.37                 0.894855313     -156.534079
9.371                0.894735192      -156.83009
9.372                0.894616182     -157.126423
9.373                 0.89449829     -157.423074
9.374                0.894381524      -157.72004
9.375                0.894265892     -158.017317
9.376                0.894151402     -158.314901
9.377                0.894038062      -158.61279
9.378                0.893925879     -158.910979
9.379                0.893814862     -159.209466
9.38                 0.893705017     -159.508246
9.381                0.893596353     -159.807316
9.382                0.893488877     -160.106673
9.383                0.893382597     -160.406313
9.384                0.893277519     -160.706231
9.385                0.893173651     -161.006425
9.386                   0.893071     -161.306891
9.387                0.892969574     -161.607625
9.388                0.892869379     -161.908624
9.389                0.892770423     -162.209883
9.39                 0.892672712     -162.511399
9.391                0.892576254     -162.813167
9.392                0.892481054     -163.115185
9.393                 0.89238712     -163.417449
9.394                0.892294459     -163.719954
9.395                0.892203076     -164.022696
9.396                0.892112979     -164.325672
