! TOUCHSTONE file generated by CST DESIGN STUDIO
! Date and time: Tue Feb  4 18:30:42 2025
! Project name: C:\Work\MatlabApps\UnitCellOptimizationMatlab\CST\unitcell.cst
! Tree item: Tasks\Sweep1\SPara1\S-Parameters
! Header version: 2024
! Port assignment regex: !\s*Touchstone port\s*([0-9]+)\s*=\s*(CST MWS port|CST DES external port|CST DES block port)\s*(.+)\s* \(\"(.*)\"\)(\s*mode\s*([0-9]+))?.*
! Touchstone port assignment:
! Touchstone port 1 = CST DES external port 1 ("")
# GHz S MA R 50
9                    0.964040475     -57.2554306
9.001                0.963967452      -57.331881
9.002                0.963894206     -57.4085037
9.003                0.963820737     -57.4852992
9.004                0.963747043     -57.5622681
9.005                0.963673125     -57.6394109
9.006                 0.96359898     -57.7167281
9.007                0.963524609     -57.7942204
9.008                 0.96345001     -57.8718882
9.009                0.963375183     -57.9497321
9.01                 0.963300127     -58.0277526
9.011                0.963224842     -58.1059504
9.012                0.963149326     -58.1843259
9.013                0.963073579     -58.2628797
9.014                  0.9629976     -58.3416125
9.015                0.962921388     -58.4205246
9.016                0.962844942     -58.4996168
9.017                0.962768263     -58.5788895
9.018                0.962691348     -58.6583434
9.019                0.962614197      -58.737979
9.02                  0.96253681     -58.8177969
9.021                0.962459185     -58.8977976
9.022                0.962381322     -58.9779818
9.023                 0.96230322     -59.0583499
9.024                0.962224878     -59.1389027
9.025                0.962146296     -59.2196407
9.026                0.962067472     -59.3005644
9.027                0.961988406     -59.3816744
9.028                0.961909097     -59.4629714
9.029                0.961829545     -59.5444559
9.03                 0.961749747     -59.6261285
9.031                0.961669705     -59.7079899
9.032                0.961589416     -59.7900405
9.033                 0.96150888     -59.8722811
9.034                0.961428096     -59.9547122
9.035                0.961347063     -60.0373344
9.036                0.961265782     -60.1201483
9.037                0.961184249     -60.2031545
9.038                0.961102466     -60.2863537
9.039                0.961020431     -60.3697464
9.04                 0.960938143     -60.4533333
9.041                0.960855602      -60.537115
9.042                0.960772806      -60.621092
9.043                0.960689755     -60.7052651
9.044                0.960606447     -60.7896349
9.045                0.960522883     -60.8742018
9.046                0.960439061     -60.9589667
9.047                0.960354981     -61.0439301
9.048                0.960270641     -61.1290927
9.049                0.960186041     -61.2144551
9.05                  0.96010118     -61.3000178
9.051                0.960016057     -61.3857817
9.052                0.959930671     -61.4717472
9.053                0.959845021     -61.5579151
9.054                0.959759107      -61.644286
9.055                0.959672928     -61.7308605
9.056                0.959586482     -61.8176393
9.057                0.959499769     -61.9046231
9.058                0.959412789     -61.9918124
9.059                0.959325539      -62.079208
9.06                  0.95923802     -62.1668105
9.061                 0.95915023     -62.2546206
9.062                0.959062169     -62.3426389
9.063                0.958973836     -62.4308661
9.064                0.958885229     -62.5193029
9.065                0.958796349     -62.6079499
9.066                0.958707194     -62.6968078
9.067                0.958617763     -62.7858773
9.068                0.958528055     -62.8751591
9.069                 0.95843807     -62.9646538
9.07                 0.958347806     -63.0543621
9.071                0.958257263     -63.1442848
9.072                 0.95816644     -63.2344224
9.073                0.958075336     -63.3247757
9.074                 0.95798395     -63.4153454
9.075                0.957892281     -63.5061321
9.076                0.957800328     -63.5971367
9.077                0.957708091     -63.6883596
9.078                0.957615568     -63.7798018
9.079                0.957522759     -63.8714638
9.08                 0.957429662     -63.9633463
9.081                0.957336278     -64.0554502
9.082                0.957242604      -64.147776
9.083                 0.95714864     -64.2403246
9.084                0.957054385     -64.3330965
9.085                0.956959839     -64.4260926
9.086                   0.956865     -64.5193136
9.087                0.956769867     -64.6127601
9.088                0.956674439     -64.7064329
9.089                0.956578716     -64.8003328
9.09                 0.956482697     -64.8944604
9.091                0.956386381     -64.9888165
9.092                0.956289766     -65.0834019
9.093                0.956192852     -65.1782172
9.094                0.956095638     -65.2732632
9.095                0.955998123     -65.3685407
9.096                0.955900306     -65.4640503
9.097                0.955802187     -65.5597929
9.098                0.955703764     -65.6557692
9.099                0.955605036       -65.75198
9.1                  0.955506002     -65.8484259
9.101                0.955406662     -65.9451078
9.102                0.955307015     -66.0420264
9.103                0.955207059     -66.1391824
9.104                0.955106794     -66.2365768
9.105                0.955006219     -66.3342101
9.106                0.954905333     -66.4320832
9.107                0.954804134     -66.5301969
9.108                0.954702623     -66.6285518
9.109                0.954600798     -66.7271489
9.11                 0.954498658     -66.8259889
9.111                0.954396202     -66.9250726
9.112                0.954293429     -67.0244007
9.113                0.954190339      -67.123974
9.114                 0.95408693     -67.2237934
9.115                0.953983201     -67.3238596
9.116                0.953879152     -67.4241735
9.117                0.953774782     -67.5247357
9.118                0.953670089     -67.6255472
9.119                0.953565073     -67.7266087
9.12                 0.953459732      -67.827921
9.121                0.953354067      -67.929485
9.122                0.953248075     -68.0313014
9.123                0.953141756     -68.1333711
9.124                 0.95303511     -68.2356949
9.125                0.952928134     -68.3382736
9.126                0.952820828      -68.441108
9.127                0.952713192     -68.5441989
9.128                0.952605224     -68.6475473
9.129                0.952496923     -68.7511538
9.13                 0.952388288     -68.8550194
9.131                0.952279319     -68.9591448
9.132                0.952170014      -69.063531
9.133                0.952060373     -69.1681787
9.134                0.951950394     -69.2730888
9.135                0.951840077     -69.3782622
9.136                0.951729421     -69.4836996
9.137                0.951618424      -69.589402
9.138                0.951507087     -69.6953702
9.139                0.951395407      -69.801605
9.14                 0.951283384     -69.9081073
9.141                0.951171017      -70.014878
9.142                0.951058304      -70.121918
9.143                0.950945246      -70.229228
9.144                0.950831842     -70.3368091
9.145                0.950718089     -70.4446619
9.146                0.950603988     -70.5527875
9.147                0.950489537     -70.6611867
9.148                0.950374735     -70.7698604
9.149                0.950259582     -70.8788094
9.15                 0.950144077     -70.9880347
9.151                0.950028218     -71.0975371
9.152                0.949912005     -71.2073175
9.153                0.949795436     -71.3173769
9.154                0.949678511     -71.4277161
9.155                 0.94956123      -71.538336
9.156                 0.94944359     -71.6492375
9.157                0.949325591     -71.7604215
9.158                0.949207232      -71.871889
9.159                0.949088513     -71.9836408
9.16                 0.948969432     -72.0956779
9.161                0.948849988     -72.2080012
9.162                 0.94873018     -72.3206115
9.163                0.948610009     -72.4335098
9.164                0.948489471     -72.5466971
9.165                0.948368568     -72.6601742
9.166                0.948247297     -72.7739422
9.167                0.948125658     -72.8880018
9.168                 0.94800365     -73.0023541
9.169                0.947881272         -73.117
9.17                 0.947758523     -73.2319404
9.171                0.947635403     -73.3471763
9.172                 0.94751191     -73.4627086
9.173                0.947388043     -73.5785382
9.174                0.947263802     -73.6946662
9.175                0.947139186     -73.8110935
9.176                0.947014193     -73.9278209
9.177                0.946888824     -74.0448496
9.178                0.946763076     -74.1621804
9.179                 0.94663695     -74.2798143
9.18                 0.946510444     -74.3977523
9.181                0.946383557     -74.5159953
9.182                0.946256289     -74.6345443
9.183                0.946128639     -74.7534003
9.184                0.946000606     -74.8725643
9.185                0.945872188     -74.9920372
9.186                0.945743386     -75.1118201
9.187                0.945614198     -75.2319138
9.188                0.945484623     -75.3523195
9.189                0.945354661      -75.473038
9.19                 0.945224311     -75.5940704
9.191                0.945093571     -75.7154177
9.192                0.944962442     -75.8370809
9.193                0.944830922     -75.9590609
9.194                0.944699011     -76.0813588
9.195                0.944566707     -76.2039756
9.196                 0.94443401     -76.3269123
9.197                0.944300919     -76.4501699
9.198                0.944167433     -76.5737493
9.199                0.944033551     -76.6976518
9.2                  0.943899274     -76.8218781
9.201                0.943764599     -76.9464294
9.202                0.943629526     -77.0713067
9.203                0.943494054     -77.1965111
9.204                0.943358183     -77.3220434
9.205                0.943221912     -77.4479049
9.206                 0.94308524     -77.5740964
9.207                0.942948166     -77.7006191
9.208                0.942810689      -77.827474
9.209                0.942672809     -77.9546621
9.21                 0.942534526     -78.0821844
9.211                0.942395837     -78.2100421
9.212                0.942256743     -78.3382361
9.213                0.942117243     -78.4667675
9.214                0.941977336     -78.5956374
9.215                0.941837022     -78.7248468
9.216                0.941696299     -78.8543968
9.217                0.941555168     -78.9842884
9.218                0.941413627     -79.1145227
9.219                0.941271675     -79.2451008
9.22                 0.941129313     -79.3760236
9.221                0.940986539     -79.5072924
9.222                0.940843353     -79.6389081
9.223                0.940699754     -79.7708719
9.224                0.940555741     -79.9031848
9.225                0.940411314     -80.0358479
9.226                0.940266473     -80.1688622
9.227                0.940121216     -80.3022289
9.228                0.939975543     -80.4359491
9.229                0.939829454     -80.5700237
9.23                 0.939682947      -80.704454
9.231                0.939536023      -80.839241
9.232                0.939388681     -80.9743858
9.233                0.939240919     -81.1098895
9.234                0.939092739     -81.2457532
9.235                0.938944138     -81.3819779
9.236                0.938795117     -81.5185649
9.237                0.938645675     -81.6555151
9.238                0.938495812     -81.7928298
9.239                0.938345527       -81.93051
9.24                 0.938194819     -82.0685567
9.241                0.938043688     -82.2069713
9.242                0.937892134     -82.3457546
9.243                0.937740157     -82.4849079
9.244                0.937587755     -82.6244323
9.245                0.937434928     -82.7643289
9.246                0.937281677     -82.9045988
9.247                   0.937128     -83.0452432
9.248                0.936973897     -83.1862631
9.249                0.936819368     -83.3276597
9.25                 0.936664412     -83.4694341
9.251                0.936509029     -83.6115874
9.252                0.936353219     -83.7541209
9.253                0.936196982     -83.8970355
9.254                0.936040316     -84.0403325
9.255                0.935883222      -84.184013
9.256                  0.9357257     -84.3280781
9.257                0.935567749     -84.4725289
9.258                0.935409369     -84.6173667
9.259                 0.93525056     -84.7625925
9.26                 0.935091321     -84.9082075
9.261                0.934931652     -85.0542128
9.262                0.934771553     -85.2006096
9.263                0.934611025      -85.347399
9.264                0.934450066     -85.4945821
9.265                0.934288676     -85.6421603
9.266                0.934126856     -85.7901344
9.267                0.933964605     -85.9385058
9.268                0.933801924     -86.0872756
9.269                0.933638811      -86.236445
9.27                 0.933475268      -86.386015
9.271                0.933311293     -86.5359869
9.272                0.933146888     -86.6863618
9.273                0.932982051     -86.8371408
9.274                0.932816783     -86.9883252
9.275                0.932651084     -87.1399161
9.276                0.932484954     -87.2919146
9.277                0.932318393      -87.444322
9.278                0.932151401     -87.5971393
9.279                0.931983978     -87.7503678
9.28                 0.931816125     -87.9040086
9.281                0.931647841     -88.0580628
9.282                0.931479126     -88.2125317
9.283                0.931309981     -88.3674164
9.284                0.931140405     -88.5227181
9.285                  0.9309704      -88.678438
9.286                0.930799965     -88.8345771
9.287                0.930629101     -88.9911368
9.288                0.930457807     -89.1481181
9.289                0.930286085     -89.3055222
9.29                 0.930113933     -89.4633503
9.291                0.929941354     -89.6216036
9.292                0.929768346     -89.7802832
9.293                0.929594911     -89.9393903
9.294                0.929421049     -90.0989261
9.295                 0.92924676     -90.2588918
9.296                0.929072044     -90.4192884
9.297                0.928896903     -90.5801173
9.298                0.928721336     -90.7413795
9.299                0.928545345     -90.9030762
9.3                  0.928368929     -91.0652086
9.301                0.928192089     -91.2277779
9.302                0.928014826     -91.3907853
9.303                 0.92783714     -91.5542318
9.304                0.927659033     -91.7181188
9.305                0.927480504     -91.8824472
9.306                0.927301555     -92.0472184
9.307                0.927122186     -92.2124335
9.308                0.926942397     -92.3780936
9.309                 0.92676219     -92.5441999
9.31                 0.926581566     -92.7107536
9.311                0.926400525     -92.8777558
9.312                0.926219068     -93.0452077
9.313                0.926037196     -93.2131105
9.314                0.925854909     -93.3814653
9.315                 0.92567221     -93.5502732
9.316                0.925489098     -93.7195355
9.317                0.925305575     -93.8892533
9.318                0.925121641     -94.0594278
9.319                0.924937299       -94.23006
9.32                 0.924752548     -94.4011512
9.321                 0.92456739     -94.5727025
9.322                0.924381826     -94.7447151
9.323                0.924195858       -94.91719
9.324                0.924009486     -95.0901285
9.325                0.923822712     -95.2635317
9.326                0.923635537     -95.4374007
9.327                0.923447962     -95.6117367
9.328                0.923259989     -95.7865408
9.329                0.923071618     -95.9618141
9.33                 0.922882852     -96.1375578
9.331                0.922693692      -96.313773
9.332                0.922504139     -96.4904608
9.333                0.922314195     -96.6676224
9.334                0.922123861     -96.8452588
9.335                0.921933139     -97.0233713
9.336                0.921742031     -97.2019609
9.337                0.921550537     -97.3810287
9.338                0.921358661     -97.5605758
9.339                0.921166402     -97.7406034
9.34                 0.920973764     -97.9211125
9.341                0.920780748     -98.1021043
9.342                0.920587356     -98.2835798
9.343                 0.92039359     -98.4655402
9.344                0.920199451     -98.6479865
9.345                0.920004942     -98.8309198
9.346                0.919810064     -99.0143413
9.347                0.919614819     -99.1982519
9.348                0.919419211     -99.3826528
9.349                 0.91922324     -99.5675451
9.35                 0.919026908     -99.7529297
9.351                0.918830219     -99.9388078
9.352                0.918633173      -100.12518
9.353                0.918435775     -100.312049
9.354                0.918238024     -100.499414
9.355                0.918039925     -100.687276
9.356                 0.91784148     -100.875637
9.357                 0.91764269     -101.064498
9.358                0.917443558      -101.25386
9.359                0.917244087     -101.443724
9.36                  0.91704428      -101.63409
9.361                0.916844138     -101.824961
9.362                0.916643665     -102.016336
9.363                0.916442863     -102.208217
9.364                0.916241736     -102.400605
9.365                0.916040285       -102.5935
9.366                0.915838513     -102.786905
9.367                0.915636424     -102.980819
9.368                 0.91543402     -103.175245
9.369                0.915231305     -103.370182
9.37                 0.915028281     -103.565631
9.371                0.914824951     -103.761595
9.372                0.914621319     -103.958073
9.373                0.914417387     -104.155067
9.374                0.914213159     -104.352577
9.375                0.914008638     -104.550604
9.376                0.913803827      -104.74915
9.377                 0.91359873     -104.948216
9.378                0.913393349     -105.147801
9.379                 0.91318769     -105.347908
9.38                 0.912981754     -105.548536
9.381                0.912775545     -105.749688
9.382                0.912569068     -105.951363
9.383                0.912362325     -106.153563
9.384                0.912155321     -106.356288
9.385                0.911948059      -106.55954
9.386                0.911740542     -106.763319
9.387                0.911532776     -106.967626
9.388                0.911324763     -107.172461
9.389                0.911116508     -107.377827
9.39                 0.910908014     -107.583722
9.391                0.910699286     -107.790149
9.392                0.910490327     -107.997109
9.393                0.910281143     -108.204601
9.394                0.910071736     -108.412626
9.395                0.909862112     -108.621186
9.396                0.909652275     -108.830281
