! TOUCHSTONE file generated by CST DESIGN STUDIO
! Date and time: Tue Feb  4 18:30:35 2025
! Project name: C:\Work\MatlabApps\UnitCellOptimizationMatlab\CST\unitcell.cst
! Tree item: Tasks\Sweep1\SPara1\S-Parameters
! Header version: 2024
! Port assignment regex: !\s*Touchstone port\s*([0-9]+)\s*=\s*(CST MWS port|CST DES external port|CST DES block port)\s*(.+)\s* \(\"(.*)\"\)(\s*mode\s*([0-9]+))?.*
! Touchstone port assignment:
! Touchstone port 1 = CST DES external port 1 ("")
# GHz S MA R 50
9                     0.95792908     -72.0612077
9.001                   0.957825     -72.1701993
9.002                0.957720597     -72.2794643
9.003                 0.95761587     -72.3890037
9.004                0.957510818     -72.4988183
9.005                0.957405441      -72.608909
9.006                0.957299738     -72.7192766
9.007                0.957193707      -72.829922
9.008                0.957087347     -72.9408462
9.009                0.956980659     -73.0520499
9.01                  0.95687364     -73.1635341
9.011                0.956766291     -73.2752996
9.012                 0.95665861     -73.3873473
9.013                0.956550597     -73.4996782
9.014                 0.95644225      -73.612293
9.015                0.956333568     -73.7251928
9.016                0.956224552     -73.8383783
9.017                0.956115199     -73.9518505
9.018                0.956005509     -74.0656103
9.019                0.955895482     -74.1796586
9.02                 0.955785116     -74.2939962
9.021                 0.95567441     -74.4086242
9.022                0.955563365     -74.5235434
9.023                0.955451977     -74.6387547
9.024                0.955340248      -74.754259
9.025                0.955228176     -74.8700573
9.026                 0.95511576     -74.9861505
9.027                   0.955003     -75.1025394
9.028                0.954889894     -75.2192251
9.029                0.954776442     -75.3362084
9.03                 0.954662643     -75.4534903
9.031                0.954548496     -75.5710717
9.032                   0.954434     -75.6889536
9.033                0.954319154     -75.8071368
9.034                0.954203958     -75.9256223
9.035                0.954088411     -76.0444111
9.036                0.953972512     -76.1635041
9.037                0.953856259     -76.2829023
9.038                0.953739653     -76.4026065
9.039                0.953622693     -76.5226178
9.04                 0.953505377     -76.6429371
9.041                0.953387705     -76.7635654
9.042                0.953269676     -76.8845036
9.043                0.953151289     -77.0057526
9.044                0.953032544     -77.1273135
9.045                0.952913439     -77.2491872
9.046                0.952793975     -77.3713747
9.047                0.952674149     -77.4938769
9.048                0.952553962     -77.6166949
9.049                0.952433412     -77.7398295
9.05                 0.952312499     -77.8632818
9.051                0.952191222     -77.9870527
9.052                 0.95206958     -78.1111433
9.053                0.951947573     -78.2355545
9.054                0.951825199     -78.3602873
9.055                0.951702458     -78.4853427
9.056                 0.95157935     -78.6107217
9.057                0.951455873     -78.7364252
9.058                0.951332027     -78.8624543
9.059                 0.95120781       -78.98881
9.06                 0.951083223     -79.1154932
9.061                0.950958265      -79.242505
9.062                0.950832934     -79.3698464
9.063                0.950707231     -79.4975184
9.064                0.950581154     -79.6255219
9.065                0.950454702      -79.753858
9.066                0.950327876     -79.8825278
9.067                0.950200674     -80.0115322
9.068                0.950073096     -80.1408722
9.069                 0.94994514     -80.2705489
9.07                 0.949816807     -80.4005632
9.071                0.949688096     -80.5309163
9.072                0.949559006     -80.6616091
9.073                0.949429535     -80.7926426
9.074                0.949299685      -80.924018
9.075                0.949169454     -81.0557361
9.076                0.949038841     -81.1877981
9.077                0.948907846      -81.320205
9.078                0.948776468     -81.4529579
9.079                0.948644707     -81.5860576
9.08                 0.948512561     -81.7195054
9.081                0.948380031     -81.8533023
9.082                0.948247116     -81.9874492
9.083                0.948113815     -82.1219473
9.084                0.947980128     -82.2567976
9.085                0.947846053     -82.3920011
9.086                0.947711592     -82.5275589
9.087                0.947576742      -82.663472
9.088                0.947441504     -82.7997416
9.089                0.947305876     -82.9363686
9.09                  0.94716986     -83.0733541
9.091                0.947033452     -83.2106992
9.092                0.946896655      -83.348405
9.093                0.946759466     -83.4864725
9.094                0.946621886     -83.6249027
9.095                0.946483913     -83.7636968
9.096                0.946345548     -83.9028558
9.097                 0.94620679     -84.0423808
9.098                0.946067639     -84.1822728
9.099                0.945928094      -84.322533
9.1                  0.945788155     -84.4631624
9.101                 0.94564782      -84.604162
9.102                0.945507091     -84.7455331
9.103                0.945365967     -84.8872765
9.104                0.945224446     -85.0293935
9.105                0.945082529     -85.1718851
9.106                0.944940216     -85.3147524
9.107                0.944797506     -85.4579964
9.108                0.944654398     -85.6016184
9.109                0.944510893     -85.7456192
9.11                  0.94436699     -85.8900001
9.111                0.944222689     -86.0347622
9.112                0.944077989     -86.1799064
9.113                0.943932891      -86.325434
9.114                0.943787394      -86.471346
9.115                0.943641497     -86.6176434
9.116                0.943495201     -86.7643275
9.117                0.943348505     -86.9113993
9.118                0.943201409     -87.0588599
9.119                0.943053913     -87.2067103
9.12                 0.942906017     -87.3549518
9.121                0.942757721     -87.5035853
9.122                0.942609024      -87.652612
9.123                0.942459926      -87.802033
9.124                0.942310427     -87.9518495
9.125                0.942160527     -88.1020624
9.126                0.942010227     -88.2526729
9.127                0.941859525     -88.4036822
9.128                0.941708422     -88.5550912
9.129                0.941556917     -88.7069012
9.13                 0.941405012     -88.8591132
9.131                0.941252705     -89.0117283
9.132                0.941099997     -89.1647477
9.133                0.940946888     -89.3181725
9.134                0.940793377     -89.4720037
9.135                0.940639465     -89.6262424
9.136                0.940485153     -89.7808899
9.137                0.940330439     -89.9359471
9.138                0.940175324     -90.0914152
9.139                0.940019809     -90.2472953
9.14                 0.939863893     -90.4035886
9.141                0.939707576      -90.560296
9.142                 0.93955086     -90.7174188
9.143                0.939393743     -90.8749581
9.144                0.939236226     -91.0329149
9.145                 0.93907831     -91.1912903
9.146                0.938919994     -91.3500856
9.147                0.938761279     -91.5093017
9.148                0.938602166     -91.6689398
9.149                0.938442654     -91.8290009
9.15                 0.938282744     -91.9894863
9.151                0.938122436      -92.150397
9.152                 0.93796173     -92.3117341
9.153                0.937800628     -92.4734988
9.154                0.937639129      -92.635692
9.155                0.937477234      -92.798315
9.156                0.937314943     -92.9613689
9.157                0.937152257     -93.1248546
9.158                0.936989176     -93.2887735
9.159                0.936825702     -93.4531264
9.16                 0.936661833     -93.6179146
9.161                0.936497572     -93.7831392
9.162                0.936332918     -93.9488011
9.163                0.936167872     -94.1149017
9.164                0.936002436     -94.2814418
9.165                0.935836609     -94.4484227
9.166                0.935670392     -94.6158454
9.167                0.935503786      -94.783711
9.168                0.935336791     -94.9520206
9.169                0.935169409     -95.1207754
9.17                 0.935001641     -95.2899762
9.171                0.934833487     -95.4596244
9.172                0.934664947     -95.6297209
9.173                0.934496023     -95.8002668
9.174                0.934326717     -95.9712633
9.175                0.934157027     -96.1427113
9.176                0.933986957      -96.314612
9.177                0.933816506     -96.4869664
9.178                0.933645675     -96.6597756
9.179                0.933474467     -96.8330407
9.18                 0.933302881     -97.0067628
9.181                0.933130919     -97.1809429
9.182                0.932958582      -97.355582
9.183                0.932785871     -97.5306812
9.184                0.932612787     -97.7062417
9.185                0.932439332     -97.8822643
9.186                0.932265507     -98.0587503
9.187                0.932091313     -98.2357006
9.188                0.931916751     -98.4131163
9.189                0.931741823     -98.5909984
9.19                 0.931566529      -98.769348
9.191                0.931390873      -98.948166
9.192                0.931214854     -99.1274536
9.193                0.931038475     -99.3072118
9.194                0.930861736     -99.4874416
9.195                 0.93068464     -99.6681439
9.196                0.930507188     -99.8493199
9.197                0.930329382      -100.03097
9.198                0.930151223     -100.213097
9.199                0.929972712       -100.3957
9.2                  0.929793853      -100.57878
9.201                0.929614645     -100.762339
9.202                0.929435092     -100.946378
9.203                0.929255194     -101.130898
9.204                0.929074955     -101.315899
9.205                0.928894374     -101.501383
9.206                0.928713456      -101.68735
9.207                0.928532201     -101.873802
9.208                0.928350611     -102.060739
9.209                0.928168689     -102.248163
9.21                 0.927986436     -102.436074
9.211                0.927803855     -102.624474
9.212                0.927620947     -102.813363
9.213                0.927437716     -103.002742
9.214                0.927254163     -103.192613
9.215                 0.92707029     -103.382976
9.216                  0.9268861     -103.573831
9.217                0.926701594     -103.765181
9.218                0.926516777     -103.957026
9.219                0.926331649     -104.149366
9.22                 0.926146213     -104.342203
9.221                0.925960472     -104.535538
9.222                0.925774428     -104.729371
9.223                0.925588084     -104.923703
9.224                0.925401443     -105.118536
9.225                0.925214506      -105.31387
9.226                0.925027277     -105.509706
9.227                0.924839759     -105.706044
9.228                0.924651955     -105.902886
9.229                0.924463866     -106.100233
9.23                 0.924275496     -106.298085
9.231                0.924086849     -106.496443
9.232                0.923897926     -106.695309
9.233                0.923708731     -106.894682
9.234                0.923519267     -107.094563
9.235                0.923329537     -107.294954
9.236                0.923139544     -107.495855
9.237                0.922949291     -107.697267
9.238                0.922758782     -107.899191
9.239                 0.92256802     -108.101627
9.24                 0.922377008     -108.304577
9.241                0.922185749      -108.50804
9.242                0.921994247     -108.712018
9.243                0.921802506     -108.916512
9.244                0.921610528     -109.121522
9.245                0.921418318     -109.327048
9.246                0.921225879     -109.533092
9.247                0.921033214     -109.739655
9.248                0.920840328     -109.946736
9.249                0.920647224     -110.154337
9.25                 0.920453905     -110.362458
9.251                0.920260377       -110.5711
9.252                0.920066641     -110.780263
9.253                0.919872704     -110.989949
9.254                0.919678568     -111.200157
9.255                0.919484237     -111.410889
9.256                0.919289717     -111.622145
9.257                0.919095009     -111.833925
9.258                 0.91890012     -112.046231
9.259                0.918705053     -112.259062
9.26                 0.918509813      -112.47242
9.261                0.918314403     -112.686304
9.262                0.918118829     -112.900715
9.263                0.917923094     -113.115655
9.264                0.917727203     -113.331123
9.265                0.917531161     -113.547119
9.266                0.917334972     -113.763645
9.267                0.917138641     -113.980701
9.268                0.916942173     -114.198287
9.269                0.916745572     -114.416404
9.27                 0.916548843     -114.635051
9.271                0.916351992     -114.854231
9.272                0.916155022     -115.073942
9.273                0.915957939     -115.294185
9.274                0.915760748     -115.514962
9.275                0.915563454     -115.736271
9.276                0.915366063     -115.958114
9.277                0.915168578      -116.18049
9.278                0.914971006     -116.403401
9.279                0.914773352     -116.626846
9.28                 0.914575621     -116.850825
9.281                0.914377819      -117.07534
9.282                0.914179951     -117.300389
9.283                0.913982022     -117.525975
9.284                0.913784038     -117.752095
9.285                0.913586005     -117.978752
9.286                0.913387928     -118.205945
9.287                0.913189813     -118.433674
9.288                0.912991666      -118.66194
9.289                0.912793493     -118.890742
9.29                 0.912595299     -119.120081
9.291                0.912397091     -119.349957
9.292                0.912198874      -119.58037
9.293                0.912000655      -119.81132
9.294                0.911802439     -120.042807
9.295                0.911604233     -120.274831
9.296                0.911406043     -120.507393
9.297                0.911207875     -120.740491
9.298                0.911009735     -120.974127
9.299                0.910811631     -121.208301
9.3                  0.910613568     -121.443011
9.301                0.910415553     -121.678259
9.302                0.910217592     -121.914043
9.303                0.910019692     -122.150365
9.304                0.909821859     -122.387224
9.305                0.909624101     -122.624619
9.306                0.909426424     -122.862551
9.307                0.909228835      -123.10102
9.308                 0.90903134     -123.340025
9.309                0.908833947     -123.579565
9.31                 0.908636663     -123.819642
9.311                0.908439494     -124.060255
9.312                0.908242448     -124.301403
9.313                0.908045531     -124.543085
9.314                0.907848752     -124.785303
9.315                0.907652116     -125.028055
9.316                0.907455632     -125.271342
9.317                0.907259307     -125.515162
9.318                0.907063148     -125.759516
9.319                0.906867162     -126.004402
9.32                 0.906671358     -126.249821
9.321                0.906475742     -126.495773
9.322                0.906280322     -126.742256
9.323                0.906085107      -126.98927
9.324                0.905890102     -127.236815
9.325                0.905695317      -127.48489
9.326                0.905500759     -127.733495
9.327                0.905306435     -127.982628
9.328                0.905112355      -128.23229
9.329                0.904918525      -128.48248
9.33                 0.904724953     -128.733198
9.331                0.904531649     -128.984441
9.332                0.904338619     -129.236211
9.333                0.904145871     -129.488505
9.334                0.903953415     -129.741324
9.335                0.903761258     -129.994667
9.336                0.903569408     -130.248532
9.337                0.903377874      -130.50292
9.338                0.903186664     -130.757829
9.339                0.902995787     -131.013258
9.34                  0.90280525     -131.269206
9.341                0.902615063     -131.525674
9.342                0.902425234     -131.782659
9.343                0.902235771      -132.04016
9.344                0.902046683     -132.298178
9.345                0.901857978      -132.55671
9.346                0.901669666     -132.815755
9.347                0.901481755     -133.075314
9.348                0.901294254     -133.335384
9.349                0.901107171     -133.595965
9.35                 0.900920515     -133.857055
9.351                0.900734296     -134.118653
9.352                0.900548522     -134.380758
9.353                0.900363202      -134.64337
9.354                0.900178345     -134.906485
9.355                0.899993959     -135.170105
9.356                0.899810055     -135.434226
9.357                0.899626641     -135.698848
9.358                0.899443726      -135.96397
9.359                 0.89926132      -136.22959
9.36                  0.89907943     -136.495706
9.361                0.898898068     -136.762318
9.362                0.898717241     -137.029424
9.363                0.898536959     -137.297022
9.364                0.898357232     -137.565111
9.365                0.898178068     -137.833689
9.366                0.897999477     -138.102756
9.367                0.897821469     -138.372308
9.368                0.897644052     -138.642346
9.369                0.897467236     -138.912866
9.37                  0.89729103     -139.183868
9.371                0.897115445     -139.455349
9.372                0.896940488     -139.727309
9.373                 0.89676617     -139.999745
9.374                0.896592501     -140.272655
9.375                0.896419489     -140.546039
9.376                0.896247144     -140.819893
9.377                0.896075476     -141.094216
9.378                0.895904494     -141.369006
9.379                0.895734208     -141.644262
9.38                 0.895564627     -141.919981
9.381                0.895395761     -142.196161
9.382                 0.89522762     -142.472801
9.383                0.895060212     -142.749898
9.384                0.894893548     -143.027451
9.385                0.894727637     -143.305457
9.386                 0.89456249     -143.583914
9.387                0.894398114      -143.86282
9.388                 0.89423452     -144.142173
9.389                0.894071718     -144.421971
9.39                 0.893909718     -144.702211
9.391                0.893748528     -144.982891
9.392                0.893588158     -145.264009
9.393                0.893428618     -145.545564
9.394                0.893269918     -145.827551
9.395                0.893112067     -146.109969
9.396                0.892955075     -146.392816
