! TOUCHSTONE file generated by CST DESIGN STUDIO
! Date and time: Tue Feb  4 17:31:01 2025
! Project name: C:\Work\MatlabApps\UnitCellOptimizationMatlab\CST\unitcell.cst
! Tree item: Tasks\Sweep1\SPara1\S-Parameters
! Header version: 2024
! Port assignment regex: !\s*Touchstone port\s*([0-9]+)\s*=\s*(CST MWS port|CST DES external port|CST DES block port)\s*(.+)\s* \(\"(.*)\"\)(\s*mode\s*([0-9]+))?.*
! Touchstone port assignment:
! Touchstone port 1 = CST DES external port 1 ("")
# GHz S MA R 50
9                    0.987997874        -72.4354
9.001                0.987970681     -72.5411499
9.002                0.987943407     -72.6471533
9.003                0.987916051     -72.7534111
9.004                0.987888614     -72.8599239
9.005                0.987861095     -72.9666925
9.006                0.987833493     -73.0737177
9.007                 0.98780581     -73.1810003
9.008                0.987778044      -73.288541
9.009                0.987750196     -73.3963405
9.01                 0.987722265     -73.5043997
9.011                 0.98769425     -73.6127194
9.012                0.987666153     -73.7213002
9.013                0.987637972      -73.830143
9.014                0.987609708     -73.9392486
9.015                 0.98758136     -74.0486177
9.016                0.987552928     -74.1582512
9.017                0.987524411     -74.2681497
9.018                0.987495811     -74.3783141
9.019                0.987467125     -74.4887453
9.02                 0.987438355     -74.5994438
9.021                  0.9874095     -74.7104107
9.022                 0.98738056     -74.8216466
9.023                0.987351535     -74.9331523
9.024                0.987322424     -75.0449287
9.025                0.987293227     -75.1569766
9.026                0.987263944     -75.2692967
9.027                0.987234575     -75.3818898
9.028                 0.98720512     -75.4947569
9.029                0.987175579     -75.6078985
9.03                  0.98714595     -75.7213157
9.031                0.987116235     -75.8350092
9.032                0.987086433     -75.9489798
9.033                0.987056544     -76.0632283
9.034                0.987026567     -76.1777555
9.035                0.986996502     -76.2925623
9.036                 0.98696635     -76.4076495
9.037                0.986936109     -76.5230178
9.038                0.986905781     -76.6386682
9.039                0.986875364     -76.7546015
9.04                 0.986844859     -76.8708184
9.041                0.986814264     -76.9873199
9.042                0.986783581     -77.1041067
9.043                0.986752809     -77.2211797
9.044                0.986721948     -77.3385397
9.045                0.986690997     -77.4561876
9.046                0.986659957     -77.5741241
9.047                0.986628827     -77.6923502
9.048                0.986597607     -77.8108667
9.049                0.986566296     -77.9296744
9.05                 0.986534896     -78.0487742
9.051                0.986503405     -78.1681669
9.052                0.986471823     -78.2878533
9.053                0.986440151     -78.4078344
9.054                0.986408387      -78.528111
9.055                0.986376533     -78.6486839
9.056                0.986344587     -78.7695541
9.057                0.986312549     -78.8907222
9.058                 0.98628042     -79.0121893
9.059                0.986248199     -79.1339562
9.06                 0.986215886     -79.2560237
9.061                0.986183481     -79.3783927
9.062                0.986150984     -79.5010641
9.063                0.986118395     -79.6240387
9.064                0.986085712     -79.7473174
9.065                0.986052937     -79.8709012
9.066                0.986020069     -79.9947908
9.067                0.985987108     -80.1189871
9.068                0.985954054     -80.2434911
9.069                0.985920907     -80.3683036
9.07                 0.985887666     -80.4934254
9.071                0.985854331     -80.6188575
9.072                0.985820903     -80.7446008
9.073                 0.98578738      -80.870656
9.074                0.985753764     -80.9970242
9.075                0.985720053     -81.1237063
9.076                0.985686248      -81.250703
9.077                0.985652349     -81.3780153
9.078                0.985618355      -81.505644
9.079                0.985584266     -81.6335902
9.08                 0.985550082     -81.7618546
9.081                0.985515804     -81.8904383
9.082                 0.98548143     -82.0193419
9.083                0.985446961     -82.1485666
9.084                0.985412396     -82.2781131
9.085                0.985377736     -82.4079824
9.086                0.985342981     -82.5381754
9.087                0.985308129     -82.6686929
9.088                0.985273182      -82.799536
9.089                0.985238139     -82.9307054
9.09                    0.985203     -83.0622022
9.091                0.985167765     -83.1940272
9.092                0.985132433     -83.3261813
9.093                0.985097005     -83.4586655
9.094                 0.98506148     -83.5914806
9.095                0.985025859     -83.7246276
9.096                0.984990142     -83.8581074
9.097                0.984954327      -83.991921
9.098                0.984918416     -84.1260691
9.099                0.984882407     -84.2605528
9.1                  0.984846302      -84.395373
9.101                0.984810099     -84.5305306
9.102                  0.9847738     -84.6660265
9.103                0.984737403     -84.8018616
9.104                0.984700908     -84.9380369
9.105                0.984664316     -85.0745533
9.106                0.984627627     -85.2114117
9.107                 0.98459084     -85.3486131
9.108                0.984553955     -85.4861583
9.109                0.984516973     -85.6240484
9.11                 0.984479893     -85.7622842
9.111                0.984442715     -85.9008667
9.112                0.984405439     -86.0397967
9.113                0.984368065     -86.1790754
9.114                0.984330593     -86.3187034
9.115                0.984293024     -86.4586819
9.116                0.984255356     -86.5990118
9.117                 0.98421759     -86.7396939
9.118                0.984179725     -86.8807292
9.119                0.984141763     -87.0221187
9.12                 0.984103703     -87.1638633
9.121                0.984065544     -87.3059639
9.122                0.984027287     -87.4484214
9.123                0.983988931     -87.5912369
9.124                0.983950478     -87.7344112
9.125                0.983911926     -87.8779453
9.126                0.983873275     -88.0218401
9.127                0.983834527     -88.1660966
9.128                 0.98379568     -88.3107157
9.129                0.983756735     -88.4556984
9.13                 0.983717691     -88.6010455
9.131                0.983678549     -88.7467581
9.132                0.983639309     -88.8928371
9.133                 0.98359997     -89.0392833
9.134                0.983560533     -89.1860979
9.135                0.983520998     -89.3332816
9.136                0.983481365     -89.4808355
9.137                0.983441634     -89.6287605
9.138                0.983401804     -89.7770575
9.139                0.983361876     -89.9257275
9.14                 0.983321851     -90.0747714
9.141                0.983281727     -90.2241901
9.142                0.983241505     -90.3739847
9.143                0.983201185      -90.524156
9.144                0.983160768      -90.674705
9.145                0.983120253     -90.8256326
9.146                 0.98307964     -90.9769398
9.147                0.983038929     -91.1286274
9.148                0.982998121     -91.2806966
9.149                0.982957215     -91.4331481
9.15                 0.982916212      -91.585983
9.151                0.982875112     -91.7392021
9.152                0.982833915     -91.8928064
9.153                 0.98279262     -92.0467969
9.154                0.982751229     -92.2011745
9.155                 0.98270974       -92.35594
9.156                0.982668155     -92.5110945
9.157                0.982626474     -92.6666389
9.158                0.982584695     -92.8225742
9.159                0.982542821     -92.9789012
9.16                  0.98250085     -93.1356208
9.161                0.982458783     -93.2927341
9.162                0.982416621     -93.4502419
9.163                0.982374362     -93.6081452
9.164                0.982332008      -93.766445
9.165                0.982289559      -93.925142
9.166                0.982247014     -94.0842373
9.167                0.982204374     -94.2437317
9.168                0.982161639     -94.4036263
9.169                 0.98211881     -94.5639219
9.17                 0.982075886     -94.7246195
9.171                0.982032868     -94.8857199
9.172                0.981989755      -95.047224
9.173                0.981946549     -95.2091329
9.174                0.981903249     -95.3714474
9.175                0.981859856     -95.5341684
9.176                0.981816369     -95.6972968
9.177                 0.98177279     -95.8608335
9.178                0.981729117     -96.0247795
9.179                0.981685353     -96.1891357
9.18                 0.981641496     -96.3539028
9.181                0.981597547      -96.519082
9.182                0.981553506      -96.684674
9.183                0.981509374     -96.8506797
9.184                0.981465151        -97.0171
9.185                0.981420837     -97.1839359
9.186                0.981376432     -97.3511882
9.187                0.981331937     -97.5188578
9.188                0.981287352     -97.6869456
9.189                0.981242678     -97.8554525
9.19                 0.981197914     -98.0243793
9.191                0.981153062     -98.1937269
9.192                 0.98110812     -98.3634962
9.193                0.981063091     -98.5336881
9.194                0.981017973     -98.7043034
9.195                0.980972768      -98.875343
9.196                0.980927476     -99.0468077
9.197                0.980882097     -99.2186985
9.198                0.980836632     -99.3910161
9.199                 0.98079108     -99.5637615
9.2                  0.980745443     -99.7369354
9.201                0.980699721     -99.9105388
9.202                0.980653914     -100.084572
9.203                0.980608022     -100.259037
9.204                0.980562047     -100.433934
9.205                0.980515988     -100.609263
9.206                0.980469846     -100.785026
9.207                0.980423621     -100.961223
9.208                0.980377315     -101.137856
9.209                0.980330926     -101.314925
9.21                 0.980284456      -101.49243
9.211                0.980237906     -101.670373
9.212                0.980191275     -101.848755
9.213                0.980144565     -102.027576
9.214                0.980097776     -102.206837
9.215                0.980050908     -102.386539
9.216                0.980003961     -102.566682
9.217                0.979956938     -102.747268
9.218                0.979909837     -102.928297
9.219                0.979862659      -103.10977
9.22                 0.979815406     -103.291687
9.221                0.979768077     -103.474051
9.222                0.979720674      -103.65686
9.223                0.979673197     -103.840116
9.224                0.979625646      -104.02382
9.225                0.979578022     -104.207973
9.226                0.979530326     -104.392575
9.227                0.979482558     -104.577627
9.228                0.979434719     -104.763129
9.229                0.979386809     -104.949083
9.23                 0.979338831     -105.135489
9.231                0.979290782     -105.322347
9.232                0.979242666     -105.509659
9.233                0.979194482     -105.697426
9.234                0.979146231     -105.885647
9.235                0.979097914     -106.074324
9.236                0.979049531     -106.263456
9.237                0.979001084     -106.453046
9.238                0.978952572     -106.643094
9.239                0.978903997     -106.833599
9.24                  0.97885536     -107.024564
9.241                0.978806661     -107.215988
9.242                0.978757901     -107.407872
9.243                0.978709081     -107.600217
9.244                0.978660201     -107.793023
9.245                0.978611263     -107.986292
9.246                0.978562268     -108.180022
9.247                0.978513215     -108.374217
9.248                0.978464106     -108.568874
9.249                0.978414943     -108.763997
9.25                 0.978365724     -108.959584
9.251                0.978316453     -109.155637
9.252                0.978267129     -109.352156
9.253                0.978217753     -109.549141
9.254                0.978168327     -109.746594
9.255                0.978118851     -109.944514
9.256                0.978069326     -110.142903
9.257                0.978019754      -110.34176
9.258                0.977970134     -110.541087
9.259                0.977920468     -110.740883
9.26                 0.977870758      -110.94115
9.261                0.977821004     -111.141887
9.262                0.977771206     -111.343096
9.263                0.977721367     -111.544776
9.264                0.977671487     -111.746928
9.265                0.977621567     -111.949553
9.266                0.977571608     -112.152651
9.267                0.977521612     -112.356223
9.268                0.977471578     -112.560268
9.269                 0.97742151     -112.764788
9.27                 0.977371407     -112.969782
9.271                 0.97732127     -113.175252
9.272                0.977271101     -113.381196
9.273                0.977220902     -113.587617
9.274                0.977170672     -113.794514
9.275                0.977120414     -114.001887
9.276                0.977070128     -114.209737
9.277                0.977019815     -114.418064
9.278                0.976969478     -114.626869
9.279                0.976919117     -114.836151
9.28                 0.976868732     -115.045912
9.281                0.976818327     -115.256151
9.282                0.976767901     -115.466868
9.283                0.976717456     -115.678065
9.284                0.976666993      -115.88974
9.285                0.976616514     -116.101895
9.286                 0.97656602      -116.31453
9.287                0.976515512     -116.527644
9.288                0.976464991     -116.741238
9.289                 0.97641446     -116.955312
9.29                 0.976363918     -117.169867
9.291                0.976313368     -117.384902
9.292                0.976262811     -117.600418
9.293                0.976212249     -117.816415
9.294                0.976161682     -118.032893
9.295                0.976111112     -118.249851
9.296                0.976060541     -118.467291
9.297                 0.97600997     -118.685212
9.298                  0.9759594     -118.903614
9.299                0.975908834     -119.122498
9.3                  0.975858271     -119.341863
9.301                0.975807715     -119.561709
9.302                0.975757166     -119.782037
9.303                0.975706626     -120.002846
9.304                0.975656096     -120.224136
9.305                0.975605579     -120.445908
9.306                0.975555075     -120.668162
9.307                0.975504586     -120.890896
9.308                0.975454113     -121.114112
9.309                0.975403659     -121.337809
9.31                 0.975353225     -121.561987
9.311                0.975302813     -121.786646
9.312                0.975252423     -122.011786
9.313                0.975202058     -122.237406
9.314                 0.97515172     -122.463507
9.315                 0.97510141     -122.690088
9.316                0.975051129     -122.917149
9.317                 0.97500088      -123.14469
9.318                0.974950665     -123.372711
9.319                0.974900484     -123.601211
9.32                 0.974850339     -123.830191
9.321                0.974800233     -124.059649
9.322                0.974750168     -124.289586
9.323                0.974700144     -124.520001
9.324                0.974650163     -124.750895
9.325                0.974600228     -124.982266
9.326                0.974550341     -125.214114
9.327                0.974500502      -125.44644
9.328                0.974450714     -125.679242
9.329                0.974400979      -125.91252
9.33                 0.974351299     -126.146274
9.331                0.974301675     -126.380503
9.332                0.974252109     -126.615207
9.333                0.974202604     -126.850385
9.334                 0.97415316     -127.086037
9.335                0.974103781     -127.322163
9.336                0.974054467     -127.558762
9.337                0.974005222     -127.795832
9.338                0.973956046     -128.033375
9.339                0.973906941     -128.271389
9.34                 0.973857911     -128.509873
9.341                0.973808956     -128.748827
9.342                0.973760078     -128.988251
9.343                0.973711281     -129.228143
9.344                0.973662565     -129.468503
9.345                0.973613932     -129.709331
9.346                0.973565386     -129.950625
9.347                0.973516927     -130.192384
9.348                0.973468557     -130.434609
9.349                 0.97342028     -130.677299
9.35                 0.973372097     -130.920452
9.351                0.973324009     -131.164067
9.352                0.973276019     -131.408145
9.353                 0.97322813     -131.652683
9.354                0.973180343     -131.897682
9.355                 0.97313266      -132.14314
9.356                0.973085084     -132.389056
9.357                0.973037616      -132.63543
9.358                0.972990259      -132.88226
9.359                0.972943015     -133.129546
9.36                 0.972895885     -133.377287
9.361                0.972848874     -133.625481
9.362                0.972801981     -133.874127
9.363                 0.97275521     -134.123225
9.364                0.972708563     -134.372774
9.365                0.972662042     -134.622771
9.366                0.972615648     -134.873217
9.367                0.972569386      -135.12411
9.368                0.972523255     -135.375449
9.369                 0.97247726     -135.627232
9.37                 0.972431402      -135.87946
9.371                0.972385683     -136.132129
9.372                0.972340105      -136.38524
9.373                0.972294671      -136.63879
9.374                0.972249384     -136.892779
9.375                0.972204244     -137.147205
9.376                0.972159255     -137.402067
9.377                0.972114419     -137.657363
9.378                0.972069738     -137.913093
9.379                0.972025215     -138.169255
9.38                 0.971980851     -138.425847
9.381                0.971936649     -138.682867
9.382                0.971892611     -138.940316
9.383                 0.97184874      -139.19819
9.384                0.971805038     -139.456489
9.385                0.971761507     -139.715211
9.386                 0.97171815     -139.974355
9.387                0.971674968     -140.233918
9.388                0.971631965       -140.4939
9.389                0.971589142     -140.754298
9.39                 0.971546502     -141.015111
9.391                0.971504046     -141.276338
9.392                0.971461779     -141.537977
9.393                0.971419701     -141.800026
9.394                0.971377815     -142.062482
9.395                0.971336124     -142.325346
9.396                0.971294629     -142.588614
