! TOUCHSTONE file generated by CST DESIGN STUDIO
! Date and time: Tue Feb  4 17:30:50 2025
! Project name: C:\Work\MatlabApps\UnitCellOptimizationMatlab\CST\unitcell.cst
! Tree item: Tasks\Sweep1\SPara1\S-Parameters
! Header version: 2024
! Port assignment regex: !\s*Touchstone port\s*([0-9]+)\s*=\s*(CST MWS port|CST DES external port|CST DES block port)\s*(.+)\s* \(\"(.*)\"\)(\s*mode\s*([0-9]+))?.*
! Touchstone port assignment:
! Touchstone port 1 = CST DES external port 1 ("")
# GHz S MA R 50
9                    0.987036004     -78.5449996
9.001                0.987004069     -78.6646794
9.002                 0.98697204     -78.7846525
9.003                0.986939916     -78.9049196
9.004                0.986907698     -79.0254817
9.005                0.986875384     -79.1463395
9.006                0.986842975     -79.2674939
9.007                0.986810471     -79.3889459
9.008                0.986777871     -79.5106961
9.009                0.986745175     -79.6327455
9.01                 0.986712384      -79.755095
9.011                0.986679496     -79.8777454
9.012                0.986646512     -80.0006975
9.013                0.986613431     -80.1239522
9.014                0.986580254     -80.2475104
9.015                 0.98654698     -80.3713729
9.016                0.986513609     -80.4955406
9.017                0.986480141     -80.6200144
9.018                0.986446575     -80.7447951
9.019                0.986412912     -80.8698836
9.02                 0.986379152     -80.9952808
9.021                0.986345293     -81.1209876
9.022                0.986311336     -81.2470047
9.023                0.986277282     -81.3733331
9.024                0.986243128     -81.4999737
9.025                0.986208877     -81.6269274
9.026                0.986174527      -81.754195
9.027                0.986140077     -81.8817773
9.028                0.986105529     -82.0096754
9.029                0.986070882     -82.1378901
9.03                 0.986036136     -82.2664222
9.031                 0.98600129     -82.3952726
9.032                0.985966345     -82.5244423
9.033                0.985931299     -82.6539321
9.034                0.985896155     -82.7837429
9.035                 0.98586091     -82.9138756
9.036                0.985825564      -83.044331
9.037                0.985790119     -83.1751102
9.038                0.985754573      -83.306214
9.039                0.985718927     -83.4376432
9.04                  0.98568318     -83.5693988
9.041                0.985647332     -83.7014817
9.042                0.985611383     -83.8338928
9.043                0.985575334     -83.9666329
9.044                0.985539183      -84.099703
9.045                 0.98550293      -84.233104
9.046                0.985466577     -84.3668368
9.047                0.985430121     -84.5009023
9.048                0.985393564     -84.6353013
9.049                0.985356906     -84.7700349
9.05                 0.985320145     -84.9051039
9.051                0.985283283     -85.0405092
9.052                0.985246318     -85.1762517
9.053                0.985209251     -85.3123323
9.054                0.985172082     -85.4487521
9.055                0.985134811     -85.5855118
9.056                0.985097437     -85.7226123
9.057                 0.98505996     -85.8600547
9.058                0.985022381     -85.9978398
9.059                0.984984699     -86.1359685
9.06                 0.984946914     -86.2744417
9.061                0.984909027     -86.4132604
9.062                0.984871036     -86.5524255
9.063                0.984832942     -86.6919379
9.064                0.984794745     -86.8317984
9.065                0.984756445     -86.9720082
9.066                0.984718042      -87.112568
9.067                0.984679535     -87.2534787
9.068                0.984640925     -87.3947414
9.069                0.984602211     -87.5363569
9.07                 0.984563394     -87.6783261
9.071                0.984524474       -87.82065
9.072                 0.98448545     -87.9633295
9.073                0.984446322     -88.1063655
9.074                 0.98440709      -88.249759
9.075                0.984367755     -88.3935108
9.076                0.984328316     -88.5376219
9.077                0.984288773     -88.6820932
9.078                0.984249126     -88.8269257
9.079                0.984209376     -88.9721202
9.08                 0.984169522     -89.1176777
9.081                0.984129563     -89.2635991
9.082                0.984089501     -89.4098854
9.083                0.984049335     -89.5565375
9.084                0.984009066     -89.7035562
9.085                0.983968692     -89.8509426
9.086                0.983928214     -89.9986975
9.087                0.983887633     -90.1468219
9.088                0.983846947     -90.2953167
9.089                0.983806158     -90.4441828
9.09                 0.983765265     -90.5934211
9.091                0.983724268     -90.7430327
9.092                0.983683167     -90.8930183
9.093                0.983641963      -91.043379
9.094                0.983600655     -91.1941156
9.095                0.983559243     -91.3452291
9.096                0.983517728     -91.4967203
9.097                0.983476109     -91.6485903
9.098                0.983434386       -91.80084
9.099                 0.98339256     -91.9534702
9.1                  0.983350631     -92.1064819
9.101                0.983308598      -92.259876
9.102                0.983266462     -92.4136534
9.103                0.983224223      -92.567815
9.104                0.983181881     -92.7223619
9.105                0.983139436     -92.8772948
9.106                0.983096887     -93.0326147
9.107                0.983054236     -93.1883225
9.108                0.983011483     -93.3444191
9.109                0.982968627     -93.5009055
9.11                 0.982925668     -93.6577825
9.111                0.982882607     -93.8150511
9.112                0.982839444     -93.9727122
9.113                0.982796178     -94.1307666
9.114                0.982752811     -94.2892154
9.115                0.982709342     -94.4480593
9.116                0.982665771     -94.6072993
9.117                0.982622098     -94.7669364
9.118                0.982578324     -94.9269714
9.119                0.982534449     -95.0874051
9.12                 0.982490473     -95.2482386
9.121                0.982446396     -95.4094727
9.122                0.982402219     -95.5711083
9.123                0.982357941     -95.7331463
9.124                0.982313562     -95.8955876
9.125                0.982269084     -96.0584331
9.126                0.982224506     -96.2216836
9.127                0.982179827     -96.3853401
9.128                 0.98213505     -96.5494034
9.129                0.982090173     -96.7138745
9.13                 0.982045197     -96.8787542
9.131                0.982000123     -97.0440433
9.132                 0.98195495     -97.2097428
9.133                0.981909678     -97.3758536
9.134                0.981864309     -97.5423764
9.135                0.981818842     -97.7093122
9.136                0.981773277     -97.8766619
9.137                0.981727616     -98.0444263
9.138                0.981681857     -98.2126062
9.139                0.981636001     -98.3812026
9.14                  0.98159005     -98.5502162
9.141                0.981544002      -98.719648
9.142                0.981497859     -98.8894987
9.143                 0.98145162     -99.0597693
9.144                0.981405286     -99.2304606
9.145                0.981358858     -99.4015734
9.146                0.981312335     -99.5731085
9.147                0.981265718     -99.7450668
9.148                0.981219007     -99.9174491
9.149                0.981172203     -100.090256
9.15                 0.981125306     -100.263489
9.151                0.981078317     -100.437149
9.152                0.981031235     -100.611235
9.153                0.980984062      -100.78575
9.154                0.980936797     -100.960694
9.155                0.980889442     -101.136067
9.156                0.980841996     -101.311871
9.157                 0.98079446     -101.488107
9.158                0.980746834     -101.664774
9.159                0.980699119     -101.841874
9.16                 0.980651315     -102.019409
9.161                0.980603423     -102.197377
9.162                0.980555443     -102.375781
9.163                0.980507376     -102.554621
9.164                0.980459222     -102.733898
9.165                0.980410982     -102.913612
9.166                0.980362655     -103.093765
9.167                0.980314244     -103.274357
9.168                0.980265748     -103.455388
9.169                0.980217167      -103.63686
9.17                 0.980168503     -103.818774
9.171                0.980119756     -104.001129
9.172                0.980070926     -104.183928
9.173                0.980022014      -104.36717
9.174                0.979973021     -104.550856
9.175                0.979923946     -104.734987
9.176                0.979874792     -104.919564
9.177                0.979825558     -105.104587
9.178                0.979776245     -105.290057
9.179                0.979726853     -105.475975
9.18                 0.979677384     -105.662341
9.181                0.979627838     -105.849157
9.182                0.979578215     -106.036422
9.183                0.979528517     -106.224137
9.184                0.979478743     -106.412304
9.185                0.979428895     -106.600923
9.186                0.979378974     -106.789994
9.187                0.979328979     -106.979518
9.188                0.979278912     -107.169495
9.189                0.979228774     -107.359927
9.19                 0.979178564     -107.550814
9.191                0.979128285     -107.742157
9.192                0.979077937     -107.933956
9.193                 0.97902752     -108.126211
9.194                0.978977035     -108.318924
9.195                0.978926483     -108.512095
9.196                0.978875865     -108.705724
9.197                0.978825182     -108.899812
9.198                0.978774435      -109.09436
9.199                0.978723624     -109.289368
9.2                   0.97867275     -109.484837
9.201                0.978621814     -109.680767
9.202                0.978570817      -109.87716
9.203                 0.97851976     -110.074014
9.204                0.978468644     -110.271331
9.205                0.978417469     -110.469112
9.206                0.978366237     -110.667356
9.207                0.978314948     -110.866065
9.208                0.978263604     -111.065239
9.209                0.978212205     -111.264878
9.21                 0.978160753     -111.464983
9.211                0.978109248     -111.665554
9.212                0.978057691     -111.866592
9.213                0.978006084     -112.068096
9.214                0.977954426     -112.270069
9.215                0.977902721     -112.472509
9.216                0.977850967     -112.675418
9.217                0.977799167     -112.878795
9.218                0.977747322     -113.082642
9.219                0.977695432     -113.286958
9.22                 0.977643499     -113.491744
9.221                0.977591523        -113.697
9.222                0.977539506     -113.902727
9.223                 0.97748745     -114.108925
9.224                0.977435354     -114.315594
9.225                0.977383221     -114.522735
9.226                0.977331051     -114.730348
9.227                0.977278846     -114.938433
9.228                0.977226606      -115.14699
9.229                0.977174334      -115.35602
9.23                 0.977122029     -115.565523
9.231                0.977069695       -115.7755
9.232                 0.97701733      -115.98595
9.233                0.976964938     -116.196873
9.234                0.976912519     -116.408271
9.235                0.976860074     -116.620142
9.236                0.976807605     -116.832489
9.237                0.976755113     -117.045309
9.238                0.976702599     -117.258605
9.239                0.976650064     -117.472375
9.24                 0.976597511      -117.68662
9.241                 0.97654494      -117.90134
9.242                0.976492353     -118.116536
9.243                0.976439751     -118.332207
9.244                0.976387135     -118.548354
9.245                0.976334507     -118.764976
9.246                0.976281869     -118.982073
9.247                0.976229221     -119.199647
9.248                0.976176565     -119.417696
9.249                0.976123903      -119.63622
9.25                 0.976071236     -119.855221
9.251                0.976018565     -120.074697
9.252                0.975965893     -120.294649
9.253                 0.97591322     -120.515077
9.254                0.975860548     -120.735981
9.255                0.975807878      -120.95736
9.256                0.975755213     -121.179214
9.257                0.975702553     -121.401545
9.258                0.975649901      -121.62435
9.259                0.975597257     -121.847631
9.26                 0.975544624     -122.071387
9.261                0.975492003     -122.295618
9.262                0.975439395     -122.520324
9.263                0.975386803     -122.745504
9.264                0.975334228     -122.971159
9.265                0.975281671     -123.197289
9.266                0.975229135     -123.423892
9.267                 0.97517662     -123.650969
9.268                0.975124129      -123.87852
9.269                0.975071664     -124.106544
9.27                 0.975019226     -124.335042
9.271                0.974966816     -124.564012
9.272                0.974914437     -124.793454
9.273                 0.97486209     -125.023369
9.274                0.974809778     -125.253755
9.275                0.974757501     -125.484613
9.276                0.974705262     -125.715942
9.277                0.974653063     -125.947741
9.278                0.974600905     -126.180011
9.279                 0.97454879     -126.412751
9.28                  0.97449672      -126.64596
9.281                0.974444697     -126.879637
9.282                0.974392722     -127.113784
9.283                0.974340798     -127.348398
9.284                0.974288927     -127.583479
9.285                 0.97423711     -127.819028
9.286                 0.97418535     -128.055043
9.287                0.974133648     -128.291523
9.288                0.974082006     -128.528469
9.289                0.974030426      -128.76588
9.29                  0.97397891     -129.003754
9.291                0.973927461     -129.242092
9.292                0.973876079     -129.480892
9.293                0.973824768     -129.720154
9.294                0.973773528     -129.959878
9.295                0.973722363     -130.200062
9.296                0.973671274     -130.440706
9.297                0.973620263     -130.681809
9.298                0.973569333     -130.923371
9.299                0.973518484      -131.16539
9.3                  0.973467721     -131.407866
9.301                0.973417043     -131.650797
9.302                0.973366454     -131.894184
9.303                0.973315956     -132.138025
9.304                0.973265551     -132.382319
9.305                 0.97321524     -132.627066
9.306                0.973165027     -132.872264
9.307                0.973114912     -133.117913
9.308                0.973064899     -133.364011
9.309                 0.97301499     -133.610558
9.31                 0.972965186     -133.857553
9.311                 0.97291549     -134.104994
9.312                0.972865904      -134.35288
9.313                 0.97281643     -134.601211
9.314                0.972767071     -134.849986
9.315                0.972717828     -135.099203
9.316                0.972668704     -135.348861
9.317                0.972619702     -135.598958
9.318                0.972570822     -135.849495
9.319                0.972522068     -136.100469
9.32                 0.972473442      -136.35188
9.321                0.972424946     -136.603726
9.322                0.972376583     -136.856006
9.323                0.972328354     -137.108719
9.324                0.972280261     -137.361863
9.325                0.972232308     -137.615437
9.326                0.972184497      -137.86944
9.327                0.972136829      -138.12387
9.328                0.972089307     -138.378727
9.329                0.972041934     -138.634008
9.33                 0.971994711     -138.889712
9.331                0.971947642     -139.145838
9.332                0.971900727     -139.402384
9.333                 0.97185397     -139.659349
9.334                0.971807374     -139.916732
9.335                0.971760939      -140.17453
9.336                 0.97171467     -140.432742
9.337                0.971668567     -140.691367
9.338                0.971622634     -140.950404
9.339                0.971576872     -141.209849
9.34                 0.971531284     -141.469703
9.341                0.971485873     -141.729962
9.342                0.971440641     -141.990627
9.343                 0.97139559     -142.251694
9.344                0.971350722     -142.513162
9.345                 0.97130604     -142.775029
9.346                0.971261547     -143.037294
9.347                0.971217244     -143.299955
9.348                0.971173134      -143.56301
9.349                0.971129219     -143.826456
9.35                 0.971085502     -144.090294
9.351                0.971041986     -144.354519
9.352                0.970998672     -144.619131
9.353                0.970955562     -144.884128
9.354                 0.97091266     -145.149507
9.355                0.970869968     -145.415267
9.356                0.970827487     -145.681406
9.357                0.970785221     -145.947922
9.358                0.970743172     -146.214812
9.359                0.970701341     -146.482075
9.36                 0.970659733     -146.749708
9.361                0.970618348      -147.01771
9.362                0.970577189     -147.286078
9.363                0.970536258     -147.554811
9.364                0.970495559     -147.823905
9.365                0.970455093      -148.09336
9.366                0.970414862     -148.363172
9.367                 0.97037487     -148.633339
9.368                0.970335117      -148.90386
9.369                0.970295607     -149.174731
9.37                 0.970256343     -149.445952
9.371                0.970217325     -149.717518
9.372                0.970178557     -149.989429
9.373                0.970140041     -150.261681
9.374                0.970101779     -150.534273
9.375                0.970063773     -150.807202
9.376                0.970026026     -151.080465
9.377                0.969988541      -151.35406
9.378                0.969951318     -151.627984
9.379                0.969914362     -151.902236
9.38                 0.969877673     -152.176812
9.381                0.969841254     -152.451711
9.382                0.969805107     -152.726929
9.383                0.969769235     -153.002464
9.384                 0.96973364     -153.278313
9.385                0.969698324     -153.554474
9.386                0.969663289     -153.830945
9.387                0.969628538     -154.107722
9.388                0.969594072     -154.384803
9.389                0.969559894     -154.662185
9.39                 0.969526006     -154.939865
9.391                 0.96949241     -155.217842
9.392                0.969459108     -155.496111
9.393                0.969426103     -155.774671
9.394                0.969393395     -156.053518
9.395                0.969360989      -156.33265
9.396                0.969328885     -156.612064
