! TOUCHSTONE file generated by CST DESIGN STUDIO
! Date and time: Tue Feb  4 17:30:56 2025
! Project name: C:\Work\MatlabApps\UnitCellOptimizationMatlab\CST\unitcell.cst
! Tree item: Tasks\Sweep1\SPara1\S-Parameters
! Header version: 2024
! Port assignment regex: !\s*Touchstone port\s*([0-9]+)\s*=\s*(CST MWS port|CST DES external port|CST DES block port)\s*(.+)\s* \(\"(.*)\"\)(\s*mode\s*([0-9]+))?.*
! Touchstone port assignment:
! Touchstone port 1 = CST DES external port 1 ("")
# GHz S MA R 50
9                    0.987498877      -75.644901
9.001                0.987469209     -75.7578073
9.002                0.987439452     -75.8709877
9.003                0.987409607     -75.9844429
9.004                0.987379673     -76.0981737
9.005                 0.98734965     -76.2121808
9.006                0.987319539     -76.3264652
9.007                0.987289338     -76.4410277
9.008                0.987259048     -76.5558689
9.009                0.987228669     -76.6709899
9.01                 0.987198199     -76.7863913
9.011                 0.98716764      -76.902074
9.012                0.987136991     -77.0180388
9.013                0.987106251     -77.1342865
9.014                0.987075421      -77.250818
9.015                  0.9870445     -77.3676341
9.016                0.987013488     -77.4847357
9.017                0.986982386     -77.6021234
9.018                0.986951191     -77.7197982
9.019                0.986919906      -77.837761
9.02                 0.986888529     -77.9560125
9.021                 0.98685706     -78.0745535
9.022                0.986825499      -78.193385
9.023                0.986793846     -78.3125078
9.024                  0.9867621     -78.4319226
9.025                0.986730262     -78.5516304
9.026                0.986698331      -78.671632
9.027                0.986666307     -78.7919282
9.028                0.986634191     -78.9125199
9.029                0.986601981     -79.0334079
9.03                 0.986569677     -79.1545932
9.031                 0.98653728     -79.2760764
9.032                0.986504789     -79.3978586
9.033                0.986472205     -79.5199405
9.034                0.986439526     -79.6423231
9.035                0.986406753     -79.7650071
9.036                0.986373885     -79.8879934
9.037                0.986340923      -80.011283
9.038                0.986307866     -80.1348766
9.039                0.986274714     -80.2587752
9.04                 0.986241467     -80.3829795
9.041                0.986208125     -80.5074906
9.042                0.986174687     -80.6323091
9.043                0.986141154     -80.7574361
9.044                0.986107525     -80.8828724
9.045                  0.9860738     -81.0086189
9.046                0.986039979     -81.1346764
9.047                0.986006062     -81.2610458
9.048                0.985972048      -81.387728
9.049                0.985937938      -81.514724
9.05                 0.985903731     -81.6420345
9.051                0.985869428     -81.7696604
9.052                0.985835028     -81.8976027
9.053                 0.98580053     -82.0258622
9.054                0.985765936     -82.1544399
9.055                0.985731244     -82.2833365
9.056                0.985696455     -82.4125531
9.057                0.985661568     -82.5420905
9.058                0.985626583     -82.6719495
9.059                  0.9855915     -82.8021312
9.06                  0.98555632     -82.9326363
9.061                0.985521041     -83.0634658
9.062                0.985485664     -83.1946206
9.063                0.985450188     -83.3261015
9.064                0.985414615     -83.4579096
9.065                0.985378942     -83.5900456
9.066                0.985343171     -83.7225106
9.067                0.985307301     -83.8553053
9.068                0.985271332     -83.9884307
9.069                0.985235264     -84.1218878
9.07                 0.985199097     -84.2556774
9.071                 0.98516283     -84.3898004
9.072                0.985126465     -84.5242577
9.073                0.985089999     -84.6590503
9.074                0.985053435     -84.7941791
9.075                 0.98501677      -84.929645
9.076                0.984980006     -85.0654488
9.077                0.984943142     -85.2015916
9.078                0.984906178     -85.3380742
9.079                0.984869114     -85.4748975
9.08                  0.98483195     -85.6120625
9.081                0.984794685     -85.7495701
9.082                0.984757321     -85.8874212
9.083                0.984719856     -86.0256168
9.084                0.984682291     -86.1641577
9.085                0.984644625     -86.3030448
9.086                0.984606859     -86.4422792
9.087                0.984568992     -86.5818616
9.088                0.984531025     -86.7217931
9.089                0.984492957     -86.8620746
9.09                 0.984454788      -87.002707
9.091                0.984416519     -87.1436912
9.092                0.984378148     -87.2850281
9.093                0.984339677     -87.4267188
9.094                0.984301105      -87.568764
9.095                0.984262431     -87.7111648
9.096                0.984223657      -87.853922
9.097                0.984184782     -87.9970366
9.098                0.984145806     -88.1405095
9.099                0.984106728     -88.2843417
9.1                   0.98406755     -88.4285341
9.101                0.984028271     -88.5730875
9.102                 0.98398889      -88.718003
9.103                0.983949408     -88.8632815
9.104                0.983909825     -89.0089239
9.105                0.983870141     -89.1549312
9.106                0.983830356     -89.3013042
9.107                 0.98379047     -89.4480439
9.108                0.983750483     -89.5951512
9.109                0.983710395     -89.7426271
9.11                 0.983670205     -89.8904724
9.111                0.983629915     -90.0386883
9.112                0.983589523     -90.1872754
9.113                 0.98354903     -90.3362349
9.114                0.983508437     -90.4855675
9.115                0.983467743     -90.6352744
9.116                0.983426947     -90.7853563
9.117                0.983386051     -90.9358142
9.118                0.983345054      -91.086649
9.119                0.983303957     -91.2378617
9.12                 0.983262759     -91.3894533
9.121                 0.98322146     -91.5414245
9.122                0.983180061     -91.6937764
9.123                0.983138561     -91.8465099
9.124                0.983096961     -91.9996259
9.125                 0.98305526     -92.1531253
9.126                 0.98301346     -92.3070091
9.127                0.982971559     -92.4612782
9.128                0.982929559     -92.6159335
9.129                0.982887458      -92.770976
9.13                 0.982845258     -92.9264064
9.131                0.982802958     -93.0822259
9.132                0.982760559     -93.2384353
9.133                 0.98271806     -93.3950355
9.134                0.982675462     -93.5520274
9.135                0.982632764      -93.709412
9.136                0.982589968     -93.8671902
9.137                0.982547073     -94.0253628
9.138                0.982504079     -94.1839309
9.139                0.982460986     -94.3428953
9.14                 0.982417796     -94.5022569
9.141                0.982374507     -94.6620166
9.142                 0.98233112     -94.8221754
9.143                0.982287635     -94.9827341
9.144                0.982244052     -95.1436937
9.145                0.982200372      -95.305055
9.146                0.982156595     -95.4668191
9.147                 0.98211272     -95.6289866
9.148                0.982068749     -95.7915587
9.149                0.982024681     -95.9545361
9.15                 0.981980516     -96.1179198
9.151                0.981936256     -96.2817106
9.152                0.981891899     -96.4459094
9.153                0.981847447     -96.6105172
9.154                0.981802899     -96.7755348
9.155                0.981758256     -96.9409631
9.156                0.981713518     -97.1068029
9.157                0.981668686     -97.2730553
9.158                0.981623759      -97.439721
9.159                0.981578738     -97.6068009
9.16                 0.981533623     -97.7742958
9.161                0.981488414     -97.9422068
9.162                0.981443112     -98.1105346
9.163                0.981397718       -98.27928
9.164                 0.98135223      -98.448444
9.165                0.981306651     -98.6180275
9.166                0.981260979     -98.7880312
9.167                0.981215216      -98.958456
9.168                0.981169361     -99.1293028
9.169                0.981123416     -99.3005724
9.17                  0.98107738     -99.4722657
9.171                0.981031254     -99.6443835
9.172                0.980985038     -99.8169266
9.173                0.980938733      -99.989896
9.174                0.980892338     -100.163292
9.175                0.980845855     -100.337116
9.176                0.980799284     -100.511369
9.177                0.980752625     -100.686052
9.178                0.980705878     -100.861164
9.179                0.980659045     -101.036708
9.18                 0.980612125     -101.212684
9.181                0.980565119     -101.389092
9.182                0.980518027     -101.565934
9.183                 0.98047085      -101.74321
9.184                0.980423589     -101.920921
9.185                0.980376243     -102.099069
9.186                0.980328814     -102.277653
9.187                0.980281301     -102.456674
9.188                0.980233706     -102.636134
9.189                0.980186029     -102.816032
9.19                  0.98013827     -102.996371
9.191                0.980090429      -103.17715
9.192                0.980042509      -103.35837
9.193                0.979994508     -103.540032
9.194                0.979946428     -103.722138
9.195                0.979898269     -103.904686
9.196                0.979850031     -104.087679
9.197                0.979801716     -104.271117
9.198                0.979753324     -104.455001
9.199                0.979704855     -104.639331
9.2                  0.979656311     -104.824108
9.201                0.979607691     -105.009333
9.202                0.979558997     -105.195007
9.203                0.979510228      -105.38113
9.204                0.979461386     -105.567703
9.205                0.979412472     -105.754727
9.206                0.979363486     -105.942202
9.207                0.979314428     -106.130129
9.208                  0.9792653     -106.318508
9.209                0.979216102     -106.507341
9.21                 0.979166835     -106.696628
9.211                0.979117499      -106.88637
9.212                0.979068096     -107.076566
9.213                0.979018626     -107.267219
9.214                0.978969089     -107.458328
9.215                0.978919488     -107.649895
9.216                0.978869821     -107.841919
9.217                0.978820091     -108.034402
9.218                0.978770298     -108.227343
9.219                0.978720442     -108.420744
9.22                 0.978670525     -108.614606
9.221                0.978620548     -108.808928
9.222                0.978570511     -109.003711
9.223                0.978520415     -109.198956
9.224                0.978470261     -109.394663
9.225                 0.97842005     -109.590834
9.226                0.978369782     -109.787468
9.227                 0.97831946     -109.984566
9.228                0.978269083     -110.182128
9.229                0.978218652     -110.380156
9.23                 0.978168169     -110.578649
9.231                0.978117635     -110.777608
9.232                0.978067049     -110.977034
9.233                0.978016414     -111.176927
9.234                0.977965731     -111.377287
9.235                0.977914999     -111.578115
9.236                0.977864221     -111.779412
9.237                0.977813398     -111.981178
9.238                 0.97776253     -112.183412
9.239                0.977711618     -112.386117
9.24                 0.977660663     -112.589291
9.241                0.977609667     -112.792936
9.242                0.977558631     -112.997052
9.243                0.977507556      -113.20164
9.244                0.977456442     -113.406699
9.245                0.977405291     -113.612229
9.246                0.977354104     -113.818233
9.247                0.977302882     -114.024709
9.248                0.977251627     -114.231658
9.249                0.977200339     -114.439081
9.25                  0.97714902     -114.646977
9.251                 0.97709767     -114.855347
9.252                0.977046292     -115.064192
9.253                0.976994886     -115.273511
9.254                0.976943453     -115.483305
9.255                0.976891995     -115.693574
9.256                0.976840513     -115.904318
9.257                0.976789009     -116.115538
9.258                0.976737482     -116.327234
9.259                0.976685936     -116.539405
9.26                 0.976634371     -116.752053
9.261                0.976582788     -116.965178
9.262                0.976531188     -117.178778
9.263                0.976479574     -117.392856
9.264                0.976427947      -117.60741
9.265                0.976376307     -117.822442
9.266                0.976324656      -118.03795
9.267                0.976272996     -118.253936
9.268                0.976221327     -118.470399
9.269                0.976169652      -118.68734
9.27                 0.976117972     -118.904758
9.271                0.976066288     -119.122654
9.272                0.976014602     -119.341027
9.273                0.975962915     -119.559878
9.274                0.975911229     -119.779206
9.275                0.975859544     -119.999013
9.276                0.975807864     -120.219296
9.277                0.975756188     -120.440058
9.278                0.975704519     -120.661297
9.279                0.975652858     -120.883014
9.28                 0.975601208     -121.105208
9.281                0.975549568     -121.327879
9.282                0.975497941     -121.551028
9.283                0.975446329     -121.774654
9.284                0.975394733     -121.998757
9.285                0.975343155     -122.223337
9.286                0.975291596     -122.448394
9.287                0.975240058     -122.673927
9.288                0.975188543     -122.899937
9.289                0.975137052     -123.126423
9.29                 0.975085587     -123.353385
9.291                 0.97503415     -123.580823
9.292                0.974982742     -123.808737
9.293                0.974931366     -124.037125
9.294                0.974880022     -124.265989
9.295                0.974828713     -124.495327
9.296                 0.97477744      -124.72514
9.297                0.974726206     -124.955427
9.298                0.974675011     -125.186188
9.299                0.974623859     -125.417422
9.3                  0.974572749     -125.649128
9.301                0.974521685     -125.881308
9.302                0.974470668      -126.11396
9.303                0.974419701     -126.347083
9.304                0.974368784     -126.580678
9.305                 0.97431792     -126.814744
9.306                 0.97426711      -127.04928
9.307                0.974216357     -127.284286
9.308                0.974165663     -127.519761
9.309                0.974115028     -127.755705
9.31                 0.974064456     -127.992117
9.311                0.974013948     -128.228998
9.312                0.973963507     -128.466345
9.313                0.973913133     -128.704159
9.314                0.973862829     -128.942438
9.315                0.973812598     -129.181183
9.316                 0.97376244     -129.420393
9.317                0.973712359     -129.660066
9.318                0.973662355     -129.900203
9.319                0.973612432     -130.140802
9.32                  0.97356259     -130.381863
9.321                0.973512833     -130.623385
9.322                0.973463162     -130.865368
9.323                0.973413579      -131.10781
9.324                0.973364087      -131.35071
9.325                0.973314687     -131.594069
9.326                0.973265381     -131.837884
9.327                0.973216172     -132.082155
9.328                0.973167062     -132.326882
9.329                0.973118053     -132.572063
9.33                 0.973069146     -132.817697
9.331                0.973020345     -133.063784
9.332                0.972971651     -133.310323
9.333                0.972923066     -133.557312
9.334                0.972874593      -133.80475
9.335                0.972826234     -134.052637
9.336                 0.97277799     -134.300971
9.337                0.972729865     -134.549751
9.338                 0.97268186     -134.798977
9.339                0.972633977     -135.048647
9.34                  0.97258622      -135.29876
9.341                0.972538589     -135.549315
9.342                0.972491087     -135.800311
9.343                0.972443717     -136.051746
9.344                0.972396481     -136.303619
9.345                 0.97234938      -136.55593
9.346                0.972302418     -136.808676
9.347                0.972255596     -137.061856
9.348                0.972208917      -137.31547
9.349                0.972162383     -137.569516
9.35                 0.972115996     -137.823993
9.351                0.972069759     -138.078898
9.352                0.972023673     -138.334232
9.353                0.971977742     -138.589992
9.354                0.971931967     -138.846177
9.355                0.971886351     -139.102785
9.356                0.971840896     -139.359816
9.357                0.971795604     -139.617267
9.358                0.971750478     -139.875137
9.359                 0.97170552     -140.133425
9.36                 0.971660732     -140.392129
9.361                0.971616117     -140.651247
9.362                0.971571677     -140.910778
9.363                0.971527415      -141.17072
9.364                0.971483332     -141.431071
9.365                0.971439431     -141.691831
9.366                0.971395715     -141.952997
9.367                0.971352185     -142.214567
9.368                0.971308844      -142.47654
9.369                0.971265695     -142.738914
9.37                  0.97122274     -143.001687
9.371                 0.97117998     -143.264858
9.372                0.971137419     -143.528424
9.373                0.971095059     -143.792384
9.374                0.971052903     -144.056736
9.375                0.971010951     -144.321478
9.376                0.970969208     -144.586608
9.377                0.970927675     -144.852124
9.378                0.970886354     -145.118025
9.379                0.970845248     -145.384308
9.38                  0.97080436     -145.650971
9.381                0.970763691     -145.918012
9.382                0.970723244     -146.185429
9.383                0.970683022     -146.453221
9.384                0.970643026     -146.721385
9.385                0.970603259     -146.989918
9.386                0.970563723      -147.25882
9.387                0.970524422     -147.528087
9.388                0.970485356     -147.797717
9.389                0.970446528     -148.067709
9.39                 0.970407941      -148.33806
9.391                0.970369597     -148.608768
9.392                0.970331498     -148.879831
9.393                0.970293647     -149.151246
9.394                0.970256045      -149.42301
9.395                0.970218696     -149.695123
9.396                0.970181601     -149.967581
