! TOUCHSTONE file generated by CST DESIGN STUDIO
! Date and time: Tue Feb  4 16:42:29 2025
! Project name: C:\Work\MatlabApps\UnitCellOptimizationMatlab\CST\unitcell.cst
! Tree item: Tasks\Sweep1\SPara1\S-Parameters
! Header version: 2024
! Port assignment regex: !\s*Touchstone port\s*([0-9]+)\s*=\s*(CST MWS port|CST DES external port|CST DES block port)\s*(.+)\s* \(\"(.*)\"\)(\s*mode\s*([0-9]+))?.*
! Touchstone port assignment:
! Touchstone port 1 = CST DES external port 1 ("")
# GHz S MA R 50
9                    0.860693526     -129.908841
9.001                0.860246238     -130.244281
9.002                0.859797899     -130.580693
9.003                0.859348532     -130.918077
9.004                 0.85889816     -131.256431
9.005                0.858446806     -131.595754
9.006                0.857994494     -131.936043
9.007                0.857541247     -132.277298
9.008                 0.85708709     -132.619516
9.009                0.856632048     -132.962695
9.01                 0.856176144     -133.306834
9.011                0.855719406      -133.65193
9.012                0.855261858     -133.997982
9.013                0.854803528     -134.344987
9.014                 0.85434444     -134.692943
9.015                0.853884623     -135.041848
9.016                0.853424104     -135.391698
9.017                 0.85296291     -135.742493
9.018                0.852501069     -136.094228
9.019                0.852038609     -136.446902
9.02                  0.85157556     -136.800512
9.021                0.851111951     -137.155055
9.022                 0.85064781     -137.510527
9.023                0.850183168     -137.866927
9.024                0.849718055      -138.22425
9.025                0.849252501     -138.582495
9.026                0.848786538     -138.941656
9.027                0.848320197     -139.301732
9.028                0.847853508     -139.662718
9.029                0.847386504     -140.024612
9.03                 0.846919218     -140.387409
9.031                0.846451681     -140.751107
9.032                0.845983928       -141.1157
9.033                 0.84551599     -141.481185
9.034                0.845047902     -141.847559
9.035                0.844579697     -142.214817
9.036                 0.84411141     -142.582955
9.037                0.843643075     -142.951969
9.038                0.843174727     -143.321855
9.039                0.842706401     -143.692608
9.04                 0.842238132     -144.064223
9.041                0.841769957     -144.436696
9.042                0.841301911     -144.810023
9.043                 0.84083403     -145.184198
9.044                0.840366351     -145.559217
9.045                0.839898911     -145.935075
9.046                0.839431748     -146.311766
9.047                0.838964897     -146.689286
9.048                0.838498397     -147.067629
9.049                0.838032287      -147.44679
9.05                 0.837566603     -147.826764
9.051                0.837101384     -148.207544
9.052                0.836636669     -148.589126
9.053                0.836172496     -148.971504
9.054                0.835708905     -149.354671
9.055                0.835245934     -149.738622
9.056                0.834783624     -150.123352
9.057                0.834322013     -150.508853
9.058                0.833861142      -150.89512
9.059                 0.83340105     -151.282146
9.06                 0.832941778     -151.669925
9.061                0.832483366     -152.058451
9.062                0.832025854     -152.447716
9.063                0.831569283     -152.837716
9.064                0.831113693     -153.228441
9.065                0.830659126     -153.619887
9.066                0.830205622     -154.012045
9.067                0.829753223     -154.404909
9.068                0.829301969     -154.798472
9.069                0.828851903     -155.192727
9.07                 0.828403064     -155.587666
9.071                0.827955496     -155.983281
9.072                0.827509239     -156.379566
9.073                0.827064334     -156.776513
9.074                0.826620824     -157.174114
9.075                 0.82617875     -157.572361
9.076                0.825738154     -157.971247
9.077                0.825299078     -158.370764
9.078                0.824861562     -158.770903
9.079                 0.82442565     -159.171657
9.08                 0.823991382     -159.573018
9.081                0.823558801     -159.974976
9.082                0.823127947     -160.377524
9.083                0.822698863     -160.780654
9.084                 0.82227159     -161.184357
9.085                0.821846169     -161.588623
9.086                0.821422642     -161.993446
9.087                0.821001051     -162.398815
9.088                0.820581436     -162.804722
9.089                0.820163839     -163.211159
9.09                 0.819748301     -163.618115
9.091                0.819334862     -164.025583
9.092                0.818923564     -164.433552
9.093                0.818514446     -164.842014
9.094                 0.81810755      -165.25096
9.095                0.817702916     -165.660379
9.096                0.817300584     -166.070263
9.097                0.816900593     -166.480602
9.098                0.816502984     -166.891386
9.099                0.816107796     -167.302606
9.1                  0.815715068     -167.714252
9.101                 0.81532484     -168.126315
9.102                 0.81493715     -168.538784
9.103                0.814552037      -168.95165
9.104                0.814169539     -169.364902
9.105                0.813789695      -169.77853
9.106                0.813412541     -170.192525
9.107                0.813038116     -170.606877
9.108                0.812666457     -171.021574
9.109                  0.8122976     -171.436607
9.11                 0.811931582     -171.851966
9.111                 0.81156844     -172.267639
9.112                0.811208209     -172.683618
9.113                0.810850924      -173.09989
9.114                0.810496622     -173.516446
9.115                0.810145336     -173.933275
9.116                0.809797101     -174.350367
9.117                0.809451952      -174.76771
9.118                0.809109921     -175.185295
9.119                0.808771043      -175.60311
9.12                 0.808435349     -176.021144
9.121                0.808102873     -176.439387
9.122                0.807773646     -176.857828
9.123                0.807447699     -177.276456
9.124                0.807125065      -177.69526
9.125                0.806805773     -178.114229
9.126                0.806489853     -178.533352
9.127                0.806177336     -178.952619
9.128                 0.80586825     -179.372017
9.129                0.805562624     -179.791536
9.13                 0.805260487      179.788834
9.131                0.804961866      179.369106
9.132                0.804666788      178.949291
9.133                 0.80437528      178.529399
9.134                0.804087369      178.109441
9.135                0.803803079      177.689429
9.136                0.803522436      177.269374
9.137                0.803245464      176.849288
9.138                0.802972189      176.429181
9.139                0.802702632      176.009064
9.14                 0.802436817      175.588949
9.141                0.802174766      175.168847
9.142                0.801916501      174.748769
9.143                0.801662043      174.328727
9.144                0.801411414      173.908732
9.145                0.801164632      173.488794
9.146                0.800921717      173.068925
9.147                0.800682689      172.649136
9.148                0.800447565      172.229439
9.149                0.800216364      171.809844
9.15                 0.799989102      171.390363
9.151                0.799765795      170.971007
9.152                0.799546461      170.551787
9.153                0.799331113      170.132714
9.154                0.799119767      169.713799
9.155                0.798912436      169.295053
9.156                0.798709135      168.876487
9.157                0.798509876      168.458112
9.158                0.798314671       168.03994
9.159                0.798123531      167.621981
9.16                 0.797936469      167.204245
9.161                0.797753493      166.786745
9.162                0.797574615       166.36949
9.163                0.797399843      165.952492
9.164                0.797229185      165.535761
9.165                0.797062649      165.119307
9.166                0.796900243      164.703143
9.167                0.796741974      164.287278
9.168                0.796587847      163.871723
9.169                0.796437868      163.456488
9.17                 0.796292041      163.041584
9.171                0.796150372      162.627021
9.172                0.796012863       162.21281
9.173                0.795879517      161.798962
9.174                0.795750337      161.385485
9.175                0.795625324      160.972391
9.176                0.795504481       160.55969
9.177                0.795387807      160.147392
9.178                0.795275302      159.735506
9.179                0.795166966      159.324044
9.18                 0.795062797      158.913014
9.181                0.794962794      158.502427
9.182                0.794866955      158.092292
9.183                0.794775276      157.682619
9.184                0.794687754      157.273418
9.185                0.794604385      156.864698
9.186                0.794525164      156.456469
9.187                0.794450086      156.048741
9.188                0.794379146      155.641522
9.189                0.794312336      155.234822
9.19                 0.794249651       154.82865
9.191                0.794191082      154.423015
9.192                0.794136623      154.017926
9.193                0.794086264      153.613393
9.194                0.794039996      153.209424
9.195                 0.79399781      152.806027
9.196                0.793959696      152.403213
9.197                0.793925644      152.000988
9.198                0.793895642      151.599363
9.199                0.793869679      151.198344
9.2                  0.793847743      150.797942
9.201                0.793829822      150.398163
9.202                0.793815903      149.999017
9.203                0.793805971       149.60051
9.204                0.793800015      149.202652
9.205                0.793798018      148.805451
9.206                0.793799967      148.408913
9.207                0.793805846      148.013047
9.208                 0.79381564      147.617861
9.209                0.793829332      147.223361
9.21                 0.793846907      146.829557
9.211                0.793868347      146.436454
9.212                0.793893635       146.04406
9.213                0.793922753      145.652383
9.214                0.793955684      145.261429
9.215                0.793992409      144.871205
9.216                0.794032909      144.481719
9.217                0.794077166      144.092977
9.218                0.794125159      143.704986
9.219                0.794176869      143.317752
9.22                 0.794232275      142.931282
9.221                0.794291357      142.545583
9.222                0.794354095       142.16066
9.223                0.794420467      141.776521
9.224                0.794490452       141.39317
9.225                0.794564028      141.010614
9.226                0.794641172       140.62886
9.227                0.794721863      140.247912
9.228                0.794806078      139.867777
9.229                0.794893794       139.48846
9.23                 0.794984988      139.109966
9.231                0.795079637      138.732302
9.232                0.795177717      138.355472
9.233                0.795279203      137.979482
9.234                0.795384073      137.604336
9.235                0.795492301       137.23004
9.236                0.795603863      136.856599
9.237                0.795718735      136.484018
9.238                0.795836891      136.112301
9.239                0.795958307      135.741453
9.24                 0.796082956      135.371479
9.241                0.796210814      135.002382
9.242                0.796341855      134.634168
9.243                0.796476053       134.26684
9.244                0.796613381      133.900404
9.245                0.796753815      133.534861
9.246                0.796897327      133.170218
9.247                0.797043892      132.806477
9.248                0.797193482      132.443643
9.249                0.797346071      132.081718
9.25                 0.797501633      131.720708
9.251                 0.79766014      131.360614
9.252                0.797821565      131.001441
9.253                0.797985882      130.643192
9.254                0.798153063       130.28587
9.255                0.798323082      129.929478
9.256                 0.79849591      129.574019
9.257                 0.79867152      129.219497
9.258                0.798849886      128.865913
9.259                0.799030979      128.513271
9.26                 0.799214772      128.161574
9.261                0.799401238      127.810823
9.262                0.799590349      127.461023
9.263                0.799782077      127.112174
9.264                0.799976394      126.764279
9.265                0.800173274      126.417341
9.266                0.800372688      126.071361
9.267                0.800574609      125.726342
9.268                0.800779009      125.382286
9.269                 0.80098586      125.039194
9.27                 0.801195135      124.697069
9.271                0.801406806      124.355912
9.272                0.801620845      124.015724
9.273                0.801837226      123.676508
9.274                0.802055919      123.338265
9.275                0.802276899      123.000996
9.276                0.802500137      122.664703
9.277                0.802725605      122.329387
9.278                0.802953277      121.995048
9.279                0.803183125      121.661689
9.28                 0.803415122       121.32931
9.281                0.803649241      120.997912
9.282                0.803885454      120.667496
9.283                0.804123735      120.338063
9.284                0.804364056      120.009614
9.285                 0.80460639      119.682149
9.286                0.804850711      119.355669
9.287                0.805096992      119.030174
9.288                0.805345206      118.705665
9.289                0.805595327      118.382142
9.29                 0.805847328      118.059606
9.291                0.806101182      117.738057
9.292                0.806356865      117.417495
9.293                0.806614348       117.09792
9.294                0.806873607      116.779332
9.295                0.807134615      116.461732
9.296                0.807397347      116.145118
9.297                0.807661776      115.829492
9.298                0.807927878      115.514853
9.299                0.808195626        115.2012
9.3                  0.808464996      114.888534
9.301                0.808735962      114.576853
9.302                  0.8090085      114.266159
9.303                0.809282583      113.956449
9.304                0.809558188      113.647724
9.305                 0.80983529      113.339983
9.306                0.810113863      113.033225
9.307                0.810393885       112.72745
9.308                 0.81067533      112.422657
9.309                0.810958175      112.118845
9.31                 0.811242395      111.816014
9.311                0.811527967      111.514162
9.312                0.811814867      111.213288
9.313                0.812103072      110.913392
9.314                0.812392558      110.614472
9.315                0.812683302      110.316528
9.316                0.812975281      110.019558
9.317                0.813268473      109.723561
9.318                0.813562854      109.428535
9.319                0.813858402      109.134481
9.32                 0.814155094      108.841395
9.321                0.814452909      108.549278
9.322                0.814751825      108.258126
9.323                0.815051818       107.96794
9.324                0.815352869      107.678718
9.325                0.815654955      107.390458
9.326                0.815958054      107.103158
9.327                0.816262146      106.816817
9.328                 0.81656721      106.531434
9.329                0.816873224      106.247006
9.33                 0.817180169      105.963532
9.331                0.817488023       105.68101
9.332                0.817796765      105.399439
9.333                0.818106377      105.118816
9.334                0.818416838       104.83914
9.335                0.818728128      104.560409
9.336                0.819040227      104.282621
9.337                0.819353116      104.005774
9.338                0.819666775      103.729866
9.339                0.819981186      103.454896
9.34                 0.820296329       103.18086
9.341                0.820612186      102.907758
9.342                0.820928738      102.635586
9.343                0.821245966      102.364344
9.344                0.821563852      102.094028
9.345                0.821882379      101.824636
9.346                0.822201528      101.556168
9.347                0.822521281      101.288619
9.348                0.822841621      101.021988
9.349                 0.82316253      100.756273
9.35                 0.823483991      100.491471
9.351                0.823805987       100.22758
9.352                0.824128502      99.9645986
9.353                0.824451517      99.7025231
9.354                0.824775018      99.4413518
9.355                0.825098987      99.1810821
9.356                0.825423408      98.9217116
9.357                0.825748265       98.663238
9.358                0.826073542      98.4056588
9.359                0.826399224      98.1489715
9.36                 0.826725295      97.8931736
9.361                0.827051739      97.6382627
9.362                0.827378541      97.3842362
9.363                0.827705687      97.1310917
9.364                0.828033161      96.8788264
9.365                0.828360948       96.627438
9.366                0.828689035      96.3769237
9.367                0.829017406      96.1272811
9.368                0.829346047      95.8785074
9.369                0.829674945      95.6306002
9.37                 0.830004084      95.3835567
9.371                0.830333453      95.1373744
9.372                0.830663036      94.8920504
9.373                 0.83099282      94.6475823
9.374                0.831322793      94.4039673
9.375                0.831652941      94.1612027
9.376                0.831983251      93.9192858
9.377                0.832313709      93.6782139
9.378                0.832644305      93.4379844
9.379                0.832975024      93.1985943
9.38                 0.833305855      92.9600411
9.381                0.833636785       92.722322
9.382                0.833967802      92.4854342
9.383                0.834298895       92.249375
9.384                0.834630051      92.0141415
9.385                0.834961258      91.7797311
9.386                0.835292507      91.5461409
9.387                0.835623784      91.3133682
9.388                0.835955079      91.0814101
9.389                 0.83628638      90.8502638
9.39                 0.836617677      90.6199266
9.391                 0.83694896      90.3903957
9.392                0.837280216      90.1616682
9.393                0.837611437      89.9337412
9.394                 0.83794261      89.7066121
9.395                0.838273727      89.4802779
9.396                0.838604777      89.2547359
