! TOUCHSTONE file generated by CST DESIGN STUDIO
! Date and time: Tue Feb  4 16:42:37 2025
! Project name: C:\Work\MatlabApps\UnitCellOptimizationMatlab\CST\unitcell.cst
! Tree item: Tasks\Sweep1\SPara1\S-Parameters
! Header version: 2024
! Port assignment regex: !\s*Touchstone port\s*([0-9]+)\s*=\s*(CST MWS port|CST DES external port|CST DES block port)\s*(.+)\s* \(\"(.*)\"\)(\s*mode\s*([0-9]+))?.*
! Touchstone port assignment:
! Touchstone port 1 = CST DES external port 1 ("")
# GHz S MA R 50
9                    0.921262179     -83.0316288
9.001                0.920962599     -83.1926642
9.002                0.920661654     -83.3542051
9.003                0.920359338     -83.5162532
9.004                0.920055649     -83.6788103
9.005                0.919750581     -83.8418784
9.006                0.919444131     -84.0054592
9.007                0.919136294     -84.1695547
9.008                0.918827067     -84.3341665
9.009                0.918516445     -84.4992967
9.01                 0.918204425     -84.6649469
9.011                0.917891002     -84.8311192
9.012                0.917576172     -84.9978154
9.013                0.917259932     -85.1650373
9.014                0.916942278     -85.3327868
9.015                0.916623205     -85.5010658
9.016                 0.91630271     -85.6698762
9.017                0.915980789     -85.8392198
9.018                0.915657438     -86.0090986
9.019                0.915332653     -86.1795144
9.02                 0.915006432     -86.3504691
9.021                0.914678769     -86.5219646
9.022                0.914349662     -86.6940029
9.023                0.914019106     -86.8665858
9.024                0.913687099     -87.0397152
9.025                0.913353636      -87.213393
9.026                0.913018714     -87.3876212
9.027                 0.91268233     -87.5624017
9.028                 0.91234448     -87.7377364
9.029                0.912005161     -87.9136272
9.03                  0.91166437      -88.090076
9.031                0.911322103     -88.2670849
9.032                0.910978356     -88.4446556
9.033                0.910633128     -88.6227902
9.034                0.910286414     -88.8014905
9.035                0.909938211     -88.9807586
9.036                0.909588517     -89.1605963
9.037                0.909237329     -89.3410057
9.038                0.908884642     -89.5219886
9.039                0.908530456      -89.703547
9.04                 0.908174766     -89.8856829
9.041                0.907817569     -90.0683982
9.042                0.907458864     -90.2516948
9.043                0.907098648     -90.4355748
9.044                0.906736917     -90.6200401
9.045                0.906373669     -90.8050926
9.046                0.906008902     -90.9907343
9.047                0.905642613     -91.1769672
9.048                0.905274801     -91.3637932
9.049                0.904905461     -91.5512144
9.05                 0.904534593     -91.7392326
9.051                0.904162194     -91.9278499
9.052                0.903788262     -92.1170682
9.053                0.903412794     -92.3068895
9.054                 0.90303579     -92.4973157
9.055                0.902657246     -92.6883489
9.056                0.902277162      -92.879991
9.057                0.901895534      -93.072244
9.058                0.901512363     -93.2651099
9.059                0.901127645     -93.4585906
9.06                  0.90074138     -93.6526881
9.061                0.900353565     -93.8474044
9.062                  0.8999642     -94.0427415
9.063                0.899573283     -94.2387013
9.064                0.899180814     -94.4352858
9.065                 0.89878679     -94.6324971
9.066                 0.89839121     -94.8303369
9.067                0.897994075     -95.0288075
9.068                0.897595382     -95.2279106
9.069                0.897195132     -95.4276483
9.07                 0.896793322     -95.6280226
9.071                0.896389954     -95.8290354
9.072                0.895985026     -96.0306887
9.073                0.895578537     -96.2329845
9.074                0.895170488     -96.4359247
9.075                0.894760878     -96.6395113
9.076                0.894349707     -96.8437462
9.077                0.893936976     -97.0486314
9.078                0.893522683     -97.2541689
9.079                 0.89310683     -97.4603607
9.08                 0.892689416     -97.6672085
9.081                0.892270443     -97.8747146
9.082                0.891849909     -98.0828806
9.083                0.891427817     -98.2917087
9.084                0.891004167     -98.5012008
9.085                0.890578959     -98.7113587
9.086                0.890152195     -98.9221844
9.087                0.889723875     -99.1336799
9.088                0.889294001      -99.345847
9.089                0.888862574     -99.5586878
9.09                 0.888429596      -99.772204
9.091                0.887995068     -99.9863977
9.092                0.887558992     -100.201271
9.093                0.887121369     -100.416825
9.094                0.886682202     -100.633062
9.095                0.886241492     -100.849985
9.096                0.885799242     -101.067594
9.097                0.885355455     -101.285892
9.098                0.884910131     -101.504881
9.099                0.884463275     -101.724562
9.1                  0.884014889     -101.944938
9.101                0.883564976     -102.166009
9.102                0.883113538     -102.387779
9.103                0.882660579     -102.610249
9.104                0.882206103     -102.833421
9.105                0.881750112     -103.057296
9.106                0.881292611     -103.281877
9.107                0.880833602     -103.507165
9.108                0.880373091     -103.733162
9.109                0.879911081      -103.95987
9.11                 0.879447576      -104.18729
9.111                0.878982581     -104.415425
9.112                  0.8785161     -104.644276
9.113                0.878048138     -104.873845
9.114                  0.8775787     -105.104133
9.115                0.877107791     -105.335143
9.116                0.876635416     -105.566876
9.117                 0.87616158     -105.799334
9.118                 0.87568629     -106.032519
9.119                 0.87520955     -106.266431
9.12                 0.874731366     -106.501074
9.121                0.874251746     -106.736449
9.122                0.873770694     -106.972556
9.123                0.873288218     -107.209399
9.124                0.872804323     -107.446978
9.125                0.872319018     -107.685295
9.126                0.871832308     -107.924352
9.127                0.871344201     -108.164151
9.128                0.870854705     -108.404693
9.129                0.870363826     -108.645979
9.13                 0.869871573     -108.888011
9.131                0.869377953     -109.130791
9.132                0.868882976      -109.37432
9.133                0.868386648       -109.6186
9.134                0.867888978     -109.863633
9.135                0.867389976     -110.109418
9.136                 0.86688965      -110.35596
9.137                 0.86638801     -110.603257
9.138                0.865885064     -110.851313
9.139                0.865380823     -111.100128
9.14                 0.864875295     -111.349704
9.141                0.864368492     -111.600043
9.142                0.863860423     -111.851145
9.143                0.863351098     -112.103012
9.144                0.862840529     -112.355645
9.145                0.862328726     -112.609046
9.146                  0.8618157     -112.863216
9.147                0.861301463     -113.118156
9.148                0.860786025     -113.373868
9.149                  0.8602694     -113.630352
9.15                 0.859751598      -113.88761
9.151                0.859232632     -114.145643
9.152                0.858712515     -114.404453
9.153                0.858191258     -114.664039
9.154                0.857668876     -114.924405
9.155                 0.85714538     -115.185549
9.156                0.856620785     -115.447475
9.157                0.856095104     -115.710182
9.158                0.855568351     -115.973672
9.159                0.855040539     -116.237946
9.16                 0.854511684     -116.503005
9.161                  0.8539818     -116.768849
9.162                0.853450901      -117.03548
9.163                0.852919003     -117.302898
9.164                0.852386121     -117.571105
9.165                0.851852271     -117.840101
9.166                0.851317468     -118.109887
9.167                0.850781728     -118.380464
9.168                0.850245068     -118.651833
9.169                0.849707505     -118.923994
9.17                 0.849169054     -119.196948
9.171                0.848629733     -119.470696
9.172                 0.84808956     -119.745239
9.173                0.847548552     -120.020576
9.174                0.847006726     -120.296709
9.175                0.846464101     -120.573639
9.176                0.845920696     -120.851365
9.177                0.845376529     -121.129889
9.178                0.844831618      -121.40921
9.179                0.844285983     -121.689329
9.18                 0.843739643     -121.970247
9.181                0.843192618     -122.251964
9.182                0.842644927      -122.53448
9.183                0.842096592     -122.817796
9.184                0.841547632     -123.101911
9.185                0.840998068     -123.386827
9.186                0.840447921     -123.672543
9.187                0.839897212     -123.959059
9.188                0.839345963     -124.246376
9.189                0.838794195     -124.534493
9.19                 0.838241931     -124.823411
9.191                0.837689192      -125.11313
9.192                0.837136002     -125.403649
9.193                0.836582383     -125.694969
9.194                0.836028358      -125.98709
9.195                 0.83547395      -126.28001
9.196                0.834919184     -126.573731
9.197                0.834364082     -126.868252
9.198                 0.83380867     -127.163572
9.199                0.833252971     -127.459692
9.2                   0.83269701     -127.756611
9.201                0.832140813     -128.054328
9.202                0.831584403     -128.352843
9.203                0.831027807     -128.652156
9.204                0.830471051     -128.952266
9.205                0.829914159     -129.253172
9.206                0.829357159     -129.554875
9.207                0.828800077     -129.857372
9.208                 0.82824294     -130.160665
9.209                0.827685775      -130.46475
9.21                 0.827128608     -130.769629
9.211                0.826571467       -131.0753
9.212                0.826014381     -131.381762
9.213                0.825457376     -131.689015
9.214                0.824900482     -131.997057
9.215                0.824343726     -132.305887
9.216                0.823787138     -132.615504
9.217                0.823230746     -132.925907
9.218                 0.82267458     -133.237094
9.219                0.822118669     -133.549066
9.22                 0.821563042     -133.861819
9.221                 0.82100773     -134.175353
9.222                0.820452762     -134.489667
9.223                0.819898169     -134.804759
9.224                0.819343982     -135.120627
9.225                0.818790231     -135.437271
9.226                0.818236948     -135.754687
9.227                0.817684163     -136.072876
9.228                0.817131908     -136.391834
9.229                0.816580215      -136.71156
9.23                 0.816029116     -137.032052
9.231                0.815478642     -137.353309
9.232                0.814928827     -137.675329
9.233                0.814379702     -137.998109
9.234                  0.8138313     -138.321647
9.235                0.813283654     -138.645941
9.236                0.812736797      -138.97099
9.237                0.812190763      -139.29679
9.238                0.811645585      -139.62334
9.239                0.811101296     -139.950637
9.24                  0.81055793     -140.278678
9.241                0.810015522     -140.607462
9.242                0.809474105     -140.936986
9.243                0.808933714     -141.267247
9.244                0.808394383     -141.598242
9.245                0.807856147     -141.929969
9.246                0.807319041     -142.262425
9.247                0.806783099     -142.595607
9.248                0.806248356     -142.929512
9.249                0.805714849     -143.264138
9.25                 0.805182611      -143.59948
9.251                0.804651679     -143.935537
9.252                0.804122089     -144.272305
9.253                0.803593875      -144.60978
9.254                0.803067073      -144.94796
9.255                0.802541721     -145.286841
9.256                0.802017853      -145.62642
9.257                0.801495505     -145.966692
9.258                0.800974715     -146.307656
9.259                0.800455518     -146.649306
9.26                  0.79993795      -146.99164
9.261                0.799422049     -147.334653
9.262                 0.79890785     -147.678342
9.263                 0.79839539     -148.022703
9.264                0.797884707     -148.367732
9.265                0.797375835     -148.713425
9.266                0.796868813     -149.059778
9.267                0.796363677     -149.406787
9.268                0.795860464     -149.754447
9.269                0.795359211     -150.102755
9.27                 0.794859954     -150.451706
9.271                0.794362731     -150.801295
9.272                0.793867578     -151.151518
9.273                0.793374533     -151.502371
9.274                0.792883632     -151.853849
9.275                0.792394911     -152.205948
9.276                0.791908409     -152.558662
9.277                0.791424161     -152.911987
9.278                0.790942205     -153.265917
9.279                0.790462577     -153.620449
9.28                 0.789985314     -153.975577
9.281                0.789510452     -154.331296
9.282                0.789038029       -154.6876
9.283                0.788568081     -155.044485
9.284                0.788100644     -155.401946
9.285                0.787635754     -155.759977
9.286                0.787173449     -156.118572
9.287                0.786713763     -156.477727
9.288                0.786256734     -156.837435
9.289                0.785802398     -157.197692
9.29                 0.785350789     -157.558491
9.291                0.784901944     -157.919827
9.292                0.784455898     -158.281693
9.293                0.784012688     -158.644085
9.294                0.783572348     -159.006997
9.295                0.783134913     -159.370421
9.296                0.782700419     -159.734353
9.297                  0.7822689     -160.098786
9.298                0.781840392     -160.463714
9.299                0.781414927     -160.829131
9.3                  0.780992542     -161.195031
9.301                 0.78057327     -161.561407
9.302                0.780157144     -161.928253
9.303                0.779744199     -162.295562
9.304                0.779334468     -162.663328
9.305                0.778927985     -163.031544
9.306                0.778524781     -163.400204
9.307                0.778124891     -163.769301
9.308                0.777728346     -164.138829
9.309                0.777335179      -164.50878
9.31                 0.776945422     -164.879147
9.311                0.776559107     -165.249925
9.312                0.776176265     -165.621105
9.313                0.775796927     -165.992681
9.314                0.775421124     -166.364645
9.315                0.775048887     -166.736992
9.316                0.774680245     -167.109712
9.317                 0.77431523       -167.4828
9.318                 0.77395387     -167.856248
9.319                0.773596196     -168.230048
9.32                 0.773242235     -168.604194
9.321                0.772892017     -168.978677
9.322                0.772545569     -169.353491
9.323                0.772202921     -169.728627
9.324                0.771864099     -170.104079
9.325                 0.77152913     -170.479839
9.326                0.771198042     -170.855898
9.327                0.770870861      -171.23225
9.328                0.770547614     -171.608887
9.329                0.770228324       -171.9858
9.33                  0.76991302     -172.362983
9.331                0.769601724     -172.740427
9.332                0.769294461     -173.118123
9.333                0.768991257     -173.496066
9.334                0.768692133     -173.874246
9.335                0.768397114     -174.252655
9.336                0.768106223     -174.631285
9.337                0.767819481     -175.010129
9.338                0.767536911     -175.389178
9.339                0.767258534     -175.768425
9.34                 0.766984371      -176.14786
9.341                0.766714443     -176.527476
9.342                 0.76644877     -176.907264
9.343                0.766187372     -177.287217
9.344                0.765930268     -177.667326
9.345                0.765677476     -178.047583
9.346                0.765429015     -178.427979
9.347                0.765184903     -178.808506
9.348                0.764945156     -179.189156
9.349                0.764709792      -179.56992
9.35                 0.764478828     -179.950791
9.351                0.764252278      179.668242
9.352                0.764030158      179.287185
9.353                0.763812483      178.906047
9.354                0.763599268      178.524837
9.355                0.763390526      178.143564
9.356                 0.76318627      177.762235
9.357                0.762986513      177.380859
9.358                0.762791268      176.999445
9.359                0.762600546      176.618002
9.36                 0.762414358      176.236537
9.361                0.762232716       175.85506
9.362                0.762055629      175.473578
9.363                0.761883106        175.0921
9.364                0.761715158      174.710636
9.365                0.761551793      174.329193
9.366                0.761393019       173.94778
9.367                0.761238843      173.566405
9.368                0.761089272      173.185078
9.369                0.760944313      172.803806
9.37                 0.760803972      172.422598
9.371                0.760668254      172.041463
9.372                0.760537164      171.660408
9.373                0.760410707      171.279444
9.374                0.760288886      170.898577
9.375                0.760171705      170.517817
9.376                0.760059166      170.137172
9.377                0.759951271       169.75665
9.378                0.759848023       169.37626
9.379                0.759749422      168.996011
9.38                 0.759655469       168.61591
9.381                0.759566165      168.235966
9.382                0.759481508      167.856188
9.383                0.759401497      167.476584
9.384                0.759326132      167.097161
9.385                 0.75925541      166.717929
9.386                0.759189329      166.338896
9.387                0.759127885      165.960069
9.388                0.759071076      165.581457
9.389                0.759018896      165.203069
9.39                 0.758971342      164.824912
9.391                0.758928409      164.446995
9.392                0.758890089      164.069325
9.393                0.758856379      163.691911
9.394                 0.75882727      163.314761
9.395                0.758802757      162.937882
9.396                 0.75878283      162.561283
