! TOUCHSTONE file generated by CST DESIGN STUDIO
! Date and time: Tue Feb  4 16:42:31 2025
! Project name: C:\Work\MatlabApps\UnitCellOptimizationMatlab\CST\unitcell.cst
! Tree item: Tasks\Sweep1\SPara1\S-Parameters
! Header version: 2024
! Port assignment regex: !\s*Touchstone port\s*([0-9]+)\s*=\s*(CST MWS port|CST DES external port|CST DES block port)\s*(.+)\s* \(\"(.*)\"\)(\s*mode\s*([0-9]+))?.*
! Touchstone port assignment:
! Touchstone port 1 = CST DES external port 1 ("")
# GHz S MA R 50
9                    0.875374432     -116.387484
9.001                0.874928038     -116.673789
9.002                0.874479985     -116.961013
9.003                0.874030281     -117.249157
9.004                0.873578937     -117.538223
9.005                0.873125965      -117.82821
9.006                0.872671376      -118.11912
9.007                 0.87221518     -118.410954
9.008                 0.87175739     -118.703712
9.009                0.871298018     -118.997396
9.01                 0.870837076     -119.292005
9.011                0.870374577      -119.58754
9.012                0.869910533     -119.884003
9.013                0.869444959     -120.181393
9.014                0.868977867     -120.479711
9.015                0.868509273     -120.778958
9.016                0.868039189     -121.079134
9.017                0.867567631     -121.380239
9.018                0.867094614     -121.682274
9.019                0.866620153     -121.985238
9.02                 0.866144263     -122.289133
9.021                0.865666962     -122.593958
9.022                0.865188264     -122.899714
9.023                0.864708187     -123.206401
9.024                0.864226748     -123.514018
9.025                0.863743963     -123.822565
9.026                0.863259852     -124.132043
9.027                0.862774431     -124.442452
9.028                 0.86228772     -124.753791
9.029                0.861799737      -125.06606
9.03                 0.861310501     -125.379259
9.031                0.860820032     -125.693387
9.032                0.860328349     -126.008444
9.033                0.859835473      -126.32443
9.034                0.859341425     -126.641345
9.035                0.858846224     -126.959186
9.036                0.858349893     -127.277955
9.037                0.857852453      -127.59765
9.038                0.857353926     -127.918271
9.039                0.856854335     -128.239817
9.04                 0.856353702     -128.562286
9.041                0.855852049     -128.885679
9.042                0.855349402     -129.209994
9.043                0.854845783      -129.53523
9.044                0.854341217     -129.861386
9.045                0.853835728     -130.188461
9.046                0.853329341     -130.516453
9.047                0.852822081     -130.845362
9.048                0.852313975     -131.175186
9.049                0.851805047     -131.505924
9.05                 0.851295325     -131.837573
9.051                0.850784835     -132.170134
9.052                0.850273604     -132.503603
9.053                0.849761659      -132.83798
9.054                0.849249029     -133.173262
9.055                0.848735741     -133.509449
9.056                0.848221825     -133.846537
9.057                0.847707308     -134.184525
9.058                 0.84719222     -134.523411
9.059                0.846676591     -134.863193
9.06                  0.84616045     -135.203869
9.061                0.845643829     -135.545436
9.062                0.845126756     -135.887892
9.063                0.844609264     -136.231235
9.064                0.844091384     -136.575463
9.065                0.843573147     -136.920572
9.066                0.843054586      -137.26656
9.067                0.842535732     -137.613425
9.068                0.842016618     -137.961164
9.069                0.841497277     -138.309774
9.07                 0.840977743     -138.659252
9.071                0.840458049     -139.009595
9.072                0.839938229       -139.3608
9.073                0.839418318     -139.712863
9.074                0.838898349     -140.065783
9.075                0.838378358     -140.419555
9.076                 0.83785838     -140.774176
9.077                0.837338451     -141.129642
9.078                0.836818605     -141.485951
9.079                 0.83629888     -141.843098
9.08                 0.835779312     -142.201079
9.081                0.835259936     -142.559892
9.082                0.834740791     -142.919532
9.083                0.834221913     -143.279995
9.084                 0.83370334     -143.641277
9.085                 0.83318511     -144.003374
9.086                 0.83266726     -144.366282
9.087                0.832149828     -144.729997
9.088                0.831632854     -145.094514
9.089                0.831116376     -145.459828
9.09                 0.830600433     -145.825937
9.091                0.830085063     -146.192834
9.092                0.829570307     -146.560515
9.093                0.829056205     -146.928975
9.094                0.828542795      -147.29821
9.095                0.828030118     -147.668214
9.096                0.827518214     -148.038983
9.097                0.827007123     -148.410511
9.098                0.826496887     -148.782794
9.099                0.825987546     -149.155826
9.1                  0.825479141     -149.529601
9.101                0.824971713     -149.904114
9.102                0.824465303     -150.279361
9.103                0.823959953     -150.655334
9.104                0.823455703     -151.032028
9.105                0.822952597     -151.409439
9.106                0.822450676     -151.787559
9.107                0.821949981     -152.166383
9.108                0.821450555     -152.545904
9.109                 0.82095244     -152.926118
9.11                 0.820455677     -153.307017
9.111                 0.81996031     -153.688595
9.112                 0.81946638     -154.070846
9.113                0.818973931     -154.453763
9.114                0.818483004     -154.837341
9.115                0.817993642     -155.221571
9.116                0.817505888     -155.606449
9.117                0.817019784     -155.991966
9.118                0.816535372     -156.378116
9.119                0.816052696     -156.764892
9.12                 0.815571799     -157.152288
9.121                0.815092722     -157.540295
9.122                0.814615508     -157.928907
9.123                  0.8141402     -158.318117
9.124                 0.81366684     -158.707916
9.125                0.813195471     -159.098299
9.126                0.812726136     -159.489257
9.127                0.812258876     -159.880783
9.128                0.811793734     -160.272868
9.129                0.811330752     -160.665506
9.13                 0.810869972     -161.058689
9.131                0.810411437     -161.452408
9.132                0.809955187     -161.846656
9.133                0.809501265     -162.241425
9.134                0.809049713     -162.636707
9.135                0.808600572     -163.032493
9.136                0.808153882     -163.428775
9.137                0.807709686     -163.825545
9.138                0.807268024     -164.222795
9.139                0.806828937     -164.620516
9.14                 0.806392466     -165.018699
9.141                0.805958651     -165.417336
9.142                0.805527532     -165.816419
9.143                0.805099149     -166.215939
9.144                0.804673542     -166.615886
9.145                 0.80425075     -167.016252
9.146                0.803830812     -167.417029
9.147                0.803413768     -167.818206
9.148                0.802999655     -168.219776
9.149                0.802588513     -168.621729
9.15                  0.80218038     -169.024055
9.151                0.801775292     -169.426747
9.152                0.801373288     -169.829794
9.153                0.800974405     -170.233187
9.154                0.800578679     -170.636916
9.155                0.800186147     -171.040973
9.156                0.799796846     -171.445348
9.157                 0.79941081     -171.850032
9.158                0.799028075     -172.255014
9.159                0.798648676     -172.660285
9.16                 0.798272648     -173.065836
9.161                0.797900024     -173.471656
9.162                 0.79753084     -173.877737
9.163                0.797165127     -174.284067
9.164                0.796802919     -174.690638
9.165                0.796444249      -175.09744
9.166                0.796089148     -175.504462
9.167                0.795737649     -175.911695
9.168                0.795389782     -176.319129
9.169                0.795045578     -176.726753
9.17                 0.794705067     -177.134558
9.171                 0.79436828     -177.542533
9.172                0.794035245     -177.950669
9.173                0.793705991     -178.358955
9.174                0.793380546     -178.767381
9.175                0.793058939     -179.175937
9.176                0.792741196     -179.584613
9.177                0.792427344     -179.993398
9.178                 0.79211741      179.597717
9.179                0.791811419      179.188744
9.18                 0.791509397      178.779692
9.181                0.791211367      178.370572
9.182                0.790917354      177.961394
9.183                0.790627382      177.552168
9.184                0.790341473      177.142905
9.185                 0.79005965      176.733615
9.186                0.789781934      176.324309
9.187                0.789508348      175.914996
9.188                 0.78923891      175.505687
9.189                0.788973643      175.096393
9.19                 0.788712564      174.687124
9.191                0.788455694       174.27789
9.192                 0.78820305      173.868702
9.193                0.787954649       173.45957
9.194                 0.78771051      173.050504
9.195                0.787470649      172.641516
9.196                0.787235081      172.232614
9.197                0.787003822      171.823809
9.198                0.786776886      171.415113
9.199                0.786554288      171.006534
9.2                  0.786336041      170.598084
9.201                0.786122157      170.189773
9.202                 0.78591265       169.78161
9.203                 0.78570753      169.373607
9.204                0.785506809      168.965773
9.205                0.785310497      168.558118
9.206                0.785118604      168.150654
9.207                0.784931138      167.743389
9.208                0.784748109      167.336334
9.209                0.784569524        166.9295
9.21                 0.784395391      166.522895
9.211                0.784225716      166.116531
9.212                0.784060504      165.710416
9.213                0.783899763      165.304562
9.214                0.783743495      164.898978
9.215                0.783591706      164.493674
9.216                0.783444399       164.08866
9.217                0.783301577      163.683945
9.218                0.783163242      163.279539
9.219                0.783029396      162.875452
9.22                  0.78290004      162.471694
9.221                0.782775175      162.068274
9.222                0.782654799      161.665202
9.223                0.782538914      161.262487
9.224                0.782427517      160.860139
9.225                0.782320607      160.458167
9.226                 0.78221818      160.056581
9.227                0.782120234       159.65539
9.228                0.782026766      159.254602
9.229                0.781937771      158.854228
9.23                 0.781853244      158.454276
9.231                 0.78177318      158.054755
9.232                0.781697573      157.655675
9.233                0.781626416      157.257044
9.234                0.781559703      156.858871
9.235                0.781497426      156.461166
9.236                0.781439576      156.063936
9.237                0.781386145       155.66719
9.238                0.781337124      155.270938
9.239                0.781292503      154.875187
9.24                 0.781252271      154.479946
9.241                0.781216419      154.085223
9.242                0.781184934      153.691027
9.243                0.781157804      153.297366
9.244                0.781135019      152.904248
9.245                0.781116563      152.511682
9.246                0.781102426      152.119674
9.247                0.781092591      151.728234
9.248                0.781087046      151.337369
9.249                0.781085776      150.947087
9.25                 0.781088765      150.557395
9.251                0.781095998      150.168301
9.252                0.781107458      149.779813
9.253                0.781123129      149.391938
9.254                0.781142995      149.004684
9.255                0.781167037      148.618057
9.256                0.781195239      148.232066
9.257                0.781227581      147.846717
9.258                0.781264045      147.462017
9.259                0.781304612      147.077973
9.26                 0.781349263      146.694592
9.261                0.781397978      146.311881
9.262                0.781450737      145.929847
9.263                0.781507518      145.548496
9.264                0.781568302      145.167835
9.265                0.781633067      144.787869
9.266                0.781701792      144.408607
9.267                0.781774454      144.030053
9.268                0.781851031      143.652214
9.269                  0.7819315      143.275096
9.27                  0.78201584      142.898705
9.271                0.782104025      142.523047
9.272                0.782196034      142.148128
9.273                0.782291842      141.773953
9.274                0.782391425      141.400529
9.275                0.782494759       141.02786
9.276                0.782601819      140.655953
9.277                 0.78271258      140.284812
9.278                0.782827017      139.914443
9.279                0.782945105      139.544851
9.28                 0.783066819      139.176041
9.281                0.783192131      138.808018
9.282                0.783321016      138.440787
9.283                0.783453449      138.074354
9.284                0.783589401      137.708722
9.285                0.783728848      137.343896
9.286                0.783871761      136.979881
9.287                0.784018114      136.616682
9.288                0.784167879      136.254302
9.289                 0.78432103      135.892747
9.29                 0.784477538      135.532019
9.291                0.784637376      135.172125
9.292                0.784800515      134.813066
9.293                0.784966929      134.454848
9.294                0.785136588      134.097474
9.295                0.785309464      133.740949
9.296                 0.78548553      133.385274
9.297                0.785664756      133.030456
9.298                0.785847114      132.676496
9.299                0.786032575      132.323398
9.3                   0.78622111      131.971166
9.301                0.786412691      131.619803
9.302                0.786607288      131.269311
9.303                0.786804872      130.919695
9.304                0.787005415      130.570957
9.305                0.787208887        130.2231
9.306                0.787415258      129.876127
9.307                0.787624501       129.53004
9.308                0.787836584      129.184843
9.309                0.788051479      128.840537
9.31                 0.788269157      128.497126
9.311                0.788489588      128.154612
9.312                0.788712743      127.812996
9.313                0.788938591      127.472283
9.314                0.789167105      127.132472
9.315                0.789398254      126.793568
9.316                0.789632008      126.455571
9.317                0.789868339      126.118484
9.318                0.790107217      125.782309
9.319                0.790348612      125.447047
9.32                 0.790592496        125.1127
9.321                0.790838839       124.77927
9.322                0.791087611      124.446758
9.323                0.791338783      124.115166
9.324                0.791592326      123.784495
9.325                0.791848211      123.454748
9.326                0.792106409      123.125924
9.327                0.792366891      122.798025
9.328                0.792629627      122.471052
9.329                0.792894588      122.145007
9.33                 0.793161747      121.819891
9.331                0.793431073      121.495703
9.332                0.793702539      121.172446
9.333                0.793976116       120.85012
9.334                0.794251775      120.528726
9.335                0.794529487      120.208265
9.336                0.794809225      119.888736
9.337                0.795090959      119.570141
9.338                0.795374663       119.25248
9.339                0.795660307      118.935754
9.34                 0.795947865      118.619963
9.341                0.796237307      118.305107
9.342                0.796528606      117.991187
9.343                0.796821736      117.678202
9.344                0.797116667      117.366153
9.345                0.797413374       117.05504
9.346                0.797711828      116.744863
9.347                0.798012002      116.435621
9.348                 0.79831387      116.127316
9.349                0.798617405      115.819946
9.35                  0.79892258      115.513511
9.351                0.799229368      115.208011
9.352                0.799537743      114.903447
9.353                0.799847679      114.599816
9.354                0.800159149       114.29712
9.355                0.800472128      113.995357
9.356                 0.80078659      113.694528
9.357                0.801102509       113.39463
9.358                0.801419859      113.095665
9.359                0.801738615      112.797631
9.36                 0.802058753      112.500527
9.361                0.802380246      112.204353
9.362                 0.80270307      111.909108
9.363                  0.8030272       111.61479
9.364                0.803352612        111.3214
9.365                0.803679282      111.028937
9.366                0.804007184      110.737398
9.367                0.804336295      110.446784
9.368                0.804666591      110.157093
9.369                0.804998049      109.868323
9.37                 0.805330644      109.580475
9.371                0.805664353      109.293547
9.372                0.805999154      109.007537
9.373                0.806335022      108.722444
9.374                0.806671936      108.438267
9.375                0.807009872      108.155005
9.376                0.807348808      107.872656
9.377                0.807688722      107.591218
9.378                0.808029591      107.310691
9.379                0.808371394      107.031073
9.38                 0.808714108      106.752363
9.381                0.809057712      106.474558
9.382                0.809402184      106.197657
9.383                0.809747504       105.92166
9.384                 0.81009365      105.646563
9.385                0.810440601      105.372365
9.386                0.810788337      105.099065
9.387                0.811136836      104.826661
9.388                0.811486079      104.555151
9.389                0.811836046      104.284534
9.39                 0.812186716      104.014807
9.391                0.812538069      103.745969
9.392                0.812890086      103.478018
9.393                0.813242748      103.210951
9.394                0.813596034      102.944768
9.395                0.813949927      102.679466
9.396                0.814304407      102.415043
