! TOUCHSTONE file generated by CST DESIGN STUDIO
! Date and time: Tue Feb  4 12:22:57 2025
! Project name: C:\Work\MatlabApps\UnitCellOptimizationMatlab\CST\unitcell.cst
! Tree item: Tasks\Sweep1\SPara1\S-Parameters
! Header version: 2024
! Port assignment regex: !\s*Touchstone port\s*([0-9]+)\s*=\s*(CST MWS port|CST DES external port|CST DES block port)\s*(.+)\s* \(\"(.*)\"\)(\s*mode\s*([0-9]+))?.*
! Touchstone port assignment:
! Touchstone port 1 = CST DES external port 1 ("")
# GHz S MA R 50
9                    0.987317921     -78.7392148
9.001                0.987286587     -78.8602567
9.002                0.987255159     -78.9815977
9.003                0.987223636     -79.1032388
9.004                0.987192018     -79.2251807
9.005                0.987160306     -79.3474245
9.006                0.987128498     -79.4699709
9.007                0.987096596     -79.5928208
9.008                0.987064597     -79.7159751
9.009                0.987032503     -79.8394347
9.01                 0.987000314     -79.9632004
9.011                0.986968028     -80.0872731
9.012                0.986935646     -80.2116538
9.013                0.986903168     -80.3363433
9.014                0.986870594     -80.4613424
9.015                0.986837922     -80.5866521
9.016                0.986805154     -80.7122733
9.017                0.986772289     -80.8382068
9.018                0.986739327     -80.9644535
9.019                0.986706267     -81.0910144
9.02                  0.98667311     -81.2178903
9.021                0.986639855     -81.3450821
9.022                0.986606503     -81.4725908
9.023                0.986573052     -81.6004171
9.024                0.986539503     -81.7285621
9.025                0.986505856     -81.8570266
9.026                 0.98647211     -81.9858115
9.027                0.986438266     -82.1149177
9.028                0.986404323     -82.2443462
9.029                0.986370281     -82.3740978
9.03                 0.986336141     -82.5041735
9.031                  0.9863019     -82.6345742
9.032                0.986267561     -82.7653007
9.033                0.986233122      -82.896354
9.034                0.986198583      -83.027735
9.035                0.986163945     -83.1594446
9.036                0.986129207     -83.2914837
9.037                0.986094368     -83.4238533
9.038                 0.98605943     -83.5565543
9.039                0.986024391     -83.6895876
9.04                 0.985989252      -83.822954
9.041                0.985954012     -83.9566547
9.042                0.985918672     -84.0906903
9.043                 0.98588323      -84.225062
9.044                0.985847688     -84.3597706
9.045                0.985812045      -84.494817
9.046                  0.9857763     -84.6302022
9.047                0.985740455     -84.7659271
9.048                0.985704508     -84.9019926
9.049                0.985668459     -85.0383997
9.05                 0.985632309     -85.1751493
9.051                0.985596057     -85.3122423
9.052                0.985559703     -85.4496797
9.053                0.985523248     -85.5874624
9.054                 0.98548669     -85.7255913
9.055                0.985450031     -85.8640674
9.056                0.985413269     -86.0028916
9.057                0.985376405     -86.1420648
9.058                0.985339439     -86.2815881
9.059                 0.98530237     -86.4214622
9.06                 0.985265199     -86.5616883
9.061                0.985227925     -86.7022671
9.062                0.985190549     -86.8431997
9.063                0.985153069      -86.984487
9.064                0.985115488       -87.12613
9.065                0.985077803     -87.2681295
9.066                0.985040015     -87.4104866
9.067                0.985002124     -87.5532021
9.068                0.984964131     -87.6962771
9.069                0.984926034     -87.8397124
9.07                 0.984887834     -87.9835091
9.071                0.984849531      -88.127668
9.072                0.984811125     -88.2721902
9.073                0.984772616     -88.4170765
9.074                0.984734003     -88.5623279
9.075                0.984695287     -88.7079453
9.076                0.984656468     -88.8539298
9.077                0.984617545     -89.0002822
9.078                0.984578519     -89.1470035
9.079                 0.98453939     -89.2940947
9.08                 0.984500157     -89.4415567
9.081                0.984460821     -89.5893904
9.082                0.984421381     -89.7375968
9.083                0.984381838     -89.8861769
9.084                0.984342192     -90.0351316
9.085                0.984302442     -90.1844618
9.086                0.984262589     -90.3341685
9.087                0.984222632     -90.4842527
9.088                0.984182573     -90.6347153
9.089                0.984142409     -90.7855572
9.09                 0.984102143     -90.9367794
9.091                0.984061773     -91.0883828
9.092                  0.9840213     -91.2403685
9.093                0.983980724     -91.3927373
9.094                0.983940045     -91.5454901
9.095                0.983899263      -91.698628
9.096                0.983858377     -91.8521519
9.097                0.983817389     -92.0060626
9.098                0.983776298     -92.1603613
9.099                0.983735104     -92.3150487
9.1                  0.983693807      -92.470126
9.101                0.983652408     -92.6255939
9.102                0.983610906     -92.7814534
9.103                0.983569301     -92.9377055
9.104                0.983527594     -93.0943511
9.105                0.983485785     -93.2513912
9.106                0.983443873     -93.4088267
9.107                 0.98340186     -93.5666585
9.108                0.983359744     -93.7248876
9.109                0.983317527     -93.8835148
9.11                 0.983275208     -94.0425412
9.111                0.983232787     -94.2019677
9.112                0.983190265     -94.3617952
9.113                0.983147641     -94.5220245
9.114                0.983104917     -94.6826568
9.115                0.983062091     -94.8436928
9.116                0.983019164     -95.0051335
9.117                0.982976137     -95.1669799
9.118                0.982933009     -95.3292328
9.119                0.982889781     -95.4918932
9.12                 0.982846453      -95.654962
9.121                0.982803024       -95.81844
9.122                0.982759496     -95.9823283
9.123                0.982715869     -96.1466278
9.124                0.982672142     -96.3113392
9.125                0.982628316     -96.4764637
9.126                 0.98258439     -96.6420019
9.127                0.982540367      -96.807955
9.128                0.982496244     -96.9743237
9.129                0.982452024      -97.141109
9.13                 0.982407705     -97.3083118
9.131                0.982363289     -97.4759329
9.132                0.982318775     -97.6439732
9.133                0.982274164     -97.8124338
9.134                0.982229456     -97.9813153
9.135                0.982184651     -98.1506188
9.136                 0.98213975      -98.320345
9.137                0.982094753      -98.490495
9.138                0.982049661     -98.6610695
9.139                0.982004472     -98.8320694
9.14                 0.981959189     -99.0034956
9.141                0.981913811      -99.175349
9.142                0.981868338     -99.3476304
9.143                0.981822771     -99.5203407
9.144                 0.98177711     -99.6934808
9.145                0.981731356     -99.8670515
9.146                0.981685509     -100.041054
9.147                0.981639569     -100.215488
9.148                0.981593536     -100.390356
9.149                0.981547412     -100.565657
9.15                 0.981501196     -100.741394
9.151                0.981454889     -100.917566
9.152                0.981408491     -101.094174
9.153                0.981362003      -101.27122
9.154                0.981315425     -101.448704
9.155                0.981268757     -101.626627
9.156                0.981222001      -101.80499
9.157                0.981175156     -101.983793
9.158                0.981128222     -102.163038
9.159                0.981081201     -102.342725
9.16                 0.981034093     -102.522854
9.161                0.980986899     -102.703428
9.162                0.980939618     -102.884446
9.163                0.980892251      -103.06591
9.164                0.980844799     -103.247819
9.165                0.980797262     -103.430176
9.166                0.980749642      -103.61298
9.167                0.980701938     -103.796232
9.168                 0.98065415     -103.979934
9.169                0.980606281     -104.164085
9.17                 0.980558329     -104.348688
9.171                0.980510296     -104.533741
9.172                0.980462182     -104.719247
9.173                0.980413988     -104.905205
9.174                0.980365715     -105.091618
9.175                0.980317362     -105.278484
9.176                0.980268932     -105.465806
9.177                0.980220423     -105.653583
9.178                0.980171838     -105.841816
9.179                0.980123176     -106.030507
9.18                 0.980074439     -106.219656
9.181                0.980025627     -106.409262
9.182                 0.97997674     -106.599329
9.183                0.979927779     -106.789854
9.184                0.979878746     -106.980841
9.185                0.979829641     -107.172288
9.186                0.979780464     -107.364198
9.187                0.979731216     -107.556569
9.188                0.979681898     -107.749404
9.189                0.979632511     -107.942702
9.19                 0.979583056     -108.136465
9.191                0.979533532     -108.330692
9.192                0.979483942     -108.525385
9.193                0.979434286     -108.720545
9.194                0.979384565      -108.91617
9.195                0.979334779     -109.112263
9.196                 0.97928493     -109.308824
9.197                0.979235018     -109.505853
9.198                0.979185043     -109.703352
9.199                0.979135008     -109.901319
9.2                  0.979084913     -110.099757
9.201                0.979034759     -110.298665
9.202                0.978984546     -110.498045
9.203                0.978934275     -110.697896
9.204                0.978883949     -110.898219
9.205                0.978833566     -111.099014
9.206                0.978783129     -111.300283
9.207                0.978732638     -111.502025
9.208                0.978682095     -111.704241
9.209                  0.9786315     -111.906932
9.21                 0.978580854     -112.110098
9.211                0.978530159     -112.313739
9.212                0.978479415     -112.517856
9.213                0.978428623     -112.722449
9.214                0.978377785     -112.927518
9.215                0.978326901     -113.133065
9.216                0.978275973     -113.339089
9.217                0.978225002     -113.545591
9.218                0.978173988     -113.752571
9.219                0.978122933      -113.96003
9.22                 0.978071838     -114.167967
9.221                0.978020704     -114.376384
9.222                0.977969532      -114.58528
9.223                0.977918324     -114.794656
9.224                0.977867081     -115.004512
9.225                0.977815803     -115.214849
9.226                0.977764492     -115.425666
9.227                0.977713149     -115.636964
9.228                0.977661776     -115.848744
9.229                0.977610373     -116.061005
9.23                 0.977558942     -116.273747
9.231                0.977507484     -116.486972
9.232                0.977456001     -116.700679
9.233                0.977404493     -116.914868
9.234                0.977352963      -117.12954
9.235                 0.97730141     -117.344694
9.236                0.977249838     -117.560332
9.237                0.977198246     -117.776452
9.238                0.977146637     -117.993055
9.239                0.977095011     -118.210142
9.24                  0.97704337     -118.427712
9.241                0.976991716     -118.645766
9.242                 0.97694005     -118.864303
9.243                0.976888373     -119.083324
9.244                0.976836686     -119.302828
9.245                0.976784992     -119.522817
9.246                0.976733291     -119.743289
9.247                0.976681586     -119.964244
9.248                0.976629877     -120.185684
9.249                0.976578166     -120.407607
9.25                 0.976526454     -120.630014
9.251                0.976474744     -120.852905
9.252                0.976423036     -121.076279
9.253                0.976371333     -121.300137
9.254                0.976319635     -121.524478
9.255                0.976267944     -121.749303
9.256                0.976216262     -121.974611
9.257                0.976164591     -122.200402
9.258                0.976112932     -122.426676
9.259                0.976061286     -122.653432
9.26                 0.976009656     -122.880672
9.261                0.975958043     -123.108393
9.262                0.975906448     -123.336597
9.263                0.975854874     -123.565283
9.264                0.975803322     -123.794451
9.265                0.975751794       -124.0241
9.266                0.975700291      -124.25423
9.267                0.975648815     -124.484842
9.268                0.975597368     -124.715933
9.269                0.975545952     -124.947506
9.27                 0.975494568     -125.179558
9.271                0.975443218     -125.412089
9.272                0.975391905       -125.6451
9.273                0.975340629      -125.87859
9.274                0.975289393     -126.112558
9.275                0.975238198     -126.347004
9.276                0.975187047     -126.581927
9.277                 0.97513594     -126.817328
9.278                0.975084881     -127.053205
9.279                0.975033871     -127.289558
9.28                 0.974982911     -127.526386
9.281                0.974932004      -127.76369
9.282                0.974881152     -128.001468
9.283                0.974830356      -128.23972
9.284                0.974779618     -128.478446
9.285                0.974728941     -128.717644
9.286                0.974678327     -128.957314
9.287                0.974627776     -129.197456
9.288                0.974577292     -129.438068
9.289                0.974526877      -129.67915
9.29                 0.974476531     -129.920702
9.291                0.974426258     -130.162723
9.292                0.974376059     -130.405211
9.293                0.974325937     -130.648166
9.294                0.974275893     -130.891588
9.295                0.974225929     -131.135475
9.296                0.974176049     -131.379828
9.297                0.974126252     -131.624644
9.298                0.974076543     -131.869923
9.299                0.974026922     -132.115664
9.3                  0.973977392     -132.361866
9.301                0.973927956     -132.608529
9.302                0.973878614     -132.855651
9.303                 0.97382937     -133.103232
9.304                0.973780225      -133.35127
9.305                0.973731182     -133.599765
9.306                0.973682243     -133.848714
9.307                0.973633409     -134.098119
9.308                0.973584684     -134.347977
9.309                0.973536069     -134.598286
9.31                 0.973487567     -134.849048
9.311                0.973439179     -135.100259
9.312                0.973390909     -135.351919
9.313                0.973342757     -135.604026
9.314                0.973294727      -135.85658
9.315                0.973246821      -136.10958
9.316                0.973199041     -136.363023
9.317                0.973151389     -136.616909
9.318                0.973103867     -136.871237
9.319                0.973056478     -137.126005
9.32                 0.973009224     -137.381212
9.321                0.972962107     -137.636856
9.322                 0.97291513     -137.892937
9.323                0.972868295     -138.149453
9.324                0.972821604     -138.406401
9.325                0.972775059     -138.663782
9.326                0.972728663     -138.921594
9.327                0.972682419     -139.179834
9.328                0.972636327     -139.438502
9.329                0.972590392     -139.697596
9.33                 0.972544614     -139.957114
9.331                0.972498997     -140.217056
9.332                0.972453543     -140.477419
9.333                0.972408254     -140.738201
9.334                0.972363132     -140.999402
9.335                 0.97231818     -141.261019
9.336                  0.9722734      -141.52305
9.337                0.972228795     -141.785495
9.338                0.972184366     -142.048352
9.339                0.972140117     -142.311618
9.34                  0.97209605     -142.575291
9.341                0.972052166     -142.839371
9.342                0.972008469     -143.103855
9.343                0.971964961     -143.368742
9.344                0.971921643     -143.634029
9.345                 0.97187852     -143.899715
9.346                0.971835591     -144.165797
9.347                0.971792862     -144.432275
9.348                0.971750332     -144.699145
9.349                0.971708006     -144.966406
9.35                 0.971665885     -145.234057
9.351                0.971623972     -145.502094
9.352                0.971582269     -145.770516
9.353                0.971540778     -146.039321
9.354                0.971499502     -146.308507
9.355                0.971458444     -146.578071
9.356                0.971417604     -146.848012
9.357                0.971376987     -147.118328
9.358                0.971336594     -147.389015
9.359                0.971296428     -147.660073
9.36                  0.97125649     -147.931498
9.361                0.971216784     -148.203289
9.362                0.971177312     -148.475444
9.363                0.971138076     -148.747959
9.364                0.971099078     -149.020833
9.365                0.971060321     -149.294064
9.366                0.971021806     -149.567649
9.367                0.970983537     -149.841585
9.368                0.970945516      -150.11587
9.369                0.970907745     -150.390503
9.37                 0.970870226      -150.66548
9.371                0.970832961     -150.940799
9.372                0.970795953     -151.216457
9.373                0.970759205     -151.492452
9.374                0.970722718     -151.768782
9.375                0.970686494     -152.045444
9.376                0.970650537     -152.322435
9.377                0.970614847     -152.599753
9.378                0.970579428     -152.877395
9.379                0.970544282     -153.155358
9.38                  0.97050941      -153.43364
9.381                0.970474816     -153.712239
9.382                0.970440501     -153.991151
9.383                0.970406467     -154.270374
9.384                0.970372717     -154.549905
9.385                0.970339253     -154.829741
9.386                0.970306076      -155.10988
9.387                 0.97027319     -155.390318
9.388                0.970240596     -155.671053
9.389                0.970208297     -155.952083
9.39                 0.970176293     -156.233403
9.391                0.970144589     -156.515012
9.392                0.970113185     -156.796906
9.393                0.970082084     -157.079083
9.394                0.970051287     -157.361539
9.395                0.970020797     -157.644272
9.396                0.969990617     -157.927279
