! TOUCHSTONE file generated by CST DESIGN STUDIO
! Date and time: Tue Feb  4 12:23:05 2025
! Project name: C:\Work\MatlabApps\UnitCellOptimizationMatlab\CST\unitcell.cst
! Tree item: Tasks\Sweep1\SPara1\S-Parameters
! Header version: 2024
! Port assignment regex: !\s*Touchstone port\s*([0-9]+)\s*=\s*(CST MWS port|CST DES external port|CST DES block port)\s*(.+)\s* \(\"(.*)\"\)(\s*mode\s*([0-9]+))?.*
! Touchstone port assignment:
! Touchstone port 1 = CST DES external port 1 ("")
# GHz S MA R 50
9                    0.988806892     -72.4547336
9.001                0.988781543     -72.5614412
9.002                0.988756116     -72.6684068
9.003                 0.98873061     -72.7756312
9.004                0.988705025     -72.8831151
9.005                0.988679361     -72.9908593
9.006                0.988653618     -73.0988646
9.007                0.988627796     -73.2071318
9.008                0.988601894     -73.3156616
9.009                0.988575913     -73.4244549
9.01                 0.988549851     -73.5335125
9.011                 0.98852371     -73.6428351
9.012                0.988497488     -73.7524235
9.013                0.988471186     -73.8622786
9.014                0.988444803     -73.9724011
9.015                0.988418339     -74.0827918
9.016                0.988391794     -74.1934516
9.017                0.988365168     -74.3043812
9.018                0.988338461     -74.4155814
9.019                0.988311672     -74.5270532
9.02                 0.988284801     -74.6387972
9.021                0.988257848     -74.7508142
9.022                0.988230813     -74.8631052
9.023                0.988203696     -74.9756709
9.024                0.988176496     -75.0885122
9.025                0.988149214     -75.2016298
9.026                0.988121849     -75.3150246
9.027                0.988094401     -75.4286974
9.028                0.988066869      -75.542649
9.029                0.988039254     -75.6568803
9.03                 0.988011556     -75.7713921
9.031                0.987983774     -75.8861853
9.032                0.987955907     -76.0012606
9.033                0.987927957     -76.1166189
9.034                0.987899923      -76.232261
9.035                0.987871804     -76.3481879
9.036                  0.9878436     -76.4644003
9.037                0.987815311     -76.5808991
9.038                0.987786938      -76.697685
9.039                0.987758479     -76.8147591
9.04                 0.987729935     -76.9321221
9.041                0.987701306     -77.0497749
9.042                0.987672591     -77.1677183
9.043                 0.98764379     -77.2859532
9.044                0.987614903     -77.4044804
9.045                0.987585929     -77.5233009
9.046                 0.98755687     -77.6424155
9.047                0.987527724     -77.7618249
9.048                0.987498491     -77.8815302
9.049                0.987469172     -78.0015322
9.05                 0.987439765     -78.1218317
9.051                0.987410272     -78.2424297
9.052                0.987380691     -78.3633269
9.053                0.987351022     -78.4845243
9.054                0.987321266     -78.6060227
9.055                0.987291422     -78.7278231
9.056                 0.98726149     -78.8499263
9.057                 0.98723147     -78.9723332
9.058                0.987201362     -79.0950446
9.059                0.987171165     -79.2180615
9.06                  0.98714088     -79.3413848
9.061                0.987110506     -79.4650153
9.062                0.987080044     -79.5889539
9.063                0.987049492     -79.7132016
9.064                0.987018851     -79.8377592
9.065                0.986988121     -79.9626276
9.066                0.986957301     -80.0878077
9.067                0.986926392     -80.2133004
9.068                0.986895393     -80.3391067
9.069                0.986864304     -80.4652274
9.07                 0.986833125     -80.5916634
9.071                0.986801856     -80.7184157
9.072                0.986770497     -80.8454851
9.073                0.986739047     -80.9728725
9.074                0.986707507     -81.1005789
9.075                0.986675876     -81.2286053
9.076                0.986644154     -81.3569524
9.077                0.986612342     -81.4856212
9.078                0.986580438     -81.6146126
9.079                0.986548443     -81.7439276
9.08                 0.986516357     -81.8735671
9.081                 0.98648418     -82.0035319
9.082                0.986451911     -82.1338231
9.083                 0.98641955     -82.2644415
9.084                0.986387098     -82.3953881
9.085                0.986354553     -82.5266638
9.086                0.986321917     -82.6582695
9.087                0.986289189     -82.7902062
9.088                0.986256368     -82.9224747
9.089                0.986223455     -83.0550761
9.09                  0.98619045     -83.1880113
9.091                0.986157352     -83.3212811
9.092                0.986124162     -83.4548866
9.093                0.986090879     -83.5888286
9.094                0.986057503     -83.7231082
9.095                0.986024034     -83.8577262
9.096                0.985990473     -83.9926835
9.097                0.985956818     -84.1279813
9.098                 0.98592307     -84.2636203
9.099                0.985889229     -84.3996015
9.1                  0.985855294     -84.5359259
9.101                0.985821267     -84.6725945
9.102                0.985787145     -84.8096081
9.103                0.985752931     -84.9469677
9.104                0.985718622     -85.0846743
9.105                 0.98568422     -85.2227288
9.106                0.985649725     -85.3611322
9.107                0.985615135     -85.4998854
9.108                0.985580452     -85.6389895
9.109                0.985545674     -85.7784452
9.11                 0.985510803     -85.9182537
9.111                0.985475838     -86.0584158
9.112                0.985440779     -86.1989325
9.113                0.985405625     -86.3398048
9.114                0.985370378     -86.4810336
9.115                0.985335036     -86.6226199
9.116                  0.9852996     -86.7645646
9.117                 0.98526407     -86.9068688
9.118                0.985228445     -87.0495334
9.119                0.985192727     -87.1925593
9.12                 0.985156913     -87.3359474
9.121                0.985121006     -87.4796989
9.122                0.985085004     -87.6238146
9.123                0.985048908     -87.7682954
9.124                0.985012717     -87.9131425
9.125                0.984976432     -88.0583566
9.126                0.984940053     -88.2039389
9.127                0.984903579     -88.3498902
9.128                0.984867011     -88.4962115
9.129                0.984830348     -88.6429039
9.13                 0.984793591     -88.7899681
9.131                 0.98475674     -88.9374054
9.132                0.984719794     -89.0852165
9.133                0.984682754     -89.2334024
9.134                 0.98464562     -89.3819642
9.135                0.984608392     -89.5309028
9.136                0.984571069     -89.6802192
9.137                0.984533652     -89.8299143
9.138                0.984496141      -89.979989
9.139                0.984458535     -90.1304445
9.14                 0.984420836     -90.2812816
9.141                0.984383042     -90.4325013
9.142                0.984345155     -90.5841045
9.143                0.984307174     -90.7360923
9.144                0.984269099     -90.8884656
9.145                 0.98423093     -91.0412254
9.146                0.984192668     -91.1943726
9.147                0.984154312     -91.3479082
9.148                0.984115862     -91.5018332
9.149                0.984077319     -91.6561485
9.15                 0.984038683     -91.8108551
9.151                0.983999953     -91.9659539
9.152                 0.98396113      -92.121446
9.153                0.983922215     -92.2773323
9.154                0.983883206     -92.4336137
9.155                0.983844104     -92.5902911
9.156                 0.98380491     -92.7473657
9.157                0.983765624     -92.9048383
9.158                0.983726245     -93.0627098
9.159                0.983686773     -93.2209813
9.16                  0.98364721     -93.3796537
9.161                0.983607554     -93.5387279
9.162                0.983567807     -93.6982049
9.163                0.983527968     -93.8580857
9.164                0.983488037     -94.0183711
9.165                0.983448016     -94.1790622
9.166                0.983407903       -94.34016
9.167                0.983367699     -94.5016652
9.168                0.983327404     -94.6635789
9.169                0.983287018     -94.8259021
9.17                 0.983246543     -94.9886357
9.171                0.983205976     -95.1517805
9.172                 0.98316532     -95.3153376
9.173                0.983124575     -95.4793079
9.174                0.983083739     -95.6436924
9.175                0.983042814     -95.8084919
9.176                0.983001801     -95.9737073
9.177                0.982960698     -96.1393397
9.178                0.982919507       -96.30539
9.179                0.982878227      -96.471859
9.18                 0.982836859     -96.6387477
9.181                0.982795403      -96.806057
9.182                 0.98275386     -96.9737879
9.183                0.982712229     -97.1419412
9.184                0.982670512     -97.3105179
9.185                0.982628708     -97.4795188
9.186                0.982586817      -97.648945
9.187                 0.98254484     -97.8187972
9.188                0.982502777     -97.9890764
9.189                0.982460629     -98.1597835
9.19                 0.982418396     -98.3309194
9.191                0.982376077      -98.502485
9.192                0.982333675     -98.6744811
9.193                0.982291188     -98.8469087
9.194                0.982248617     -99.0197687
9.195                0.982205963     -99.1930619
9.196                0.982163226     -99.3667892
9.197                0.982120406     -99.5409515
9.198                0.982077504     -99.7155496
9.199                0.982034519     -99.8905845
9.2                  0.981991454     -100.066057
9.201                0.981948307     -100.241968
9.202                0.981905079     -100.418318
9.203                0.981861771     -100.595109
9.204                0.981818384      -100.77234
9.205                0.981774917     -100.950013
9.206                 0.98173137     -101.128129
9.207                0.981687746     -101.306689
9.208                0.981644043     -101.485693
9.209                0.981600263     -101.665142
9.21                 0.981556405     -101.845037
9.211                0.981512471     -102.025379
9.212                0.981468461     -102.206168
9.213                0.981424375     -102.387406
9.214                0.981380214     -102.569094
9.215                0.981335979     -102.751231
9.216                0.981291669      -102.93382
9.217                0.981247286      -103.11686
9.218                 0.98120283     -103.300352
9.219                0.981158301     -103.484298
9.22                   0.9811137     -103.668697
9.221                0.981069028     -103.853552
9.222                0.981024286     -104.038862
9.223                0.980979473     -104.224628
9.224                0.980934591     -104.410852
9.225                 0.98088964     -104.597533
9.226                 0.98084462     -104.784673
9.227                0.980799533     -104.972272
9.228                0.980754379     -105.160331
9.229                0.980709159     -105.348851
9.23                 0.980663872     -105.537832
9.231                0.980618521     -105.727276
9.232                0.980573105     -105.917182
9.233                0.980527626     -106.107552
9.234                0.980482083     -106.298386
9.235                0.980436478     -106.489686
9.236                0.980390812      -106.68145
9.237                0.980345085     -106.873682
9.238                0.980299297      -107.06638
9.239                0.980253451     -107.259546
9.24                 0.980207545      -107.45318
9.241                0.980161582     -107.647283
9.242                0.980115562     -107.841855
9.243                0.980069485     -108.036898
9.244                0.980023353     -108.232412
9.245                0.979977166     -108.428397
9.246                0.979930926     -108.624854
9.247                0.979884632     -108.821784
9.248                0.979838286     -109.019187
9.249                0.979791889     -109.217064
9.25                 0.979745441     -109.415415
9.251                0.979698943     -109.614241
9.252                0.979652397     -109.813543
9.253                0.979605803      -110.01332
9.254                0.979559162     -110.213574
9.255                0.979512475     -110.414306
9.256                0.979465743     -110.615515
9.257                0.979418967     -110.817202
9.258                0.979372148     -111.019368
9.259                0.979325286     -111.222013
9.26                 0.979278383     -111.425138
9.261                 0.97923144     -111.628743
9.262                0.979184457     -111.832828
9.263                0.979137436     -112.037394
9.264                0.979090378     -112.242442
9.265                0.979043284     -112.447972
9.266                0.978996154     -112.653984
9.267                0.978948991     -112.860479
9.268                0.978901794     -113.067457
9.269                0.978854565     -113.274919
9.27                 0.978807305     -113.482864
9.271                0.978760016     -113.691294
9.272                0.978712697     -113.900209
9.273                0.978665351     -114.109608
9.274                0.978617979     -114.319493
9.275                0.978570581     -114.529864
9.276                0.978523159     -114.740721
9.277                0.978475714     -114.952064
9.278                0.978428248     -115.163893
9.279                 0.97838076      -115.37621
9.28                 0.978333254     -115.589013
9.281                0.978285729     -115.802305
9.282                0.978238187     -116.016083
9.283                0.978190629      -116.23035
9.284                0.978143057     -116.445105
9.285                0.978095472     -116.660348
9.286                0.978047875      -116.87608
9.287                0.978000267       -117.0923
9.288                 0.97795265      -117.30901
9.289                0.977905025     -117.526208
9.29                 0.977857393     -117.743896
9.291                0.977809756     -117.962072
9.292                0.977762115     -118.180739
9.293                0.977714472     -118.399895
9.294                0.977666827      -118.61954
9.295                0.977619182     -118.839676
9.296                0.977571539     -119.060301
9.297                0.977523899     -119.281416
9.298                0.977476263     -119.503021
9.299                0.977428633     -119.725116
9.3                   0.97738101       -119.9477
9.301                0.977333396     -120.170775
9.302                0.977285792     -120.394339
9.303                  0.9772382     -120.618394
9.304                0.977190621     -120.842938
9.305                0.977143057     -121.067972
9.306                0.977095509     -121.293495
9.307                0.977047979     -121.519508
9.308                0.977000468     -121.746011
9.309                0.976952978     -121.973003
9.31                 0.976905511     -122.200484
9.311                0.976858068     -122.428454
9.312                 0.97681065     -122.656912
9.313                0.976763259      -122.88586
9.314                0.976715898     -123.115296
9.315                0.976668567      -123.34522
9.316                0.976621268     -123.575632
9.317                0.976574003     -123.806532
9.318                0.976526773     -124.037919
9.319                0.976479581     -124.269794
9.32                 0.976432427     -124.502155
9.321                0.976385314     -124.735003
9.322                0.976338243     -124.968337
9.323                0.976291217     -125.202157
9.324                0.976244236     -125.436462
9.325                0.976197302     -125.671253
9.326                0.976150418     -125.906528
9.327                0.976103585     -126.142287
9.328                0.976056804      -126.37853
9.329                0.976010078     -126.615256
9.33                 0.975963409     -126.852465
9.331                0.975916798     -127.090157
9.332                0.975870247      -127.32833
9.333                0.975823758     -127.566984
9.334                0.975777333      -127.80612
9.335                0.975730973     -128.045735
9.336                0.975684681      -128.28583
9.337                0.975638458     -128.526404
9.338                0.975592306     -128.767456
9.339                0.975546228     -129.008985
9.34                 0.975500225     -129.250992
9.341                0.975454298     -129.493475
9.342                0.975408451     -129.736434
9.343                0.975362685     -129.979867
9.344                0.975317001     -130.223774
9.345                0.975271402     -130.468155
9.346                 0.97522589     -130.713008
9.347                0.975180467     -130.958333
9.348                0.975135135     -131.204129
9.349                0.975089895     -131.450395
9.35                 0.975044751      -131.69713
9.351                0.974999703     -131.944334
9.352                0.974954753     -132.192004
9.353                0.974909905     -132.440141
9.354                 0.97486516     -132.688744
9.355                 0.97482052     -132.937811
9.356                0.974775986     -133.187342
9.357                0.974731562     -133.437335
9.358                0.974687249     -133.687789
9.359                0.974643049     -133.938704
9.36                 0.974598965     -134.190079
9.361                0.974554998     -134.441911
9.362                0.974511151     -134.694201
9.363                0.974467425     -134.946946
9.364                0.974423824     -135.200146
9.365                0.974380348       -135.4538
9.366                0.974337001     -135.707906
9.367                0.974293783     -135.962464
9.368                0.974250698     -136.217471
9.369                0.974207748     -136.472927
9.37                 0.974164934      -136.72883
9.371                 0.97412226     -136.985179
9.372                0.974079726     -137.241973
9.373                0.974037336      -137.49921
9.374                0.973995091     -137.756889
9.375                0.973952993     -138.015009
9.376                0.973911046     -138.273567
9.377                 0.97386925     -138.532563
9.378                0.973827609     -138.791996
9.379                0.973786124     -139.051863
9.38                 0.973744798     -139.312163
9.381                0.973703633     -139.572894
9.382                0.973662631     -139.834056
9.383                0.973621794     -140.095646
9.384                0.973581125     -140.357663
9.385                0.973540625     -140.620105
9.386                0.973500298      -140.88297
9.387                0.973460144     -141.146257
9.388                0.973420168     -141.409965
9.389                0.973380369      -141.67409
9.39                 0.973340752     -141.938633
9.391                0.973301318      -142.20359
9.392                 0.97326207      -142.46896
9.393                0.973223009     -142.734741
9.394                0.973184138     -143.000932
9.395                0.973145459     -143.267531
9.396                0.973106975     -143.534534
