! TOUCHSTONE file generated by CST DESIGN STUDIO
! Date and time: Tue Feb  4 12:23:01 2025
! Project name: C:\Work\MatlabApps\UnitCellOptimizationMatlab\CST\unitcell.cst
! Tree item: Tasks\Sweep1\SPara1\S-Parameters
! Header version: 2024
! Port assignment regex: !\s*Touchstone port\s*([0-9]+)\s*=\s*(CST MWS port|CST DES external port|CST DES block port)\s*(.+)\s* \(\"(.*)\"\)(\s*mode\s*([0-9]+))?.*
! Touchstone port assignment:
! Touchstone port 1 = CST DES external port 1 ("")
# GHz S MA R 50
9                    0.988067848     -75.6362182
9.001                0.988039549     -75.7500142
9.002                0.988011164     -75.8640887
9.003                0.987982691     -75.9784424
9.004                0.987954132     -76.0930762
9.005                0.987925486     -76.2079909
9.006                0.987896753     -76.3231873
9.007                0.987867932     -76.4386663
9.008                0.987839024     -76.5544287
9.009                0.987810028     -76.6704753
9.01                 0.987780944      -76.786807
9.011                0.987751771     -76.9034246
9.012                 0.98772251      -77.020329
9.013                0.987693161      -77.137521
9.014                0.987663723     -77.2550014
9.015                0.987634196     -77.3727711
9.016                 0.98760458     -77.4908309
9.017                0.987574874     -77.6091818
9.018                0.987545079     -77.7278245
9.019                0.987515195     -77.8467598
9.02                  0.98748522     -77.9659888
9.021                0.987455156     -78.0855121
9.022                0.987425001     -78.2053307
9.023                0.987394756     -78.3254454
9.024                0.987364421     -78.4458572
9.025                0.987333995     -78.5665668
9.026                0.987303477     -78.6875751
9.027                0.987272869      -78.808883
9.028                 0.98724217     -78.9304914
9.029                0.987211379     -79.0524012
9.03                 0.987180496     -79.1746132
9.031                0.987149522     -79.2971282
9.032                0.987118456     -79.4199472
9.033                0.987087298     -79.5430711
9.034                0.987056047     -79.6665007
9.035                0.987024705     -79.7902369
9.036                0.986993269     -79.9142806
9.037                0.986961741     -80.0386327
9.038                 0.98693012     -80.1632941
9.039                0.986898406     -80.2882656
9.04                 0.986866598     -80.4135482
9.041                0.986834698     -80.5391428
9.042                0.986802703     -80.6650502
9.043                0.986770616     -80.7912713
9.044                0.986738434      -80.917807
9.045                0.986706158     -81.0446583
9.046                0.986673788      -81.171826
9.047                0.986641324     -81.2993111
9.048                0.986608766     -81.4271144
9.049                0.986576113     -81.5552368
9.05                 0.986543365     -81.6836793
9.051                0.986510523     -81.8124427
9.052                0.986477585     -81.9415281
9.053                0.986444553     -82.0709362
9.054                0.986411425      -82.200668
9.055                0.986378201     -82.3307244
9.056                0.986344883     -82.4611063
9.057                0.986311468     -82.5918147
9.058                0.986277958     -82.7228504
9.059                0.986244352     -82.8542144
9.06                  0.98621065     -82.9859076
9.061                0.986176852     -83.1179309
9.062                0.986142958     -83.2502853
9.063                0.986108967     -83.3829716
9.064                 0.98607488     -83.5159909
9.065                0.986040696     -83.6493439
9.066                0.986006415     -83.7830317
9.067                0.985972038     -83.9170552
9.068                0.985937563     -84.0514153
9.069                0.985902992     -84.1861129
9.07                 0.985868324     -84.3211491
9.071                0.985833558     -84.4565246
9.072                0.985798695     -84.5922405
9.073                0.985763735     -84.7282976
9.074                0.985728677      -84.864697
9.075                0.985693521     -85.0014395
9.076                0.985658268     -85.1385261
9.077                0.985622917     -85.2759578
9.078                0.985587468     -85.4137354
9.079                0.985551921     -85.5518599
9.08                 0.985516276     -85.6903324
9.081                0.985480533     -85.8291536
9.082                0.985444692     -85.9683245
9.083                0.985408753     -86.1078462
9.084                0.985372716     -86.2477195
9.085                 0.98533658     -86.3879454
9.086                0.985300345     -86.5285249
9.087                0.985264013     -86.6694588
9.088                0.985227581     -86.8107481
9.089                0.985191051     -86.9523939
9.09                 0.985154423     -87.0943969
9.091                0.985117695     -87.2367583
9.092                 0.98508087     -87.3794789
9.093                0.985043945     -87.5225597
9.094                0.985006921     -87.6660016
9.095                0.984969799     -87.8098056
9.096                0.984932578     -87.9539727
9.097                0.984895258     -88.0985038
9.098                0.984857839     -88.2433998
9.099                0.984820321     -88.3886617
9.1                  0.984782704     -88.5342905
9.101                0.984744989     -88.6802871
9.102                0.984707174     -88.8266525
9.103                0.984669261     -88.9733877
9.104                0.984631248     -89.1204935
9.105                0.984593136      -89.267971
9.106                0.984554926      -89.415821
9.107                0.984516617     -89.5640446
9.108                0.984478208     -89.7126428
9.109                0.984439701     -89.8616164
9.11                 0.984401095     -90.0109664
9.111                 0.98436239     -90.1606938
9.112                0.984323586     -90.3107995
9.113                0.984284684     -90.4612846
9.114                0.984245683     -90.6121498
9.115                0.984206583     -90.7633963
9.116                0.984167384     -90.9150249
9.117                0.984128087     -91.0670367
9.118                0.984088691     -91.2194325
9.119                0.984049197     -91.3722133
9.12                 0.984009604     -91.5253801
9.121                0.983969913     -91.6789338
9.122                0.983930124     -91.8328754
9.123                0.983890236     -91.9872059
9.124                 0.98385025     -92.1419261
9.125                0.983810167      -92.297037
9.126                0.983769985     -92.4525396
9.127                0.983729706     -92.6084349
9.128                0.983689328     -92.7647237
9.129                0.983648854      -92.921407
9.13                 0.983608281     -93.0784858
9.131                0.983567612     -93.2359611
9.132                0.983526845     -93.3938337
9.133                 0.98348598     -93.5521045
9.134                0.983445019     -93.7107747
9.135                0.983403961      -93.869845
9.136                0.983362807     -94.0293164
9.137                0.983321555     -94.1891899
9.138                0.983280207     -94.3494665
9.139                0.983238763     -94.5101469
9.14                 0.983197223     -94.6712322
9.141                0.983155587     -94.8327233
9.142                0.983113856     -94.9946212
9.143                0.983072028     -95.1569267
9.144                0.983030105     -95.3196408
9.145                0.982988088     -95.4827644
9.146                0.982945975     -95.6462985
9.147                0.982903767     -95.8102439
9.148                0.982861465     -95.9746016
9.149                0.982819068     -96.1393725
9.15                 0.982776578     -96.3045576
9.151                0.982733993     -96.4701576
9.152                0.982691315     -96.6361737
9.153                0.982648544     -96.8026065
9.154                0.982605679     -96.9694572
9.155                0.982562721     -97.1367265
9.156                0.982519671     -97.3044154
9.157                0.982476529     -97.4725248
9.158                0.982433294     -97.6410555
9.159                0.982389968     -97.8100086
9.16                  0.98234655     -97.9793848
9.161                0.982303041      -98.149185
9.162                0.982259441     -98.3194102
9.163                 0.98221575     -98.4900612
9.164                 0.98217197     -98.6611389
9.165                0.982128099     -98.8326443
9.166                0.982084139     -99.0045781
9.167                0.982040089     -99.1769412
9.168                0.981995951     -99.3497345
9.169                0.981951724     -99.5229589
9.17                 0.981907408     -99.6966153
9.171                0.981863005     -99.8707044
9.172                0.981818515     -100.045227
9.173                0.981773937     -100.220185
9.174                0.981729273     -100.395577
9.175                0.981684523     -100.571406
9.176                0.981639687     -100.747672
9.177                0.981594765     -100.924376
9.178                0.981549758     -101.101518
9.179                0.981504667       -101.2791
9.18                 0.981459492     -101.457123
9.181                0.981414233     -101.635586
9.182                0.981368891     -101.814492
9.183                0.981323466      -101.99384
9.184                0.981277959     -102.173633
9.185                 0.98123237     -102.353869
9.186                0.981186699     -102.534551
9.187                0.981140948     -102.715679
9.188                0.981095117     -102.897253
9.189                0.981049206     -103.079275
9.19                 0.981003216     -103.261746
9.191                0.980957147     -103.444666
9.192                0.980910999     -103.628035
9.193                0.980864775     -103.811856
9.194                0.980818473     -103.996127
9.195                0.980772095     -104.180851
9.196                0.980725641     -104.366028
9.197                0.980679112     -104.551659
9.198                0.980632508     -104.737744
9.199                 0.98058583     -104.924284
9.2                  0.980539078     -105.111281
9.201                0.980492254     -105.298733
9.202                0.980445357     -105.486643
9.203                 0.98039839     -105.675012
9.204                0.980351351     -105.863838
9.205                0.980304242     -106.053125
9.206                0.980257063     -106.242871
9.207                0.980209816     -106.433078
9.208                0.980162501     -106.623747
9.209                0.980115118     -106.814878
9.21                 0.980067668     -107.006471
9.211                0.980020153     -107.198528
9.212                0.979972572      -107.39105
9.213                0.979924927     -107.584036
9.214                0.979877218     -107.777487
9.215                0.979829446     -107.971404
9.216                0.979781612     -108.165788
9.217                0.979733717      -108.36064
9.218                0.979685761     -108.555959
9.219                0.979637746     -108.751746
9.22                 0.979589671     -108.948003
9.221                0.979541539     -109.144729
9.222                0.979493349     -109.341925
9.223                0.979445103     -109.539592
9.224                0.979396801      -109.73773
9.225                0.979348445     -109.936341
9.226                0.979300035     -110.135423
9.227                0.979251572     -110.334979
9.228                0.979203058     -110.535008
9.229                0.979154492     -110.735511
9.23                 0.979105876     -110.936488
9.231                0.979057212      -111.13794
9.232                0.979008499     -111.339868
9.233                0.978959738     -111.542272
9.234                0.978910932     -111.745152
9.235                0.978862081     -111.948509
9.236                0.978813185     -112.152343
9.237                0.978764246     -112.356655
9.238                0.978715265     -112.561445
9.239                0.978666243     -112.766714
9.24                 0.978617181     -112.972461
9.241                 0.97856808     -113.178688
9.242                0.978518941     -113.385395
9.243                0.978469765     -113.592582
9.244                0.978420554     -113.800249
9.245                0.978371308     -114.008397
9.246                0.978322029     -114.217027
9.247                0.978272717     -114.426138
9.248                0.978223374     -114.635731
9.249                0.978174001     -114.845806
9.25                 0.978124599     -115.056363
9.251                0.978075169     -115.267403
9.252                0.978025713     -115.478927
9.253                0.977976232     -115.690933
9.254                0.977926727     -115.903424
9.255                0.977877199     -116.116398
9.256                 0.97782765     -116.329856
9.257                 0.97777808     -116.543798
9.258                0.977728491     -116.758225
9.259                0.977678885     -116.973136
9.26                 0.977629262     -117.188532
9.261                0.977579624     -117.404413
9.262                0.977529972      -117.62078
9.263                0.977480308     -117.837632
9.264                0.977430633     -118.054969
9.265                0.977380948     -118.272791
9.266                0.977331255       -118.4911
9.267                0.977281554     -118.709894
9.268                0.977231849     -118.929174
9.269                0.977182139     -119.148939
9.27                 0.977132426     -119.369191
9.271                0.977082712     -119.589929
9.272                0.977032998     -119.811152
9.273                0.976983286     -120.032862
9.274                0.976933577     -120.255057
9.275                0.976883873     -120.477739
9.276                0.976834174     -120.700906
9.277                0.976784484      -120.92456
9.278                0.976734802     -121.148699
9.279                0.976685131     -121.373324
9.28                 0.976635472     -121.598434
9.281                0.976585828      -121.82403
9.282                0.976536198     -122.050111
9.283                0.976486585     -122.276678
9.284                0.976436991      -122.50373
9.285                0.976387418     -122.731266
9.286                0.976337866     -122.959288
9.287                0.976288337     -123.187794
9.288                0.976238834     -123.416784
9.289                0.976189357     -123.646258
9.29                 0.976139909     -123.876216
9.291                0.976090491     -124.106657
9.292                0.976041105     -124.337582
9.293                0.975991752      -124.56899
9.294                0.975942434      -124.80088
9.295                0.975893154     -125.033253
9.296                0.975843912     -125.266108
9.297                0.975794711     -125.499444
9.298                0.975745552     -125.733261
9.299                0.975696438     -125.967559
9.3                  0.975647369     -126.202338
9.301                0.975598348     -126.437596
9.302                0.975549376     -126.673334
9.303                0.975500456     -126.909551
9.304                0.975451588     -127.146246
9.305                0.975402776      -127.38342
9.306                0.975354021      -127.62107
9.307                0.975305325     -127.859198
9.308                0.975256689     -128.097802
9.309                0.975208116     -128.336881
9.31                 0.975159608     -128.576436
9.311                0.975111165     -128.816465
9.312                0.975062792     -129.056968
9.313                0.975014488     -129.297945
9.314                0.974966257     -129.539393
9.315                  0.9749181     -129.781314
9.316                0.974870019     -130.023706
9.317                0.974822016     -130.266568
9.318                0.974774094     -130.509899
9.319                0.974726254       -130.7537
9.32                 0.974678498     -130.997968
9.321                0.974630828     -131.242704
9.322                0.974583247     -131.487906
9.323                0.974535755     -131.733574
9.324                0.974488357     -131.979706
9.325                0.974441052     -132.226302
9.326                0.974393845     -132.473361
9.327                0.974346736     -132.720881
9.328                0.974299727     -132.968863
9.329                0.974252822     -133.217304
9.33                 0.974206021     -133.466205
9.331                0.974159327     -133.715563
9.332                0.974112743     -133.965378
9.333                 0.97406627     -134.215649
9.334                 0.97401991     -134.466375
9.335                0.973973666     -134.717554
9.336                 0.97392754     -134.969186
9.337                0.973881534     -135.221269
9.338                0.973835649     -135.473802
9.339                0.973789889     -135.726784
9.34                 0.973744256     -135.980214
9.341                0.973698751     -136.234091
9.342                0.973653378     -136.488413
9.343                0.973608137     -136.743179
9.344                0.973563032     -136.998387
9.345                0.973518064     -137.254037
9.346                0.973473236     -137.510127
9.347                 0.97342855     -137.766655
9.348                0.973384008     -138.023621
9.349                0.973339613     -138.281023
9.35                 0.973295367     -138.538859
9.351                0.973251271     -138.797128
9.352                0.973207329     -139.055829
9.353                0.973163542     -139.314959
9.354                0.973119914     -139.574518
9.355                0.973076445     -139.834504
9.356                0.973033139     -140.094916
9.357                0.972989997     -140.355751
9.358                0.972947022     -140.617008
9.359                0.972904217     -140.878686
9.36                 0.972861583     -141.140783
9.361                0.972819123     -141.403297
9.362                0.972776839     -141.666226
9.363                0.972734733      -141.92957
9.364                0.972692808     -142.193325
9.365                0.972651066     -142.457491
9.366                0.972609509     -142.722065
9.367                 0.97256814     -142.987045
9.368                0.972526961     -143.252431
9.369                0.972485975     -143.518219
9.37                 0.972445182     -143.784408
9.371                0.972404587     -144.050997
9.372                0.972364191     -144.317983
9.373                0.972323996     -144.585364
9.374                0.972284005     -144.853138
9.375                 0.97224422     -145.121304
9.376                0.972204643     -145.389859
9.377                0.972165277     -145.658801
9.378                0.972126124     -145.928129
9.379                0.972087187     -146.197839
9.38                 0.972048467     -146.467931
9.381                0.972009967     -146.738401
9.382                0.971971689     -147.009248
9.383                0.971933635     -147.280469
9.384                0.971895808     -147.552063
9.385                0.971858211     -147.824027
9.386                0.971820844     -148.096358
9.387                0.971783711     -148.369056
9.388                0.971746814     -148.642116
9.389                0.971710155     -148.915537
9.39                 0.971673737     -149.189317
9.391                0.971637561     -149.463453
9.392                 0.97160163     -149.737944
9.393                0.971565946     -150.012785
9.394                0.971530511     -150.287976
9.395                0.971495328     -150.563513
9.396                0.971460399     -150.839394
