! TOUCHSTONE file generated by CST DESIGN STUDIO
! Date and time: Wed Feb  5 13:46:28 2025
! Project name: C:\Work\MatlabApps\UnitCellOptimizationMatlab\CST\unitcell.cst
! Tree item: Tasks\Sweep1\SPara1\S-Parameters
! Header version: 2024
! Port assignment regex: !\s*Touchstone port\s*([0-9]+)\s*=\s*(CST MWS port|CST DES external port|CST DES block port)\s*(.+)\s* \(\"(.*)\"\)(\s*mode\s*([0-9]+))?.*
! Touchstone port assignment:
! Touchstone port 1 = CST DES external port 1 ("")
# GHz S MA R 50
9                    0.970460245     -81.0318108
9.001                0.970383394      -81.160973
9.002                0.970306316     -81.2904644
9.003                0.970229008     -81.4202859
9.004                0.970151471     -81.5504386
9.005                0.970073705     -81.6809234
9.006                0.969995709     -81.8117412
9.007                0.969917482      -81.942893
9.008                0.969839025     -82.0743799
9.009                0.969760337     -82.2062026
9.01                 0.969681417     -82.3383624
9.011                0.969602265       -82.47086
9.012                0.969522881     -82.6036965
9.013                0.969443265     -82.7368729
9.014                0.969363415     -82.8703901
9.015                0.969283333     -83.0042492
9.016                0.969203017      -83.138451
9.017                0.969122466     -83.2729967
9.018                0.969041682     -83.4078871
9.019                0.968960663     -83.5431233
9.02                 0.968879409     -83.6787062
9.021                0.968797919     -83.8146369
9.022                0.968716194     -83.9509163
9.023                0.968634233     -84.0875455
9.024                0.968552036     -84.2245253
9.025                0.968469602     -84.3618569
9.026                0.968386932     -84.4995412
9.027                0.968304024     -84.6375792
9.028                0.968220879     -84.7759719
9.029                0.968137496     -84.9147203
9.03                 0.968053876     -85.0538255
9.031                0.967970017     -85.1932883
9.032                 0.96788592     -85.3331099
9.033                0.967801584     -85.4732911
9.034                0.967717008     -85.6138331
9.035                0.967632194     -85.7547369
9.036                 0.96754714     -85.8960033
9.037                0.967461847     -86.0376335
9.038                0.967376314     -86.1796285
9.039                 0.96729054     -86.3219892
9.04                 0.967204526     -86.4647168
9.041                0.967118272     -86.6078121
9.042                0.967031777     -86.7512762
9.043                0.966945041     -86.8951101
9.044                0.966858064     -87.0393149
9.045                0.966770845     -87.1838915
9.046                0.966683385      -87.328841
9.047                0.966595684     -87.4741644
9.048                0.966507741     -87.6198626
9.049                0.966419556     -87.7659368
9.05                 0.966331128     -87.9123879
9.051                0.966242459      -88.059217
9.052                0.966153547      -88.206425
9.053                0.966064393     -88.3540131
9.054                0.965974997     -88.5019822
9.055                0.965885358     -88.6503333
9.056                0.965795476     -88.7990674
9.057                0.965705352     -88.9481857
9.058                0.965614984      -89.097689
9.059                0.965524374     -89.2475785
9.06                 0.965433521     -89.3978551
9.061                0.965342425     -89.5485199
9.062                0.965251085     -89.6995739
9.063                0.965159503     -89.8510181
9.064                0.965067678     -90.0028535
9.065                 0.96497561     -90.1550812
9.066                0.964883298     -90.3077022
9.067                0.964790744     -90.4607175
9.068                0.964697947     -90.6141282
9.069                0.964604906     -90.7679352
9.07                 0.964511623     -90.9221396
9.071                0.964418097     -91.0767423
9.072                0.964324328     -91.2317445
9.073                0.964230317     -91.3871472
9.074                0.964136063     -91.5429513
9.075                0.964041566     -91.6991579
9.076                0.963946827      -91.855768
9.077                0.963851845     -92.0127826
9.078                0.963756622     -92.1702028
9.079                0.963661156     -92.3280295
9.08                 0.963565449     -92.4862638
9.081                  0.9634695     -92.6449068
9.082                0.963373309     -92.8039593
9.083                0.963276877     -92.9634225
9.084                0.963180204     -93.1232973
9.085                 0.96308329     -93.2835848
9.086                0.962986135      -93.444286
9.087                 0.96288874     -93.6054018
9.088                0.962791105     -93.7669333
9.089                 0.96269323     -93.9288816
9.09                 0.962595115     -94.0912476
9.091                0.962496761     -94.2540323
9.092                0.962398168     -94.4172367
9.093                0.962299337     -94.5808618
9.094                0.962200266     -94.7449087
9.095                0.962100958     -94.9093783
9.096                0.962001413     -95.0742717
9.097                 0.96190163     -95.2395898
9.098                 0.96180161     -95.4053337
9.099                0.961701353     -95.5715042
9.1                  0.961600861     -95.7381025
9.101                0.961500133     -95.9051295
9.102                0.961399169     -96.0725862
9.103                0.961297971     -96.2404736
9.104                0.961196539     -96.4087926
9.105                0.961094873     -96.5775444
9.106                0.960992974     -96.7467297
9.107                0.960890842     -96.9163497
9.108                0.960788478     -97.0864053
9.109                0.960685882     -97.2568974
9.11                 0.960583055     -97.4278271
9.111                0.960479998     -97.5991953
9.112                0.960376711      -97.771003
9.113                0.960273195     -97.9432511
9.114                 0.96016945     -98.1159406
9.115                0.960065477     -98.2890724
9.116                0.959961277     -98.4626476
9.117                0.959856851      -98.636667
9.118                0.959752198     -98.8111317
9.119                0.959647321     -98.9860425
9.12                 0.959542219     -99.1614004
9.121                0.959436893     -99.3372063
9.122                0.959331345     -99.5134613
9.123                0.959225574     -99.6901661
9.124                0.959119583     -99.8673218
9.125                0.959013371     -100.044929
9.126                0.958906939     -100.222989
9.127                0.958800289     -100.401503
9.128                0.958693421     -100.580471
9.129                0.958586336     -100.759895
9.13                 0.958479035     -100.939775
9.131                0.958371519     -101.120112
9.132                 0.95826379     -101.300908
9.133                0.958155847     -101.482162
9.134                0.958047692     -101.663876
9.135                0.957939326     -101.846052
9.136                0.957830751     -102.028688
9.137                0.957721966     -102.211788
9.138                0.957612974     -102.395351
9.139                0.957503775     -102.579378
9.14                 0.957394371      -102.76387
9.141                0.957284762     -102.948828
9.142                 0.95717495     -103.134253
9.143                0.957064936     -103.320146
9.144                0.956954721     -103.506508
9.145                0.956844307     -103.693338
9.146                0.956733695     -103.880639
9.147                0.956622886     -104.068411
9.148                0.956511881     -104.256655
9.149                0.956400681     -104.445372
9.15                 0.956289289     -104.634562
9.151                0.956177705     -104.824226
9.152                0.956065931     -105.014365
9.153                0.955953969     -105.204981
9.154                0.955841819     -105.396072
9.155                0.955729483     -105.587642
9.156                0.955616963     -105.779689
9.157                 0.95550426     -105.972215
9.158                0.955391376     -106.165221
9.159                0.955278312     -106.358708
9.16                 0.955165071     -106.552676
9.161                0.955051652     -106.747125
9.162                0.954938059     -106.942058
9.163                0.954824293     -107.137473
9.164                0.954710356     -107.333373
9.165                0.954596248     -107.529757
9.166                0.954481973     -107.726627
9.167                0.954367532     -107.923984
9.168                0.954252926     -108.121827
9.169                0.954138157     -108.320157
9.17                 0.954023228     -108.518976
9.171                 0.95390814     -108.718283
9.172                0.953792896     -108.918081
9.173                0.953677496     -109.118368
9.174                0.953561943     -109.319146
9.175                0.953446239     -109.520415
9.176                0.953330386     -109.722177
9.177                0.953214386     -109.924431
9.178                0.953098241     -110.127178
9.179                0.952981953     -110.330419
9.18                 0.952865525     -110.534154
9.181                0.952748958     -110.738385
9.182                0.952632255     -110.943111
9.183                0.952515417     -111.148333
9.184                0.952398448     -111.354051
9.185                0.952281348     -111.560267
9.186                0.952164122      -111.76698
9.187                 0.95204677     -111.974192
9.188                0.951929296     -112.181902
9.189                0.951811702     -112.390111
9.19                 0.951693989      -112.59882
9.191                0.951576161     -112.808029
9.192                 0.95145822     -113.017739
9.193                0.951340169      -113.22795
9.194                0.951222009     -113.438662
9.195                0.951103744     -113.649876
9.196                0.950985377     -113.861592
9.197                0.950866909      -114.07381
9.198                0.950748343     -114.286532
9.199                0.950629683     -114.499758
9.2                   0.95051093     -114.713487
9.201                0.950392088      -114.92772
9.202                 0.95027316     -115.142458
9.203                0.950154147     -115.357701
9.204                0.950035054     -115.573448
9.205                0.949915882     -115.789702
9.206                0.949796635      -116.00646
9.207                0.949677315     -116.223725
9.208                0.949557926     -116.441497
9.209                0.949438471     -116.659775
9.21                 0.949318952     -116.878559
9.211                0.949199373     -117.097851
9.212                0.949079736     -117.317649
9.213                0.948960046     -117.537956
9.214                0.948840304     -117.758769
9.215                0.948720514     -117.980091
9.216                 0.94860068     -118.201921
9.217                0.948480804     -118.424258
9.218                 0.94836089     -118.647104
9.219                0.948240942     -118.870458
9.22                 0.948120961      -119.09432
9.221                0.948000953     -119.318691
9.222                0.947880919     -119.543571
9.223                0.947760865     -119.768959
9.224                0.947640792     -119.994856
9.225                0.947520705     -120.221261
9.226                0.947400607     -120.448175
9.227                0.947280502     -120.675598
9.228                0.947160392      -120.90353
9.229                0.947040283      -121.13197
9.23                 0.946920177     -121.360919
9.231                0.946800079     -121.590376
9.232                0.946679991     -121.820341
9.233                0.946559918     -122.050815
9.234                0.946439863     -122.281797
9.235                 0.94631983     -122.513287
9.236                0.946199824     -122.745285
9.237                0.946079847     -122.977791
9.238                0.945959904     -123.210804
9.239                0.945839999     -123.444325
9.24                 0.945720135     -123.678352
9.241                0.945600318     -123.912887
9.242                0.945480549     -124.147928
9.243                0.945360835     -124.383475
9.244                0.945241178     -124.619528
9.245                0.945121584     -124.856087
9.246                0.945002055     -125.093151
9.247                0.944882597     -125.330721
9.248                0.944763213     -125.568795
9.249                0.944643908     -125.807373
9.25                 0.944524685     -126.046455
9.251                 0.94440555     -126.286041
9.252                0.944286507     -126.526129
9.253                 0.94416756      -126.76672
9.254                0.944048713     -127.007813
9.255                 0.94392997     -127.249408
9.256                0.943811337     -127.491504
9.257                0.943692818       -127.7341
9.258                0.943574416     -127.977196
9.259                0.943456138     -128.220791
9.26                 0.943337987     -128.464885
9.261                0.943219967     -128.709477
9.262                0.943102084     -128.954566
9.263                0.942984342     -129.200152
9.264                0.942866746     -129.446235
9.265                0.942749301     -129.692812
9.266                 0.94263201     -129.939885
9.267                 0.94251488     -130.187451
9.268                0.942397914      -130.43551
9.269                0.942281118     -130.684062
9.27                 0.942164496     -130.933105
9.271                0.942048054     -131.182639
9.272                0.941931796     -131.432663
9.273                0.941815726     -131.683175
9.274                0.941699851     -131.934176
9.275                0.941584174     -132.185664
9.276                0.941468702     -132.437638
9.277                0.941353438     -132.690097
9.278                0.941238389     -132.943041
9.279                0.941123558     -133.196468
9.28                 0.941008952     -133.450376
9.281                0.940894574     -133.704766
9.282                0.940780431     -133.959637
9.283                0.940666528     -134.214986
9.284                0.940552869     -134.470812
9.285                0.940439459     -134.727116
9.286                0.940326305     -134.983895
9.287                0.940213411     -135.241148
9.288                0.940100783     -135.498875
9.289                0.939988425     -135.757073
9.29                 0.939876343     -136.015742
9.291                0.939764543      -136.27488
9.292                0.939653029     -136.534486
9.293                0.939541808     -136.794559
9.294                0.939430883     -137.055097
9.295                0.939320262     -137.316099
9.296                0.939209948     -137.577563
9.297                0.939099949     -137.839489
9.298                0.938990268     -138.101874
9.299                0.938880911     -138.364717
9.3                  0.938771885     -138.628017
9.301                0.938663193     -138.891772
9.302                0.938554843      -139.15598
9.303                0.938446839      -139.42064
9.304                0.938339186     -139.685751
9.305                0.938231891      -139.95131
9.306                0.938124959     -140.217317
9.307                0.938018395     -140.483769
9.308                0.937912205     -140.750664
9.309                0.937806395     -141.018001
9.31                  0.93770097     -141.285779
9.311                0.937595935     -141.553995
9.312                0.937491297     -141.822648
9.313                 0.93738706     -142.091735
9.314                0.937283231     -142.361256
9.315                0.937179815     -142.631207
9.316                0.937076817     -142.901588
9.317                0.936974244     -143.172396
9.318                0.936872101     -143.443629
9.319                0.936770393     -143.715286
9.32                 0.936669126     -143.987363
9.321                0.936568306      -144.25986
9.322                0.936467938     -144.532775
9.323                0.936368029     -144.806104
9.324                0.936268583     -145.079847
9.325                0.936169606        -145.354
9.326                0.936071104     -145.628562
9.327                0.935973083     -145.903531
9.328                0.935875548     -146.178904
9.329                0.935778504      -146.45468
9.33                 0.935681958     -146.730855
9.331                0.935585915     -147.007428
9.332                0.935490381     -147.284396
9.333                0.935395361     -147.561757
9.334                0.935300861     -147.839509
9.335                0.935206886     -148.117649
9.336                0.935113442     -148.396175
9.337                0.935020534     -148.675084
9.338                0.934928169     -148.954374
9.339                0.934836351     -149.234043
9.34                 0.934745087     -149.514088
9.341                0.934654381     -149.794506
9.342                0.934564239     -150.075295
9.343                0.934474668     -150.356453
9.344                0.934385671     -150.637976
9.345                0.934297255     -150.919863
9.346                0.934209426     -151.202109
9.347                0.934122187     -151.484714
9.348                0.934035546     -151.767674
9.349                0.933949508     -152.050986
9.35                 0.933864077     -152.334648
9.351                0.933779259     -152.618656
9.352                 0.93369506     -152.903009
9.353                0.933611484     -153.187703
9.354                0.933528538     -153.472735
9.355                0.933446226     -153.758103
9.356                0.933364554     -154.043803
9.357                0.933283527     -154.329834
9.358                0.933203149     -154.616191
9.359                0.933123427     -154.902872
9.36                 0.933044366     -155.189873
9.361                 0.93296597     -155.477193
9.362                0.932888245     -155.764828
9.363                0.932811195     -156.052774
9.364                0.932734826     -156.341029
9.365                0.932659143     -156.629589
9.366                0.932584151     -156.918453
9.367                0.932509854     -157.207615
9.368                0.932436258     -157.497074
9.369                0.932363368     -157.786826
9.37                 0.932291188     -158.076867
9.371                0.932219722     -158.367196
9.372                0.932148977     -158.657807
9.373                0.932078956     -158.948699
9.374                0.932009665     -159.239868
9.375                0.931941108      -159.53131
9.376                0.931873289     -159.823022
9.377                0.931806213     -160.115001
9.378                0.931739885     -160.407244
9.379                0.931674309     -160.699746
9.38                  0.93160949     -160.992506
9.381                0.931545432     -161.285519
9.382                0.931482139     -161.578781
9.383                0.931419616      -161.87229
9.384                0.931357867     -162.166042
9.385                0.931296896     -162.460033
9.386                0.931236708      -162.75426
9.387                0.931177306     -163.048719
9.388                0.931118694     -163.343407
9.389                0.931060878      -163.63832
9.39                 0.931003859     -163.933455
9.391                0.930947644     -164.228808
9.392                0.930892235     -164.524375
9.393                0.930837636     -164.820153
9.394                0.930783851     -165.116138
9.395                0.930730884     -165.412327
9.396                0.930678739     -165.708715
