! TOUCHSTONE file generated by CST DESIGN STUDIO
! Date and time: Wed Feb  5 13:46:39 2025
! Project name: C:\Work\MatlabApps\UnitCellOptimizationMatlab\CST\unitcell.cst
! Tree item: Tasks\Sweep1\SPara1\S-Parameters
! Header version: 2024
! Port assignment regex: !\s*Touchstone port\s*([0-9]+)\s*=\s*(CST MWS port|CST DES external port|CST DES block port)\s*(.+)\s* \(\"(.*)\"\)(\s*mode\s*([0-9]+))?.*
! Touchstone port assignment:
! Touchstone port 1 = CST DES external port 1 ("")
# GHz S MA R 50
9                    0.971945122     -66.3806127
9.001                0.971882933     -66.4753855
9.002                0.971820551     -66.5703844
9.003                0.971757976     -66.6656102
9.004                0.971695208     -66.7610636
9.005                0.971632246     -66.8567451
9.006                0.971569089     -66.9526557
9.007                0.971505738     -67.0487959
9.008                 0.97144219     -67.1451666
9.009                0.971378447     -67.2417683
9.01                 0.971314507     -67.3386019
9.011                0.971250369     -67.4356681
9.012                0.971186034     -67.5329675
9.013                  0.9711215      -67.630501
9.014                0.971056767     -67.7282692
9.015                0.970991834      -67.826273
9.016                0.970926701     -67.9245129
9.017                0.970861368     -68.0229898
9.018                0.970795833     -68.1217044
9.019                0.970730096     -68.2206574
9.02                 0.970664157     -68.3198497
9.021                0.970598015     -68.4192818
9.022                 0.97053167     -68.5189547
9.023                 0.97046512      -68.618869
9.024                0.970398365     -68.7190254
9.025                0.970331405     -68.8194248
9.026                 0.97026424      -68.920068
9.027                0.970196867     -69.0209555
9.028                0.970129288     -69.1220884
9.029                0.970061502     -69.2234672
9.03                 0.969993507     -69.3250927
9.031                0.969925303     -69.4269658
9.032                 0.96985689     -69.5290872
9.033                0.969788268     -69.6314577
9.034                0.969719434     -69.7340781
9.035                 0.96965039     -69.8369491
9.036                0.969581135     -69.9400715
9.037                0.969511667     -70.0434461
9.038                0.969441986     -70.1470737
9.039                0.969372092     -70.2509551
9.04                 0.969301985      -70.355091
9.041                0.969231663     -70.4594823
9.042                0.969161125     -70.5641298
9.043                0.969090373     -70.6690342
9.044                0.969019404     -70.7741964
9.045                0.968948218     -70.8796172
9.046                0.968876816     -70.9852973
9.047                0.968805195     -71.0912376
9.048                0.968733356     -71.1974389
9.049                0.968661298      -71.303902
9.05                  0.96858902     -71.4106277
9.051                0.968516523     -71.5176168
9.052                0.968443804     -71.6248702
9.053                0.968370865     -71.7323887
9.054                0.968297703     -71.8401731
9.055                 0.96822432     -71.9482242
9.056                0.968150713     -72.0565428
9.057                0.968076883     -72.1651298
9.058                0.968002828     -72.2739861
9.059                0.967928549     -72.3831124
9.06                 0.967854045     -72.4925096
9.061                0.967779316     -72.6021785
9.062                0.967704359       -72.71212
9.063                0.967629176      -72.822335
9.064                0.967553766     -72.9328242
9.065                0.967478127     -73.0435885
9.066                0.967402261     -73.1546288
9.067                0.967326164     -73.2659459
9.068                0.967249839     -73.3775408
9.069                0.967173283     -73.4894141
9.07                 0.967096496     -73.6015669
9.071                0.967019478         -73.714
9.072                0.966942229     -73.8267142
9.073                0.966864746     -73.9397104
9.074                0.966787031     -74.0529894
9.075                0.966709083     -74.1665523
9.076                  0.9666309     -74.2803997
9.077                0.966552483     -74.3945327
9.078                0.966473831      -74.508952
9.079                0.966394943     -74.6236587
9.08                 0.966315819     -74.7386535
9.081                0.966236458     -74.8539373
9.082                 0.96615686      -74.969511
9.083                0.966077024     -75.0853756
9.084                 0.96599695     -75.2015319
9.085                0.965916637     -75.3179809
9.086                0.965836085     -75.4347233
9.087                0.965755293     -75.5517601
9.088                 0.96567426     -75.6690923
9.089                0.965592987     -75.7867207
9.09                 0.965511472     -75.9046463
9.091                0.965429715     -76.0228698
9.092                0.965347716     -76.1413924
9.093                0.965265474     -76.2602148
9.094                0.965182988      -76.379338
9.095                0.965100258     -76.4987629
9.096                0.965017284     -76.6184904
9.097                0.964934065     -76.7385215
9.098                  0.9648506      -76.858857
9.099                 0.96476689      -76.979498
9.1                  0.964682933     -77.1004453
9.101                0.964598729     -77.2216999
9.102                0.964514277     -77.3432627
9.103                0.964429578     -77.4651346
9.104                 0.96434463     -77.5873166
9.105                0.964259433     -77.7098096
9.106                0.964173987     -77.8326146
9.107                0.964088292     -77.9557324
9.108                0.964002345     -78.0791642
9.109                0.963916149     -78.2029107
9.11                 0.963829701      -78.326973
9.111                0.963743001      -78.451352
9.112                0.963656049     -78.5760487
9.113                0.963568845      -78.701064
9.114                0.963481387     -78.8263989
9.115                0.963393676     -78.9520543
9.116                0.963305712     -79.0780313
9.117                0.963217493     -79.2043307
9.118                0.963129019     -79.3309536
9.119                 0.96304029     -79.4579009
9.12                 0.962951305     -79.5851735
9.121                0.962862065     -79.7127725
9.122                0.962772568     -79.8406989
9.123                0.962682814     -79.9689536
9.124                0.962592803     -80.0975375
9.125                0.962502534     -80.2264518
9.126                0.962412007     -80.3556973
9.127                0.962321222      -80.485275
9.128                0.962230178      -80.615186
9.129                0.962138874     -80.7454312
9.13                 0.962047312     -80.8760116
9.131                0.961955489     -81.0069283
9.132                0.961863406     -81.1381821
9.133                0.961771062     -81.2697741
9.134                0.961678458     -81.4017053
9.135                0.961585591     -81.5339767
9.136                0.961492464     -81.6665893
9.137                0.961399074     -81.7995441
9.138                0.961305422     -81.9328421
9.139                0.961211507     -82.0664843
9.14                 0.961117329     -82.2004718
9.141                0.961022888     -82.3348055
9.142                0.960928183     -82.4694864
9.143                0.960833214     -82.6045156
9.144                0.960737981      -82.739894
9.145                0.960642483     -82.8756227
9.146                0.960546721     -83.0117028
9.147                0.960450693     -83.1481352
9.148                  0.9603544     -83.2849209
9.149                0.960257842      -83.422061
9.15                 0.960161017     -83.5595564
9.151                0.960063927     -83.6974083
9.152                 0.95996657     -83.8356177
9.153                0.959868946     -83.9741855
9.154                0.959771056     -84.1131128
9.155                0.959672899     -84.2524007
9.156                0.959574474     -84.3920502
9.157                0.959475782     -84.5320622
9.158                0.959376822     -84.6724379
9.159                0.959277595     -84.8131782
9.16                 0.959178099     -84.9542843
9.161                0.959078335     -85.0957571
9.162                0.958978303     -85.2375977
9.163                0.958878002     -85.3798071
9.164                0.958777433     -85.5223865
9.165                0.958676595     -85.6653367
9.166                0.958575487     -85.8086589
9.167                0.958474111     -85.9523541
9.168                0.958372466     -86.0964233
9.169                0.958270551     -86.2408676
9.17                 0.958168367     -86.3856881
9.171                0.958065914     -86.5308858
9.172                0.957963191     -86.6764617
9.173                0.957860198     -86.8224169
9.174                0.957756936     -86.9687525
9.175                0.957653404     -87.1154695
9.176                0.957549602     -87.2625689
9.177                0.957445531     -87.4100518
9.178                 0.95734119     -87.5579193
9.179                0.957236579     -87.7061724
9.18                 0.957131698     -87.8548122
9.181                0.957026547     -88.0038397
9.182                0.956921127      -88.153256
9.183                0.956815437     -88.3030621
9.184                0.956709478     -88.4532591
9.185                0.956603249      -88.603848
9.186                 0.95649675       -88.75483
9.187                0.956389982     -88.9062061
9.188                0.956282945     -89.0579773
9.189                0.956175638     -89.2101446
9.19                 0.956068062     -89.3627092
9.191                0.955960218     -89.5156721
9.192                0.955852104     -89.6690344
9.193                0.955743722     -89.8227971
9.194                0.955635071     -89.9769613
9.195                0.955526152     -90.1315281
9.196                0.955416965     -90.2864984
9.197                 0.95530751     -90.4418734
9.198                0.955197788     -90.5976541
9.199                0.955087797     -90.7538416
9.2                   0.95497754      -90.910437
9.201                0.954867016     -91.0674412
9.202                0.954756224     -91.2248554
9.203                0.954645167     -91.3826806
9.204                0.954533843     -91.5409179
9.205                0.954422254     -91.6995683
9.206                0.954310399     -91.8586329
9.207                0.954198279     -92.0181127
9.208                0.954085895     -92.1780088
9.209                0.953973246     -92.3383223
9.21                 0.953860333     -92.4990541
9.211                0.953747156     -92.6602054
9.212                0.953633717     -92.8217772
9.213                0.953520014     -92.9837706
9.214                0.953406049     -93.1461866
9.215                0.953291823     -93.3090262
9.216                0.953177335     -93.4722905
9.217                0.953062587     -93.6359805
9.218                0.952947578     -93.8000974
9.219                0.952832309     -93.9646421
9.22                 0.952716781     -94.1296156
9.221                0.952600995     -94.2950191
9.222                0.952484951     -94.4608535
9.223                0.952368649       -94.62712
9.224                 0.95225209     -94.7938194
9.225                0.952135275     -94.9609529
9.226                0.952018205     -95.1285215
9.227                0.951900879     -95.2965263
9.228                  0.9517833     -95.4649682
9.229                0.951665467     -95.6338483
9.23                 0.951547381     -95.8031676
9.231                0.951429044     -95.9729271
9.232                0.951310455     -96.1431279
9.233                0.951191616      -96.313771
9.234                0.951072527     -96.4848574
9.235                0.950953189      -96.656388
9.236                0.950833604      -96.828364
9.237                0.950713771     -97.0007864
9.238                0.950593692      -97.173656
9.239                0.950473368      -97.346974
9.24                   0.9503528     -97.5207413
9.241                0.950231988      -97.694959
9.242                0.950110934      -97.869628
9.243                0.949989638     -98.0447494
9.244                0.949868102      -98.220324
9.245                0.949746326      -98.396353
9.246                0.949624312     -98.5728372
9.247                0.949502061     -98.7497778
9.248                0.949379574     -98.9271755
9.249                0.949256852     -99.1050315
9.25                 0.949133895     -99.2833467
9.251                0.949010706      -99.462122
9.252                0.948887286     -99.6413585
9.253                0.948763635      -99.821057
9.254                0.948639755     -100.001219
9.255                0.948515647     -100.181844
9.256                0.948391313     -100.362935
9.257                0.948266753     -100.544491
9.258                 0.94814197     -100.726514
9.259                0.948016964     -100.909005
9.26                 0.947891736     -101.091965
9.261                0.947766289     -101.275394
9.262                0.947640624     -101.459294
9.263                0.947514741     -101.643665
9.264                0.947388644     -101.828508
9.265                0.947262332     -102.013825
9.266                0.947135808     -102.199616
9.267                0.947009073     -102.385882
9.268                0.946882129     -102.572624
9.269                0.946754977     -102.759843
9.27                  0.94662762     -102.947539
9.271                0.946500058     -103.135714
9.272                0.946372293     -103.324369
9.273                0.946244327     -103.513504
9.274                0.946116163      -103.70312
9.275                  0.9459878     -103.893218
9.276                0.945859243     -104.083799
9.277                0.945730491     -104.274864
9.278                0.945601548     -104.466413
9.279                0.945472414     -104.658448
9.28                 0.945343092     -104.850969
9.281                0.945213585     -105.043977
9.282                0.945083893     -105.237473
9.283                0.944954018     -105.431457
9.284                0.944823964     -105.625931
9.285                0.944693731     -105.820895
9.286                0.944563323      -106.01635
9.287                 0.94443274     -106.212297
9.288                0.944301986     -106.408736
9.289                0.944171062     -106.605669
9.29                  0.94403997     -106.803095
9.291                0.943908714     -107.001017
9.292                0.943777295     -107.199434
9.293                0.943645715     -107.398347
9.294                0.943513976     -107.597757
9.295                0.943382082     -107.797665
9.296                0.943250035     -107.998072
9.297                0.943117836     -108.198977
9.298                0.942985489     -108.400382
9.299                0.942852995     -108.602288
9.3                  0.942720358     -108.804695
9.301                 0.94258758     -109.007603
9.302                0.942454663     -109.211014
9.303                0.942321611     -109.414928
9.304                0.942188425     -109.619346
9.305                0.942055109     -109.824268
9.306                0.941921665     -110.029695
9.307                0.941788096     -110.235628
9.308                0.941654405     -110.442066
9.309                0.941520594     -110.649012
9.31                 0.941386667     -110.856464
9.311                0.941252626     -111.064425
9.312                0.941118474     -111.272894
9.313                0.940984215     -111.481872
9.314                 0.94084985     -111.691359
9.315                0.940715384     -111.901357
9.316                0.940580819     -112.111865
9.317                0.940446158     -112.322884
9.318                0.940311405     -112.534415
9.319                0.940176562     -112.746457
9.32                 0.940041634     -112.959012
9.321                0.939906622      -113.17208
9.322                 0.93977153     -113.385661
9.323                0.939636362     -113.599756
9.324                0.939501122     -113.814366
9.325                0.939365811      -114.02949
9.326                0.939230434     -114.245128
9.327                0.939094994     -114.461283
9.328                0.938959495     -114.677953
9.329                 0.93882394     -114.895139
9.33                 0.938688333     -115.112842
9.331                0.938552677     -115.331061
9.332                0.938416976     -115.549798
9.333                0.938281234     -115.769052
9.334                0.938145454     -115.988823
9.335                 0.93800964     -116.209113
9.336                0.937873796     -116.429921
9.337                0.937737925     -116.651247
9.338                0.937602032     -116.873093
9.339                 0.93746612     -117.095457
9.34                 0.937330193      -117.31834
9.341                0.937194256     -117.541743
9.342                0.937058311     -117.765665
9.343                0.936922364     -117.990107
9.344                0.936786419     -118.215068
9.345                0.936650478      -118.44055
9.346                0.936514547     -118.666552
9.347                 0.93637863     -118.893074
9.348                0.936242731     -119.120116
9.349                0.936106853     -119.347679
9.35                 0.935971002     -119.575762
9.351                0.935835182     -119.804366
9.352                0.935699397      -120.03349
9.353                0.935563652     -120.263134
9.354                 0.93542795     -120.493299
9.355                0.935292297     -120.723985
9.356                0.935156697     -120.955191
9.357                0.935021154     -121.186917
9.358                0.934885673     -121.419163
9.359                0.934750259      -121.65193
9.36                 0.934614916     -121.885217
9.361                0.934479649     -122.119024
9.362                0.934344462      -122.35335
9.363                0.934209361     -122.588196
9.364                 0.93407435     -122.823562
9.365                0.933939435     -123.059447
9.366                0.933804619     -123.295851
9.367                0.933669908     -123.532774
9.368                0.933535306     -123.770215
9.369                 0.93340082     -124.008175
9.37                 0.933266453     -124.246652
9.371                0.933132211     -124.485647
9.372                0.932998098      -124.72516
9.373                0.932864121     -124.965189
9.374                0.932730283     -125.205736
9.375                0.932596591     -125.446798
9.376                 0.93246305     -125.688376
9.377                0.932329664      -125.93047
9.378                0.932196439     -126.173078
9.379                 0.93206338     -126.416202
9.38                 0.931930493     -126.659839
9.381                0.931797783     -126.903989
9.382                0.931665255     -127.148652
9.383                0.931532916     -127.393828
9.384                0.931400769     -127.639516
9.385                0.931268822     -127.885715
9.386                0.931137079     -128.132424
9.387                0.931005545     -128.379644
9.388                0.930874228     -128.627373
9.389                0.930743131      -128.87561
9.39                 0.930612262     -129.124356
9.391                0.930481625     -129.373608
9.392                0.930351226     -129.623367
9.393                0.930221071     -129.873632
9.394                0.930091166     -130.124402
9.395                0.929961517     -130.375676
9.396                0.929832129     -130.627453
