! TOUCHSTONE file generated by CST DESIGN STUDIO
! Date and time: Wed Feb  5 13:46:45 2025
! Project name: C:\Work\MatlabApps\UnitCellOptimizationMatlab\CST\unitcell.cst
! Tree item: Tasks\Sweep1\SPara1\S-Parameters
! Header version: 2024
! Port assignment regex: !\s*Touchstone port\s*([0-9]+)\s*=\s*(CST MWS port|CST DES external port|CST DES block port)\s*(.+)\s* \(\"(.*)\"\)(\s*mode\s*([0-9]+))?.*
! Touchstone port assignment:
! Touchstone port 1 = CST DES external port 1 ("")
# GHz S MA R 50
9                    0.973401558     -55.5288084
9.001                0.973352466     -55.6023831
9.002                0.973303225       -55.67612
9.003                0.973253834     -55.7500196
9.004                0.973204292     -55.8240823
9.005                  0.9731546     -55.8983087
9.006                0.973104756     -55.9726994
9.007                 0.97305476     -56.0472547
9.008                0.973004612     -56.1219753
9.009                 0.97295431     -56.1968615
9.01                 0.972903856     -56.2719141
9.011                0.972853247     -56.3471333
9.012                0.972802484     -56.4225199
9.013                0.972751567     -56.4980742
9.014                0.972700494     -56.5737969
9.015                0.972649265     -56.6496884
9.016                0.972597879     -56.7257493
9.017                0.972546337     -56.8019801
9.018                0.972494637     -56.8783813
9.019                0.972442779     -56.9549534
9.02                 0.972390763     -57.0316971
9.021                0.972338588     -57.1086127
9.022                0.972286254      -57.185701
9.023                0.972233759     -57.2629623
9.024                0.972181105     -57.3403973
9.025                0.972128289     -57.4180065
9.026                0.972075311     -57.4957903
9.027                0.972022172     -57.5737495
9.028                 0.97196887     -57.6518845
9.029                0.971915405     -57.7301959
9.03                 0.971861776     -57.8086842
9.031                0.971807983     -57.8873499
9.032                0.971754026     -57.9661938
9.033                0.971699903     -58.0452162
9.034                0.971645615     -58.1244177
9.035                 0.97159116      -58.203799
9.036                0.971536539     -58.2833606
9.037                 0.97148175      -58.363103
9.038                0.971426794     -58.4430268
9.039                0.971371669     -58.5231326
9.04                 0.971316375      -58.603421
9.041                0.971260912     -58.6838925
9.042                0.971205279     -58.7645478
9.043                0.971149475     -58.8453873
9.044                  0.9710935     -58.9264117
9.045                0.971037354     -59.0076215
9.046                0.970981035     -59.0890174
9.047                0.970924543     -59.1705999
9.048                0.970867879     -59.2523696
9.049                 0.97081104     -59.3343271
9.05                 0.970754027      -59.416473
9.051                0.970696839     -59.4988079
9.052                0.970639476     -59.5813323
9.053                0.970581937      -59.664047
9.054                0.970524221     -59.7469524
9.055                0.970466327     -59.8300493
9.056                0.970408257     -59.9133381
9.057                0.970350007     -59.9968195
9.058                0.970291579     -60.0804942
9.059                0.970232972     -60.1643626
9.06                 0.970174184     -60.2484255
9.061                0.970115216     -60.3326835
9.062                0.970056067     -60.4171371
9.063                0.969996736      -60.501787
9.064                0.969937223     -60.5866338
9.065                0.969877527     -60.6716782
9.066                0.969817648     -60.7569207
9.067                0.969757585      -60.842362
9.068                0.969697337     -60.9280027
9.069                0.969636904     -61.0138435
9.07                 0.969576285      -61.099885
9.071                 0.96951548     -61.1861279
9.072                0.969454488     -61.2725726
9.073                0.969393309       -61.35922
9.074                0.969331941     -61.4460707
9.075                0.969270385     -61.5331253
9.076                 0.96920864     -61.6203844
9.077                0.969146705     -61.7078487
9.078                 0.96908458     -61.7955189
9.079                0.969022263     -61.8833956
9.08                 0.968959755     -61.9714794
9.081                0.968897055     -62.0597711
9.082                0.968834162     -62.1482713
9.083                0.968771075     -62.2369806
9.084                0.968707795     -62.3258998
9.085                 0.96864432     -62.4150294
9.086                 0.96858065     -62.5043702
9.087                0.968516785     -62.5939229
9.088                0.968452722      -62.683688
9.089                0.968388463     -62.7736664
9.09                 0.968324007     -62.8638586
9.091                0.968259352     -62.9542654
9.092                0.968194498     -63.0448874
9.093                0.968129445     -63.1357254
9.094                0.968064193     -63.2267799
9.095                0.967998739     -63.3180518
9.096                0.967933084     -63.4095417
9.097                0.967867228     -63.5012503
9.098                0.967801169     -63.5931783
9.099                0.967734907     -63.6853264
9.1                  0.967668442     -63.7776953
9.101                0.967601772     -63.8702857
9.102                0.967534897     -63.9630984
9.103                0.967467817      -64.056134
9.104                0.967400531     -64.1493932
9.105                0.967333038     -64.2428768
9.106                0.967265337     -64.3365855
9.107                0.967197429     -64.4305199
9.108                0.967129312      -64.524681
9.109                0.967060986     -64.6190692
9.11                  0.96699245     -64.7136855
9.111                0.966923704     -64.8085304
9.112                0.966854747     -64.9036048
9.113                0.966785578     -64.9989094
9.114                0.966716196     -65.0944449
9.115                0.966646602     -65.1902121
9.116                0.966576794     -65.2862117
9.117                0.966506772     -65.3824444
9.118                0.966436536      -65.478911
9.119                0.966366083     -65.5756122
9.12                 0.966295415     -65.6725489
9.121                 0.96622453     -65.7697217
9.122                0.966153428     -65.8671314
9.123                0.966082107     -65.9647788
9.124                0.966010569     -66.0626646
9.125                0.965938811     -66.1607897
9.126                0.965866833     -66.2591547
9.127                0.965794634     -66.3577604
9.128                0.965722215     -66.4566076
9.129                0.965649573     -66.5556972
9.13                  0.96557671     -66.6550298
9.131                0.965503623     -66.7546062
9.132                0.965430313     -66.8544273
9.133                0.965356778     -66.9544937
9.134                0.965283019     -67.0548064
9.135                0.965209034     -67.1553661
9.136                0.965134823     -67.2561735
9.137                0.965060385     -67.3572296
9.138                 0.96498572      -67.458535
9.139                0.964910826     -67.5600905
9.14                 0.964835704     -67.6618971
9.141                0.964760352     -67.7639554
9.142                0.964684771     -67.8662664
9.143                0.964608959     -67.9688307
9.144                0.964532915     -68.0716493
9.145                 0.96445664     -68.1747229
9.146                0.964380132     -68.2780523
9.147                0.964303391     -68.3816385
9.148                0.964226416     -68.4854821
9.149                0.964149207     -68.5895841
9.15                 0.964071763     -68.6939452
9.151                0.963994083     -68.7985662
9.152                0.963916167     -68.9034482
9.153                0.963838013     -69.0085917
9.154                0.963759623     -69.1139978
9.155                0.963680994     -69.2196672
9.156                0.963602126     -69.3256008
9.157                0.963523018     -69.4317994
9.158                0.963443671     -69.5382638
9.159                0.963364082     -69.6449951
9.16                 0.963284253     -69.7519939
9.161                0.963204181     -69.8592611
9.162                0.963123867     -69.9667976
9.163                0.963043309     -70.0746044
9.164                0.962962507     -70.1826821
9.165                0.962881461     -70.2910317
9.166                 0.96280017     -70.3996541
9.167                0.962718633     -70.5085502
9.168                 0.96263685     -70.6177208
9.169                0.962554819     -70.7271667
9.17                 0.962472541      -70.836889
9.171                0.962390015     -70.9468884
9.172                0.962307239     -71.0571658
9.173                0.962224215     -71.1677222
9.174                 0.96214094     -71.2785585
9.175                0.962057414     -71.3896754
9.176                0.961973637      -71.501074
9.177                0.961889608      -71.612755
9.178                0.961805326     -71.7247195
9.179                0.961720791     -71.8369683
9.18                 0.961636003     -71.9495024
9.181                 0.96155096     -72.0623226
9.182                0.961465662     -72.1754298
9.183                0.961380108     -72.2888251
9.184                0.961294298     -72.4025092
9.185                0.961208231     -72.5164831
9.186                0.961121907     -72.6307477
9.187                0.961035324      -72.745304
9.188                0.960948483     -72.8601529
9.189                0.960861383     -72.9752953
9.19                 0.960774023     -73.0907321
9.191                0.960686402     -73.2064643
9.192                0.960598521     -73.3224929
9.193                0.960510378     -73.4388187
9.194                0.960421973     -73.5554427
9.195                0.960333304     -73.6723658
9.196                0.960244373     -73.7895891
9.197                0.960155178     -73.9071134
9.198                0.960065718     -74.0249397
9.199                0.959975993      -74.143069
9.2                  0.959886002     -74.2615022
9.201                0.959795746     -74.3802402
9.202                0.959705222     -74.4992842
9.203                0.959614431     -74.6186349
9.204                0.959523372     -74.7382934
9.205                0.959432045     -74.8582607
9.206                0.959340449     -74.9785377
9.207                0.959248583     -75.0991254
9.208                0.959156447     -75.2200248
9.209                 0.95906404     -75.3412368
9.21                 0.958971362     -75.4627625
9.211                0.958878412     -75.5846028
9.212                0.958785191     -75.7067588
9.213                0.958691696     -75.8292314
9.214                0.958597928     -75.9520216
9.215                0.958503886     -76.0751303
9.216                 0.95840957     -76.1985587
9.217                0.958314979     -76.3223078
9.218                0.958220112     -76.4463784
9.219                0.958124969     -76.5707716
9.22                 0.958029551     -76.6954885
9.221                0.957933855       -76.82053
9.222                0.957837881     -76.9458971
9.223                 0.95774163      -77.071591
9.224                0.957645101     -77.1976125
9.225                0.957548292     -77.3239627
9.226                0.957451204     -77.4506426
9.227                0.957353837     -77.5776533
9.228                0.957256189     -77.7049958
9.229                 0.95715826     -77.8326711
9.23                  0.95706005     -77.9606803
9.231                0.956961558     -78.0890243
9.232                0.956862784     -78.2177042
9.233                0.956763728     -78.3467211
9.234                0.956664389      -78.476076
9.235                0.956564766       -78.60577
9.236                0.956464859      -78.735804
9.237                0.956364668     -78.8661792
9.238                0.956264192     -78.9968966
9.239                0.956163431     -79.1279572
9.24                 0.956062384     -79.2593621
9.241                0.955961052     -79.3911123
9.242                0.955859433      -79.523209
9.243                0.955757527     -79.6556531
9.244                0.955655335     -79.7884458
9.245                0.955552854     -79.9215881
9.246                0.955450086      -80.055081
9.247                 0.95534703     -80.1889257
9.248                0.955243685     -80.3231232
9.249                0.955140051     -80.4576746
9.25                 0.955036128      -80.592581
9.251                0.954931915     -80.7278434
9.252                0.954827413     -80.8634629
9.253                 0.95472262     -80.9994406
9.254                0.954617536     -81.1357776
9.255                0.954512162      -81.272475
9.256                0.954406496     -81.4095338
9.257                0.954300539     -81.5469552
9.258                 0.95419429     -81.6847402
9.259                0.954087749     -81.8228899
9.26                 0.953980916     -81.9614055
9.261                0.953873791      -82.100288
9.262                0.953766372     -82.2395386
9.263                 0.95365866     -82.3791582
9.264                0.953550655     -82.5191481
9.265                0.953442357     -82.6595093
9.266                0.953333765     -82.8002429
9.267                0.953224879     -82.9413501
9.268                0.953115698     -83.0828319
9.269                0.953006224     -83.2246895
9.27                 0.952896455      -83.366924
9.271                0.952786391     -83.5095364
9.272                0.952676032      -83.652528
9.273                0.952565379     -83.7958997
9.274                 0.95245443     -83.9396528
9.275                0.952343186     -84.0837884
9.276                0.952231646     -84.2283075
9.277                0.952119811     -84.3732113
9.278                0.952007681     -84.5185009
9.279                0.951895255     -84.6641775
9.28                 0.951782533     -84.8102422
9.281                0.951669515      -84.956696
9.282                0.951556201     -85.1035402
9.283                0.951442591     -85.2507758
9.284                0.951328686      -85.398404
9.285                0.951214484     -85.5464259
9.286                0.951099986     -85.6948427
9.287                0.950985193     -85.8436554
9.288                0.950870103     -85.9928653
9.289                0.950754717     -86.1424734
9.29                 0.950639035     -86.2924809
9.291                0.950523058     -86.4428889
9.292                0.950406785     -86.5936986
9.293                0.950290215     -86.7449111
9.294                0.950173351     -86.8965275
9.295                 0.95005619     -87.0485491
9.296                0.949938734     -87.2009768
9.297                0.949820983     -87.3538119
9.298                0.949702937     -87.5070556
9.299                0.949584596     -87.6607089
9.3                  0.949465959     -87.8147729
9.301                0.949347029     -87.9692489
9.302                0.949227803     -88.1241381
9.303                0.949108283     -88.2794414
9.304                 0.94898847     -88.4351601
9.305                0.948868362     -88.5912953
9.306                0.948747961     -88.7478482
9.307                0.948627267     -88.9048199
9.308                 0.94850628     -89.0622116
9.309                   0.948385     -89.2200244
9.31                 0.948263427     -89.3782594
9.311                0.948141563     -89.5369178
9.312                0.948019407     -89.6960008
9.313                0.947896959     -89.8555095
9.314                0.947774221     -90.0154449
9.315                0.947651192     -90.1758084
9.316                0.947527873      -90.336601
9.317                0.947404265     -90.4978239
9.318                0.947280367     -90.6594782
9.319                 0.94715618     -90.8215651
9.32                 0.947031705     -90.9840856
9.321                0.946906943      -91.147041
9.322                0.946781893     -91.3104324
9.323                0.946656556      -91.474261
9.324                0.946530933     -91.6385278
9.325                0.946405025      -91.803234
9.326                0.946278832     -91.9683808
9.327                0.946152354     -92.1339693
9.328                0.946025593     -92.3000006
9.329                0.945898548     -92.4664759
9.33                 0.945771221     -92.6333962
9.331                0.945643613     -92.8007629
9.332                0.945515723     -92.9685769
9.333                0.945387554     -93.1368394
9.334                0.945259104     -93.3055515
9.335                0.945130376     -93.4747144
9.336                0.945001371     -93.6443292
9.337                0.944872088      -93.814397
9.338                0.944742529      -93.984919
9.339                0.944612694     -94.1558962
9.34                 0.944482585     -94.3273298
9.341                0.944352202      -94.499221
9.342                0.944221547     -94.6715707
9.343                 0.94409062     -94.8443802
9.344                0.943959422     -95.0176505
9.345                0.943827955     -95.1913829
9.346                0.943696219     -95.3655782
9.347                0.943564215     -95.5402378
9.348                0.943431944     -95.7153626
9.349                0.943299408     -95.8909539
9.35                 0.943166608     -96.0670126
9.351                0.943033544     -96.2435399
9.352                0.942900218     -96.4205368
9.353                0.942766632     -96.5980046
9.354                0.942632785     -96.7759442
9.355                0.942498681     -96.9543567
9.356                0.942364319     -97.1332432
9.357                0.942229701     -97.3126049
9.358                0.942094828     -97.4924427
9.359                0.941959703     -97.6727578
9.36                 0.941824325     -97.8535512
9.361                0.941688697     -98.0348239
9.362                0.941552821     -98.2165771
9.363                0.941416696     -98.3988119
9.364                0.941280325     -98.5815291
9.365                 0.94114371       -98.76473
9.366                0.941006852     -98.9484155
9.367                0.940869752     -99.1325867
9.368                0.940732412     -99.3172447
9.369                0.940594835     -99.5023904
9.37                  0.94045702     -99.6880249
9.371                 0.94031897     -99.8741493
9.372                0.940180688     -100.060764
9.373                0.940042173     -100.247871
9.374                0.939903429     -100.435471
9.375                0.939764458     -100.623565
9.376                 0.93962526     -100.812154
9.377                0.939485837     -101.001238
9.378                0.939346193      -101.19082
9.379                0.939206327     -101.380899
9.38                 0.939066244     -101.571477
9.381                0.938925944     -101.762555
9.382                0.938785429     -101.954133
9.383                0.938644702     -102.146214
9.384                0.938503765     -102.338797
9.385                0.938362619     -102.531884
9.386                0.938221267     -102.725475
9.387                0.938079712     -102.919572
9.388                0.937937954     -103.114175
9.389                0.937795997     -103.309286
9.39                 0.937653843     -103.504904
9.391                0.937511494     -103.701033
9.392                0.937368953     -103.897671
9.393                0.937226221      -104.09482
9.394                0.937083301     -104.292481
9.395                0.936940197     -104.490655
9.396                0.936796909     -104.689343
