! TOUCHSTONE file generated by CST DESIGN STUDIO
! Date and time: Wed Feb  5 13:46:44 2025
! Project name: C:\Work\MatlabApps\UnitCellOptimizationMatlab\CST\unitcell.cst
! Tree item: Tasks\Sweep1\SPara1\S-Parameters
! Header version: 2024
! Port assignment regex: !\s*Touchstone port\s*([0-9]+)\s*=\s*(CST MWS port|CST DES external port|CST DES block port)\s*(.+)\s* \(\"(.*)\"\)(\s*mode\s*([0-9]+))?.*
! Touchstone port assignment:
! Touchstone port 1 = CST DES external port 1 ("")
# GHz S MA R 50
9                    0.973009186      -58.262299
9.001                0.972956688     -58.3408253
9.002                 0.97290403     -58.4195286
9.003                 0.97285121     -58.4984095
9.004                0.972798228     -58.5774685
9.005                0.972745084     -58.6567062
9.006                0.972691776     -58.7361231
9.007                0.972638305     -58.8157198
9.008                0.972584671     -58.8954969
9.009                0.972530871     -58.9754549
9.01                 0.972476907     -59.0555944
9.011                0.972422777      -59.135916
9.012                0.972368481     -59.2164201
9.013                0.972314018     -59.2971075
9.014                0.972259388     -59.3779786
9.015                 0.97220459      -59.459034
9.016                0.972149624     -59.5402744
9.017                 0.97209449     -59.6217002
9.018                0.972039186     -59.7033122
9.019                0.971983713     -59.7851107
9.02                 0.971928069     -59.8670966
9.021                0.971872254     -59.9492702
9.022                0.971816268     -60.0316323
9.023                0.971760109     -60.1141833
9.024                0.971703779      -60.196924
9.025                0.971647275     -60.2798549
9.026                0.971590598     -60.3629765
9.027                0.971533746     -60.4462896
9.028                 0.97147672     -60.5297946
9.029                0.971419519     -60.6134923
9.03                 0.971362142     -60.6973831
9.031                0.971304589     -60.7814677
9.032                0.971246859     -60.8657468
9.033                0.971188951     -60.9502209
9.034                0.971130866     -61.0348906
9.035                0.971072602     -61.1197566
9.036                0.971014159     -61.2048195
9.037                0.970955536     -61.2900798
9.038                0.970896734     -61.3755383
9.039                 0.97083775     -61.4611955
9.04                 0.970778585     -61.5470521
9.041                0.970719238     -61.6331087
9.042                0.970659709      -61.719366
9.043                0.970599997     -61.8058244
9.044                0.970540102     -61.8924848
9.045                0.970480022     -61.9793477
9.046                0.970419758     -62.0664138
9.047                0.970359308     -62.1536837
9.048                0.970298672     -62.2411581
9.049                0.970237851     -62.3288376
9.05                 0.970176842     -62.4167228
9.051                0.970115645     -62.5048144
9.052                0.970054261     -62.5931131
9.053                0.969992688     -62.6816195
9.054                0.969930925     -62.7703343
9.055                0.969868973     -62.8592581
9.056                0.969806831     -62.9483916
9.057                0.969744497     -63.0377354
9.058                0.969681972     -63.1272903
9.059                0.969619255     -63.2170568
9.06                 0.969556344     -63.3070357
9.061                0.969493241     -63.3972276
9.062                0.969429944     -63.4876333
9.063                0.969366452     -63.5782533
9.064                0.969302765     -63.6690884
9.065                0.969238883     -63.7601393
9.066                0.969174804     -63.8514065
9.067                0.969110528     -63.9428909
9.068                0.969046055     -64.0345931
9.069                0.968981384     -64.1265138
9.07                 0.968916514     -64.2186537
9.071                0.968851446     -64.3110134
9.072                0.968786177     -64.4035938
9.073                0.968720708     -64.4963954
9.074                0.968655038     -64.5894191
9.075                0.968589166     -64.6826654
9.076                0.968523092     -64.7761351
9.077                0.968456815     -64.8698289
9.078                0.968390335     -64.9637476
9.079                0.968323651     -65.0578918
9.08                 0.968256763     -65.1522622
9.081                0.968189669     -65.2468596
9.082                0.968122369     -65.3416847
9.083                0.968054863     -65.4367383
9.084                 0.96798715      -65.532021
9.085                 0.96791923     -65.6275335
9.086                0.967851101     -65.7232767
9.087                0.967782763     -65.8192512
9.088                0.967714216     -65.9154577
9.089                0.967645459     -66.0118971
9.09                 0.967576491       -66.10857
9.091                0.967507312     -66.2054773
9.092                0.967437922     -66.3026196
9.093                0.967368318     -66.3999976
9.094                0.967298502     -66.4976122
9.095                0.967228472     -66.5954641
9.096                0.967158228     -66.6935541
9.097                0.967087768     -66.7918829
9.098                0.967017094     -66.8904512
9.099                0.966946203     -66.9892598
9.1                  0.966875095     -67.0883096
9.101                 0.96680377     -67.1876012
9.102                0.966732228     -67.2871355
9.103                0.966660466     -67.3869131
9.104                0.966588485      -67.486935
9.105                0.966516285     -67.5872017
9.106                0.966443864     -67.6877143
9.107                0.966371222     -67.7884733
9.108                0.966298359     -67.8894797
9.109                0.966225273     -67.9907341
9.11                 0.966151964     -68.0922375
9.111                0.966078432     -68.1939905
9.112                0.966004676     -68.2959939
9.113                0.965930695     -68.3982487
9.114                0.965856489     -68.5007555
9.115                0.965782056     -68.6035151
9.116                0.965707398     -68.7065285
9.117                0.965632512     -68.8097963
9.118                0.965557398     -68.9133194
9.119                0.965482056     -69.0170986
9.12                 0.965406485     -69.1211348
9.121                0.965330684     -69.2254286
9.122                0.965254653     -69.3299811
9.123                0.965178391     -69.4347929
9.124                0.965101898     -69.5398649
9.125                0.965025172     -69.6451979
9.126                0.964948214     -69.7507928
9.127                0.964871023     -69.8566503
9.128                0.964793597     -69.9627714
9.129                0.964715937     -70.0691569
9.13                 0.964638042     -70.1758076
9.131                0.964559912     -70.2827243
9.132                0.964481544     -70.3899079
9.133                 0.96440294     -70.4973592
9.134                0.964324099     -70.6050791
9.135                0.964245019     -70.7130685
9.136                  0.9641657     -70.8213281
9.137                0.964086142      -70.929859
9.138                0.964006344     -71.0386618
9.139                0.963926306     -71.1477375
9.14                 0.963846026     -71.2570869
9.141                0.963765504      -71.366711
9.142                 0.96368474     -71.4766105
9.143                0.963603733     -71.5867864
9.144                0.963522482     -71.6972395
9.145                0.963440988     -71.8079707
9.146                0.963359248     -71.9189809
9.147                0.963277263      -72.030271
9.148                0.963195032     -72.1418418
9.149                0.963112554     -72.2536943
9.15                 0.963029829     -72.3658292
9.151                0.962946857     -72.4782477
9.152                0.962863636     -72.5909504
9.153                0.962780166     -72.7039384
9.154                0.962696447     -72.8172125
9.155                0.962612477     -72.9307736
9.156                0.962528257     -73.0446226
9.157                0.962443786     -73.1587605
9.158                0.962359062     -73.2731881
9.159                0.962274086     -73.3879064
9.16                 0.962188858     -73.5029162
9.161                0.962103375     -73.6182186
9.162                0.962017639     -73.7338143
9.163                0.961931648     -73.8497044
9.164                0.961845401     -73.9658898
9.165                0.961758899     -74.0823714
9.166                 0.96167214       -74.19915
9.167                0.961585124     -74.3162268
9.168                0.961497851     -74.4336025
9.169                0.961410319     -74.5512782
9.17                 0.961322529     -74.6692547
9.171                 0.96123448      -74.787533
9.172                0.961146171     -74.9061141
9.173                0.961057602     -75.0249989
9.174                0.960968772     -75.1441884
9.175                 0.96087968     -75.2636835
9.176                0.960790327     -75.3834851
9.177                0.960700711     -75.5035943
9.178                0.960610832     -75.6240119
9.179                 0.96052069      -75.744739
9.18                 0.960430283     -75.8657765
9.181                0.960339612     -75.9871254
9.182                0.960248676     -76.1087866
9.183                0.960157475     -76.2307611
9.184                0.960066007       -76.35305
9.185                0.959974272     -76.4756541
9.186                0.959882271     -76.5985744
9.187                0.959790002      -76.721812
9.188                0.959697465     -76.8453678
9.189                0.959604659     -76.9692428
9.19                 0.959511584      -77.093438
9.191                0.959418239     -77.2179543
9.192                0.959324624     -77.3427929
9.193                0.959230739     -77.4679546
9.194                0.959136583     -77.5934405
9.195                0.959042155     -77.7192515
9.196                0.958947455     -77.8453887
9.197                0.958852483     -77.9718531
9.198                0.958757238     -78.0986457
9.199                 0.95866172     -78.2257675
9.2                  0.958565927     -78.3532194
9.201                0.958469861     -78.4810026
9.202                 0.95837352      -78.609118
9.203                0.958276903     -78.7375667
9.204                0.958180011     -78.8663496
9.205                0.958082844     -78.9954678
9.206                0.957985399     -79.1249223
9.207                0.957887678     -79.2547142
9.208                 0.95778968     -79.3848444
9.209                0.957691404     -79.5153141
9.21                  0.95759285     -79.6461241
9.211                0.957494018     -79.7772757
9.212                0.957394907     -79.9087697
9.213                0.957295517     -80.0406073
9.214                0.957195847     -80.1727895
9.215                0.957095897     -80.3053173
9.216                0.956995667     -80.4381917
9.217                0.956895157     -80.5714139
9.218                0.956794365     -80.7049849
9.219                0.956693292     -80.8389057
9.22                 0.956591937     -80.9731773
9.221                0.956490301     -81.1078009
9.222                0.956388382     -81.2427775
9.223                 0.95628618     -81.3781081
9.224                0.956183696     -81.5137938
9.225                0.956080928     -81.6498357
9.226                0.955977877     -81.7862348
9.227                0.955874542     -81.9229922
9.228                0.955770922      -82.060109
9.229                0.955667019     -82.1975862
9.23                  0.95556283     -82.3354249
9.231                0.955458357     -82.4736261
9.232                0.955353599     -82.6121911
9.233                0.955248555     -82.7511207
9.234                0.955143226     -82.8904161
9.235                 0.95503761     -83.0300785
9.236                0.954931709     -83.1701088
9.237                0.954825521     -83.3105081
9.238                0.954719047     -83.4512776
9.239                0.954612286     -83.5924183
9.24                 0.954505239     -83.7339312
9.241                0.954397904     -83.8758176
9.242                0.954290282     -84.0180785
9.243                0.954182373     -84.1607149
9.244                0.954074176      -84.303728
9.245                0.953965692     -84.4471188
9.246                 0.95385692     -84.5908885
9.247                 0.95374786     -84.7350381
9.248                0.953638512     -84.8795688
9.249                0.953528876     -85.0244817
9.25                 0.953418952     -85.1697777
9.251                0.953308739     -85.3154581
9.252                0.953198238      -85.461524
9.253                0.953087449     -85.6079764
9.254                0.952976372     -85.7548165
9.255                0.952865006     -85.9020453
9.256                0.952753351      -86.049664
9.257                0.952641408     -86.1976737
9.258                0.952529177     -86.3460755
9.259                0.952416657     -86.4948704
9.26                 0.952303849     -86.6440597
9.261                0.952190752     -86.7936444
9.262                0.952077368     -86.9436256
9.263                0.951963694     -87.0940044
9.264                0.951849733      -87.244782
9.265                0.951735483     -87.3959594
9.266                0.951620946     -87.5475378
9.267                 0.95150612     -87.6995184
9.268                0.951391007     -87.8519021
9.269                0.951275606     -88.0046901
9.27                 0.951159917     -88.1578836
9.271                0.951043941     -88.3114837
9.272                0.950927678     -88.4654914
9.273                0.950811128     -88.6199079
9.274                0.950694292     -88.7747344
9.275                0.950577168     -88.9299718
9.276                0.950459759     -89.0856214
9.277                0.950342063     -89.2416843
9.278                0.950224081     -89.3981616
9.279                0.950105814     -89.5550543
9.28                 0.949987262     -89.7123637
9.281                0.949868425     -89.8700908
9.282                0.949749303     -90.0282368
9.283                0.949629897     -90.1868028
9.284                0.949510207     -90.3457898
9.285                0.949390233     -90.5051991
9.286                0.949269977     -90.6650317
9.287                0.949149437     -90.8252887
9.288                0.949028615     -90.9859713
9.289                0.948907512     -91.1470806
9.29                 0.948786126     -91.3086176
9.291                 0.94866446     -91.4705836
9.292                0.948542514     -91.6329796
9.293                0.948420287     -91.7958068
9.294                0.948297781     -91.9590662
9.295                0.948174996     -92.1227589
9.296                0.948051932     -92.2868861
9.297                0.947928591      -92.451449
9.298                0.947804973     -92.6164485
9.299                0.947681078     -92.7818858
9.3                  0.947556907      -92.947762
9.301                0.947432461     -93.1140782
9.302                 0.94730774     -93.2808356
9.303                0.947182745     -93.4480352
9.304                0.947057477     -93.6156781
9.305                0.946931936     -93.7837654
9.306                0.946806124     -93.9522983
9.307                 0.94668004     -94.1212777
9.308                0.946553687     -94.2907049
9.309                0.946427064      -94.460581
9.31                 0.946300172     -94.6309069
9.311                0.946173013     -94.8016838
9.312                0.946045587     -94.9729128
9.313                0.945917895      -95.144595
9.314                0.945789938     -95.3167314
9.315                0.945661717     -95.4893232
9.316                0.945533232     -95.6623714
9.317                0.945404486      -95.835877
9.318                0.945275478     -96.0098413
9.319                 0.94514621     -96.1842652
9.32                 0.945016684     -96.3591498
9.321                0.944886899     -96.5344962
9.322                0.944756857     -96.7103055
9.323                 0.94462656     -96.8865787
9.324                0.944496008     -97.0633168
9.325                0.944365202      -97.240521
9.326                0.944234144     -97.4181922
9.327                0.944102835     -97.5963316
9.328                0.943971277     -97.7749402
9.329                 0.94383947      -97.954019
9.33                 0.943707415      -98.133569
9.331                0.943575115     -98.3135914
9.332                 0.94344257     -98.4940871
9.333                0.943309782     -98.6750571
9.334                0.943176752     -98.8565026
9.335                0.943043481     -99.0384245
9.336                0.942909972     -99.2208238
9.337                0.942776225     -99.4037015
9.338                0.942642242     -99.5870587
9.339                0.942508025     -99.7708964
9.34                 0.942373575     -99.9552155
9.341                0.942238894     -100.140017
9.342                0.942103982     -100.325302
9.343                0.941968843     -100.511072
9.344                0.941833478     -100.697327
9.345                0.941697888     -100.884068
9.346                0.941562075     -101.071297
9.347                 0.94142604     -101.259014
9.348                0.941289786      -101.44722
9.349                0.941153315     -101.635917
9.35                 0.941016628     -101.825105
9.351                0.940879727     -102.014785
9.352                0.940742614     -102.204958
9.353                0.940605291     -102.395625
9.354                 0.94046776     -102.586788
9.355                0.940330023     -102.778446
9.356                0.940192082     -102.970601
9.357                0.940053939     -103.163254
9.358                0.939915596     -103.356405
9.359                0.939777055     -103.550056
9.36                 0.939638318     -103.744207
9.361                0.939499388      -103.93886
9.362                0.939360267     -104.134015
9.363                0.939220957     -104.329673
9.364                 0.93908146     -104.525835
9.365                0.938941779     -104.722502
9.366                0.938801916     -104.919674
9.367                0.938661873     -105.117353
9.368                0.938521653      -105.31554
9.369                0.938381258     -105.514234
9.37                 0.938240691     -105.713438
9.371                0.938099954     -105.913151
9.372                 0.93795905     -106.113375
9.373                0.937817982     -106.314111
9.374                0.937676751     -106.515359
9.375                0.937535361     -106.717119
9.376                0.937393814     -106.919394
9.377                0.937252114     -107.122183
9.378                0.937110262     -107.325487
9.379                0.936968262     -107.529308
9.38                 0.936826116     -107.733645
9.381                0.936683828       -107.9385
9.382                  0.9365414     -108.143873
9.383                0.936398835     -108.349765
9.384                0.936256137     -108.556176
9.385                0.936113308     -108.763108
9.386                0.935970351     -108.970561
9.387                0.935827269     -109.178536
9.388                0.935684066     -109.387033
9.389                0.935540744     -109.596054
9.39                 0.935397308     -109.805598
9.391                0.935253759     -110.015666
9.392                0.935110102     -110.226259
9.393                 0.93496634     -110.437378
9.394                0.934822476     -110.649022
9.395                0.934678513     -110.861194
9.396                0.934534455     -111.073893
