! TOUCHSTONE file generated by CST DESIGN STUDIO
! Date and time: Wed Feb  5 13:46:30 2025
! Project name: C:\Work\MatlabApps\UnitCellOptimizationMatlab\CST\unitcell.cst
! Tree item: Tasks\Sweep1\SPara1\S-Parameters
! Header version: 2024
! Port assignment regex: !\s*Touchstone port\s*([0-9]+)\s*=\s*(CST MWS port|CST DES external port|CST DES block port)\s*(.+)\s* \(\"(.*)\"\)(\s*mode\s*([0-9]+))?.*
! Touchstone port assignment:
! Touchstone port 1 = CST DES external port 1 ("")
# GHz S MA R 50
9                    0.970639545      -78.888142
9.001                0.970564515     -79.0119146
9.002                0.970489261     -79.1360006
9.003                 0.97041378     -79.2604009
9.004                0.970338073     -79.3851164
9.005                 0.97026214     -79.5101481
9.006                 0.97018598     -79.6354968
9.007                0.970109592     -79.7611637
9.008                0.970032977     -79.8871495
9.009                0.969956133     -80.0134552
9.01                  0.96987906     -80.1400818
9.011                0.969801759     -80.2670303
9.012                0.969724227     -80.3943015
9.013                0.969646465     -80.5218964
9.014                0.969568473      -80.649816
9.015                0.969490251     -80.7780613
9.016                0.969411796     -80.9066331
9.017                 0.96933311     -81.0355325
9.018                0.969254192     -81.1647603
9.019                0.969175042     -81.2943176
9.02                 0.969095659     -81.4242054
9.021                0.969016042     -81.5544245
9.022                0.968936191      -81.684976
9.023                0.968856107     -81.8158608
9.024                0.968775788     -81.9470799
9.025                0.968695234     -82.0786343
9.026                0.968614445     -82.2105248
9.027                 0.96853342     -82.3427526
9.028                 0.96845216     -82.4753186
9.029                0.968370663     -82.6082238
9.03                  0.96828893     -82.7414691
9.031                0.968206959     -82.8750555
9.032                0.968124751      -83.008984
9.033                0.968042306     -83.1432556
9.034                0.967959622     -83.2778713
9.035                  0.9678767      -83.412832
9.036                 0.96779354     -83.5481388
9.037                 0.96771014     -83.6837926
9.038                0.967626501     -83.8197945
9.039                0.967542622     -83.9561453
9.04                 0.967458504     -84.0928462
9.041                0.967374145     -84.2298981
9.042                0.967289546      -84.367302
9.043                0.967204706     -84.5050589
9.044                0.967119625     -84.6431697
9.045                0.967034302     -84.7816356
9.046                0.966948738     -84.9204575
9.047                0.966862932     -85.0596364
9.048                0.966776884     -85.1991733
9.049                0.966690594     -85.3390692
9.05                  0.96660406     -85.4793251
9.051                0.966517284      -85.619942
9.052                0.966430265     -85.7609209
9.053                0.966343003     -85.9022629
9.054                0.966255497      -86.043969
9.055                0.966167747       -86.18604
9.056                0.966079753     -86.3284772
9.057                0.965991515     -86.4712814
9.058                0.965903033     -86.6144538
9.059                0.965814306     -86.7579952
9.06                 0.965725334     -86.9019068
9.061                0.965636118     -87.0461895
9.062                0.965546656     -87.1908443
9.063                 0.96545695     -87.3358723
9.064                0.965366998     -87.4812745
9.065                  0.9652768     -87.6270519
9.066                0.965186357     -87.7732056
9.067                0.965095668     -87.9197365
9.068                0.965004734     -88.0666456
9.069                0.964913553     -88.2139341
9.07                 0.964822127     -88.3616028
9.071                0.964730454     -88.5096529
9.072                0.964638535     -88.6580853
9.073                 0.96454637     -88.8069011
9.074                0.964453959     -88.9561013
9.075                0.964361301     -89.1056869
9.076                0.964268397      -89.255659
9.077                0.964175246     -89.4060185
9.078                0.964081849     -89.5567665
9.079                0.963988206      -89.707904
9.08                 0.963894316     -89.8594321
9.081                 0.96380018     -90.0113517
9.082                0.963705797     -90.1636639
9.083                0.963611167     -90.3163697
9.084                0.963516292     -90.4694701
9.085                 0.96342117     -90.6229662
9.086                0.963325802      -90.776859
9.087                0.963230187     -90.9311495
9.088                0.963134327     -91.0858387
9.089                 0.96303822     -91.2409277
9.09                 0.962941868     -91.3964174
9.091                0.962845269     -91.5523089
9.092                0.962748425     -91.7086033
9.093                0.962651336     -91.8653014
9.094                0.962554001     -92.0224045
9.095                0.962456421     -92.1799134
9.096                0.962358596     -92.3378292
9.097                0.962260526     -92.4961529
9.098                0.962162211     -92.6548855
9.099                0.962063651     -92.8140281
9.1                  0.961964848     -92.9735817
9.101                  0.9618658     -93.1335472
9.102                0.961766509     -93.2939258
9.103                0.961666974     -93.4547183
9.104                0.961567196     -93.6159259
9.105                0.961467175     -93.7775495
9.106                0.961366911     -93.9395902
9.107                0.961266405     -94.1020489
9.108                0.961165657     -94.2649267
9.109                0.961064667     -94.4282245
9.11                 0.960963436     -94.5919434
9.111                0.960861964     -94.7560844
9.112                0.960760251     -94.9206485
9.113                0.960658298     -95.0856366
9.114                0.960556105     -95.2510499
9.115                0.960453673     -95.4168892
9.116                0.960351002     -95.5831556
9.117                0.960248093       -95.74985
9.118                0.960144945     -95.9169735
9.119                 0.96004156     -96.0845271
9.12                 0.959937938     -96.2525116
9.121                 0.95983408     -96.4209282
9.122                0.959729986     -96.5897779
9.123                0.959625656     -96.7590615
9.124                0.959521091       -96.92878
9.125                0.959416292     -97.0989345
9.126                0.959311259     -97.2695259
9.127                0.959205994     -97.4405552
9.128                0.959100496     -97.6120234
9.129                0.958994766     -97.7839314
9.13                 0.958888805     -97.9562802
9.131                0.958782613     -98.1290707
9.132                0.958676192     -98.3023039
9.133                0.958569542     -98.4759808
9.134                0.958462664     -98.6501024
9.135                0.958355558     -98.8246694
9.136                0.958248225      -98.999683
9.137                0.958140666     -99.1751441
9.138                0.958032882     -99.3510535
9.139                0.957924874     -99.5274123
9.14                 0.957816642     -99.7042213
9.141                0.957708188     -99.8814816
9.142                0.957599512     -100.059194
9.143                0.957490615     -100.237359
9.144                0.957381498     -100.415979
9.145                0.957272163     -100.595053
9.146                0.957162609     -100.774583
9.147                0.957052838      -100.95457
9.148                0.956942851     -101.135014
9.149                 0.95683265     -101.315917
9.15                 0.956722234     -101.497279
9.151                0.956611605     -101.679101
9.152                0.956500765     -101.861385
9.153                0.956389714     -102.044131
9.154                0.956278453     -102.227339
9.155                0.956166984     -102.411011
9.156                0.956055308     -102.595148
9.157                0.955943425     -102.779751
9.158                0.955831338      -102.96482
9.159                0.955719047     -103.150356
9.16                 0.955606554      -103.33636
9.161                 0.95549386     -103.522833
9.162                0.955380966     -103.709776
9.163                0.955267873     -103.897189
9.164                0.955154583     -104.085074
9.165                0.955041098     -104.273431
9.166                0.954927419     -104.462261
9.167                0.954813546     -104.651565
9.168                0.954699482     -104.841343
9.169                0.954585228     -105.031597
9.17                 0.954470786     -105.222327
9.171                0.954356157     -105.413534
9.172                0.954241342     -105.605219
9.173                0.954126343     -105.797382
9.174                0.954011162     -105.990025
9.175                0.953895801     -106.183148
9.176                 0.95378026     -106.376751
9.177                0.953664542     -106.570836
9.178                0.953548649     -106.765403
9.179                0.953432581     -106.960454
9.18                 0.953316341     -107.155988
9.181                0.953199931     -107.352006
9.182                0.953083352      -107.54851
9.183                0.952966607     -107.745499
9.184                0.952849696     -107.942975
9.185                0.952732623     -108.140938
9.186                0.952615388      -108.33939
9.187                0.952497994     -108.538329
9.188                0.952380442     -108.737758
9.189                0.952262735     -108.937677
9.19                 0.952144875     -109.138086
9.191                0.952026864     -109.338986
9.192                0.951908703     -109.540378
9.193                0.951790396     -109.742262
9.194                0.951671943      -109.94464
9.195                0.951553348      -110.14751
9.196                0.951434611     -110.350875
9.197                0.951315737     -110.554735
9.198                0.951196726      -110.75909
9.199                0.951077581     -110.963941
9.2                  0.950958304     -111.169288
9.201                0.950838899     -111.375133
9.202                0.950719366     -111.581474
9.203                0.950599708     -111.788314
9.204                0.950479929     -111.995652
9.205                0.950360029     -112.203489
9.206                0.950240012     -112.411826
9.207                0.950119881     -112.620663
9.208                0.949999637         -112.83
9.209                0.949879283     -113.039838
9.21                 0.949758822     -113.250177
9.211                0.949638257     -113.461018
9.212                 0.94951759     -113.672361
9.213                0.949396824     -113.884207
9.214                0.949275961     -114.096555
9.215                0.949155005     -114.309408
9.216                0.949033957     -114.522763
9.217                0.948912821     -114.736624
9.218                0.948791601     -114.950988
9.219                0.948670297     -115.165857
9.22                 0.948548914     -115.381232
9.221                0.948427455     -115.597112
9.222                0.948305921     -115.813497
9.223                0.948184317     -116.030389
9.224                0.948062646     -116.247787
9.225                 0.94794091     -116.465692
9.226                0.947819112     -116.684103
9.227                0.947697256     -116.903022
9.228                0.947575344     -117.122447
9.229                0.947453381     -117.342381
9.23                 0.947331368     -117.562822
9.231                 0.94720931     -117.783771
9.232                 0.94708721     -118.005228
9.233                0.946965071     -118.227193
9.234                0.946842896     -118.449667
9.235                0.946720688     -118.672649
9.236                0.946598452     -118.896139
9.237                 0.94647619     -119.120139
9.238                0.946353907     -119.344647
9.239                0.946231604     -119.569664
9.24                 0.946109287      -119.79519
9.241                0.945986958     -120.021224
9.242                0.945864622     -120.247768
9.243                0.945742281     -120.474821
9.244                 0.94561994     -120.702382
9.245                0.945497602     -120.930453
9.246                0.945375271     -121.159032
9.247                0.945252951      -121.38812
9.248                0.945130645     -121.617717
9.249                0.945008357     -121.847823
9.25                 0.944886092     -122.078437
9.251                0.944763852      -122.30956
9.252                0.944641643     -122.541191
9.253                0.944519467      -122.77333
9.254                0.944397329     -123.005976
9.255                0.944275233     -123.239131
9.256                0.944153183     -123.472793
9.257                0.944031184     -123.706963
9.258                0.943909238     -123.941639
9.259                 0.94378735     -124.176823
9.26                 0.943665525     -124.412513
9.261                0.943543767     -124.648709
9.262                0.943422079     -124.885411
9.263                0.943300467     -125.122618
9.264                0.943178934     -125.360331
9.265                0.943057485     -125.598549
9.266                0.942936124     -125.837271
9.267                0.942814856     -126.076497
9.268                0.942693684     -126.316227
9.269                0.942572614      -126.55646
9.27                  0.94245165     -126.797195
9.271                0.942330796     -127.038433
9.272                0.942210057     -127.280173
9.273                0.942089438     -127.522413
9.274                0.941968943     -127.765155
9.275                0.941848576     -128.008396
9.276                0.941728343     -128.252137
9.277                0.941608248     -128.496377
9.278                0.941488296     -128.741115
9.279                0.941368491      -128.98635
9.28                 0.941248839     -129.232083
9.281                0.941129343     -129.478311
9.282                 0.94101001     -129.725035
9.283                0.940890843     -129.972254
9.284                0.940771848     -130.219967
9.285                 0.94065303     -130.468174
9.286                0.940534393     -130.716872
9.287                0.940415943     -130.966063
9.288                0.940297684     -131.215744
9.289                0.940179622     -131.465915
9.29                 0.940061761     -131.716575
9.291                0.939944107     -131.967723
9.292                0.939826664     -132.219359
9.293                0.939709438      -132.47148
9.294                0.939592434     -132.724088
9.295                0.939475657     -132.977179
9.296                0.939359113     -133.230754
9.297                0.939242805      -133.48481
9.298                0.939126741     -133.739349
9.299                0.939010924     -133.994367
9.3                  0.938895361     -134.249864
9.301                0.938780056     -134.505839
9.302                0.938665015     -134.762291
9.303                0.938550244     -135.019218
9.304                0.938435746      -135.27662
9.305                0.938321529     -135.534495
9.306                0.938207597     -135.792841
9.307                0.938093956     -136.051659
9.308                 0.93798061     -136.310945
9.309                0.937867567       -136.5707
9.31                  0.93775483     -136.830921
9.311                0.937642406     -137.091607
9.312                0.937530301     -137.352758
9.313                0.937418518      -137.61437
9.314                0.937307065     -137.876444
9.315                0.937195947     -138.138978
9.316                0.937085168     -138.401969
9.317                0.936974736     -138.665417
9.318                0.936864655      -138.92932
9.319                0.936754931     -139.193677
9.32                  0.93664557     -139.458485
9.321                0.936536577     -139.723744
9.322                0.936427958     -139.989451
9.323                0.936319718     -140.255606
9.324                0.936211864     -140.522205
9.325                  0.9361044     -140.789248
9.326                0.935997334     -141.056733
9.327                0.935890669     -141.324659
9.328                0.935784413     -141.593022
9.329                 0.93567857     -141.861822
9.33                 0.935573146     -142.131057
9.331                0.935468148     -142.400724
9.332                0.935363581     -142.670823
9.333                 0.93525945      -142.94135
9.334                0.935155761     -143.212305
9.335                0.935052521     -143.483684
9.336                0.934949734     -143.755487
9.337                0.934847407     -144.027711
9.338                0.934745545     -144.300354
9.339                0.934644154     -144.573414
9.34                  0.93454324     -144.846889
9.341                0.934442809     -145.120777
9.342                0.934342865     -145.395076
9.343                0.934243416     -145.669783
9.344                0.934144467     -145.944897
9.345                0.934046023     -146.220414
9.346                 0.93394809     -146.496334
9.347                0.933850674     -146.772653
9.348                0.933753781      -147.04937
9.349                0.933657417     -147.326482
9.35                 0.933561586     -147.603986
9.351                0.933466295     -147.881881
9.352                 0.93337155     -148.160164
9.353                0.933277356     -148.438833
9.354                0.933183718     -148.717884
9.355                0.933090644     -148.997317
9.356                0.932998137     -149.277127
9.357                0.932906204     -149.557313
9.358                0.932814851     -149.837873
9.359                0.932724083     -150.118803
9.36                 0.932633905       -150.4001
9.361                0.932544324     -150.681764
9.362                0.932455344      -150.96379
9.363                0.932366972     -151.246176
9.364                0.932279213      -151.52892
9.365                0.932192072     -151.812018
9.366                0.932105555     -152.095469
9.367                0.932019667     -152.379268
9.368                0.931934414     -152.663414
9.369                0.931849802     -152.947904
9.37                 0.931765835     -153.232735
9.371                0.931682519     -153.517903
9.372                 0.93159986     -153.803407
9.373                0.931517862     -154.089243
9.374                0.931436531     -154.375409
9.375                0.931355873       -154.6619
9.376                0.931275892     -154.948715
9.377                0.931196595     -155.235851
9.378                0.931117985     -155.523304
9.379                0.931040068     -155.811071
9.38                  0.93096285     -156.099149
9.381                0.930886335     -156.387536
9.382                0.930810529     -156.676228
9.383                0.930735436     -156.965222
9.384                0.930661062     -157.254515
9.385                0.930587412     -157.544104
9.386                 0.93051449     -157.833985
9.387                0.930442301     -158.124155
9.388                0.930370851     -158.414612
9.389                0.930300143     -158.705351
9.39                 0.930230184      -158.99637
9.391                0.930160977     -159.287665
9.392                0.930092528     -159.579233
9.393                 0.93002484     -159.871071
9.394                0.929957919     -160.163175
9.395                 0.92989177     -160.455542
9.396                0.929826396     -160.748168
