! TOUCHSTONE file generated by CST DESIGN STUDIO
! Date and time: Wed Feb  5 13:46:40 2025
! Project name: C:\Work\MatlabApps\UnitCellOptimizationMatlab\CST\unitcell.cst
! Tree item: Tasks\Sweep1\SPara1\S-Parameters
! Header version: 2024
! Port assignment regex: !\s*Touchstone port\s*([0-9]+)\s*=\s*(CST MWS port|CST DES external port|CST DES block port)\s*(.+)\s* \(\"(.*)\"\)(\s*mode\s*([0-9]+))?.*
! Touchstone port assignment:
! Touchstone port 1 = CST DES external port 1 ("")
# GHz S MA R 50
9                    0.972279202      -63.697807
9.001                0.972220012     -63.7869429
9.002                0.972160641     -63.8762879
9.003                0.972101089     -63.9658428
9.004                0.972041354     -64.0556082
9.005                0.971981436     -64.1455848
9.006                0.971921335     -64.2357731
9.007                 0.97186105      -64.326174
9.008                0.971800581     -64.4167881
9.009                0.971739926     -64.5076159
9.01                 0.971679086     -64.5986583
9.011                 0.97161806     -64.6899158
9.012                0.971556848     -64.7813891
9.013                0.971495448      -64.873079
9.014                 0.97143386      -64.964986
9.015                0.971372084     -65.0571109
9.016                0.971310118     -65.1494544
9.017                0.971247964     -65.2420171
9.018                0.971185619     -65.3347998
9.019                0.971123083      -65.427803
9.02                 0.971060357     -65.5210275
9.021                0.970997438     -65.6144741
9.022                0.970934327     -65.7081433
9.023                0.970871023      -65.802036
9.024                0.970807526     -65.8961527
9.025                0.970743834     -65.9904942
9.026                0.970679948     -66.0850613
9.027                0.970615867     -66.1798545
9.028                0.970551589     -66.2748747
9.029                0.970487116     -66.3701224
9.03                 0.970422445     -66.4655986
9.031                0.970357577     -66.5613038
9.032                 0.97029251     -66.6572388
9.033                0.970227245     -66.7534042
9.034                 0.97016178     -66.8498009
9.035                0.970096116     -66.9464296
9.036                0.970030251     -67.0432909
9.037                0.969964185     -67.1403857
9.038                0.969897918     -67.2377145
9.039                0.969831448     -67.3352783
9.04                 0.969764775     -67.4330777
9.041                0.969697899     -67.5311134
9.042                0.969630819     -67.6293862
9.043                0.969563535     -67.7278969
9.044                0.969496045     -67.8266461
9.045                 0.96942835     -67.9256347
9.046                0.969360448     -68.0248634
9.047                0.969292339     -68.1243329
9.048                0.969224023      -68.224044
9.049                0.969155499     -68.3239975
9.05                 0.969086766      -68.424194
9.051                0.969017824     -68.5246345
9.052                0.968948672     -68.6253196
9.053                0.968879309     -68.7262501
9.054                0.968809736     -68.8274268
9.055                0.968739951     -68.9288505
9.056                0.968669954     -69.0305218
9.057                0.968599744     -69.1324417
9.058                 0.96852932     -69.2346109
9.059                0.968458683     -69.3370302
9.06                 0.968387831     -69.4397003
9.061                0.968316764      -69.542622
9.062                0.968245481     -69.6457962
9.063                0.968173982     -69.7492236
9.064                0.968102266      -69.852905
9.065                0.968030333     -69.9568412
9.066                0.967958181      -70.061033
9.067                0.967885811     -70.1654813
9.068                0.967813222     -70.2701868
9.069                0.967740413     -70.3751502
9.07                 0.967667383     -70.4803726
9.071                0.967594132     -70.5858545
9.072                 0.96752066     -70.6915969
9.073                0.967446966     -70.7976006
9.074                0.967373048     -70.9038664
9.075                0.967298908     -71.0103951
9.076                0.967224543     -71.1171875
9.077                0.967149954     -71.2242444
9.078                 0.96707514     -71.3315668
9.079                0.967000101     -71.4391554
9.08                 0.966924835      -71.547011
9.081                0.966849342     -71.6551345
9.082                0.966773622     -71.7635267
9.083                0.966697673     -71.8721884
9.084                0.966621497     -71.9811206
9.085                0.966545091      -72.090324
9.086                0.966468455     -72.1997995
9.087                0.966391589      -72.309548
9.088                0.966314492     -72.4195702
9.089                0.966237164     -72.5298671
9.09                 0.966159603     -72.6404395
9.091                 0.96608181     -72.7512883
9.092                0.966003784     -72.8624142
9.093                0.965925524     -72.9738183
9.094                 0.96584703     -73.0855013
9.095                0.965768301     -73.1974642
9.096                0.965689337     -73.3097077
9.097                0.965610136     -73.4222328
9.098                0.965530699     -73.5350403
9.099                0.965451025     -73.6481312
9.1                  0.965371113     -73.7615062
9.101                0.965290963     -73.8751664
9.102                0.965210574     -73.9891125
9.103                0.965129946     -74.1033454
9.104                0.965049078     -74.2178661
9.105                0.964967969     -74.3326755
9.106                0.964886619     -74.4477743
9.107                0.964805028     -74.5631636
9.108                0.964723195     -74.6788442
9.109                0.964641119     -74.7948171
9.11                   0.9645588     -74.9110831
9.111                0.964476237     -75.0276431
9.112                 0.96439343     -75.1444981
9.113                0.964310378     -75.2616489
9.114                 0.96422708     -75.3790965
9.115                0.964143537     -75.4968418
9.116                0.964059747     -75.6148856
9.117                0.963975711     -75.7332291
9.118                0.963891427     -75.8518729
9.119                0.963806895     -75.9708181
9.12                 0.963722115     -76.0900657
9.121                0.963637085     -76.2096164
9.122                0.963551806     -76.3294713
9.123                0.963466277     -76.4496314
9.124                0.963380498     -76.5700974
9.125                0.963294467     -76.6908704
9.126                0.963208185     -76.8119513
9.127                 0.96312165     -76.9333411
9.128                0.963034864     -77.0550407
9.129                0.962947824      -77.177051
9.13                  0.96286053      -77.299373
9.131                0.962772983     -77.4220076
9.132                0.962685181     -77.5449559
9.133                0.962597124     -77.6682187
9.134                0.962508812      -77.791797
9.135                0.962420244     -77.9156918
9.136                0.962331419      -78.039904
9.137                0.962242337     -78.1644346
9.138                0.962152998     -78.2892846
9.139                0.962063402      -78.414455
9.14                 0.961973547     -78.5399466
9.141                0.961883433     -78.6657605
9.142                 0.96179306     -78.7918977
9.143                0.961702428     -78.9183591
9.144                0.961611535     -79.0451457
9.145                0.961520382     -79.1722586
9.146                0.961428969     -79.2996986
9.147                0.961337294     -79.4274667
9.148                0.961245357     -79.5555641
9.149                0.961153158     -79.6839915
9.15                 0.961060696     -79.8127501
9.151                0.960967972     -79.9418408
9.152                0.960874984     -80.0712647
9.153                0.960781732     -80.2010226
9.154                0.960688216     -80.3311157
9.155                0.960594436     -80.4615449
9.156                 0.96050039     -80.5923113
9.157                 0.96040608     -80.7234157
9.158                0.960311503     -80.8548593
9.159                0.960216661     -80.9866431
9.16                 0.960121552      -81.118768
9.161                0.960026177      -81.251235
9.162                0.959930534     -81.3840453
9.163                0.959834624     -81.5171997
9.164                0.959738446     -81.6506994
9.165                   0.959642     -81.7845453
9.166                0.959545286     -81.9187385
9.167                0.959448303     -82.0532799
9.168                 0.95935105     -82.1881707
9.169                0.959253529     -82.3234118
9.17                 0.959155738     -82.4590042
9.171                0.959057676      -82.594949
9.172                0.958959345     -82.7312473
9.173                0.958860743        -82.8679
9.174                 0.95876187     -83.0049082
9.175                0.958662726     -83.1422729
9.176                0.958563311     -83.2799952
9.177                0.958463625     -83.4180761
9.178                0.958363666     -83.5565166
9.179                0.958263435     -83.6953178
9.18                 0.958162933     -83.8344808
9.181                0.958062157     -83.9740065
9.182                0.957961109      -84.113896
9.183                0.957859789     -84.2541504
9.184                0.957758195     -84.3947708
9.185                0.957656327      -84.535758
9.186                0.957554187     -84.6771133
9.187                0.957451772     -84.8188377
9.188                0.957349084     -84.9609322
9.189                0.957246122     -85.1033979
9.19                 0.957142886     -85.2462358
9.191                0.957039376      -85.389447
9.192                0.956935591     -85.5330325
9.193                0.956831532     -85.6769935
9.194                0.956727198     -85.8213309
9.195                 0.95662259     -85.9660459
9.196                0.956517707     -86.1111394
9.197                0.956412549     -86.2566126
9.198                0.956307116     -86.4024666
9.199                0.956201408     -86.5487023
9.2                  0.956095425     -86.6953209
9.201                0.955989167     -86.8423234
9.202                0.955882635     -86.9897109
9.203                0.955775827     -87.1374844
9.204                0.955668744     -87.2856451
9.205                0.955561385      -87.434194
9.206                0.955453752     -87.5831321
9.207                0.955345844     -87.7324606
9.208                0.955237661     -87.8821805
9.209                0.955129203     -88.0322929
9.21                 0.955020469     -88.1827988
9.211                0.954911462     -88.3336993
9.212                0.954802179     -88.4849956
9.213                0.954692622     -88.6366886
9.214                 0.95458279     -88.7887795
9.215                0.954472684     -88.9412693
9.216                0.954362303     -89.0941591
9.217                0.954251649       -89.24745
9.218                 0.95414072      -89.401143
9.219                0.954029518     -89.5552393
9.22                 0.953918042     -89.7097398
9.221                0.953806292     -89.8646457
9.222                 0.95369427     -90.0199581
9.223                0.953581974      -90.175678
9.224                0.953469406     -90.3318065
9.225                0.953356566     -90.4883447
9.226                0.953243453     -90.6452936
9.227                0.953130068     -90.8026544
9.228                0.953016411      -90.960428
9.229                0.952902483     -91.1186156
9.23                 0.952788285     -91.2772183
9.231                0.952673815     -91.4362371
9.232                0.952559075     -91.5956731
9.233                0.952444066     -91.7555273
9.234                0.952328787     -91.9158009
9.235                0.952213238     -92.0764949
9.236                0.952097421     -92.2376103
9.237                0.951981336     -92.3991484
9.238                0.951864982       -92.56111
9.239                0.951748362     -92.7234963
9.24                 0.951631474     -92.8863083
9.241                 0.95151432     -93.0495472
9.242                0.951396901     -93.2132139
9.243                0.951279216     -93.3773096
9.244                0.951161266     -93.5418352
9.245                0.951043051      -93.706792
9.246                0.950924574     -93.8721808
9.247                0.950805833     -94.0380029
9.248                0.950686829     -94.2042591
9.249                0.950567564     -94.3709507
9.25                 0.950448038     -94.5380786
9.251                0.950328251     -94.7056439
9.252                0.950208205     -94.8736477
9.253                0.950087899     -95.0420909
9.254                0.949967336     -95.2109747
9.255                0.949846514     -95.3803001
9.256                0.949725436     -95.5500681
9.257                0.949604102     -95.7202798
9.258                0.949482513     -95.8909361
9.259                0.949360669     -96.0620383
9.26                 0.949238572     -96.2335872
9.261                0.949116222     -96.4055839
9.262                 0.94899362     -96.5780295
9.263                0.948870767     -96.7509249
9.264                0.948747665     -96.9242712
9.265                0.948624314     -97.0980695
9.266                0.948500714     -97.2723207
9.267                0.948376868     -97.4470258
9.268                0.948252776     -97.6221859
9.269                0.948128438     -97.7978019
9.27                 0.948003857      -97.973875
9.271                0.947879033      -98.150406
9.272                0.947753968      -98.327396
9.273                0.947628662      -98.504846
9.274                0.947503116      -98.682757
9.275                0.947377333       -98.86113
9.276                0.947251312     -99.0399659
9.277                0.947125055     -99.2192658
9.278                0.946998564     -99.3990306
9.279                 0.94687184     -99.5792612
9.28                 0.946744884     -99.7599588
9.281                0.946617697     -99.9411242
9.282                0.946490281     -100.122758
9.283                0.946362637     -100.304862
9.284                0.946234766     -100.487437
9.285                0.946106671     -100.670484
9.286                0.945978351     -100.854003
9.287                 0.94584981     -101.037995
9.288                0.945721048     -101.222462
9.289                0.945592066     -101.407405
9.29                 0.945462867     -101.592824
9.291                0.945333452      -101.77872
9.292                0.945203823     -101.965094
9.293                0.945073981     -102.151948
9.294                0.944943927     -102.339281
9.295                0.944813664     -102.527096
9.296                0.944683194     -102.715392
9.297                0.944552517     -102.904171
9.298                0.944421636     -103.093434
9.299                0.944290553     -103.283181
9.3                  0.944159269     -103.473414
9.301                0.944027787     -103.664133
9.302                0.943896107     -103.855339
9.303                0.943764233     -104.047032
9.304                0.943632165     -104.239215
9.305                0.943499907     -104.431888
9.306                 0.94336746      -104.62505
9.307                0.943234825     -104.818705
9.308                0.943102006     -105.012851
9.309                0.942969003      -105.20749
9.31                  0.94283582     -105.402624
9.311                0.942702459     -105.598251
9.312                0.942568921     -105.794374
9.313                0.942435208     -105.990994
9.314                0.942301324      -106.18811
9.315                 0.94216727     -106.385724
9.316                0.942033049     -106.583837
9.317                0.941898663     -106.782448
9.318                0.941764114      -106.98156
9.319                0.941629405     -107.181173
9.32                 0.941494538     -107.381287
9.321                0.941359516     -107.581903
9.322                0.941224341     -107.783023
9.323                0.941089015     -107.984645
9.324                0.940953542     -108.186773
9.325                0.940817924     -108.389405
9.326                0.940682163     -108.592543
9.327                0.940546262     -108.796188
9.328                0.940410225     -109.000339
9.329                0.940274053     -109.204999
9.33                 0.940137749     -109.410166
9.331                0.940001316     -109.615843
9.332                0.939864758     -109.822029
9.333                0.939728076     -110.028726
9.334                0.939591274     -110.235933
9.335                0.939454355     -110.443652
9.336                0.939317322     -110.651884
9.337                0.939180177     -110.860627
9.338                0.939042924     -111.069884
9.339                0.938905566     -111.279655
9.34                 0.938768106      -111.48994
9.341                0.938630547      -111.70074
9.342                0.938492892     -111.912055
9.343                0.938355145     -112.123886
9.344                0.938217309     -112.336234
9.345                0.938079386     -112.549098
9.346                0.937941382      -112.76248
9.347                0.937803298     -112.976379
9.348                0.937665138     -113.190797
9.349                0.937526906     -113.405734
9.35                 0.937388605      -113.62119
9.351                0.937250239     -113.837165
9.352                0.937111811      -114.05366
9.353                0.936973325     -114.270676
9.354                0.936834784     -114.488213
9.355                0.936696192      -114.70627
9.356                0.936557554     -114.924849
9.357                0.936418871      -115.14395
9.358                0.936280149     -115.363573
9.359                0.936141392     -115.583719
9.36                 0.936002602     -115.804387
9.361                0.935863784     -116.025579
9.362                0.935724942     -116.247293
9.363                 0.93558608     -116.469532
9.364                0.935447202     -116.692294
9.365                0.935308311      -116.91558
9.366                0.935169413     -117.139391
9.367                 0.93503051     -117.363726
9.368                0.934891608     -117.588585
9.369                 0.93475271      -117.81397
9.37                 0.934613821      -118.03988
9.371                0.934474945     -118.266314
9.372                0.934336086     -118.493274
9.373                0.934197249      -118.72076
9.374                0.934058437      -118.94877
9.375                0.933919656     -119.177307
9.376                 0.93378091     -119.406369
9.377                0.933642203     -119.635956
9.378                 0.93350354      -119.86607
9.379                0.933364926     -120.096709
9.38                 0.933226364     -120.327874
9.381                0.933087861     -120.559564
9.382                 0.93294942      -120.79178
9.383                0.932811046     -121.024522
9.384                0.932672744     -121.257789
9.385                0.932534518     -121.491582
9.386                0.932396375       -121.7259
9.387                0.932258317     -121.960743
9.388                0.932120351     -122.196111
9.389                0.931982482     -122.432004
9.39                 0.931844713     -122.668422
9.391                0.931707051     -122.905364
9.392                0.931569501     -123.142831
9.393                0.931432067     -123.380822
9.394                0.931294754     -123.619336
9.395                0.931157569     -123.858374
9.396                0.931020515     -124.097936
