! TOUCHSTONE file generated by CST DESIGN STUDIO
! Date and time: Wed Feb  5 13:46:42 2025
! Project name: C:\Work\MatlabApps\UnitCellOptimizationMatlab\CST\unitcell.cst
! Tree item: Tasks\Sweep1\SPara1\S-Parameters
! Header version: 2024
! Port assignment regex: !\s*Touchstone port\s*([0-9]+)\s*=\s*(CST MWS port|CST DES external port|CST DES block port)\s*(.+)\s* \(\"(.*)\"\)(\s*mode\s*([0-9]+))?.*
! Touchstone port assignment:
! Touchstone port 1 = CST DES external port 1 ("")
# GHz S MA R 50
9                    0.972634453     -60.9883095
9.001                0.972578482     -61.0720233
9.002                0.972522341     -61.1559298
9.003                 0.97246603     -61.2400298
9.004                0.972409546     -61.3243238
9.005                0.972352891     -61.4088124
9.006                0.972296063     -61.4934962
9.007                0.972239061     -61.5783759
9.008                0.972181886      -61.663452
9.009                0.972124537     -61.7487251
9.01                 0.972067013      -61.834196
9.011                0.972009314     -61.9198651
9.012                0.971951438     -62.0057332
9.013                0.971893387     -62.0918008
9.014                0.971835158     -62.1780685
9.015                0.971776752     -62.2645371
9.016                0.971718167     -62.3512071
9.017                0.971659404     -62.4380791
9.018                0.971600462     -62.5251538
9.019                 0.97154134     -62.6124318
9.02                 0.971482037     -62.6999138
9.021                0.971422554     -62.7876004
9.022                0.971362889     -62.8754923
9.023                0.971303042       -62.96359
9.024                0.971243013     -63.0518943
9.025                  0.9711828     -63.1404057
9.026                0.971122403      -63.229125
9.027                0.971061823     -63.3180527
9.028                0.971001057     -63.4071896
9.029                0.970940106     -63.4965363
9.03                 0.970878969     -63.5860935
9.031                0.970817646     -63.6758618
9.032                0.970756135     -63.7658418
9.033                0.970694437     -63.8560343
9.034                 0.97063255     -63.9464399
9.035                0.970570474     -64.0370593
9.036                0.970508209     -64.1278932
9.037                0.970445754     -64.2189422
9.038                0.970383109     -64.3102071
9.039                0.970320272     -64.4016884
9.04                 0.970257243     -64.4933869
9.041                0.970194022     -64.5853032
9.042                0.970130608     -64.6774381
9.043                0.970067001     -64.7697922
9.044                0.970003199     -64.8623663
9.045                0.969939203      -64.955161
9.046                0.969875012      -65.048177
9.047                0.969810625      -65.141415
9.048                0.969746041     -65.2348757
9.049                 0.96968126     -65.3285598
9.05                 0.969616282     -65.4224681
9.051                0.969551105     -65.5166011
9.052                 0.96948573     -65.6109597
9.053                0.969420155     -65.7055446
9.054                0.969354381     -65.8003564
9.055                0.969288405     -65.8953959
9.056                0.969222229     -65.9906638
9.057                0.969155851     -66.0861608
9.058                0.969089271     -66.1818877
9.059                0.969022487     -66.2778451
9.06                   0.9689555     -66.3740338
9.061                0.968888309     -66.4704546
9.062                0.968820913     -66.5671081
9.063                0.968753312      -66.663995
9.064                0.968685505     -66.7611163
9.065                0.968617492     -66.8584725
9.066                0.968549271     -66.9560644
9.067                0.968480843     -67.0538927
9.068                0.968412206     -67.1519583
9.069                0.968343361     -67.2502618
9.07                 0.968274306      -67.348804
9.071                0.968205041     -67.4475857
9.072                0.968135565     -67.5466076
9.073                0.968065878     -67.6458704
9.074                0.967995979      -67.745375
9.075                0.967925867     -67.8451221
9.076                0.967855542     -67.9451125
9.077                0.967785004     -68.0453469
9.078                0.967714251     -68.1458261
9.079                0.967643284     -68.2465508
9.08                 0.967572101      -68.347522
9.081                0.967500701     -68.4487402
9.082                0.967429085     -68.5502064
9.083                0.967357252     -68.6519212
9.084                0.967285201     -68.7538856
9.085                0.967212931     -68.8561002
9.086                0.967140442     -68.9585659
9.087                0.967067734     -69.0612834
9.088                0.966994805     -69.1642535
9.089                0.966921655     -69.2674772
9.09                 0.966848283      -69.370955
9.091                0.966774689     -69.4746879
9.092                0.966700873     -69.5786766
9.093                0.966626833      -69.682922
9.094                 0.96655257     -69.7874249
9.095                0.966478081     -69.8921861
9.096                0.966403368     -69.9972063
9.097                0.966328429     -70.1024865
9.098                0.966253263     -70.2080273
9.099                0.966177871     -70.3138298
9.1                  0.966102251     -70.4198946
9.101                0.966026403     -70.5262226
9.102                0.965950326     -70.6328147
9.103                 0.96587402     -70.7396716
9.104                0.965797483     -70.8467942
9.105                0.965720716     -70.9541834
9.106                0.965643719     -71.0618399
9.107                0.965566489     -71.1697647
9.108                0.965489027     -71.2779585
9.109                0.965411332     -71.3864222
9.11                 0.965333404     -71.4951567
9.111                0.965255241     -71.6041628
9.112                0.965176844     -71.7134413
9.113                0.965098211     -71.8229932
9.114                0.965019343     -71.9328193
9.115                0.964940238     -72.0429204
9.116                0.964860896     -72.1532974
9.117                0.964781316     -72.2639511
9.118                0.964701498     -72.3748825
9.119                0.964621442     -72.4860924
9.12                 0.964541146     -72.5975817
9.121                 0.96446061     -72.7093513
9.122                0.964379833      -72.821402
9.123                0.964298815     -72.9337347
9.124                0.964217556     -73.0463504
9.125                0.964136054     -73.1592498
9.126                 0.96405431     -73.2724339
9.127                0.963972321     -73.3859035
9.128                0.963890089     -73.4996596
9.129                0.963807613     -73.6137031
9.13                 0.963724891     -73.7280348
9.131                0.963641923     -73.8426557
9.132                 0.96355871     -73.9575667
9.133                0.963475249     -74.0727686
9.134                0.963391541     -74.1882624
9.135                0.963307585     -74.3040489
9.136                0.963223381     -74.4201292
9.137                0.963138927     -74.5365041
9.138                0.963054224     -74.6531745
9.139                 0.96296927     -74.7701413
9.14                 0.962884066     -74.8874055
9.141                0.962798611      -75.004968
9.142                0.962712904     -75.1228298
9.143                0.962626944     -75.2409916
9.144                0.962540732     -75.3594546
9.145                0.962454266     -75.4782196
9.146                0.962367546     -75.5972875
9.147                0.962280572     -75.7166593
9.148                0.962193342      -75.836336
9.149                0.962105857     -75.9563184
9.15                 0.962018116     -76.0766076
9.151                0.961930119     -76.1972044
9.152                0.961841864     -76.3181099
9.153                0.961753352     -76.4393249
9.154                0.961664581     -76.5608504
9.155                0.961575552     -76.6826875
9.156                0.961486264     -76.8048369
9.157                0.961396716     -76.9272998
9.158                0.961306908     -77.0500771
9.159                 0.96121684     -77.1731697
9.16                  0.96112651     -77.2965786
9.161                0.961035919     -77.4203048
9.162                0.960945065     -77.5443492
9.163                0.960853949     -77.6687129
9.164                 0.96076257     -77.7933968
9.165                0.960670928     -77.9184018
9.166                0.960579021     -78.0437291
9.167                 0.96048685     -78.1693795
9.168                0.960394414      -78.295354
9.169                0.960301713     -78.4216536
9.17                 0.960208746     -78.5482794
9.171                0.960115512     -78.6752323
9.172                0.960022012     -78.8025133
9.173                0.959928245     -78.9301233
9.174                 0.95983421     -79.0580635
9.175                0.959739908     -79.1863348
9.176                0.959645336     -79.3149382
9.177                0.959550496     -79.4438748
9.178                0.959455387     -79.5731454
9.179                0.959360008     -79.7027512
9.18                 0.959264359     -79.8326931
9.181                 0.95916844     -79.9629722
9.182                0.959072249     -80.0935894
9.183                0.958975788     -80.2245459
9.184                0.958879055     -80.3558425
9.185                0.958782049     -80.4874804
9.186                0.958684772     -80.6194605
9.187                0.958587221     -80.7517839
9.188                0.958489398     -80.8844516
9.189                0.958391301     -81.0174647
9.19                 0.958292931     -81.1508241
9.191                0.958194286      -81.284531
9.192                0.958095367     -81.4185862
9.193                0.957996173      -81.552991
9.194                0.957896703     -81.6877462
9.195                0.957796959      -81.822853
9.196                0.957696939     -81.9583124
9.197                0.957596642     -82.0941255
9.198                0.957496069     -82.2302932
9.199                 0.95739522     -82.3668166
9.2                  0.957294094     -82.5036968
9.201                0.957192691     -82.6409349
9.202                 0.95709101     -82.7785318
9.203                0.956989051     -82.9164887
9.204                0.956886815     -83.0548065
9.205                  0.9567843     -83.1934864
9.206                0.956681507     -83.3325294
9.207                0.956578436     -83.4719366
9.208                0.956475085      -83.611709
9.209                0.956371456     -83.7518477
9.21                 0.956267547     -83.8923537
9.211                0.956163359     -84.0332281
9.212                0.956058891     -84.1744721
9.213                0.955954143     -84.3160866
9.214                0.955849115     -84.4580727
9.215                0.955743807     -84.6004315
9.216                0.955638219      -84.743164
9.217                 0.95553235     -84.8862714
9.218                0.955426201     -85.0297547
9.219                0.955319771     -85.1736151
9.22                  0.95521306     -85.3178534
9.221                0.955106069     -85.4624709
9.222                0.954998796     -85.6074687
9.223                0.954891243     -85.7528477
9.224                0.954783408     -85.8986091
9.225                0.954675292      -86.044754
9.226                0.954566895     -86.1912834
9.227                0.954458216     -86.3381985
9.228                0.954349256     -86.4855003
9.229                0.954240015     -86.6331899
9.23                 0.954130492     -86.7812684
9.231                0.954020688     -86.9297368
9.232                0.953910603     -87.0785963
9.233                0.953800237      -87.227848
9.234                0.953689589     -87.3774929
9.235                 0.95357866     -87.5275322
9.236                0.953467449     -87.6779669
9.237                0.953355958     -87.8287981
9.238                0.953244186     -87.9800269
9.239                0.953132133     -88.1316544
9.24                 0.953019799     -88.2836817
9.241                0.952907184     -88.4361098
9.242                0.952794289       -88.58894
9.243                0.952681113     -88.7421732
9.244                0.952567657     -88.8958107
9.245                0.952453921     -89.0498533
9.246                0.952339906     -89.2043023
9.247                 0.95222561     -89.3591588
9.248                0.952111036     -89.5144238
9.249                0.951996182     -89.6700985
9.25                 0.951881049     -89.8261839
9.251                0.951765637     -89.9826811
9.252                0.951649947     -90.1395913
9.253                0.951533979     -90.2969155
9.254                0.951417732     -90.4546548
9.255                0.951301209     -90.6128103
9.256                0.951184408     -90.7713831
9.257                 0.95106733     -90.9303743
9.258                0.950949976      -91.089785
9.259                0.950832346     -91.2496162
9.26                  0.95071444     -91.4098692
9.261                0.950596259     -91.5705449
9.262                0.950477803     -91.7316444
9.263                0.950359072     -91.8931689
9.264                0.950240067     -92.0551195
9.265                0.950120789     -92.2174972
9.266                0.950001238      -92.380303
9.267                0.949881415     -92.5435382
9.268                0.949761319     -92.7072038
9.269                0.949640953     -92.8713008
9.27                 0.949520315     -93.0358304
9.271                0.949399407     -93.2007937
9.272                0.949278229     -93.3661916
9.273                0.949156782     -93.5320254
9.274                0.949035067      -93.698296
9.275                0.948913084     -93.8650046
9.276                0.948790834     -94.0321522
9.277                0.948668318     -94.1997399
9.278                0.948545536     -94.3677689
9.279                0.948422489       -94.53624
9.28                 0.948299177     -94.7051545
9.281                0.948175603     -94.8745134
9.282                0.948051765     -95.0443177
9.283                0.947927666     -95.2145686
9.284                0.947803306     -95.3852671
9.285                0.947678686     -95.5564141
9.286                0.947553806     -95.7280109
9.287                0.947428668     -95.9000585
9.288                0.947303273     -96.0725579
9.289                0.947177621     -96.2455101
9.29                 0.947051713     -96.4189162
9.291                0.946925551     -96.5927773
9.292                0.946799135     -96.7670944
9.293                0.946672467     -96.9418686
9.294                0.946545547     -97.1171008
9.295                0.946418377     -97.2927922
9.296                0.946290958     -97.4689436
9.297                 0.94616329     -97.6455563
9.298                0.946035375     -97.8226312
9.299                0.945907214     -98.0001693
9.3                  0.945778808     -98.1781717
9.301                0.945650159     -98.3566393
9.302                0.945521268     -98.5355732
9.303                0.945392135     -98.7149744
9.304                0.945262763     -98.8948439
9.305                0.945133152     -99.0751827
9.306                0.945003304     -99.2559918
9.307                0.944873221     -99.4372722
9.308                0.944742903     -99.6190249
9.309                0.944612352     -99.8012509
9.31                 0.944481569     -99.9839511
9.311                0.944350557     -100.167126
9.312                0.944219315     -100.350778
9.313                0.944087847     -100.534907
9.314                0.943956153     -100.719514
9.315                0.943824236       -100.9046
9.316                0.943692096     -101.090166
9.317                0.943559735     -101.276213
9.318                0.943427155     -101.462742
9.319                0.943294358     -101.649754
9.32                 0.943161345      -101.83725
9.321                0.943028118     -102.025231
9.322                0.942894679     -102.213697
9.323                0.942761029      -102.40265
9.324                0.942627171     -102.592091
9.325                0.942493106     -102.782019
9.326                0.942358836     -102.972438
9.327                0.942224364     -103.163346
9.328                 0.94208969     -103.354746
9.329                0.941954817     -103.546637
9.33                 0.941819748     -103.739022
9.331                0.941684483       -103.9319
9.332                0.941549025     -104.125273
9.333                0.941413377     -104.319142
9.334                 0.94127754     -104.513507
9.335                0.941141516     -104.708369
9.336                0.941005307     -104.903729
9.337                0.940868917     -105.099587
9.338                0.940732347     -105.295946
9.339                0.940595599     -105.492805
9.34                 0.940458676     -105.690166
9.341                0.940321579     -105.888028
9.342                0.940184312     -106.086394
9.343                0.940046877     -106.285263
9.344                0.939909277     -106.484637
9.345                0.939771513     -106.684516
9.346                0.939633588     -106.884901
9.347                0.939495505     -107.085793
9.348                0.939357266     -107.287192
9.349                0.939218874       -107.4891
9.35                 0.939080332     -107.691517
9.351                0.938941642     -107.894443
9.352                0.938802808      -108.09788
9.353                0.938663831     -108.301828
9.354                0.938524714     -108.506288
9.355                0.938385461     -108.711261
9.356                0.938246075     -108.916746
9.357                0.938106557     -109.122746
9.358                0.937966911      -109.32926
9.359                0.937827141     -109.536289
9.36                 0.937687248     -109.743835
9.361                0.937547237     -109.951896
9.362                 0.93740711     -110.160475
9.363                 0.93726687     -110.369571
9.364                 0.93712652     -110.579186
9.365                0.936986064      -110.78932
9.366                0.936845504     -110.999973
9.367                0.936704845     -111.211146
9.368                0.936564089     -111.422839
9.369                 0.93642324     -111.635054
9.37                   0.9362823      -111.84779
9.371                0.936141275     -112.061049
9.372                0.936000166      -112.27483
9.373                0.935858977     -112.489134
9.374                0.935717712     -112.703963
9.375                0.935576375     -112.919315
9.376                0.935434969     -113.135191
9.377                0.935293497     -113.351593
9.378                0.935151964      -113.56852
9.379                0.935010373     -113.785974
9.38                 0.934868728     -114.003953
9.381                0.934727032     -114.222459
9.382                0.934585289     -114.441492
9.383                0.934443504     -114.661053
9.384                 0.93430168     -114.881142
9.385                0.934159822     -115.101758
9.386                0.934017932     -115.322904
9.387                0.933876016     -115.544578
9.388                0.933734076     -115.766781
9.389                0.933592118     -115.989513
9.39                 0.933450146     -116.212775
9.391                0.933308163     -116.436568
9.392                0.933166174      -116.66089
9.393                0.933024183     -116.885743
9.394                0.932882194     -117.111126
9.395                0.932740212      -117.33704
9.396                0.932598241     -117.563485
