! TOUCHSTONE file generated by CST DESIGN STUDIO
! Date and time: Tue Feb  4 17:58:40 2025
! Project name: C:\Work\MatlabApps\UnitCellOptimizationMatlab\CST\unitcell.cst
! Tree item: Tasks\Sweep1\SPara1\S-Parameters
! Header version: 2024
! Port assignment regex: !\s*Touchstone port\s*([0-9]+)\s*=\s*(CST MWS port|CST DES external port|CST DES block port)\s*(.+)\s* \(\"(.*)\"\)(\s*mode\s*([0-9]+))?.*
! Touchstone port assignment:
! Touchstone port 1 = CST DES external port 1 ("")
# GHz S MA R 50
9                      0.9058689     -84.7117571
9.001                0.905586292     -84.8691586
9.002                0.905302455      -85.027027
9.003                0.905017388     -85.1853641
9.004                 0.90473109     -85.3441712
9.005                0.904443559       -85.50345
9.006                0.904154794      -85.663202
9.007                0.903864792     -85.8234287
9.008                0.903573554     -85.9841318
9.009                0.903281077     -86.1453127
9.01                 0.902987359      -86.306973
9.011                0.902692401     -86.4691143
9.012                0.902396199     -86.6317382
9.013                0.902098754     -86.7948462
9.014                0.901800063     -86.9584399
9.015                0.901500126     -87.1225209
9.016                0.901198941     -87.2870908
9.017                0.900896507     -87.4521511
9.018                0.900592823     -87.6177034
9.019                0.900287888     -87.7837493
9.02                 0.899981701     -87.9502904
9.021                0.899674261     -88.1173282
9.022                0.899365567     -88.2848645
9.023                0.899055618     -88.4529007
9.024                0.898744413     -88.6214385
9.025                0.898431951     -88.7904794
9.026                0.898118231     -88.9600251
9.027                0.897803253     -89.1300771
9.028                0.897487016     -89.3006371
9.029                0.897169518     -89.4717067
9.03                  0.89685076     -89.6432875
9.031                0.896530741      -89.815381
9.032                 0.89620946      -89.987989
9.033                0.895886917     -90.1611129
9.034                0.895563111     -90.3347545
9.035                0.895238041     -90.5089153
9.036                0.894911708     -90.6835969
9.037                0.894584111      -90.858801
9.038                 0.89425525     -91.0345292
9.039                0.893925124     -91.2107831
9.04                 0.893593734     -91.3875644
9.041                0.893261078     -91.5648746
9.042                0.892927157     -91.7427153
9.043                0.892591972     -91.9210883
9.044                0.892255521      -92.099995
9.045                0.891917806     -92.2794372
9.046                0.891578825     -92.4594165
9.047                 0.89123858     -92.6399345
9.048                0.890897071     -92.8209928
9.049                0.890554298      -93.002593
9.05                  0.89021026     -93.1847368
9.051                 0.88986496     -93.3674258
9.052                0.889518396     -93.5506616
9.053                0.889170571     -93.7344459
9.054                0.888821483     -93.9187802
9.055                0.888471135     -94.1036663
9.056                0.888119526     -94.2891057
9.057                0.887766658        -94.4751
9.058                0.887412531     -94.6616509
9.059                0.887057146       -94.84876
9.06                 0.886700505      -95.036429
9.061                0.886342608     -95.2246593
9.062                0.885983457     -95.4134528
9.063                0.885623052     -95.6028109
9.064                0.885261395     -95.7927354
9.065                0.884898488     -95.9832277
9.066                0.884534332     -96.1742897
9.067                0.884168928     -96.3659227
9.068                0.883802278     -96.5581286
9.069                0.883434383     -96.7509088
9.07                 0.883065246      -96.944265
9.071                0.882694869     -97.1381988
9.072                0.882323252     -97.3327118
9.073                0.881950398     -97.5278056
9.074                 0.88157631     -97.7234819
9.075                0.881200989     -97.9197421
9.076                0.880824437     -98.1165879
9.077                0.880446658      -98.314021
9.078                0.880067652     -98.5120428
9.079                0.879687424      -98.710655
9.08                 0.879305975     -98.9098591
9.081                0.878923308     -99.1096568
9.082                0.878539427     -99.3100496
9.083                0.878154333     -99.5110391
9.084                 0.87776803     -99.7126268
9.085                 0.87738052     -99.9148144
9.086                0.876991808     -100.117603
9.087                0.876601896     -100.320995
9.088                0.876210788     -100.524992
9.089                0.875818486     -100.729594
9.09                 0.875424996     -100.934804
9.091                0.875030319     -101.140623
9.092                0.874634461     -101.347053
9.093                0.874237425     -101.554095
9.094                0.873839214     -101.761751
9.095                0.873439834     -101.970022
9.096                0.873039288      -102.17891
9.097                 0.87263758     -102.388416
9.098                0.872234716     -102.598541
9.099                0.871830698     -102.809289
9.1                  0.871425533     -103.020658
9.101                0.871019225     -103.232652
9.102                0.870611778     -103.445272
9.103                0.870203198     -103.658519
9.104                 0.86979349     -103.872395
9.105                0.869382658       -104.0869
9.106                0.868970709     -104.302037
9.107                0.868557648     -104.517808
9.108                 0.86814348     -104.734212
9.109                0.867728211     -104.951253
9.11                 0.867311846      -105.16893
9.111                0.866894393     -105.387247
9.112                0.866475856     -105.606203
9.113                0.866056243     -105.825801
9.114                0.865635558     -106.046042
9.115                 0.86521381     -106.266927
9.116                0.864791004     -106.488458
9.117                0.864367147     -106.710635
9.118                0.863942246     -106.933461
9.119                0.863516309     -107.156936
9.12                 0.863089341     -107.381063
9.121                 0.86266135     -107.605841
9.122                0.862232345     -107.831274
9.123                0.861802331     -108.057361
9.124                0.861371318     -108.284104
9.125                0.860939312     -108.511504
9.126                0.860506322     -108.739564
9.127                0.860072356     -108.968283
9.128                0.859637422     -109.197663
9.129                0.859201528     -109.427706
9.13                 0.858764684     -109.658412
9.131                0.858326897     -109.889783
9.132                0.857888176      -110.12182
9.133                0.857448532     -110.354524
9.134                0.857007971     -110.587897
9.135                0.856566505     -110.821939
9.136                0.856124142     -111.056651
9.137                0.855680892     -111.292035
9.138                0.855236764     -111.528092
9.139                 0.85479177     -111.764823
9.14                 0.854345917     -112.002229
9.141                0.853899218     -112.240311
9.142                0.853451682     -112.479069
9.143                 0.85300332     -112.718506
9.144                0.852554142     -112.958622
9.145                0.852104159     -113.199418
9.146                0.851653383     -113.440895
9.147                0.851201824     -113.683054
9.148                0.850749494     -113.925897
9.149                0.850296404     -114.169422
9.15                 0.849842566     -114.413633
9.151                0.849387992      -114.65853
9.152                0.848932694     -114.904112
9.153                0.848476684     -115.150383
9.154                0.848019975     -115.397341
9.155                0.847562578     -115.644989
9.156                0.847104506     -115.893326
9.157                0.846645774     -116.142354
9.158                0.846186392     -116.392074
9.159                0.845726375     -116.642485
9.16                 0.845265736      -116.89359
9.161                0.844804489     -117.145388
9.162                0.844342646      -117.39788
9.163                0.843880223     -117.651066
9.164                0.843417233     -117.904949
9.165                0.842953691     -118.159527
9.166                 0.84248961     -118.414802
9.167                0.842025006     -118.670774
9.168                0.841559893     -118.927444
9.169                0.841094286     -119.184813
9.17                   0.8406282      -119.44288
9.171                0.840161651     -119.701646
9.172                0.839694654     -119.961112
9.173                0.839227224     -120.221278
9.174                0.838759378     -120.482144
9.175                0.838291132     -120.743712
9.176                0.837822501      -121.00598
9.177                0.837353503      -121.26895
9.178                0.836884153     -121.532622
9.179                0.836414469     -121.796995
9.18                 0.835944467     -122.062071
9.181                0.835474164      -122.32785
9.182                0.835003578     -122.594331
9.183                0.834532726     -122.861515
9.184                0.834061626     -123.129402
9.185                0.833590296     -123.397992
9.186                0.833118753     -123.667285
9.187                0.832647016     -123.937281
9.188                0.832175103      -124.20798
9.189                0.831703033     -124.479382
9.19                 0.831230824     -124.751488
9.191                0.830758496     -125.024296
9.192                0.830286067     -125.297807
9.193                0.829813556     -125.572021
9.194                0.829340984     -125.846937
9.195                0.828868369     -126.122556
9.196                0.828395732     -126.398877
9.197                0.827923092     -126.675899
9.198                 0.82745047     -126.953623
9.199                0.826977885     -127.232048
9.2                  0.826505359     -127.511174
9.201                0.826032911        -127.791
9.202                0.825560564     -128.071526
9.203                0.825088337     -128.352752
9.204                0.824616252     -128.634676
9.205                0.824144331     -128.917299
9.206                0.823672594     -129.200619
9.207                0.823201064     -129.484636
9.208                0.822729762      -129.76935
9.209                0.822258711      -130.05476
9.21                 0.821787932     -130.340865
9.211                0.821317448     -130.627663
9.212                0.820847282     -130.915156
9.213                0.820377455      -131.20334
9.214                0.819907991     -131.492217
9.215                0.819438913     -131.781784
9.216                0.818970244     -132.072041
9.217                0.818502008     -132.362987
9.218                0.818034227      -132.65462
9.219                0.817566925      -132.94694
9.22                 0.817100127     -133.239946
9.221                0.816633855     -133.533636
9.222                0.816168134     -133.828009
9.223                0.815702989     -134.123064
9.224                0.815238443     -134.418799
9.225                0.814774521     -134.715214
9.226                0.814311248     -135.012306
9.227                0.813848648     -135.310075
9.228                0.813386746     -135.608519
9.229                0.812925567     -135.907636
9.23                 0.812465137     -136.207425
9.231                0.812005481     -136.507885
9.232                0.811546623     -136.809013
9.233                0.811088591     -137.110808
9.234                0.810631408     -137.413268
9.235                0.810175101     -137.716392
9.236                0.809719697     -138.020177
9.237                 0.80926522     -138.324622
9.238                0.808811697     -138.629725
9.239                0.808359155     -138.935484
9.24                 0.807907619     -139.241897
9.241                0.807457116     -139.548962
9.242                0.807007672     -139.856676
9.243                0.806559314     -140.165038
9.244                 0.80611207     -140.474045
9.245                0.805665964     -140.783696
9.246                0.805221026     -141.093987
9.247                0.804777281     -141.404917
9.248                0.804334756     -141.716483
9.249                0.803893479     -142.028682
9.25                 0.803453477     -142.341513
9.251                0.803014776     -142.654973
9.252                0.802577406     -142.969058
9.253                0.802141392     -143.283767
9.254                0.801706763     -143.599097
9.255                0.801273545     -143.915045
9.256                0.800841767     -144.231608
9.257                0.800411456     -144.548784
9.258                 0.79998264     -144.866569
9.259                0.799555346     -145.184961
9.26                 0.799129603     -145.503956
9.261                0.798705438     -145.823552
9.262                0.798282878     -146.143746
9.263                0.797861953     -146.464534
9.264                0.797442688     -146.785913
9.265                0.797025114      -147.10788
9.266                0.796609256     -147.430432
9.267                0.796195144     -147.753566
9.268                0.795782806     -148.077277
9.269                0.795372268     -148.401563
9.27                  0.79496356     -148.726419
9.271                0.794556708     -149.051844
9.272                0.794151742     -149.377832
9.273                0.793748688     -149.704381
9.274                0.793347575     -150.031486
9.275                 0.79294843     -150.359144
9.276                0.792551282      -150.68735
9.277                0.792156157     -151.016103
9.278                0.791763085     -151.345396
9.279                0.791372092     -151.675227
9.28                 0.790983206     -152.005591
9.281                0.790596455     -152.336484
9.282                0.790211867     -152.667903
9.283                0.789829468     -152.999842
9.284                0.789449287     -153.332299
9.285                 0.78907135     -153.665268
9.286                0.788695685     -153.998745
9.287                0.788322319     -154.332726
9.288                0.787951279     -154.667207
9.289                0.787582593     -155.002182
9.29                 0.787216286     -155.337648
9.291                0.786852387       -155.6736
9.292                0.786490921     -156.010034
9.293                0.786131916     -156.346944
9.294                0.785775397     -156.684326
9.295                0.785421391     -157.022176
9.296                0.785069925     -157.360487
9.297                0.784721024     -157.699257
9.298                0.784374714     -158.038479
9.299                0.784031022     -158.378149
9.3                  0.783689973     -158.718261
9.301                0.783351592     -159.058811
9.302                0.783015906     -159.399794
9.303                0.782682939     -159.741204
9.304                0.782352716     -160.083037
9.305                0.782025262     -160.425287
9.306                0.781700602     -160.767948
9.307                 0.78137876     -161.111016
9.308                0.781059762     -161.454485
9.309                 0.78074363     -161.798349
9.31                  0.78043039     -162.142604
9.311                0.780120064     -162.487243
9.312                0.779812677     -162.832262
9.313                0.779508251     -163.177654
9.314                0.779206811     -163.523414
9.315                0.778908378     -163.869537
9.316                0.778612976     -164.216016
9.317                0.778320627     -164.562846
9.318                0.778031354      -164.91002
9.319                0.777745178     -165.257534
9.32                 0.777462121     -165.605382
9.321                0.777182205     -165.953556
9.322                0.776905452     -166.302052
9.323                0.776631881     -166.650864
9.324                0.776361514     -166.999984
9.325                0.776094372     -167.349409
9.326                0.775830475      -167.69913
9.327                0.775569842     -168.049143
9.328                0.775312493      -168.39944
9.329                0.775058449     -168.750016
9.33                 0.774807727     -169.100865
9.331                0.774560348     -169.451979
9.332                0.774316328     -169.803354
9.333                0.774075688     -170.154982
9.334                0.773838444     -170.506857
9.335                0.773604615     -170.858973
9.336                0.773374217     -171.211324
9.337                0.773147268     -171.563902
9.338                0.772923785     -171.916701
9.339                0.772703783     -172.269716
9.34                  0.77248728     -172.622938
9.341                 0.77227429     -172.976363
9.342                0.772064829     -173.329982
9.343                0.771858913      -173.68379
9.344                0.771656556      -174.03778
9.345                0.771457773     -174.391945
9.346                0.771262577     -174.746279
9.347                0.771070982     -175.100774
9.348                0.770883003     -175.455424
9.349                0.770698651     -175.810222
9.35                  0.77051794     -176.165162
9.351                0.770340881     -176.520237
9.352                0.770167488     -176.875439
9.353                0.769997771     -177.230763
9.354                0.769831742       -177.5862
9.355                0.769669412     -177.941745
9.356                 0.76951079     -178.297391
9.357                0.769355888      -178.65313
9.358                0.769204716     -179.008955
9.359                0.769057282      -179.36486
9.36                 0.768913595     -179.720838
9.361                0.768773665      179.923118
9.362                0.768637499      179.567015
9.363                0.768505106      179.210861
9.364                0.768376493      178.854661
9.365                0.768251667      178.498423
9.366                0.768130635      178.142155
9.367                0.768013403      177.785862
9.368                0.767899978      177.429553
9.369                0.767790364      177.073233
9.37                 0.767684567      176.716911
9.371                0.767582593      176.360592
9.372                0.767484444      176.004284
9.373                0.767390126      175.647995
9.374                0.767299642       175.29173
9.375                0.767212995      174.935497
9.376                0.767130189      174.579303
9.377                0.767051225      174.223156
9.378                0.766976105      173.867061
9.379                0.766904833      173.511026
9.38                 0.766837407      173.155058
9.381                0.766773831      172.799163
9.382                0.766714103       172.44335
9.383                0.766658225      172.087624
9.384                0.766606196      171.731993
9.385                0.766558015      171.376464
9.386                0.766513681      171.021043
9.387                0.766473193      170.665738
9.388                 0.76643655      170.310555
9.389                0.766403748      169.955502
9.39                 0.766374785      169.600584
9.391                0.766349659      169.245809
9.392                0.766328366      168.891185
9.393                0.766310902      168.536716
9.394                0.766297263      168.182411
9.395                0.766287444      167.828277
9.396                0.766281442      167.474319
