! TOUCHSTONE file generated by CST DESIGN STUDIO
! Date and time: Tue Feb  4 17:58:48 2025
! Project name: C:\Work\MatlabApps\UnitCellOptimizationMatlab\CST\unitcell.cst
! Tree item: Tasks\Sweep1\SPara1\S-Parameters
! Header version: 2024
! Port assignment regex: !\s*Touchstone port\s*([0-9]+)\s*=\s*(CST MWS port|CST DES external port|CST DES block port)\s*(.+)\s* \(\"(.*)\"\)(\s*mode\s*([0-9]+))?.*
! Touchstone port assignment:
! Touchstone port 1 = CST DES external port 1 ("")
# GHz S MA R 50
9                    0.949873631     -56.9490936
9.001                 0.94974486     -57.0287889
9.002                0.949615575     -57.1086691
9.003                0.949485773     -57.1887348
9.004                0.949355453     -57.2689865
9.005                0.949224614      -57.349425
9.006                0.949093253     -57.4300507
9.007                0.948961371     -57.5108643
9.008                0.948828964     -57.5918664
9.009                0.948696032     -57.6730577
9.01                 0.948562573     -57.7544387
9.011                0.948428585     -57.8360101
9.012                0.948294067     -57.9177725
9.013                0.948159018     -57.9997264
9.014                0.948023435     -58.0818727
9.015                0.947887317     -58.1642117
9.016                0.947750663     -58.2467443
9.017                0.947613471      -58.329471
9.018                0.947475739     -58.4123925
9.019                0.947337466     -58.4955093
9.02                  0.94719865     -58.5788222
9.021                 0.94705929     -58.6623319
9.022                0.946919384     -58.7460388
9.023                 0.94677893     -58.8299437
9.024                0.946637927     -58.9140473
9.025                0.946496374     -58.9983502
9.026                0.946354268      -59.082853
9.027                0.946211608     -59.1675564
9.028                0.946068392     -59.2524611
9.029                0.945924619     -59.3375677
9.03                 0.945780287     -59.4228769
9.031                0.945635394     -59.5083894
9.032                0.945489939     -59.5941059
9.033                 0.94534392     -59.6800269
9.034                0.945197336     -59.7661533
9.035                0.945050184     -59.8524856
9.036                0.944902463     -59.9390246
9.037                0.944754172      -60.025771
9.038                0.944605309     -60.1127254
9.039                0.944455872     -60.1998885
9.04                 0.944305859      -60.287261
9.041                0.944155269     -60.3748436
9.042                  0.9440041     -60.4626371
9.043                 0.94385235      -60.550642
9.044                0.943700017     -60.6388592
9.045                0.943547101     -60.7272894
9.046                0.943393599     -60.8159331
9.047                0.943239509     -60.9047912
9.048                 0.94308483     -60.9938644
9.049                 0.94292956     -61.0831534
9.05                 0.942773698     -61.1726589
9.051                 0.94261724     -61.2623816
9.052                0.942460187     -61.3523223
9.053                0.942302536     -61.4424816
9.054                0.942144285     -61.5328604
9.055                0.941985432     -61.6234594
9.056                0.941825977     -61.7142792
9.057                0.941665916     -61.8053207
9.058                0.941505249     -61.8965845
9.059                0.941343973     -61.9880715
9.06                 0.941182087     -62.0797824
9.061                0.941019589     -62.1717179
9.062                0.940856477     -62.2638788
9.063                0.940692749     -62.3562658
9.064                0.940528404     -62.4488798
9.065                 0.94036344     -62.5417214
9.066                0.940197855     -62.6347915
9.067                0.940031647     -62.7280907
9.068                0.939864814       -62.82162
9.069                0.939697355       -62.91538
9.07                 0.939529267     -63.0093716
9.071                 0.93936055     -63.1035955
9.072                  0.9391912     -63.1980525
9.073                0.939021217     -63.2927434
9.074                0.938850598     -63.3876689
9.075                0.938679342       -63.48283
9.076                0.938507447     -63.5782274
9.077                 0.93833491     -63.6738618
9.078                0.938161731     -63.7697341
9.079                0.937987907     -63.8658451
9.08                 0.937813436     -63.9621956
9.081                0.937638316     -64.0587865
9.082                0.937462546     -64.1556184
9.083                0.937286124     -64.2526924
9.084                0.937109048      -64.350009
9.085                0.936931316     -64.4475693
9.086                0.936752926     -64.5453741
9.087                0.936573876      -64.643424
9.088                0.936394165     -64.7417201
9.089                 0.93621379     -64.8402631
9.09                 0.936032749     -64.9390539
9.091                0.935851041     -65.0380933
9.092                0.935668665     -65.1373822
9.093                0.935485616     -65.2369214
9.094                0.935301895     -65.3367118
9.095                0.935117499     -65.4367542
9.096                0.934932427     -65.5370495
9.097                0.934746675     -65.6375985
9.098                0.934560243     -65.7384022
9.099                0.934373128     -65.8394613
9.1                  0.934185328     -65.9407769
9.101                0.933996843     -66.0423496
9.102                0.933807668     -66.1441805
9.103                0.933617804     -66.2462704
9.104                0.933427247     -66.3486202
9.105                0.933235996     -66.4512308
9.106                0.933044049     -66.5541031
9.107                0.932851404     -66.6572379
9.108                0.932658059     -66.7606362
9.109                0.932464012     -66.8642989
9.11                 0.932269261     -66.9682269
9.111                0.932073805     -67.0724211
9.112                 0.93187764     -67.1768823
9.113                0.931680766     -67.2816117
9.114                 0.93148318     -67.3866099
9.115                 0.93128488      -67.491878
9.116                0.931085865      -67.597417
9.117                0.930886132     -67.7032276
9.118                0.930685679      -67.809311
9.119                0.930484505     -67.9156679
9.12                 0.930282608     -68.0222993
9.121                0.930079985     -68.1292063
9.122                0.929876635     -68.2363897
9.123                0.929672555     -68.3438505
9.124                0.929467744     -68.4515896
9.125                0.929262199      -68.559608
9.126                 0.92905592     -68.6679067
9.127                0.928848903     -68.7764865
9.128                0.928641146     -68.8853486
9.129                0.928432649     -68.9944939
9.13                 0.928223408     -69.1039233
9.131                0.928013422     -69.2136378
9.132                0.927802688     -69.3236385
9.133                0.927591206     -69.4339262
9.134                0.927378972      -69.544502
9.135                0.927165986     -69.6553668
9.136                0.926952244     -69.7665218
9.137                0.926737745     -69.8779678
9.138                0.926522487     -69.9897059
9.139                0.926306468     -70.1017371
9.14                 0.926089686     -70.2140623
9.141                0.925872139     -70.3266827
9.142                0.925653825     -70.4395992
9.143                0.925434742     -70.5528129
9.144                0.925214888     -70.6663247
9.145                0.924994261     -70.7801358
9.146                0.924772859      -70.894247
9.147                0.924550681     -71.0086596
9.148                0.924327723     -71.1233744
9.149                0.924103985     -71.2383927
9.15                 0.923879464     -71.3537153
9.151                0.923654158     -71.4693434
9.152                0.923428066      -71.585278
9.153                0.923201185     -71.7015201
9.154                0.922973513     -71.8180709
9.155                0.922745049     -71.9349314
9.156                 0.92251579     -72.0521026
9.157                0.922285734     -72.1695857
9.158                 0.92205488     -72.2873817
9.159                0.921823226     -72.4054917
9.16                 0.921590769     -72.5239168
9.161                0.921357508     -72.6426581
9.162                0.921123441     -72.7617166
9.163                0.920888566     -72.8810934
9.164                 0.92065288     -73.0007897
9.165                0.920416383     -73.1208066
9.166                0.920179071     -73.2411451
9.167                0.919940944     -73.3618064
9.168                0.919701999     -73.4827915
9.169                0.919462234     -73.6041017
9.17                 0.919221647      -73.725738
9.171                0.918980237     -73.8477015
9.172                0.918738002     -73.9699934
9.173                0.918494939     -74.0926148
9.174                0.918251047     -74.2155669
9.175                0.918006324     -74.3388507
9.176                0.917760768     -74.4624674
9.177                0.917514377     -74.5864182
9.178                0.917267149     -74.7107042
9.179                0.917019083     -74.8353266
9.18                 0.916770177     -74.9602866
9.181                0.916520428     -75.0855852
9.182                0.916269835     -75.2112237
9.183                0.916018396     -75.3372032
9.184                 0.91576611     -75.4635248
9.185                0.915512974     -75.5901899
9.186                0.915258986     -75.7171995
9.187                0.915004146     -75.8445549
9.188                 0.91474845     -75.9722572
9.189                0.914491898     -76.1003076
9.19                 0.914234487     -76.2287073
9.191                0.913976216     -76.3574575
9.192                0.913717083     -76.4865594
9.193                0.913457086     -76.6160142
9.194                0.913196223     -76.7458232
9.195                0.912934493     -76.8759875
9.196                0.912671895     -77.0065083
9.197                0.912408425      -77.137387
9.198                0.912144083     -77.2686246
9.199                0.911878867     -77.4002224
9.2                  0.911612776     -77.5321817
9.201                0.911345807     -77.6645037
9.202                0.911077959     -77.7971897
9.203                 0.91080923     -77.9302408
9.204                0.910539618     -78.0636583
9.205                0.910269123     -78.1974435
9.206                0.909997743     -78.3315976
9.207                0.909725475     -78.4661218
9.208                0.909452318     -78.6010175
9.209                0.909178271     -78.7362859
9.21                 0.908903332     -78.8719283
9.211                  0.9086275     -79.0079459
9.212                0.908350773     -79.1443401
9.213                0.908073149      -79.281112
9.214                0.907794628      -79.418263
9.215                0.907515207     -79.5557943
9.216                0.907234886     -79.6937073
9.217                0.906953662     -79.8320032
9.218                0.906671534     -79.9706833
9.219                0.906388501      -80.109749
9.22                 0.906104562     -80.2492015
9.221                0.905819714     -80.3890422
9.222                0.905533958     -80.5292723
9.223                0.905247291     -80.6698931
9.224                0.904959711      -80.810906
9.225                0.904671219     -80.9523123
9.226                0.904381812     -81.0941134
9.227                0.904091489     -81.2363104
9.228                0.903800249     -81.3789049
9.229                0.903508091      -81.521898
9.23                 0.903215014     -81.6652912
9.231                0.902921015     -81.8090858
9.232                0.902626095      -81.953283
9.233                0.902330252     -82.0978844
9.234                0.902033485     -82.2428911
9.235                0.901735792     -82.3883047
9.236                0.901437173     -82.5341263
9.237                0.901137627     -82.6803574
9.238                0.900837152     -82.8269994
9.239                0.900535748     -82.9740536
9.24                 0.900233414     -83.1215213
9.241                0.899930148      -83.269404
9.242                 0.89962595      -83.417703
9.243                0.899320819     -83.5664197
9.244                0.899014754     -83.7155555
9.245                0.898707754     -83.8651117
9.246                0.898399818     -84.0150898
9.247                0.898090945     -84.1654911
9.248                0.897781135      -84.316317
9.249                0.897470387     -84.4675689
9.25                 0.897158701     -84.6192483
9.251                0.896846074     -84.7713564
9.252                0.896532508     -84.9238948
9.253                0.896218001     -85.0768648
9.254                0.895902552     -85.2302678
9.255                0.895586162     -85.3841053
9.256                0.895268829     -85.5383786
9.257                0.894950553     -85.6930892
9.258                0.894631334     -85.8482385
9.259                 0.89431117     -86.0038279
9.26                 0.893990063     -86.1598588
9.261                 0.89366801     -86.3163327
9.262                0.893345013     -86.4732509
9.263                 0.89302107      -86.630615
9.264                0.892696182     -86.7884263
9.265                0.892370348     -86.9466863
9.266                0.892043568     -87.1053965
9.267                0.891715841     -87.2645582
9.268                0.891387169     -87.4241729
9.269                 0.89105755      -87.584242
9.27                 0.890726984     -87.7447671
9.271                0.890395473     -87.9057495
9.272                0.890063014     -88.0671907
9.273                 0.88972961     -88.2290921
9.274                0.889395259     -88.3914552
9.275                0.889059962     -88.5542815
9.276                0.888723719     -88.7175725
9.277                0.888386531     -88.8813295
9.278                0.888048397      -89.045554
9.279                0.887709318     -89.2102475
9.28                 0.887369295     -89.3754115
9.281                0.887028327     -89.5410475
9.282                0.886686416     -89.7071568
9.283                0.886343561      -89.873741
9.284                0.885999764     -90.0408015
9.285                0.885655024     -90.2083399
9.286                0.885309343     -90.3763576
9.287                0.884962722      -90.544856
9.288                 0.88461516     -90.7138366
9.289                0.884266659      -90.883301
9.29                 0.883917219     -91.0532505
9.291                0.883566843     -91.2236867
9.292                0.883215529     -91.3946111
9.293                 0.88286328     -91.5660251
9.294                0.882510097     -91.7379302
9.295                 0.88215598     -91.9103279
9.296                0.881800931     -92.0832197
9.297                0.881444951     -92.2566071
9.298                0.881088042     -92.4304915
9.299                0.880730203     -92.6048744
9.3                  0.880371438     -92.7797574
9.301                0.880011748     -92.9551418
9.302                0.879651133     -93.1310293
9.303                0.879289596     -93.3074212
9.304                0.878927138      -93.484319
9.305                 0.87856376     -93.6617243
9.306                0.878199465     -93.8396386
9.307                0.877834255     -94.0180632
9.308                0.877468131     -94.1969998
9.309                0.877101095     -94.3764497
9.31                 0.876733149     -94.5564145
9.311                0.876364295     -94.7368957
9.312                0.875994535     -94.9178947
9.313                0.875623872      -95.099413
9.314                0.875252308     -95.2814521
9.315                0.874879845     -95.4640135
9.316                0.874506485     -95.6470987
9.317                0.874132232     -95.8307091
9.318                0.873757086     -96.0148462
9.319                0.873381052     -96.1995115
9.32                 0.873004132     -96.3847065
9.321                0.872626328     -96.5704327
9.322                0.872247643     -96.7566914
9.323                0.871868081     -96.9434843
9.324                0.871487643     -97.1308127
9.325                0.871106334     -97.3186781
9.326                0.870724157      -97.507082
9.327                0.870341113     -97.6960259
9.328                0.869957208     -97.8855111
9.329                0.869572444     -98.0755393
9.33                 0.869186824     -98.2661118
9.331                0.868800352       -98.45723
9.332                0.868413032     -98.6488955
9.333                0.868024868     -98.8411097
9.334                0.867635862      -99.033874
9.335                 0.86724602     -99.2271899
9.336                0.866855344     -99.4210588
9.337                0.866463839     -99.6154822
9.338                0.866071509     -99.8104614
9.339                0.865678359     -100.005998
9.34                 0.865284391     -100.202093
9.341                0.864889612     -100.398749
9.342                0.864494024     -100.595966
9.343                0.864097634     -100.793746
9.344                0.863700445      -100.99209
9.345                0.863302461        -101.191
9.346                0.862903689     -101.390478
9.347                0.862504133     -101.590524
9.348                0.862103797      -101.79114
9.349                0.861702687     -101.992327
9.35                 0.861300808     -102.194087
9.351                0.860898166     -102.396422
9.352                0.860494765     -102.599332
9.353                0.860090611     -102.802818
9.354                 0.85968571     -103.006883
9.355                0.859280068     -103.211528
9.356                 0.85887369     -103.416754
9.357                0.858466581     -103.622562
9.358                0.858058749     -103.828953
9.359                0.857650199      -104.03593
9.36                 0.857240937     -104.243492
9.361                 0.85683097     -104.451643
9.362                0.856420304     -104.660382
9.363                0.856008945     -104.869712
9.364                  0.8555969     -105.079633
9.365                0.855184176     -105.290147
9.366                0.854770779     -105.501255
9.367                0.854356717     -105.712958
9.368                0.853941997     -105.925258
9.369                0.853526625     -106.138156
9.37                  0.85311061     -106.351653
9.371                0.852693957     -106.565751
9.372                0.852276675      -106.78045
9.373                0.851858772     -106.995752
9.374                0.851440255     -107.211658
9.375                0.851021132     -107.428169
9.376                 0.85060141     -107.645287
9.377                0.850181099     -107.863013
9.378                0.849760206     -108.081347
9.379                0.849338739     -108.300291
9.38                 0.848916707     -108.519847
9.381                0.848494118     -108.740015
9.382                0.848070981     -108.960796
9.383                0.847647305     -109.182192
9.384                0.847223099     -109.404204
9.385                0.846798371     -109.626832
9.386                0.846373131     -109.850079
9.387                0.845947388     -110.073944
9.388                0.845521152     -110.298429
9.389                0.845094432     -110.523536
9.39                 0.844667237     -110.749265
9.391                0.844239578     -110.975617
9.392                0.843811464     -111.202593
9.393                0.843382905     -111.430194
9.394                0.842953912     -111.658422
9.395                0.842524494     -111.887276
9.396                0.842094663     -112.116759
