! TOUCHSTONE file generated by CST DESIGN STUDIO
! Date and time: Tue Feb  4 17:58:38 2025
! Project name: C:\Work\MatlabApps\UnitCellOptimizationMatlab\CST\unitcell.cst
! Tree item: Tasks\Sweep1\SPara1\S-Parameters
! Header version: 2024
! Port assignment regex: !\s*Touchstone port\s*([0-9]+)\s*=\s*(CST MWS port|CST DES external port|CST DES block port)\s*(.+)\s* \(\"(.*)\"\)(\s*mode\s*([0-9]+))?.*
! Touchstone port assignment:
! Touchstone port 1 = CST DES external port 1 ("")
# GHz S MA R 50
9                    0.891016489     -93.7926502
9.001                 0.89068145     -93.9791172
9.002                0.890345193     -94.1661563
9.003                0.890007718     -94.3537694
9.004                0.889669025     -94.5419581
9.005                0.889329114     -94.7307241
9.006                0.888987984     -94.9200692
9.007                0.888645636      -95.109995
9.008                0.888302069     -95.3005032
9.009                0.887957284     -95.4915956
9.01                 0.887611281     -95.6832738
9.011                0.887264061     -95.8755396
9.012                0.886915622     -96.0683947
9.013                0.886565967     -96.2618408
9.014                0.886215095     -96.4558795
9.015                0.885863007     -96.6505125
9.016                0.885509703     -96.8457416
9.017                0.885155186     -97.0415685
9.018                0.884799454     -97.2379948
9.019                0.884442509     -97.4350222
9.02                 0.884084353     -97.6326525
9.021                0.883724986     -97.8308872
9.022                0.883364409     -98.0297281
9.023                0.883002624     -98.2291768
9.024                0.882639632     -98.4292351
9.025                0.882275435     -98.6299045
9.026                0.881910033     -98.8311868
9.027                0.881543429     -99.0330836
9.028                0.881175624     -99.2355965
9.029                 0.88080662     -99.4387273
9.03                 0.880436419     -99.6424776
9.031                0.880065024      -99.846849
9.032                0.879692435     -100.051843
9.033                0.879318656     -100.257462
9.034                0.878943688     -100.463706
9.035                0.878567534     -100.670579
9.036                0.878190197      -100.87808
9.037                0.877811678     -101.086213
9.038                0.877431982     -101.294977
9.039                 0.87705111     -101.504377
9.04                 0.876669066     -101.714411
9.041                0.876285852     -101.925083
9.042                0.875901472     -102.136394
9.043                0.875515929     -102.348346
9.044                0.875129227     -102.560939
9.045                0.874741368     -102.774177
9.046                0.874352357     -102.988059
9.047                0.873962197     -103.202588
9.048                0.873570892     -103.417766
9.049                0.873178446     -103.633593
9.05                 0.872784863     -103.850071
9.051                0.872390147     -104.067203
9.052                0.871994303     -104.284989
9.053                0.871597335     -104.503431
9.054                0.871199247      -104.72253
9.055                0.870800045     -104.942288
9.056                0.870399732     -105.162706
9.057                0.869998315     -105.383787
9.058                0.869595798     -105.605531
9.059                0.869192186     -105.827939
9.06                 0.868787485     -106.051014
9.061                0.868381701     -106.274756
9.062                0.867974838     -106.499168
9.063                0.867566902      -106.72425
9.064                  0.8671579     -106.950004
9.065                0.866747838     -107.176431
9.066                0.866336721     -107.403533
9.067                0.865924556     -107.631311
9.068                0.865511349     -107.859766
9.069                0.865097107       -108.0889
9.07                 0.864681838     -108.318715
9.071                0.864265546      -108.54921
9.072                0.863848241     -108.780389
9.073                0.863429928     -109.012251
9.074                0.863010616     -109.244799
9.075                0.862590311     -109.478033
9.076                0.862169021     -109.711955
9.077                0.861746755     -109.946567
9.078                0.861323519     -110.181868
9.079                0.860899323     -110.417861
9.08                 0.860474174     -110.654547
9.081                0.860048081     -110.891927
9.082                0.859621053     -111.130002
9.083                0.859193097     -111.368773
9.084                0.858764224     -111.608242
9.085                0.858334442     -111.848409
9.086                 0.85790376     -112.089275
9.087                0.857472187     -112.330843
9.088                0.857039734     -112.573112
9.089                 0.85660641     -112.816084
9.09                 0.856172225      -113.05976
9.091                0.855737189      -113.30414
9.092                0.855301312     -113.549227
9.093                0.854864604     -113.795021
9.094                0.854427077     -114.041522
9.095                 0.85398874     -114.288732
9.096                0.853549606     -114.536652
9.097                0.853109684     -114.785283
9.098                0.852668986     -115.034625
9.099                0.852227524     -115.284679
9.1                  0.851785309     -115.535447
9.101                0.851342353     -115.786929
9.102                0.850898668     -116.039126
9.103                0.850454266     -116.292038
9.104                 0.85000916     -116.545667
9.105                0.849563362     -116.800013
9.106                0.849116884     -117.055077
9.107                 0.84866974     -117.310859
9.108                0.848221943     -117.567361
9.109                0.847773505     -117.824583
9.11                 0.847324441     -118.082525
9.111                0.846874764     -118.341188
9.112                0.846424488     -118.600573
9.113                0.845973626      -118.86068
9.114                0.845522194      -119.12151
9.115                0.845070205     -119.383064
9.116                0.844617673     -119.645341
9.117                0.844164615     -119.908342
9.118                0.843711044     -120.172068
9.119                0.843256975     -120.436519
9.12                 0.842802425     -120.701696
9.121                0.842347409     -120.967598
9.122                0.841891941     -121.234226
9.123                0.841436039     -121.501581
9.124                0.840979718     -121.769662
9.125                0.840522994      -122.03847
9.126                0.840065885     -122.308005
9.127                0.839608406     -122.578267
9.128                0.839150575     -122.849257
9.129                0.838692408     -123.120974
9.13                 0.838233923     -123.393419
9.131                0.837775137     -123.666591
9.132                0.837316068     -123.940491
9.133                0.836856734     -124.215118
9.134                0.836397152     -124.490473
9.135                0.835937341     -124.766555
9.136                0.835477319     -125.043365
9.137                0.835017105     -125.320902
9.138                0.834556718     -125.599165
9.139                0.834096176     -125.878156
9.14                 0.833635499     -126.157873
9.141                0.833174706     -126.438317
9.142                0.832713816     -126.719486
9.143                 0.83225285     -127.001381
9.144                0.831791827     -127.284001
9.145                0.831330767     -127.567346
9.146                0.830869691     -127.851415
9.147                0.830408618     -128.136208
9.148                0.829947571     -128.421725
9.149                0.829486568     -128.707964
9.15                 0.829025633     -128.994925
9.151                0.828564785     -129.282607
9.152                0.828104046      -129.57101
9.153                0.827643438     -129.860133
9.154                0.827182982     -130.149976
9.155                0.826722701     -130.440536
9.156                0.826262616     -130.731815
9.157                 0.82580275      -131.02381
9.158                0.825343125     -131.316521
9.159                0.824883764     -131.609946
9.16                  0.82442469     -131.904086
9.161                0.823965925     -132.198938
9.162                0.823507493     -132.494501
9.163                0.823049417     -132.790775
9.164                 0.82259172     -133.087759
9.165                0.822134427      -133.38545
9.166                0.821677561     -133.683848
9.167                0.821221145     -133.982952
9.168                0.820765205     -134.282759
9.169                0.820309764      -134.58327
9.17                 0.819854847     -134.884481
9.171                0.819400478     -135.186393
9.172                0.818946683     -135.489002
9.173                0.818493485     -135.792309
9.174                0.818040911      -136.09631
9.175                0.817588985     -136.401005
9.176                0.817137732     -136.706391
9.177                0.816687179     -137.012467
9.178                 0.81623735      -137.31923
9.179                0.815788272     -137.626681
9.18                 0.815339969     -137.934815
9.181                 0.81489247     -138.243631
9.182                0.814445798     -138.553128
9.183                0.813999982     -138.863303
9.184                0.813555046     -139.174154
9.185                0.813111018     -139.485678
9.186                0.812667924     -139.797875
9.187                0.812225791     -140.110741
9.188                0.811784646     -140.424274
9.189                0.811344515     -140.738471
9.19                 0.810905426     -141.053331
9.191                0.810467406     -141.368851
9.192                0.810030483     -141.685029
9.193                0.809594682     -142.001861
9.194                0.809160033     -142.319345
9.195                0.808726562     -142.637478
9.196                0.808294297     -142.956259
9.197                0.807863265     -143.275683
9.198                0.807433495     -143.595749
9.199                0.807005015     -143.916453
9.2                  0.806577851     -144.237792
9.201                0.806152033     -144.559764
9.202                0.805727588     -144.882365
9.203                0.805304544     -145.205592
9.204                0.804882929     -145.529443
9.205                0.804462773     -145.853913
9.206                0.804044101        -146.179
9.207                0.803626944       -146.5047
9.208                 0.80321133     -146.831011
9.209                0.802797286     -147.157928
9.21                 0.802384841     -147.485448
9.211                0.801974023     -147.813567
9.212                0.801564862     -148.142283
9.213                0.801157385     -148.471591
9.214                 0.80075162     -148.801488
9.215                0.800347597      -149.13197
9.216                0.799945344     -149.463033
9.217                0.799544888     -149.794674
9.218                0.799146259     -150.126888
9.219                0.798749485     -150.459671
9.22                 0.798354595     -150.793021
9.221                0.797961616     -151.126931
9.222                0.797570577     -151.461399
9.223                0.797181507      -151.79642
9.224                0.796794433      -152.13199
9.225                0.796409385     -152.468105
9.226                0.796026389      -152.80476
9.227                0.795645475     -153.141951
9.228                0.795266671     -153.479674
9.229                0.794890004     -153.817924
9.23                 0.794515502     -154.156696
9.231                0.794143194     -154.495986
9.232                0.793773107     -154.835789
9.233                0.793405269     -155.176101
9.234                0.793039707     -155.516917
9.235                0.792676449     -155.858232
9.236                0.792315524     -156.200041
9.237                0.791956957      -156.54234
9.238                0.791600776     -156.885122
9.239                0.791247009     -157.228384
9.24                 0.790895682      -157.57212
9.241                0.790546823     -157.916326
9.242                0.790200457     -158.260995
9.243                0.789856612     -158.606123
9.244                0.789515315     -158.951704
9.245                0.789176591     -159.297734
9.246                0.788840467     -159.644206
9.247                0.788506969     -159.991115
9.248                0.788176123     -160.338457
9.249                0.787847954     -160.686225
9.25                 0.787522488     -161.034414
9.251                0.787199751     -161.383018
9.252                0.786879767     -161.732031
9.253                0.786562562     -162.081449
9.254                0.786248161     -162.431264
9.255                0.785936588     -162.781472
9.256                0.785627867     -163.132066
9.257                0.785322023     -163.483041
9.258                0.785019081     -163.834391
9.259                0.784719062     -164.186109
9.26                 0.784421992      -164.53819
9.261                0.784127894     -164.890628
9.262                 0.78383679     -165.243416
9.263                0.783548704     -165.596549
9.264                0.783263658     -165.950019
9.265                0.782981675     -166.303822
9.266                0.782702777      -166.65795
9.267                0.782426985     -167.012398
9.268                0.782154322     -167.367159
9.269                0.781884809     -167.722227
9.27                 0.781618466     -168.077595
9.271                0.781355315     -168.433256
9.272                0.781095376     -168.789205
9.273                0.780838669     -169.145435
9.274                0.780585215     -169.501939
9.275                0.780335033      -169.85871
9.276                0.780088143     -170.215743
9.277                0.779844563      -170.57303
9.278                0.779604313     -170.930564
9.279                 0.77936741     -171.288339
9.28                 0.779133873     -171.646349
9.281                0.778903721     -172.004586
9.282                0.778676969     -172.363043
9.283                0.778453637     -172.721714
9.284                 0.77823374     -173.080592
9.285                0.778017294     -173.439669
9.286                0.777804317      -173.79894
9.287                0.777594824     -174.158397
9.288                0.777388831     -174.518032
9.289                0.777186353      -174.87784
9.29                 0.776987404     -175.237813
9.291                0.776791999     -175.597943
9.292                0.776600153     -175.958225
9.293                0.776411878      -176.31865
9.294                0.776227189     -176.679212
9.295                0.776046098     -177.039904
9.296                0.775868619     -177.400718
9.297                0.775694763     -177.761647
9.298                0.775524542     -178.122684
9.299                0.775357968     -178.483822
9.3                  0.775195053     -178.845054
9.301                0.775035806     -179.206372
9.302                0.774880238      -179.56777
9.303                 0.77472836     -179.929239
9.304                0.774580181      179.709226
9.305                0.774435711      179.347635
9.306                0.774294957      178.985993
9.307                0.774157929      178.624308
9.308                0.774024635      178.262588
9.309                0.773895082      177.900839
9.31                 0.773769278      177.539069
9.311                 0.77364723      177.177286
9.312                0.773528944      176.815496
9.313                0.773414426      176.453707
9.314                0.773303683      176.091926
9.315                0.773196718      175.730161
9.316                0.773093538      175.368419
9.317                0.772994147      175.006707
9.318                0.772898549      174.645032
9.319                0.772806747      174.283402
9.32                 0.772718745      173.921824
9.321                0.772634546      173.560305
9.322                0.772554152      173.198853
9.323                0.772477566      172.837475
9.324                0.772404789      172.476178
9.325                0.772335822      172.114969
9.326                0.772270666      171.753856
9.327                0.772209323      171.392846
9.328                0.772151791      171.031946
9.329                0.772098071      170.671164
9.33                 0.772048162      170.310506
9.331                0.772002062       169.94998
9.332                0.771959771      169.589592
9.333                0.771921286      169.229351
9.334                0.771886605      168.869263
9.335                0.771855726      168.509336
9.336                0.771828645      168.149575
9.337                0.771805359       167.78999
9.338                0.771785864      167.430585
9.339                0.771770155       167.07137
9.34                 0.771758229       166.71235
9.341                 0.77175008      166.353533
9.342                0.771745702      165.994925
9.343                 0.77174509      165.636534
9.344                0.771748238      165.278366
9.345                 0.77175514      164.920429
9.346                0.771765787      164.562729
9.347                0.771780174      164.205273
9.348                0.771798291      163.848067
9.349                0.771820133       163.49112
9.35                 0.771845689      163.134436
9.351                0.771874951      162.778024
9.352                0.771907911      162.421889
9.353                0.771944558      162.066039
9.354                0.771984883       161.71048
9.355                0.772028876      161.355218
9.356                0.772076526      161.000261
9.357                0.772127823      160.645614
9.358                0.772182754      160.291284
9.359                 0.77224131      159.937278
9.36                 0.772303477      159.583602
9.361                0.772369244      159.230261
9.362                0.772438599      158.877264
9.363                0.772511527      158.524615
9.364                0.772588017      158.172322
9.365                0.772668055       157.82039
9.366                0.772751627      157.468825
9.367                0.772838719      157.117633
9.368                0.772929316      156.766822
9.369                0.773023405      156.416396
9.37                 0.773120969      156.066361
9.371                0.773221994      155.716725
9.372                0.773326465      155.367491
9.373                0.773434365      155.018667
9.374                0.773545678      154.670258
9.375                0.773660388       154.32227
9.376                0.773778479      153.974708
9.377                0.773899933      153.627579
9.378                0.774024733      153.280887
9.379                0.774152862      152.934638
9.38                 0.774284303      152.588839
9.381                0.774419036      152.243494
9.382                0.774557045      151.898608
9.383                0.774698311      151.554188
9.384                0.774842815      151.210238
9.385                0.774990538      150.866763
9.386                0.775141461       150.52377
9.387                0.775295566      150.181262
9.388                0.775452831      149.839246
9.389                0.775613239      149.497725
9.39                 0.775776768      149.156706
9.391                0.775943399      148.816193
9.392                0.776113112      148.476191
9.393                0.776285885      148.136705
9.394                0.776461699      147.797739
9.395                0.776640532      147.459298
9.396                0.776822363      147.121388
