! TOUCHSTONE file generated by CST DESIGN STUDIO
! Date and time: Tue Feb  4 17:58:49 2025
! Project name: C:\Work\MatlabApps\UnitCellOptimizationMatlab\CST\unitcell.cst
! Tree item: Tasks\Sweep1\SPara1\S-Parameters
! Header version: 2024
! Port assignment regex: !\s*Touchstone port\s*([0-9]+)\s*=\s*(CST MWS port|CST DES external port|CST DES block port)\s*(.+)\s* \(\"(.*)\"\)(\s*mode\s*([0-9]+))?.*
! Touchstone port assignment:
! Touchstone port 1 = CST DES external port 1 ("")
# GHz S MA R 50
9                    0.956963696     -51.9537609
9.001                0.956857871      -52.022289
9.002                0.956751662     -52.0909655
9.003                0.956645066     -52.1597907
9.004                0.956538083     -52.2287651
9.005                0.956430712     -52.2978892
9.006                0.956322951     -52.3671635
9.007                  0.9562148     -52.4365884
9.008                0.956106257     -52.5061645
9.009                0.955997321     -52.5758921
9.01                 0.955887991     -52.6457718
9.011                0.955778265      -52.715804
9.012                0.955668144     -52.7859892
9.013                0.955557624      -52.856328
9.014                0.955446705     -52.9268207
9.015                0.955335387      -52.997468
9.016                0.955223667     -53.0682701
9.017                0.955111544     -53.1392278
9.018                0.954999018     -53.2103414
9.019                0.954886087     -53.2816114
9.02                 0.954772749     -53.3530384
9.021                0.954659005     -53.4246228
9.022                0.954544851     -53.4963651
9.023                0.954430288     -53.5682659
9.024                0.954315314     -53.6403257
9.025                0.954199927     -53.7125449
9.026                0.954084127      -53.784924
9.027                0.953967912     -53.8574636
9.028                0.953851281     -53.9301642
9.029                0.953734233     -54.0030263
9.03                 0.953616766     -54.0760504
9.031                0.953498879      -54.149237
9.032                0.953380572     -54.2225867
9.033                0.953261841     -54.2960999
9.034                0.953142687     -54.3697772
9.035                0.953023109     -54.4436192
9.036                0.952903104     -54.5176263
9.037                0.952782671     -54.5917991
9.038                 0.95266181     -54.6661381
9.039                0.952540518     -54.7406438
9.04                 0.952418795     -54.8153168
9.041                 0.95229664     -54.8901577
9.042                 0.95217405     -54.9651669
9.043                0.952051025      -55.040345
9.044                0.951927563     -55.1156925
9.045                0.951803664     -55.1912101
9.046                0.951679325     -55.2668982
9.047                0.951554545     -55.3427574
9.048                0.951429324     -55.4187882
9.049                0.951303659     -55.4949913
9.05                 0.951177549     -55.5713671
9.051                0.951050993     -55.6479162
9.052                 0.95092399     -55.7246392
9.053                0.950796539     -55.8015367
9.054                0.950668637     -55.8786092
9.055                0.950540284     -55.9558573
9.056                0.950411478     -56.0332815
9.057                0.950282217     -56.1108824
9.058                0.950152502     -56.1886607
9.059                0.950022329     -56.2666169
9.06                 0.949891698     -56.3447515
9.061                0.949760607     -56.4230651
9.062                0.949629055     -56.5015584
9.063                 0.94949704     -56.5802319
9.064                0.949364561     -56.6590862
9.065                0.949231618     -56.7381219
9.066                0.949098207     -56.8173396
9.067                0.948964328     -56.8967399
9.068                0.948829979     -56.9763234
9.069                 0.94869516     -57.0560906
9.07                 0.948559868     -57.1360423
9.071                0.948424102     -57.2161789
9.072                0.948287861     -57.2965011
9.073                0.948151143     -57.3770096
9.074                0.948013946     -57.4577049
9.075                 0.94787627     -57.5385876
9.076                0.947738113     -57.6196584
9.077                0.947599474     -57.7009178
9.078                 0.94746035     -57.7823666
9.079                 0.94732074     -57.8640052
9.08                 0.947180644     -57.9458345
9.081                0.947040059     -58.0278549
9.082                0.946898984     -58.1100671
9.083                0.946757418     -58.1924717
9.084                0.946615358     -58.2750695
9.085                0.946472804      -58.357861
9.086                0.946329755     -58.4408468
9.087                0.946186207     -58.5240276
9.088                0.946042161     -58.6074041
9.089                0.945897614     -58.6909769
9.09                 0.945752566     -58.7747467
9.091                0.945607013     -58.8587141
9.092                0.945460956     -58.9428797
9.093                0.945314392     -59.0272443
9.094                 0.94516732     -59.1118084
9.095                0.945019738     -59.1965729
9.096                0.944871645     -59.2815382
9.097                0.944723039     -59.3667051
9.098                0.944573919     -59.4520743
9.099                0.944424283     -59.5376464
9.1                   0.94427413     -59.6234222
9.101                0.944123458     -59.7094022
9.102                0.943972265     -59.7955873
9.103                 0.94382055      -59.881978
9.104                0.943668311      -59.968575
9.105                0.943515547     -60.0553791
9.106                0.943362256     -60.1423909
9.107                0.943208436     -60.2296112
9.108                0.943054087     -60.3170406
9.109                0.942899205     -60.4046798
9.11                 0.942743791     -60.4925296
9.111                0.942587841     -60.5805907
9.112                0.942431355     -60.6688636
9.113                0.942274331     -60.7573493
9.114                0.942116767     -60.8460483
9.115                0.941958662     -60.9349615
9.116                0.941800014     -61.0240894
9.117                0.941640821      -61.113433
9.118                0.941481082     -61.2029928
9.119                0.941320796     -61.2927695
9.12                 0.941159959     -61.3827641
9.121                0.940998571     -61.4729771
9.122                0.940836631     -61.5634093
9.123                0.940674136     -61.6540615
9.124                0.940511085     -61.7449343
9.125                0.940347476     -61.8360286
9.126                0.940183308     -61.9273451
9.127                0.940018578     -62.0188845
9.128                0.939853286     -62.1106476
9.129                0.939687429     -62.2026352
9.13                 0.939521005      -62.294848
9.131                0.939354014     -62.3872868
9.132                0.939186454     -62.4799523
9.133                0.939018322     -62.5728453
9.134                0.938849617     -62.6659666
9.135                0.938680338      -62.759317
9.136                0.938510482     -62.8528972
9.137                0.938340048     -62.9467081
9.138                0.938169034     -63.0407503
9.139                0.937997439     -63.1350248
9.14                 0.937825261     -63.2295322
9.141                0.937652497     -63.3242734
9.142                0.937479147     -63.4192492
9.143                0.937305209     -63.5144603
9.144                 0.93713068     -63.6099077
9.145                 0.93695556      -63.705592
9.146                0.936779846     -63.8015141
9.147                0.936603536     -63.8976748
9.148                 0.93642663     -63.9940749
9.149                0.936249124     -64.0907153
9.15                 0.936071019     -64.1875967
9.151                 0.93589231       -64.28472
9.152                0.935712998      -64.382086
9.153                 0.93553308     -64.4796955
9.154                0.935352554     -64.5775494
9.155                0.935171418     -64.6756485
9.156                0.934989672     -64.7739937
9.157                0.934807312     -64.8725857
9.158                0.934624338     -64.9714255
9.159                0.934440747     -65.0705139
9.16                 0.934256539     -65.1698517
9.161                 0.93407171     -65.2694398
9.162                0.933886259      -65.369279
9.163                0.933700184     -65.4693703
9.164                0.933513484     -65.5697144
9.165                0.933326157     -65.6703123
9.166                0.933138201     -65.7711648
9.167                0.932949614     -65.8722728
9.168                0.932760394     -65.9736372
9.169                 0.93257054     -66.0752589
9.17                  0.93238005     -66.1771386
9.171                0.932188921     -66.2792774
9.172                0.931997153     -66.3816761
9.173                0.931804743     -66.4843357
9.174                 0.93161169     -66.5872569
9.175                0.931417991     -66.6904407
9.176                0.931223645     -66.7938881
9.177                0.931028651     -66.8975999
9.178                0.930833005      -67.001577
9.179                0.930636707     -67.1058204
9.18                 0.930439755     -67.2103309
9.181                0.930242146     -67.3151096
9.182                 0.93004388     -67.4201572
9.183                0.929844953     -67.5254748
9.184                0.929645365     -67.6310632
9.185                0.929445113     -67.7369235
9.186                0.929244196     -67.8430565
9.187                0.929042612     -67.9494632
9.188                0.928840358     -68.0561446
9.189                0.928637434     -68.1631015
9.19                 0.928433837     -68.2703349
9.191                0.928229566     -68.3778459
9.192                0.928024618     -68.4856353
9.193                0.927818992     -68.5937041
9.194                0.927612686     -68.7020532
9.195                0.927405698     -68.8106838
9.196                0.927198026     -68.9195966
9.197                0.926989669     -69.0287927
9.198                0.926780624     -69.1382731
9.199                 0.92657089     -69.2480388
9.2                  0.926360465     -69.3580907
9.201                0.926149347     -69.4684299
9.202                0.925937534     -69.5790572
9.203                0.925725025     -69.6899738
9.204                0.925511817     -69.8011807
9.205                0.925297909     -69.9126787
9.206                0.925083299      -70.024469
9.207                0.924867985     -70.1365526
9.208                0.924651966     -70.2489304
9.209                0.924435238     -70.3616035
9.21                 0.924217802     -70.4745729
9.211                0.923999654     -70.5878396
9.212                0.923780793     -70.7014047
9.213                0.923561217     -70.8152692
9.214                0.923340924     -70.9294341
9.215                0.923119913     -71.0439005
9.216                0.922898181     -71.1586694
9.217                0.922675727     -71.2737419
9.218                0.922452549     -71.3891189
9.219                0.922228645     -71.5048017
9.22                 0.922004014     -71.6207911
9.221                0.921778653     -71.7370884
9.222                0.921552561     -71.8536945
9.223                0.921325736     -71.9706105
9.224                0.921098176     -72.0878375
9.225                0.920869879     -72.2053766
9.226                0.920640844     -72.3232288
9.227                0.920411069     -72.4413953
9.228                0.920180551     -72.5598771
9.229                 0.91994929     -72.6786753
9.23                 0.919717283      -72.797791
9.231                0.919484529     -72.9172253
9.232                0.919251026     -73.0369793
9.233                0.919016771     -73.1570541
9.234                0.918781764     -73.2774508
9.235                0.918546003     -73.3981706
9.236                0.918309485     -73.5192145
9.237                 0.91807221     -73.6405837
9.238                0.917834174     -73.7622792
9.239                0.917595378     -73.8843023
9.24                 0.917355818      -74.006654
9.241                0.917115493     -74.1293356
9.242                0.916874402      -74.252348
9.243                0.916632542     -74.3756925
9.244                0.916389912     -74.4993702
9.245                0.916146511     -74.6233823
9.246                0.915902336     -74.7477299
9.247                0.915657386     -74.8724141
9.248                0.915411659     -74.9974362
9.249                0.915165154     -75.1227973
9.25                 0.914917868     -75.2484985
9.251                0.914669801     -75.3745411
9.252                 0.91442095     -75.5009262
9.253                0.914171314     -75.6276549
9.254                0.913920892     -75.7547286
9.255                0.913669681     -75.8821483
9.256                 0.91341768     -76.0099152
9.257                0.913164887     -76.1380305
9.258                0.912911302     -76.2664955
9.259                0.912656921     -76.3953114
9.26                 0.912401744     -76.5244792
9.261                0.912145769     -76.6540003
9.262                0.911888995     -76.7838759
9.263                0.911631419     -76.9141071
9.264                0.911373041     -77.0446953
9.265                0.911113859     -77.1756415
9.266                0.910853871     -77.3069471
9.267                0.910593076     -77.4386132
9.268                0.910331473     -77.5706412
9.269                0.910069059     -77.7030322
9.27                 0.909805833     -77.8357874
9.271                0.909541795     -77.9689082
9.272                0.909276942     -78.1023957
9.273                0.909011272     -78.2362513
9.274                0.908744786     -78.3704762
9.275                0.908477481     -78.5050715
9.276                0.908209355     -78.6400387
9.277                0.907940408     -78.7753789
9.278                0.907670638     -78.9110934
9.279                0.907400044     -79.0471836
9.28                 0.907128624     -79.1836506
9.281                0.906856377     -79.3204958
9.282                0.906583301     -79.4577204
9.283                0.906309397     -79.5953257
9.284                0.906034661      -79.733313
9.285                0.905759093     -79.8716836
9.286                0.905482692     -80.0104389
9.287                0.905205456       -80.14958
9.288                0.904927384     -80.2891083
9.289                0.904648476     -80.4290252
9.29                 0.904368729     -80.5693318
9.291                0.904088143     -80.7100296
9.292                0.903806716     -80.8511198
9.293                0.903524448     -80.9926038
9.294                0.903241337     -81.1344828
9.295                0.902957383     -81.2767583
9.296                0.902672583     -81.4194316
9.297                0.902386938     -81.5625039
9.298                0.902100445     -81.7059766
9.299                0.901813105      -81.849851
9.3                  0.901524916     -81.9941286
9.301                0.901235877     -82.1388106
9.302                0.900945987     -82.2838984
9.303                0.900655246     -82.4293933
9.304                0.900363652     -82.5752967
9.305                0.900071204     -82.7216099
9.306                0.899777903     -82.8683344
9.307                0.899483746     -83.0154714
9.308                0.899188733     -83.1630224
9.309                0.898892863     -83.3109887
9.31                 0.898596136     -83.4593717
9.311                0.898298551     -83.6081727
9.312                0.898000107     -83.7573932
9.313                0.897700804     -83.9070345
9.314                 0.89740064      -84.057098
9.315                0.897099616     -84.2075851
9.316                 0.89679773     -84.3584972
9.317                0.896494982     -84.5098356
9.318                0.896191372     -84.6616018
9.319                0.895886899     -84.8137972
9.32                 0.895581562     -84.9664232
9.321                0.895275362     -85.1194811
9.322                0.894968297     -85.2729724
9.323                0.894660367     -85.4268985
9.324                0.894351573     -85.5812608
9.325                0.894041913     -85.7360607
9.326                0.893731388     -85.8912996
9.327                0.893419996     -86.0469789
9.328                0.893107739     -86.2031002
9.329                0.892794615     -86.3596647
9.33                 0.892480624      -86.516674
9.331                0.892165768     -86.6741293
9.332                0.891850044     -86.8320323
9.333                0.891533454     -86.9903843
9.334                0.891215997     -87.1491867
9.335                0.890897673      -87.308441
9.336                0.890578482     -87.4681486
9.337                0.890258425     -87.6283109
9.338                0.889937502     -87.7889295
9.339                0.889615712     -87.9500057
9.34                 0.889293056      -88.111541
9.341                0.888969535     -88.2735368
9.342                0.888645148     -88.4359946
9.343                0.888319895     -88.5989159
9.344                0.887993778     -88.7623021
9.345                0.887666797     -88.9261546
9.346                0.887338951     -89.0904749
9.347                0.887010243     -89.2552645
9.348                0.886680671     -89.4205248
9.349                0.886350237     -89.5862573
9.35                 0.886018941     -89.7524634
9.351                0.885686784     -89.9191447
9.352                0.885353767     -90.0863025
9.353                0.885019891     -90.2539384
9.354                0.884685155     -90.4220538
9.355                0.884349562     -90.5906502
9.356                0.884013112      -90.759729
9.357                0.883675806     -90.9292918
9.358                0.883337645     -91.0993399
9.359                 0.88299863     -91.2698749
9.36                 0.882658763     -91.4408983
9.361                0.882318043     -91.6124114
9.362                0.881976473     -91.7844159
9.363                0.881634055     -91.9569131
9.364                0.881290788     -92.1299045
9.365                0.880946675     -92.3033917
9.366                0.880601716     -92.4773761
9.367                0.880255914     -92.6518591
9.368                0.879909271     -92.8268423
9.369                0.879561786      -93.002327
9.37                 0.879213463     -93.1783149
9.371                0.878864303     -93.3548074
9.372                0.878514307     -93.5318059
9.373                0.878163478      -93.709312
9.374                0.877811817      -93.887327
9.375                0.877459327     -94.0658526
9.376                0.877106009       -94.24489
9.377                0.876751865      -94.424441
9.378                0.876396898     -94.6045068
9.379                 0.87604111      -94.785089
9.38                 0.875684502     -94.9661891
9.381                0.875327078     -95.1478085
9.382                0.874968839     -95.3299487
9.383                0.874609789     -95.5126111
9.384                0.874249929     -95.6957974
9.385                0.873889262     -95.8795088
9.386                0.873527791     -96.0637468
9.387                0.873165519     -96.2485131
9.388                0.872802448     -96.4338089
9.389                0.872438581     -96.6196358
9.39                 0.872073922     -96.8059952
9.391                0.871708472     -96.9928885
9.392                0.871342236     -97.1803174
9.393                0.870975216     -97.3682831
9.394                0.870607416     -97.5567871
9.395                0.870238838      -97.745831
9.396                0.869869487     -97.9354161
