! TOUCHSTONE file generated by CST DESIGN STUDIO
! Date and time: Tue Feb  4 17:58:44 2025
! Project name: C:\Work\MatlabApps\UnitCellOptimizationMatlab\CST\unitcell.cst
! Tree item: Tasks\Sweep1\SPara1\S-Parameters
! Header version: 2024
! Port assignment regex: !\s*Touchstone port\s*([0-9]+)\s*=\s*(CST MWS port|CST DES external port|CST DES block port)\s*(.+)\s* \(\"(.*)\"\)(\s*mode\s*([0-9]+))?.*
! Touchstone port assignment:
! Touchstone port 1 = CST DES external port 1 ("")
# GHz S MA R 50
9                    0.931251259     -69.1221437
9.001                0.931055227     -69.2329544
9.002                0.930858379     -69.3440609
9.003                0.930660711     -69.4554644
9.004                0.930462221     -69.5671659
9.005                0.930262907     -69.6791664
9.006                0.930062766     -69.7914668
9.007                0.929861796     -69.9040684
9.008                0.929659993      -70.016972
9.009                0.929457356     -70.1301787
9.01                 0.929253881     -70.2436896
9.011                0.929049567     -70.3575058
9.012                0.928844409     -70.4716281
9.013                0.928638407     -70.5860578
9.014                0.928431557     -70.7007959
9.015                0.928223856     -70.8158434
9.016                0.928015302     -70.9312014
9.017                0.927805893      -71.046871
9.018                0.927595626     -71.1628532
9.019                0.927384498     -71.2791491
9.02                 0.927172506     -71.3957598
9.021                0.926959648     -71.5126864
9.022                0.926745922       -71.62993
9.023                0.926531325     -71.7474916
9.024                0.926315853     -71.8653723
9.025                0.926099506     -71.9835733
9.026                0.925882279     -72.1020957
9.027                 0.92566417     -72.2209405
9.028                0.925445178     -72.3401089
9.029                0.925225298     -72.4596019
9.03                 0.925004529     -72.5794207
9.031                0.924782868     -72.6995665
9.032                0.924560313     -72.8200403
9.033                 0.92433686     -72.9408432
9.034                0.924112507     -73.0619764
9.035                0.923887252     -73.1834411
9.036                0.923661092     -73.3052384
9.037                0.923434024     -73.4273693
9.038                0.923206046     -73.5498352
9.039                0.922977155      -73.672637
9.04                  0.92274735      -73.795776
9.041                0.922516626     -73.9192534
9.042                0.922284982     -74.0430702
9.043                0.922052414     -74.1672277
9.044                0.921818921      -74.291727
9.045                0.921584501     -74.4165693
9.046                0.921349149     -74.5417558
9.047                0.921112864     -74.6672876
9.048                0.920875644      -74.793166
9.049                0.920637485     -74.9193921
9.05                 0.920398385     -75.0459671
9.051                0.920158342     -75.1728922
9.052                0.919917353     -75.3001687
9.053                0.919675416     -75.4277977
9.054                0.919432528     -75.5557804
9.055                0.919188686     -75.6841181
9.056                0.918943889     -75.8128119
9.057                0.918698133     -75.9418631
9.058                0.918451416     -76.0712729
9.059                0.918203736     -76.2010425
9.06                 0.917955091     -76.3311732
9.061                0.917705477     -76.4616661
9.062                0.917454892     -76.5925226
9.063                0.917203334     -76.7237439
9.064                0.916950801     -76.8553312
9.065                 0.91669729     -76.9872857
9.066                0.916442798     -77.1196087
9.067                0.916187323     -77.2523016
9.068                0.915930864     -77.3853654
9.069                0.915673416     -77.5188016
9.07                 0.915414979     -77.6526113
9.071                 0.91515555     -77.7867959
9.072                0.914895126     -77.9213565
9.073                0.914633705     -78.0562946
9.074                0.914371284     -78.1916113
9.075                0.914107862      -78.327308
9.076                0.913843436      -78.463386
9.077                0.913578004     -78.5998465
9.078                0.913311563     -78.7366908
9.079                0.913044111     -78.8739203
9.08                 0.912775646     -79.0115362
9.081                0.912506167     -79.1495398
9.082                0.912235669     -79.2879326
9.083                0.911964152     -79.4267157
9.084                0.911691613     -79.5658905
9.085                 0.91141805     -79.7054583
9.086                 0.91114346     -79.8454205
9.087                0.910867842     -79.9857784
9.088                0.910591194     -80.1265333
9.089                0.910313513     -80.2676865
9.09                 0.910034797     -80.4092394
9.091                0.909755044     -80.5511934
9.092                0.909474252     -80.6935497
9.093                 0.90919242     -80.8363098
9.094                0.908909544     -80.9794749
9.095                0.908625624     -81.1230465
9.096                0.908340656     -81.2670259
9.097                0.908054639     -81.4114144
9.098                0.907767572     -81.5562135
9.099                0.907479451     -81.7014245
9.1                  0.907190276     -81.8470488
9.101                0.906900044     -81.9930878
9.102                0.906608754     -82.1395427
9.103                0.906316403     -82.2864151
9.104                 0.90602299     -82.4337064
9.105                0.905728513     -82.5814178
9.106                 0.90543297     -82.7295508
9.107                 0.90513636     -82.8781068
9.108                 0.90483868     -83.0270873
9.109                0.904539929     -83.1764935
9.11                 0.904240106     -83.3263269
9.111                0.903939208     -83.4765889
9.112                0.903637235      -83.627281
9.113                0.903334183     -83.7784045
9.114                0.903030053     -83.9299609
9.115                0.902724842     -84.0819516
9.116                0.902418549      -84.234378
9.117                0.902111172     -84.3872415
9.118                 0.90180271     -84.5405436
9.119                0.901493161     -84.6942857
9.12                 0.901182524     -84.8484693
9.121                0.900870798     -85.0030957
9.122                0.900557981     -85.1581665
9.123                0.900244072      -85.313683
9.124                 0.89992907     -85.4696467
9.125                0.899612973     -85.6260591
9.126                0.899295781     -85.7829217
9.127                0.898977491     -85.9402358
9.128                0.898658104     -86.0980029
9.129                0.898337617     -86.2562246
9.13                  0.89801603     -86.4149022
9.131                0.897693341     -86.5740372
9.132                 0.89736955     -86.7336311
9.133                0.897044656     -86.8936854
9.134                0.896718657     -87.0542015
9.135                0.896391554     -87.2151809
9.136                0.896063344     -87.3766252
9.137                0.895734028     -87.5385357
9.138                0.895403604     -87.7009139
9.139                0.895072072     -87.8637614
9.14                  0.89473943     -88.0270796
9.141                0.894405679       -88.19087
9.142                0.894070818     -88.3551341
9.143                0.893734846     -88.5198734
9.144                0.893397762     -88.6850894
9.145                0.893059567     -88.8507836
9.146                0.892720259     -89.0169575
9.147                0.892379839     -89.1836125
9.148                0.892038306     -89.3507502
9.149                 0.89169566     -89.5183721
9.15                   0.8913519     -89.6864797
9.151                0.891007026     -89.8550745
9.152                0.890661038      -90.024158
9.153                0.890313937     -90.1937317
9.154                0.889965721     -90.3637971
9.155                0.889616391     -90.5343558
9.156                0.889265948     -90.7054092
9.157                 0.88891439     -90.8769588
9.158                0.888561719     -91.0490062
9.159                0.888207934      -91.221553
9.16                 0.887853036     -91.3946005
9.161                0.887497026     -91.5681503
9.162                0.887139902      -91.742204
9.163                0.886781667      -91.916763
9.164                 0.88642232     -92.0918289
9.165                0.886061862     -92.2674032
9.166                0.885700294     -92.4434875
9.167                0.885337616     -92.6200832
9.168                0.884973829     -92.7971918
9.169                0.884608933     -92.9748149
9.17                 0.884242931     -93.1529541
9.171                0.883875822     -93.3316107
9.172                0.883507607     -93.5107865
9.173                0.883138288     -93.6904828
9.174                0.882767866     -93.8707012
9.175                0.882396342     -94.0514432
9.176                0.882023717     -94.2327103
9.177                0.881649992     -94.4145042
9.178                 0.88127517     -94.5968262
9.179                 0.88089925     -94.7796779
9.18                 0.880522235     -94.9630609
9.181                0.880144127     -95.1469766
9.182                0.879764927     -95.3314266
9.183                0.879384637     -95.5164123
9.184                0.879003258     -95.7019354
9.185                0.878620793     -95.8879972
9.186                0.878237244     -96.0745995
9.187                0.877852612     -96.2617435
9.188                  0.8774669     -96.4494309
9.189                0.877080109     -96.6376632
9.19                 0.876692243     -96.8264419
9.191                0.876303303     -97.0157685
9.192                0.875913292     -97.2056444
9.193                0.875522213     -97.3960712
9.194                0.875130068     -97.5870505
9.195                0.874736859     -97.7785836
9.196                 0.87434259     -97.9706722
9.197                0.873947263     -98.1633176
9.198                0.873550882     -98.3565214
9.199                0.873153449     -98.5502851
9.2                  0.872754968     -98.7446101
9.201                0.872355441      -98.939498
9.202                0.871954872     -99.1349502
9.203                0.871553264     -99.3309682
9.204                0.871150621     -99.5275535
9.205                0.870746947     -99.7247076
9.206                0.870342245     -99.9224318
9.207                0.869936518     -100.120728
9.208                0.869529771     -100.319597
9.209                0.869122008     -100.519041
9.21                 0.868713233      -100.71906
9.211                0.868303449     -100.919658
9.212                0.867892661     -101.120834
9.213                0.867480874     -101.322591
9.214                0.867068092     -101.524929
9.215                0.866654319     -101.727851
9.216                 0.86623956     -101.931357
9.217                0.865823819      -102.13545
9.218                0.865407103      -102.34013
9.219                0.864989415     -102.545399
9.22                 0.864570761     -102.751258
9.221                0.864151146     -102.957709
9.222                0.863730575     -103.164753
9.223                0.863309053     -103.372392
9.224                0.862886587     -103.580627
9.225                0.862463181     -103.789459
9.226                0.862038842     -103.998889
9.227                0.861613575      -104.20892
9.228                0.861187386     -104.419552
9.229                0.860760282     -104.630787
9.23                 0.860332268     -104.842626
9.231                0.859903351      -105.05507
9.232                0.859473537     -105.268121
9.233                0.859042833      -105.48178
9.234                0.858611246     -105.696048
9.235                0.858178782     -105.910927
9.236                0.857745448     -106.126418
9.237                0.857311252     -106.342523
9.238                0.856876199     -106.559242
9.239                0.856440299     -106.776576
9.24                 0.856003557     -106.994528
9.241                0.855565983     -107.213098
9.242                0.855127582     -107.432288
9.243                0.854688364     -107.652098
9.244                0.854248335     -107.872531
9.245                0.853807505     -108.093587
9.246                0.853365881     -108.315267
9.247                0.852923471     -108.537573
9.248                0.852480285     -108.760505
9.249                 0.85203633     -108.984066
9.25                 0.851591616     -109.208256
9.251                 0.85114615     -109.433076
9.252                0.850699943     -109.658528
9.253                0.850253003     -109.884612
9.254                 0.84980534      -110.11133
9.255                0.849356962     -110.338683
9.256                 0.84890788     -110.566671
9.257                0.848458103     -110.795297
9.258                0.848007642     -111.024561
9.259                0.847556505     -111.254464
9.26                 0.847104703     -111.485007
9.261                0.846652247     -111.716191
9.262                0.846199146     -111.948017
9.263                0.845745412     -112.180487
9.264                0.845291054       -112.4136
9.265                0.844836085     -112.647359
9.266                0.844380514     -112.881764
9.267                0.843924353     -113.116816
9.268                0.843467613     -113.352516
9.269                0.843010306     -113.588865
9.27                 0.842552443     -113.825864
9.271                0.842094036     -114.063514
9.272                0.841635096     -114.301815
9.273                0.841175637     -114.540768
9.274                0.840715669     -114.780374
9.275                0.840255206     -115.020635
9.276                0.839794259     -115.261551
9.277                0.839332842     -115.503122
9.278                0.838870968     -115.745349
9.279                0.838408648     -115.988234
9.28                 0.837945897     -116.231776
9.281                0.837482727     -116.475977
9.282                0.837019152     -116.720838
9.283                0.836555186     -116.966358
9.284                0.836090842     -117.212539
9.285                0.835626134     -117.459381
9.286                0.835161076     -117.706884
9.287                0.834695683     -117.955051
9.288                0.834229969      -118.20388
9.289                0.833763947     -118.453373
9.29                 0.833297634      -118.70353
9.291                0.832831044     -118.954351
9.292                0.832364191     -119.205838
9.293                0.831897091      -119.45799
9.294                 0.83142976     -119.710808
9.295                0.830962212     -119.964292
9.296                0.830494463     -120.218443
9.297                 0.83002653     -120.473262
9.298                0.829558428     -120.728748
9.299                0.829090173     -120.984902
9.3                  0.828621781     -121.241724
9.301                 0.82815327     -121.499214
9.302                0.827684655     -121.757373
9.303                0.827215953     -122.016202
9.304                0.826747181     -122.275699
9.305                0.826278357     -122.535865
9.306                0.825809497     -122.796701
9.307                0.825340619     -123.058207
9.308                0.824871741     -123.320382
9.309                0.824402879     -123.583228
9.31                 0.823934053     -123.846743
9.311                0.823465279     -124.110928
9.312                0.822996577     -124.375782
9.313                0.822527964     -124.641307
9.314                 0.82205946     -124.907501
9.315                0.821591082     -125.174365
9.316                0.821122849     -125.441899
9.317                0.820654781     -125.710102
9.318                0.820186896     -125.978974
9.319                0.819719215     -126.248515
9.32                 0.819251755     -126.518725
9.321                0.818784537     -126.789604
9.322                0.818317581      -127.06115
9.323                0.817850907     -127.333365
9.324                0.817384534     -127.606247
9.325                0.816918482     -127.879797
9.326                0.816452772     -128.154013
9.327                0.815987425     -128.428895
9.328                0.815522461     -128.704443
9.329                0.815057901     -128.980656
9.33                 0.814593765     -129.257535
9.331                0.814130075     -129.535077
9.332                0.813666852     -129.813282
9.333                0.813204117     -130.092151
9.334                0.812741893     -130.371681
9.335                0.812280199     -130.651873
9.336                0.811819059     -130.932726
9.337                0.811358493     -131.214239
9.338                0.810898525      -131.49641
9.339                0.810439176      -131.77924
9.34                 0.809980468     -132.062727
9.341                0.809522424      -132.34687
9.342                0.809065067     -132.631669
9.343                0.808608419     -132.917122
9.344                0.808152502     -133.203228
9.345                0.807697341     -133.489987
9.346                0.807242957     -133.777396
9.347                0.806789374     -134.065456
9.348                0.806336615     -134.354164
9.349                0.805884704     -134.643519
9.35                 0.805433664     -134.933521
9.351                0.804983519     -135.224168
9.352                0.804534292     -135.515458
9.353                0.804086008      -135.80739
9.354                 0.80363869     -136.099963
9.355                0.803192362     -136.393175
9.356                0.802747048     -136.687024
9.357                0.802302773      -136.98151
9.358                0.801859562      -137.27663
9.359                0.801417437     -137.572383
9.36                 0.800976424     -137.868767
9.361                0.800536548     -138.165781
9.362                0.800097833     -138.463422
9.363                0.799660305     -138.761689
9.364                0.799223987      -139.06058
9.365                0.798788904     -139.360093
9.366                0.798355083     -139.660226
9.367                0.797922547     -139.960978
9.368                0.797491323     -140.262345
9.369                0.797061434     -140.564327
9.37                 0.796632908      -140.86692
9.371                0.796205768     -141.170123
9.372                 0.79578004     -141.473934
9.373                0.795355751      -141.77835
9.374                0.794932924     -142.083369
9.375                0.794511586     -142.388989
9.376                0.794091763     -142.695207
9.377                 0.79367348     -143.002021
9.378                0.793256763     -143.309428
9.379                0.792841637     -143.617426
9.38                 0.792428128     -143.926012
9.381                0.792016263     -144.235184
9.382                0.791606066     -144.544939
9.383                0.791197565     -144.855275
9.384                0.790790783     -145.166188
9.385                0.790385748     -145.477675
9.386                0.789982486     -145.789735
9.387                0.789581022     -146.102364
9.388                0.789181382     -146.415558
9.389                0.788783591     -146.729316
9.39                 0.788387677     -147.043634
9.391                0.787993665     -147.358509
9.392                 0.78760158     -147.673938
9.393                0.787211449     -147.989917
9.394                0.786823297     -148.306444
9.395                0.786437151     -148.623515
9.396                0.786053035     -148.941127
