! TOUCHSTONE file generated by CST DESIGN STUDIO
! Date and time: Tue Feb  4 14:07:42 2025
! Project name: C:\Work\MatlabApps\UnitCellOptimizationMatlab\CST\unitcell.cst
! Tree item: Tasks\Sweep1\SPara1\S-Parameters
! Header version: 2024
! Port assignment regex: !\s*Touchstone port\s*([0-9]+)\s*=\s*(CST MWS port|CST DES external port|CST DES block port)\s*(.+)\s* \(\"(.*)\"\)(\s*mode\s*([0-9]+))?.*
! Touchstone port assignment:
! Touchstone port 1 = CST DES external port 1 ("")
# GHz S MA R 50
9                    0.531048887      119.096446
9.001                0.532204103      118.585458
9.002                0.533366963       118.07689
9.003                0.534537269      117.570743
9.004                0.535714824      117.067017
9.005                0.536899433      116.565714
9.006                0.538090901      116.066834
9.007                0.539289034      115.570376
9.008                 0.54049364      115.076339
9.009                0.541704531      114.584722
9.01                 0.542921516      114.095523
9.011                 0.54414441      113.608741
9.012                0.545373025      113.124371
9.013                0.546607179      112.642412
9.014                 0.54784669       112.16286
9.015                0.549091376      111.685711
9.016                0.550341059      111.210962
9.017                0.551595562      110.738607
9.018                 0.55285471      110.268642
9.019                0.554118329      109.801062
9.02                 0.555386248      109.335862
9.021                0.556658296      108.873035
9.022                0.557934307      108.412576
9.023                0.559214113      107.954479
9.024                0.560497552      107.498736
9.025                 0.56178446      107.045342
9.026                0.563074677      106.594288
9.027                0.564368045      106.145569
9.028                0.565664408      105.699175
9.029                0.566963611        105.2551
9.03                 0.568265502      104.813335
9.031                0.569569929      104.373872
9.032                0.570876746      103.936703
9.033                0.572185805      103.501819
9.034                0.573496961      103.069212
9.035                0.574810072      102.638871
9.036                0.576124998       102.21079
9.037                  0.5774416      101.784957
9.038                0.578759742      101.361364
9.039                0.580079288      100.940001
9.04                 0.581400106      100.520859
9.041                0.582722066      100.103927
9.042                0.584045038      99.6891963
9.043                0.585368897      99.2766558
9.044                0.586693518      98.8662959
9.045                0.588018777      98.4581062
9.046                0.589344554      98.0520764
9.047                0.590670731       97.648196
9.048                 0.59199719      97.2464545
9.049                0.593323816      96.8468414
9.05                 0.594650496      96.4493458
9.051                 0.59597712      96.0539571
9.052                0.597303578      95.6606645
9.053                0.598629762      95.2694571
9.054                0.599955567       94.880324
9.055                0.601280889      94.4932541
9.056                0.602605628      94.1082367
9.057                0.603929681      93.7252604
9.058                0.605252953      93.3443144
9.059                0.606575346      92.9653874
9.06                 0.607896766      92.5884683
9.061                0.609217119       92.213546
9.062                0.610536316      91.8406093
9.063                0.611854267       91.469647
9.064                0.613170884      91.1006478
9.065                0.614486081      90.7336006
9.066                0.615799776       90.368494
9.067                0.617111884       90.005317
9.068                0.618422326      89.6440582
9.069                0.619731022      89.2847065
9.07                 0.621037895      88.9272506
9.071                 0.62234287      88.5716793
9.072                0.623645871      88.2179813
9.073                0.624946826      87.8661456
9.074                0.626245665      87.5161609
9.075                0.627542318      87.1680161
9.076                0.628836716         86.8217
9.077                0.630128793      86.4772016
9.078                0.631418485      86.1345097
9.079                0.632705728      85.7936133
9.08                 0.633990459      85.4545013
9.081                0.635272619      85.1171627
9.082                0.636552147      84.7815867
9.083                0.637828987      84.4477621
9.084                0.639103082      84.1156782
9.085                0.640374376       83.785324
9.086                0.641642817      83.4566887
9.087                0.642908352      83.1297616
9.088                0.644170929      82.8045318
9.089                  0.6454305      82.4809887
9.09                 0.646687015      82.1591215
9.091                0.647940428      81.8389197
9.092                0.649190692      81.5203727
9.093                0.650437764      81.2034699
9.094                0.651681599      80.8882008
9.095                0.652922155       80.574555
9.096                0.654159391      80.2625221
9.097                0.655393267      79.9520918
9.098                0.656623745      79.6432537
9.099                0.657850786      79.3359976
9.1                  0.659074354      79.0303134
9.101                0.660294414      78.7261907
9.102                 0.66151093      78.4236197
9.103                0.662723871      78.1225901
9.104                0.663933203      77.8230921
9.105                0.665138895      77.5251157
9.106                0.666340917       77.228651
9.107                 0.66753924      76.9336882
9.108                0.668733834      76.6402175
9.109                0.669924674      76.3482292
9.11                 0.671111732      76.0577137
9.111                0.672294983      75.7686613
9.112                0.673474402      75.4810624
9.113                0.674649966      75.1949077
9.114                0.675821651      74.9101876
9.115                0.676989437      74.6268927
9.116                0.678153302      74.3450138
9.117                0.679313225      74.0645416
9.118                0.680469187      73.7854669
9.119                 0.68162117      73.5077804
9.12                 0.682769156      73.2314731
9.121                0.683913127      72.9565361
9.122                0.685053068      72.6829602
9.123                0.686188963      72.4107365
9.124                0.687320797      72.1398563
9.125                0.688448556      71.8703106
9.126                0.689572227      71.6020907
9.127                0.690691797      71.3351879
9.128                0.691807254      71.0695937
9.129                0.692918587      70.8052993
9.13                 0.694025786      70.5422962
9.131                 0.69512884      70.2805761
9.132                0.696227739      70.0201304
9.133                0.697322476      69.7609508
9.134                0.698413042       69.503029
9.135                 0.69949943      69.2463567
9.136                0.700581632      68.9909259
9.137                0.701659643      68.7367282
9.138                0.702733457      68.4837557
9.139                0.703803068      68.2320003
9.14                 0.704868471       67.981454
9.141                0.705929663      67.7321089
9.142                 0.70698664      67.4839572
9.143                0.708039399      67.2369911
9.144                0.709087937      66.9912027
9.145                0.710132252      66.7465845
9.146                0.711172343      66.5031287
9.147                0.712208208      66.2608277
9.148                0.713239846      66.0196741
9.149                0.714267257      65.7796603
9.15                 0.715290442      65.5407789
9.151                0.716309401      65.3030225
9.152                0.717324135      65.0663837
9.153                0.718334645      64.8308554
9.154                0.719340933      64.5964302
9.155                0.720343002      64.3631011
9.156                0.721340853      64.1308608
9.157                0.722334491      63.8997022
9.158                0.723323918      63.6696185
9.159                0.724309138      63.4406026
9.16                 0.725290156      63.2126475
9.161                0.726266974      62.9857464
9.162                0.727239599      62.7598925
9.163                0.728208035       62.535079
9.164                0.729172288      62.3112992
9.165                0.730132363      62.0885463
9.166                0.731088266      61.8668138
9.167                0.732040004      61.6460951
9.168                0.732987582      61.4263836
9.169                0.733931009      61.2076729
9.17                 0.734870291      60.9899564
9.171                0.735805435      60.7732278
9.172                0.736736449      60.5574808
9.173                0.737663341      60.3427091
9.174                0.738586119      60.1289063
9.175                0.739504792      59.9160663
9.176                0.740419368      59.7041829
9.177                0.741329856        59.49325
9.178                0.742236264      59.2832615
9.179                0.743138604      59.0742113
9.18                 0.744036882      58.8660935
9.181                0.744931111      58.6589022
9.182                0.745821298      58.4526313
9.183                0.746707456      58.2472751
9.184                0.747589593      58.0428277
9.185                 0.74846772      57.8392834
9.186                0.749341848      57.6366364
9.187                0.750211987       57.434881
9.188                0.751078149      57.2340115
9.189                0.751940345      57.0340224
9.19                 0.752798586      56.8349081
9.191                0.753652883      56.6366631
9.192                0.754503248      56.4392817
9.193                0.755349693      56.2427587
9.194                 0.75619223      56.0470886
9.195                 0.75703087      55.8522659
9.196                0.757865626      55.6582855
9.197                 0.75869651      55.4651419
9.198                0.759523534        55.27283
9.199                0.760346711      55.0813444
9.2                  0.761166054      54.8906801
9.201                0.761981574      54.7008318
9.202                0.762793285      54.5117945
9.203                0.763601201      54.3235631
9.204                0.764405332      54.1361325
9.205                0.765205694      53.9494978
9.206                0.766002299       53.763654
9.207                 0.76679516      53.5785962
9.208                0.767584291      53.3943194
9.209                0.768369705      53.2108189
9.21                 0.769151415      53.0280897
9.211                0.769929436      52.8461272
9.212                 0.77070378      52.6649266
9.213                0.771474462       52.484483
9.214                0.772241495       52.304792
9.215                0.773004892      52.1258487
9.216                0.773764669      51.9476487
9.217                0.774520839      51.7701872
9.218                0.775273416      51.5934598
9.219                0.776022413       51.417462
9.22                 0.776767845      51.2421892
9.221                0.777509726      51.0676369
9.222                0.778248071      50.8938009
9.223                0.778982892      50.7206766
9.224                0.779714206      50.5482598
9.225                0.780442025      50.3765461
9.226                0.781166364      50.2055311
9.227                0.781887238      50.0352107
9.228                 0.78260466      49.8655806
9.229                0.783318645      49.6966365
9.23                 0.784029208      49.5283744
9.231                0.784736363        49.36079
9.232                0.785440124      49.1938793
9.233                0.786140506      49.0276381
9.234                0.786837523      48.8620624
9.235                0.787531189      48.6971481
9.236                 0.78822152      48.5328914
9.237                0.788908529      48.3692881
9.238                 0.78959223      48.2063343
9.239                 0.79027264      48.0440262
9.24                 0.790949771      47.8823598
9.241                0.791623638      47.7213313
9.242                0.792294257      47.5609367
9.243                 0.79296164      47.4011724
9.244                0.793625804      47.2420346
9.245                0.794286761      47.0835194
9.246                0.794944528      46.9256232
9.247                0.795599117      46.7683422
9.248                0.796250544      46.6116727
9.249                0.796898822      46.4556112
9.25                 0.797543967       46.300154
9.251                0.798185992      46.1452974
9.252                0.798824913       45.991038
9.253                0.799460743      45.8373721
9.254                0.800093496      45.6842963
9.255                0.800723187       45.531807
9.256                0.801349831      45.3799007
9.257                0.801973441       45.228574
9.258                0.802594032      45.0778235
9.259                0.803211618      44.9276457
9.26                 0.803826212      44.7780373
9.261                 0.80443783       44.628995
9.262                0.805046486      44.4805153
9.263                0.805652193       44.332595
9.264                0.806254965      44.1852307
9.265                0.806854817      44.0384193
9.266                0.807451763      43.8921574
9.267                0.808045816      43.7464418
9.268                 0.80863699      43.6012694
9.269                  0.8092253       43.456637
9.27                 0.809810759      43.3125413
9.271                0.810393382      43.1689793
9.272                0.810973181      43.0259479
9.273                0.811550171      42.8834439
9.274                0.812124365      42.7414643
9.275                0.812695777      42.6000061
9.276                 0.81326442      42.4590661
9.277                0.813830309      42.3186414
9.278                0.814393457      42.1787291
9.279                0.814953877      42.0393261
9.28                 0.815511583      41.9004294
9.281                0.816066589      41.7620362
9.282                0.816618906      41.6241436
9.283                 0.81716855      41.4867486
9.284                0.817715533      41.3498484
9.285                0.818259869      41.2134401
9.286                 0.81880157       41.077521
9.287                0.819340651      40.9420881
9.288                0.819877123      40.8071387
9.289                0.820411001      40.6726701
9.29                 0.820942296      40.5386794
9.291                0.821471023      40.4051639
9.292                0.821997194       40.272121
9.293                0.822520822      40.1395478
9.294                0.823041919      40.0074418
9.295                  0.8235605      39.8758003
9.296                0.824076575      39.7446205
9.297                0.824590159      39.6138999
9.298                0.825101263      39.4836359
9.299                0.825609901      39.3538259
9.3                  0.826116084      39.2244672
9.301                0.826619826      39.0955574
9.302                0.827121139      38.9670938
9.303                0.827620034      38.8390741
9.304                0.828116526      38.7114955
9.305                0.828610625      38.5843557
9.306                0.829102344      38.4576522
9.307                0.829591695      38.3313825
9.308                0.830078691      38.2055442
9.309                0.830563343      38.0801348
9.31                 0.831045663      37.9551519
9.311                0.831525665      37.8305932
9.312                0.832003358      37.7064562
9.313                0.832478756      37.5827386
9.314                 0.83295187       37.459438
9.315                0.833422712      37.3365521
9.316                0.833891293      37.2140785
9.317                0.834357626       37.092015
9.318                0.834821722      36.9703593
9.319                0.835283592      36.8491091
9.32                 0.835743249      36.7282622
9.321                0.836200702      36.6078162
9.322                0.836655965      36.4877689
9.323                0.837109048      36.3681183
9.324                0.837559962      36.2488619
9.325                0.838008719      36.1299977
9.326                 0.83845533      36.0115235
9.327                0.838899807       35.893437
9.328                0.839342159      35.7757363
9.329                0.839782399      35.6584191
9.33                 0.840220537      35.5414832
9.331                0.840656584      35.4249267
9.332                0.841090551      35.3087474
9.333                0.841522449      35.1929432
9.334                0.841952289      35.0775121
9.335                0.842380081       34.962452
9.336                0.842805836      34.8477609
9.337                0.843229565      34.7334367
9.338                0.843651278      34.6194775
9.339                0.844070986      34.5058812
9.34                 0.844488698      34.3926458
9.341                0.844904427      34.2797693
9.342                0.845318181      34.1672499
9.343                0.845729972      34.0550855
9.344                 0.84613981      33.9432743
9.345                0.846547703      33.8318142
9.346                0.846953664      33.7207034
9.347                0.847357702      33.6099399
9.348                0.847759827      33.4995219
9.349                0.848160049      33.3894475
9.35                 0.848558377      33.2797148
9.351                0.848954823       33.170322
9.352                0.849349395      33.0612672
9.353                0.849742104      32.9525486
9.354                0.850132958      32.8441644
9.355                0.850521969      32.7361127
9.356                0.850909145      32.6283918
9.357                0.851294496      32.5209999
9.358                0.851678032      32.4139352
9.359                0.852059762      32.3071958
9.36                 0.852439696      32.2007802
9.361                0.852817842      32.0946865
9.362                0.853194211       31.988913
9.363                0.853568811      31.8834579
9.364                0.853941652      31.7783196
9.365                0.854312743      31.6734964
9.366                0.854682093      31.5689866
9.367                0.855049711      31.4647884
9.368                0.855415606      31.3609002
9.369                0.855779787      31.2573204
9.37                 0.856142264      31.1540473
9.371                0.856503045      31.0510793
9.372                0.856862138      30.9484147
9.373                0.857219553      30.8460519
9.374                0.857575299      30.7439893
9.375                0.857929384      30.6422253
9.376                0.858281816      30.5407583
9.377                0.858632605      30.4395867
9.378                0.858981759       30.338709
9.379                0.859329286      30.2381235
9.38                 0.859675195      30.1378289
9.381                0.860019494      30.0378233
9.382                0.860362192      29.9381055
9.383                0.860703297      29.8386738
9.384                0.861042818      29.7395267
9.385                0.861380762      29.6406627
9.386                0.861717137      29.5420803
9.387                0.862051953       29.443778
9.388                0.862385216      29.3457544
9.389                0.862716935      29.2480079
9.39                 0.863047118      29.1505371
9.391                0.863375774      29.0533406
9.392                0.863702909      28.9564169
9.393                0.864028532      28.8597645
9.394                 0.86435265      28.7633821
9.395                0.864675272      28.6672682
9.396                0.864996404      28.5714213
