! TOUCHSTONE file generated by CST DESIGN STUDIO
! Date and time: Tue Feb  4 14:07:55 2025
! Project name: C:\Work\MatlabApps\UnitCellOptimizationMatlab\CST\unitcell.cst
! Tree item: Tasks\Sweep1\SPara1\S-Parameters
! Header version: 2024
! Port assignment regex: !\s*Touchstone port\s*([0-9]+)\s*=\s*(CST MWS port|CST DES external port|CST DES block port)\s*(.+)\s* \(\"(.*)\"\)(\s*mode\s*([0-9]+))?.*
! Touchstone port assignment:
! Touchstone port 1 = CST DES external port 1 ("")
# GHz S MA R 50
9                     0.96211392     -46.9481236
9.001                0.962023376     -47.0066441
9.002                0.961932516     -47.0652914
9.003                0.961841338      -47.124066
9.004                0.961749843     -47.1829683
9.005                0.961658027     -47.2419987
9.006                 0.96156589     -47.3011576
9.007                0.961473431     -47.3604454
9.008                0.961380648     -47.4198626
9.009                 0.96128754     -47.4794095
9.01                 0.961194105     -47.5390866
9.011                0.961100342     -47.5988943
9.012                 0.96100625     -47.6588331
9.013                0.960911828     -47.7189033
9.014                0.960817073     -47.7791054
9.015                0.960721985     -47.8394398
9.016                0.960626562      -47.899907
9.017                0.960530803     -47.9605074
9.018                0.960434706     -48.0212414
9.019                0.960338271     -48.0821094
9.02                 0.960241494      -48.143112
9.021                0.960144376     -48.2042495
9.022                0.960046914     -48.2655223
9.023                0.959949108      -48.326931
9.024                0.959850955      -48.388476
9.025                0.959752455     -48.4501577
9.026                0.959653605     -48.5119766
9.027                0.959554405     -48.5739331
9.028                0.959454852     -48.6360277
9.029                0.959354946     -48.6982608
9.03                 0.959254685     -48.7606329
9.031                0.959154067     -48.8231445
9.032                0.959053091      -48.885796
9.033                0.958951756     -48.9485878
9.034                0.958850059     -49.0115205
9.035                0.958747999     -49.0745945
9.036                0.958645576     -49.1378103
9.037                0.958542786     -49.2011683
9.038                0.958439629     -49.2646691
9.039                0.958336104      -49.328313
9.04                 0.958232207     -49.3921006
9.041                0.958127939     -49.4560324
9.042                0.958023297     -49.5201088
9.043                 0.95791828     -49.5843303
9.044                0.957812886     -49.6486974
9.045                0.957707114     -49.7132107
9.046                0.957600962     -49.7778704
9.047                0.957494428     -49.8426773
9.048                 0.95738751     -49.9076317
9.049                0.957280208     -49.9727341
9.05                  0.95717252     -50.0379851
9.051                0.957064443     -50.1033852
9.052                0.956955976     -50.1689348
9.053                0.956847118     -50.2346344
9.054                0.956737866     -50.3004846
9.055                 0.95662822     -50.3664859
9.056                0.956518177     -50.4326388
9.057                0.956407736     -50.4989437
9.058                0.956296895     -50.5654012
9.059                0.956185653     -50.6320119
9.06                 0.956074007     -50.6987761
9.061                0.955961956     -50.7656946
9.062                0.955849498     -50.8327676
9.063                0.955736631     -50.8999959
9.064                0.955623354       -50.96738
9.065                0.955509665     -51.0349202
9.066                0.955395562     -51.1026173
9.067                0.955281044     -51.1704716
9.068                0.955166108     -51.2384839
9.069                0.955050752     -51.3066545
9.07                 0.954934976      -51.374984
9.071                0.954818777      -51.443473
9.072                0.954702153      -51.512122
9.073                0.954585103     -51.5809316
9.074                0.954467625     -51.6499023
9.075                0.954349716     -51.7190346
9.076                0.954231375     -51.7883292
9.077                  0.9541126     -51.8577865
9.078                 0.95399339     -51.9274072
9.079                0.953873742     -51.9971918
9.08                 0.953753655     -52.0671408
9.081                0.953633126     -52.1372548
9.082                0.953512153     -52.2075344
9.083                0.953390736     -52.2779801
9.084                0.953268871     -52.3485926
9.085                0.953146557     -52.4193724
9.086                0.953023792       -52.49032
9.087                0.952900575     -52.5614362
9.088                0.952776902     -52.6327213
9.089                0.952652772     -52.7041761
9.09                 0.952528184     -52.7758011
9.091                0.952403134     -52.8475968
9.092                0.952277622      -52.919564
9.093                0.952151645     -52.9917032
9.094                0.952025201     -53.0640149
9.095                0.951898288     -53.1364998
9.096                0.951770904     -53.2091585
9.097                0.951643047     -53.2819916
9.098                0.951514715     -53.3549997
9.099                0.951385906     -53.4281834
9.1                  0.951256617     -53.5015433
9.101                0.951126848       -53.57508
9.102                0.950996595     -53.6487942
9.103                0.950865856     -53.7226865
9.104                 0.95073463     -53.7967574
9.105                0.950602915     -53.8710077
9.106                0.950470707     -53.9454378
9.107                0.950338006     -54.0200486
9.108                0.950204809     -54.0948406
9.109                0.950071113     -54.1698144
9.11                 0.949936917     -54.2449707
9.111                0.949802218     -54.3203101
9.112                0.949667015     -54.3958333
9.113                0.949531304     -54.4715409
9.114                0.949395085     -54.5474336
9.115                0.949258354     -54.6235119
9.116                0.949121109     -54.6997767
9.117                0.948983348     -54.7762285
9.118                 0.94884507     -54.8528679
9.119                 0.94870627     -54.9296957
9.12                 0.948566949     -55.0067126
9.121                0.948427102     -55.0839191
9.122                0.948286728     -55.1613159
9.123                0.948145825     -55.2389038
9.124                 0.94800439     -55.3166834
9.125                 0.94786242     -55.3946554
9.126                0.947719914     -55.4728205
9.127                 0.94757687     -55.5511794
9.128                0.947433284     -55.6297326
9.129                0.947289154     -55.7084811
9.13                 0.947144479     -55.7874253
9.131                0.946999255     -55.8665661
9.132                0.946853481     -55.9459042
9.133                0.946707154     -56.0254401
9.134                0.946560271     -56.1051748
9.135                 0.94641283     -56.1851087
9.136                0.946264829     -56.2652428
9.137                0.946116265     -56.3455776
9.138                0.945967135      -56.426114
9.139                0.945817438     -56.5068525
9.14                 0.945667171     -56.5877941
9.141                0.945516331     -56.6689393
9.142                0.945364915     -56.7502889
9.143                0.945212922     -56.8318436
9.144                0.945060349     -56.9136043
9.145                0.944907193     -56.9955716
9.146                0.944753451     -57.0777462
9.147                0.944599122      -57.160129
9.148                0.944444202     -57.2427207
9.149                0.944288689     -57.3255219
9.15                  0.94413258     -57.4085336
9.151                0.943975873     -57.4917564
9.152                0.943818566     -57.5751911
9.153                0.943660654     -57.6588385
9.154                0.943502137     -57.7426993
9.155                 0.94334301     -57.8267743
9.156                0.943183273     -57.9110643
9.157                0.943022921     -57.9955701
9.158                0.942861952     -58.0802925
9.159                0.942700364     -58.1652322
9.16                 0.942538153       -58.25039
9.161                0.942375318     -58.3357668
9.162                0.942211855     -58.4213632
9.163                0.942047761     -58.5071803
9.164                0.941883034     -58.5932186
9.165                0.941717672     -58.6794791
9.166                 0.94155167     -58.7659625
9.167                0.941385027     -58.8526697
9.168                 0.94121774     -58.9396015
9.169                0.941049806     -59.0267586
9.17                 0.940881221      -59.114142
9.171                0.940711984     -59.2017525
9.172                0.940542091     -59.2895908
9.173                 0.94037154     -59.3776579
9.174                0.940200327     -59.4659545
9.175                 0.94002845     -59.5544815
9.176                0.939855906     -59.6432398
9.177                0.939682691     -59.7322302
9.178                0.939508804     -59.8214535
9.179                0.939334241     -59.9109107
9.18                 0.939158998     -60.0006025
9.181                0.938983074     -60.0905299
9.182                0.938806465     -60.1806936
9.183                0.938629169     -60.2710947
9.184                0.938451181     -60.3617339
9.185                  0.9382725     -60.4526121
9.186                0.938093122     -60.5437303
9.187                0.937913044     -60.6350893
9.188                0.937732263     -60.7266899
9.189                0.937550776     -60.8185332
9.19                  0.93736858       -60.91062
9.191                0.937185672     -61.0029511
9.192                0.937002048     -61.0955276
9.193                0.936817707     -61.1883502
9.194                0.936632643       -61.28142
9.195                0.936446856     -61.3747378
9.196                 0.93626034     -61.4683046
9.197                0.936073094     -61.5621213
9.198                0.935885113     -61.6561889
9.199                0.935696395     -61.7505081
9.2                  0.935506937     -61.8450801
9.201                0.935316735     -61.9399057
9.202                0.935125787     -62.0349859
9.203                0.934934088     -62.1303217
9.204                0.934741636     -62.2259139
9.205                0.934548427     -62.3217636
9.206                0.934354458     -62.4178717
9.207                0.934159726     -62.5142391
9.208                0.933964228      -62.610867
9.209                 0.93376796     -62.7077561
9.21                 0.933570919     -62.8049076
9.211                0.933373101     -62.9023223
9.212                0.933174504     -63.0000013
9.213                0.932975123     -63.0979456
9.214                0.932774956     -63.1961562
9.215                0.932573999      -63.294634
9.216                0.932372249     -63.3933801
9.217                0.932169702     -63.4923955
9.218                0.931966355     -63.5916812
9.219                0.931762204     -63.6912381
9.22                 0.931557247     -63.7910674
9.221                0.931351479     -63.8911701
9.222                0.931144896     -63.9915472
9.223                0.930937497     -64.0921997
9.224                0.930729277     -64.1931286
9.225                0.930520232     -64.2943351
9.226                0.930310359     -64.3958202
9.227                0.930099654     -64.4975848
9.228                0.929888115     -64.5996301
9.229                0.929675737     -64.7019572
9.23                 0.929462517      -64.804567
9.231                0.929248451     -64.9074607
9.232                0.929033536     -65.0106394
9.233                0.928817767     -65.1141041
9.234                0.928601142     -65.2178559
9.235                0.928383657     -65.3218959
9.236                0.928165308     -65.4262253
9.237                0.927946092      -65.530845
9.238                0.927726004     -65.6357562
9.239                0.927505041       -65.74096
9.24                   0.9272832     -65.8464575
9.241                0.927060476     -65.9522499
9.242                0.926836867     -66.0583382
9.243                0.926612367     -66.1647237
9.244                0.926386974     -66.2714073
9.245                0.926160684     -66.3783903
9.246                0.925933493     -66.4856738
9.247                0.925705397      -66.593259
9.248                0.925476393     -66.7011469
9.249                0.925246476     -66.8093388
9.25                 0.925015642     -66.9178358
9.251                0.924783889     -67.0266391
9.252                0.924551212     -67.1357498
9.253                0.924317607     -67.2451692
9.254                0.924083071     -67.3548984
9.255                0.923847599     -67.4649385
9.256                0.923611187     -67.5752909
9.257                0.923373833     -67.6859566
9.258                0.923135531     -67.7969369
9.259                0.922896278      -67.908233
9.26                  0.92265607     -68.0198461
9.261                0.922414903     -68.1317774
9.262                0.922172773     -68.2440281
9.263                0.921929677     -68.3565995
9.264                0.921685609     -68.4694928
9.265                0.921440567     -68.5827092
9.266                0.921194545       -68.69625
9.267                0.920947541     -68.8101164
9.268                 0.92069955     -68.9243096
9.269                0.920450569      -69.038831
9.27                 0.920200592     -69.1536818
9.271                0.919949616     -69.2688632
9.272                0.919697637     -69.3843765
9.273                0.919444651     -69.5002231
9.274                0.919190654     -69.6164041
9.275                0.918935642     -69.7329209
9.276                 0.91867961     -69.8497748
9.277                0.918422555      -69.966967
9.278                0.918164472     -70.0844989
9.279                0.917905358     -70.2023718
9.28                 0.917645208      -70.320587
9.281                0.917384017     -70.4391458
9.282                0.917121783     -70.5580495
9.283                  0.9168585     -70.6772995
9.284                0.916594165     -70.7968971
9.285                0.916328773     -70.9168437
9.286                 0.91606232     -71.0371406
9.287                0.915794802     -71.1577891
9.288                0.915526215     -71.2787906
9.289                0.915256555     -71.4001466
9.29                 0.914985816     -71.5218582
9.291                0.914713996      -71.643927
9.292                 0.91444109     -71.7663543
9.293                0.914167093     -71.8891415
9.294                0.913892002     -72.0122899
9.295                0.913615812     -72.1358011
9.296                0.913338518     -72.2596763
9.297                0.913060117      -72.383917
9.298                0.912780605     -72.5085246
9.299                0.912499976     -72.6335005
9.3                  0.912218227     -72.7588462
9.301                0.911935354     -72.8845631
9.302                0.911651352     -73.0106526
9.303                0.911366216     -73.1371161
9.304                0.911079943     -73.2639552
9.305                0.910792529     -73.3911712
9.306                0.910503968     -73.5187656
9.307                0.910214256       -73.64674
9.308                 0.90992339     -73.7750956
9.309                0.909631365     -73.9038342
9.31                 0.909338176      -74.032957
9.311                0.909043819     -74.1624657
9.312                0.908748291     -74.2923617
9.313                0.908451585     -74.4226464
9.314                0.908153699     -74.5533215
9.315                0.907854628     -74.6843884
9.316                0.907554367     -74.8158487
9.317                0.907252912     -74.9477038
9.318                0.906950259     -75.0799553
9.319                0.906646403     -75.2126047
9.32                  0.90634134     -75.3456536
9.321                0.906035066     -75.4791035
9.322                0.905727576      -75.612956
9.323                0.905418866     -75.7472127
9.324                0.905108931      -75.881875
9.325                0.904797768     -76.0169446
9.326                0.904485371      -76.152423
9.327                0.904171737     -76.2883119
9.328                 0.90385686     -76.4246127
9.329                0.903540738     -76.5613272
9.33                 0.903223364     -76.6984569
9.331                0.902904736     -76.8360034
9.332                0.902584848     -76.9739683
9.333                0.902263697     -77.1123533
9.334                0.901941277       -77.25116
9.335                0.901617585     -77.3903899
9.336                0.901292616     -77.5300448
9.337                0.900966366     -77.6701263
9.338                 0.90063883      -77.810636
9.339                0.900310005     -77.9515756
9.34                 0.899979885     -78.0929468
9.341                0.899648467     -78.2347511
9.342                0.899315746     -78.3769903
9.343                0.898981718     -78.5196661
9.344                0.898646379     -78.6627802
9.345                0.898309724     -78.8063341
9.346                0.897971749     -78.9503298
9.347                 0.89763245     -79.0947687
9.348                0.897291822     -79.2396527
9.349                0.896949861     -79.3849834
9.35                 0.896606564     -79.5307626
9.351                0.896261925     -79.6769921
9.352                0.895915941     -79.8236734
9.353                0.895568607     -79.9708085
9.354                0.895219919     -80.1183989
9.355                0.894869873     -80.2664465
9.356                0.894518464     -80.4149531
9.357                0.894165689     -80.5639203
9.358                0.893811544       -80.71335
9.359                0.893456024     -80.8632439
9.36                 0.893099125     -81.0136039
9.361                0.892740843     -81.1644316
9.362                0.892381173     -81.3157289
9.363                0.892020113     -81.4674976
9.364                0.891657658     -81.6197395
9.365                0.891293803     -81.7724564
9.366                0.890928545     -81.9256501
9.367                0.890561879     -82.0793224
9.368                0.890193802     -82.2334752
9.369                0.889824311     -82.3881103
9.37                 0.889453399     -82.5432296
9.371                0.889081065     -82.6988348
9.372                0.888707304     -82.8549278
9.373                0.888332112     -83.0115105
9.374                0.887955485     -83.1685848
9.375                0.887577419     -83.3261525
9.376                0.887197911     -83.4842155
9.377                0.886816957     -83.6427756
9.378                0.886434553     -83.8018348
9.379                0.886050695      -83.961395
9.38                  0.88566538     -84.1214579
9.381                0.885278603     -84.2820257
9.382                0.884890362     -84.4431001
9.383                0.884500653      -84.604683
9.384                0.884109472     -84.7667764
9.385                0.883716815     -84.9293823
9.386                0.883322679     -85.0925024
9.387                0.882927061     -85.2561389
9.388                0.882529957     -85.4202935
9.389                0.882131364     -85.5849683
9.39                 0.881731277     -85.7501652
9.391                0.881329695     -85.9158862
9.392                0.880926613     -86.0821332
9.393                0.880522029     -86.2489083
9.394                0.880115938     -86.4162132
9.395                0.879708339     -86.5840502
9.396                0.879299227      -86.752421
