! TOUCHSTONE file generated by CST DESIGN STUDIO
! Date and time: Tue Feb  4 14:07:46 2025
! Project name: C:\Work\MatlabApps\UnitCellOptimizationMatlab\CST\unitcell.cst
! Tree item: Tasks\Sweep1\SPara1\S-Parameters
! Header version: 2024
! Port assignment regex: !\s*Touchstone port\s*([0-9]+)\s*=\s*(CST MWS port|CST DES external port|CST DES block port)\s*(.+)\s* \(\"(.*)\"\)(\s*mode\s*([0-9]+))?.*
! Touchstone port assignment:
! Touchstone port 1 = CST DES external port 1 ("")
# GHz S MA R 50
9                    0.620204858      -129.30055
9.001                0.618891154     -129.698443
9.002                0.617578282     -130.098149
9.003                 0.61626635     -130.499675
9.004                 0.61495547     -130.903025
9.005                0.613645752     -131.308206
9.006                 0.61233731     -131.715222
9.007                0.611030257     -132.124078
9.008                 0.60972471      -132.53478
9.009                0.608420786     -132.947331
9.01                 0.607118603     -133.361737
9.011                 0.60581828     -133.778001
9.012                 0.60451994     -134.196129
9.013                0.603223705     -134.616124
9.014                0.601929698      -135.03799
9.015                0.600638044     -135.461732
9.016                0.599348871     -135.887352
9.017                0.598062306     -136.314854
9.018                0.596778477     -136.744242
9.019                0.595497516     -137.175518
9.02                 0.594219554     -137.608685
9.021                0.592944724     -138.043746
9.022                0.591673159     -138.480704
9.023                0.590404996     -138.919561
9.024                 0.58914037     -139.360318
9.025                 0.58787942     -139.802978
9.026                0.586622284     -140.247542
9.027                0.585369102     -140.694011
9.028                0.584120015     -141.142387
9.029                0.582875166     -141.592671
9.03                 0.581634697     -142.044862
9.031                0.580398753     -142.498962
9.032                 0.57916748      -142.95497
9.033                0.577941023     -143.412886
9.034                 0.57671953      -143.87271
9.035                0.575503149      -144.33444
9.036                0.574292029     -144.798076
9.037                0.573086321     -145.263617
9.038                0.571886174      -145.73106
9.039                0.570691741     -146.200403
9.04                 0.569503174     -146.671645
9.041                0.568320627     -147.144782
9.042                0.567144252     -147.619811
9.043                0.565974205      -148.09673
9.044                0.564810641     -148.575534
9.045                0.563653715     -149.056219
9.046                0.562503585     -149.538781
9.047                0.561360406     -150.023214
9.048                0.560224336     -150.509515
9.049                0.559095532     -150.997677
9.05                 0.557974153     -151.487694
9.051                0.556860357     -151.979559
9.052                0.555754303     -152.473267
9.053                 0.55465615     -152.968809
9.054                0.553566056     -153.466179
9.055                 0.55248418     -153.965367
9.056                0.551410683     -154.466367
9.057                0.550345723     -154.969168
9.058                 0.54928946     -155.473761
9.059                0.548242053     -155.980137
9.06                  0.54720366     -156.488286
9.061                0.546174441     -156.998196
9.062                0.545154554     -157.509856
9.063                0.544144158     -158.023255
9.064                0.543143409     -158.538381
9.065                0.542152467     -159.055221
9.066                0.541171487     -159.573762
9.067                0.540200626      -160.09399
9.068                0.539240039     -160.615891
9.069                0.538289883     -161.139452
9.07                  0.53735031     -161.664656
9.071                0.536421475     -162.191488
9.072                 0.53550353     -162.719932
9.073                0.534596626     -163.249972
9.074                0.533700915      -163.78159
9.075                0.532816546      -164.31477
9.076                0.531943666     -164.849492
9.077                0.531082424     -165.385738
9.078                0.530232965     -165.923489
9.079                0.529395434     -166.462725
9.08                 0.528569972     -167.003427
9.081                0.527756724     -167.545573
9.082                0.526955827     -168.089143
9.083                 0.52616742     -168.634115
9.084                 0.52539164     -169.180465
9.085                0.524628623     -169.728173
9.086                0.523878499     -170.277214
9.087                0.523141402     -170.827565
9.088                 0.52241746     -171.379201
9.089                0.521706799     -171.932099
9.09                 0.521009545     -172.486232
9.091                0.520325821     -173.041574
9.092                0.519655746     -173.598101
9.093                 0.51899944     -174.155784
9.094                0.518357017     -174.714598
9.095                0.517728591     -175.274513
9.096                0.517114273     -175.835503
9.097                0.516514171     -176.397538
9.098                 0.51592839      -176.96059
9.099                0.515357033     -177.524629
9.1                    0.5148002     -178.089626
9.101                0.514257989      -178.65555
9.102                0.513730494      -179.22237
9.103                0.513217805     -179.790056
9.104                0.512720012      179.641425
9.105                  0.5122372      179.072103
9.106                0.511769451      178.502012
9.107                0.511316845      177.931183
9.108                0.510879456       177.35965
9.109                0.510457358      176.787446
9.11                 0.510050621      176.214604
9.111                0.509659309      175.641158
9.112                0.509283487      175.067143
9.113                0.508923213      174.492593
9.114                0.508578542      173.917542
9.115                0.508249528      173.342025
9.116                 0.50793622      172.766079
9.117                0.507638662      172.189737
9.118                0.507356896      171.613036
9.119                 0.50709096      171.036011
9.12                  0.50684089      170.458699
9.121                0.506606715      169.881135
9.122                0.506388463      169.303356
9.123                0.506186158      168.725398
9.124                0.505999819      168.147297
9.125                0.505829463      167.569091
9.126                0.505675102      166.990815
9.127                0.505536745      166.412507
9.128                0.505414397      165.834202
9.129                0.505308059      165.255939
9.13                 0.505217729      164.677753
9.131                  0.5051434      164.099682
9.132                0.505085063      163.521762
9.133                0.505042705      162.944029
9.134                0.505016308      162.366521
9.135                0.505005851      161.789273
9.136                 0.50501131      161.212322
9.137                0.505032656      160.635705
9.138                0.505069858      160.059458
9.139                0.505122881      159.483616
9.14                 0.505191685      158.908215
9.141                0.505276228      158.333291
9.142                0.505376465       157.75888
9.143                0.505492345      157.185016
9.144                0.505623815      156.611735
9.145                 0.50577082      156.039071
9.146                  0.5059333      155.467059
9.147                0.506111191      154.895733
9.148                0.506304428      154.325127
9.149                0.506512941      153.755274
9.15                 0.506736658      153.186208
9.151                0.506975501      152.617962
9.152                0.507229394      152.050569
9.153                0.507498252       151.48406
9.154                0.507781993      150.918467
9.155                0.508080527      150.353822
9.156                0.508393764      149.790157
9.157                 0.50872161      149.227501
9.158                 0.50906397      148.665886
9.159                0.509420744       148.10534
9.16                  0.50979183      147.545894
9.161                0.510177124      146.987576
9.162                 0.51057652      146.430415
9.163                0.510989908      145.874439
9.164                0.511417177      145.319676
9.165                0.511858212      144.766152
9.166                0.512312898      144.213895
9.167                0.512781117      143.662931
9.168                0.513262748      143.113285
9.169                0.513757668      142.564982
9.17                 0.514265753      142.018047
9.171                0.514786878      141.472505
9.172                0.515320913      140.928378
9.173                0.515867728      140.385691
9.174                0.516427193      139.844466
9.175                0.516999173      139.304724
9.176                0.517583535      138.766488
9.177                0.518180142      138.229778
9.178                0.518788855      137.694615
9.179                0.519409537      137.161019
9.18                 0.520042046       136.62901
9.181                0.520686242      136.098606
9.182                0.521341981      135.569826
9.183                 0.52200912      135.042688
9.184                0.522687514      134.517209
9.185                0.523377017      133.993406
9.186                0.524077483      133.471296
9.187                0.524788765      132.950893
9.188                0.525510714      132.432214
9.189                0.526243182      131.915273
9.19                 0.526986019      131.400084
9.191                0.527739075      130.886662
9.192                  0.5285022      130.375018
9.193                0.529275244      129.865168
9.194                0.530058054      129.357121
9.195                 0.53085048      128.850891
9.196                0.531652369      128.346488
9.197                0.532463571      127.843923
9.198                0.533283932      127.343206
9.199                  0.5341133      126.844348
9.2                  0.534951524      126.347358
9.201                0.535798452      125.852244
9.202                 0.53665393      125.359015
9.203                0.537517808      124.867678
9.204                0.538389934      124.378243
9.205                0.539270156      123.890715
9.206                0.540158322      123.405101
9.207                0.541054283      122.921407
9.208                0.541957888       122.43964
9.209                0.542868986      121.959805
9.21                 0.543787427      121.481906
9.211                0.544713064      121.005949
9.212                0.545645747      120.531937
9.213                0.546585328      120.059874
9.214                 0.54753166      119.589764
9.215                0.548484596       119.12161
9.216                 0.54944399      118.655415
9.217                0.550409697       118.19118
9.218                0.551381572      117.728908
9.219                0.552359472      117.268601
9.22                 0.553343254       116.81026
9.221                0.554332775      116.353885
9.222                0.555327895      115.899478
9.223                0.556328473      115.447039
9.224                0.557334371      114.996568
9.225                0.558345449      114.548064
9.226                 0.55936157      114.101528
9.227                0.560382598      113.656958
9.228                0.561408399      113.214353
9.229                0.562438836      112.773711
9.23                 0.563473779      112.335032
9.231                0.564513093      111.898313
9.232                 0.56555665      111.463552
9.233                0.566604318      111.030746
9.234                0.567655969      110.599894
9.235                0.568711476      110.170991
9.236                0.569770712      109.744036
9.237                0.570833553      109.319024
9.238                0.571899874      108.895952
9.239                0.572969553      108.474817
9.24                 0.574042469      108.055613
9.241                0.575118502      107.638338
9.242                0.576197532      107.222987
9.243                0.577279441      106.809556
9.244                0.578364115      106.398038
9.245                0.579451437      105.988431
9.246                0.580541294      105.580728
9.247                0.581633573      105.174925
9.248                0.582728163      104.771016
9.249                0.583824955      104.368996
9.25                 0.584923839      103.968859
9.251                0.586024709      103.570598
9.252                0.587127458       103.17421
9.253                0.588231983      102.779686
9.254                0.589338178      102.387022
9.255                0.590445944       101.99621
9.256                0.591555178      101.607244
9.257                0.592665782      101.220119
9.258                0.593777658      100.834826
9.259                0.594890708       100.45136
9.26                 0.596004838      100.069714
9.261                0.597119953      99.6898801
9.262                0.598235961       99.311852
9.263                 0.59935277      98.9356225
9.264                 0.60047029      98.5611844
9.265                0.601588431      98.1885305
9.266                0.602707108      97.8176533
9.267                0.603826232      97.4485455
9.268                 0.60494572      97.0811997
9.269                0.606065487      96.7156082
9.27                 0.607185451      96.3517635
9.271                0.608305531       95.989658
9.272                0.609425646      95.6292839
9.273                0.610545719      95.2706335
9.274                0.611665672       94.913699
9.275                0.612785428      94.5584726
9.276                0.613904913      94.2049463
9.277                0.615024052      93.8531123
9.278                0.616142774      93.5029625
9.279                0.617261007      93.1544891
9.28                 0.618378681      92.8076839
9.281                0.619495727      92.4625389
9.282                0.620612078      92.1190461
9.283                0.621727666      91.7771974
9.284                0.622842426      91.4369846
9.285                0.623956294      91.0983996
9.286                0.625069207      90.7614342
9.287                0.626181104      90.4260804
9.288                0.627291922      90.0923298
9.289                0.628401603      89.7601744
9.29                 0.629510088      89.4296059
9.291                0.630617318      89.1006161
9.292                0.631723239      88.7731969
9.293                0.632827794        88.44734
9.294                0.633930929      88.1230372
9.295                0.635032591      87.8002803
9.296                0.636132728      87.4790611
9.297                0.637231288      87.1593714
9.298                0.638328221       86.841203
9.299                0.639423479      86.5245477
9.3                  0.640517012      86.2093974
9.301                0.641608774      85.8957438
9.302                0.642698719      85.5835789
9.303                0.643786802      85.2728944
9.304                0.644872977      84.9636823
9.305                0.645957202      84.6559343
9.306                0.647039435      84.3496425
9.307                0.648119633      84.0447987
9.308                0.649197757      83.7413949
9.309                0.650273767       83.439423
9.31                 0.651347624       83.138875
9.311                0.652419289      82.8397429
9.312                0.653488727      82.5420187
9.313                0.654555901      82.2456944
9.314                0.655620776      81.9507621
9.315                0.656683316      81.6572139
9.316                0.657743489      81.3650419
9.317                0.658801262      81.0742382
9.318                0.659856602       80.784795
9.319                0.660909479      80.4967045
9.32                 0.661959862      80.2099588
9.321                0.663007721      79.9245504
9.322                0.664053027      79.6404713
9.323                0.665095752       79.357714
9.324                0.666135869      79.0762708
9.325                0.667173351      78.7961339
9.326                0.668208173      78.5172959
9.327                0.669240308      78.2397492
9.328                0.670269732      77.9634861
9.329                0.671296421      77.6884993
9.33                 0.672320353      77.4147811
9.331                0.673341504      77.1423243
9.332                0.674359853      76.8711213
9.333                0.675375378      76.6011649
9.334                0.676388059      76.3324476
9.335                0.677397876      76.0649621
9.336                 0.67840481      75.7987012
9.337                0.679408841      75.5336577
9.338                0.680409953      75.2698244
9.339                0.681408126       75.007194
9.34                 0.682403345      74.7457594
9.341                0.683395593      74.4855136
9.342                0.684384853      74.2264495
9.343                0.685371112      73.9685601
9.344                0.686354354      73.7118383
9.345                0.687334565      73.4562773
9.346                0.688311731      73.2018701
9.347                0.689285839      72.9486099
9.348                0.690256877      72.6964897
9.349                0.691224833      72.4455029
9.35                 0.692189695      72.1956426
9.351                0.693151451      71.9469021
9.352                0.694110092      71.6992747
9.353                0.695065606      71.4527538
9.354                0.696017986      71.2073327
9.355                 0.69696722      70.9630049
9.356                  0.6979133      70.7197637
9.357                0.698856219      70.4776028
9.358                0.699795967      70.2365157
9.359                0.700732539      69.9964958
9.36                 0.701665925      69.7575368
9.361                0.702596121      69.5196324
9.362                0.703523119      69.2827763
9.363                0.704446913       69.046962
9.364                0.705367499      68.8121835
9.365                0.706284871      68.5784344
9.366                0.707199024      68.3457087
9.367                0.708109954      68.1140002
9.368                0.709017657      67.8833027
9.369                 0.70992213      67.6536102
9.37                 0.710823368      67.4249167
9.371                 0.71172137      67.1972162
9.372                0.712616132      66.9705027
9.373                0.713507652      66.7447704
9.374                0.714395928      66.5200133
9.375                0.715280958      66.2962256
9.376                0.716162742      66.0734015
9.377                0.717041278      65.8515351
9.378                0.717916565      65.6306209
9.379                0.718788603       65.410653
9.38                 0.719657392      65.1916258
9.381                0.720522931      64.9735336
9.382                0.721385222       64.756371
9.383                0.722244264      64.5401322
9.384                0.723100059      64.3248118
9.385                0.723952608      64.1104043
9.386                0.724801912      63.8969042
9.387                0.725647973      63.6843061
9.388                0.726490792      63.4726046
9.389                0.727330373      63.2617943
9.39                 0.728166717        63.05187
9.391                0.728999827      62.8428264
9.392                0.729829706      62.6346581
9.393                0.730656357        62.42736
9.394                0.731479782      62.2209268
9.395                0.732299986      62.0153535
9.396                0.733116972      61.8106349
