! TOUCHSTONE file generated by CST DESIGN STUDIO
! Date and time: Tue Feb  4 14:07:54 2025
! Project name: C:\Work\MatlabApps\UnitCellOptimizationMatlab\CST\unitcell.cst
! Tree item: Tasks\Sweep1\SPara1\S-Parameters
! Header version: 2024
! Port assignment regex: !\s*Touchstone port\s*([0-9]+)\s*=\s*(CST MWS port|CST DES external port|CST DES block port)\s*(.+)\s* \(\"(.*)\"\)(\s*mode\s*([0-9]+))?.*
! Touchstone port assignment:
! Touchstone port 1 = CST DES external port 1 ("")
# GHz S MA R 50
9                    0.949504335     -51.4506691
9.001                0.949368378     -51.5200796
9.002                0.949231925     -51.5896564
9.003                0.949094973        -51.6594
9.004                 0.94895752     -51.7293111
9.005                0.948819563     -51.7993902
9.006                0.948681101      -51.869638
9.007                0.948542132     -51.9400549
9.008                0.948402652     -52.0106418
9.009                0.948262659      -52.081399
9.01                 0.948122152     -52.1523273
9.011                0.947981129     -52.2234272
9.012                0.947839586     -52.2946994
9.013                0.947697521     -52.3661444
9.014                0.947554932     -52.4377629
9.015                0.947411818     -52.5095555
9.016                0.947268174     -52.5815229
9.017                   0.947124     -52.6536655
9.018                0.946979292     -52.7259841
9.019                0.946834049     -52.7984793
9.02                 0.946688268     -52.8711518
9.021                0.946541946      -52.944002
9.022                0.946395081     -53.0170308
9.023                0.946247671     -53.0902387
9.024                0.946099713     -53.1636264
9.025                0.945951204     -53.2371944
9.026                0.945802143     -53.3109436
9.027                0.945652527     -53.3848744
9.028                0.945502353     -53.4589877
9.029                0.945351619     -53.5332839
9.03                 0.945200322     -53.6077638
9.031                0.945048459     -53.6824281
9.032                0.944896029     -53.7572774
9.033                0.944743029     -53.8323123
9.034                0.944589456     -53.9075336
9.035                0.944435307     -53.9829419
9.036                 0.94428058     -54.0585379
9.037                0.944125273     -54.1343223
9.038                0.943969382     -54.2102957
9.039                0.943812905     -54.2864589
9.04                  0.94365584     -54.3628125
9.041                0.943498184     -54.4393572
9.042                0.943339934     -54.5160937
9.043                0.943181087     -54.5930227
9.044                0.943021641      -54.670145
9.045                0.942861593     -54.7474612
9.046                0.942700941      -54.824972
9.047                0.942539681     -54.9026781
9.048                0.942377811     -54.9805803
9.049                0.942215328     -55.0586792
9.05                  0.94205223     -55.1369756
9.051                0.941888513     -55.2154703
9.052                0.941724176     -55.2941638
9.053                0.941559214      -55.373057
9.054                0.941393625     -55.4521506
9.055                0.941227407     -55.5314454
9.056                0.941060557     -55.6109419
9.057                0.940893071     -55.6906411
9.058                0.940724947     -55.7705437
9.059                0.940556182     -55.8506504
9.06                 0.940386773     -55.9309619
9.061                0.940216717      -56.011479
9.062                0.940046011     -56.0922025
9.063                0.939874653     -56.1731331
9.064                0.939702639     -56.2542716
9.065                0.939529967     -56.3356187
9.066                0.939356633     -56.4171753
9.067                0.939182634     -56.4989421
9.068                0.939007968     -56.5809199
9.069                0.938832631     -56.6631095
9.07                 0.938656621     -56.7455116
9.071                0.938479934     -56.8281271
9.072                0.938302567     -56.9109567
9.073                0.938124517     -56.9940013
9.074                0.937945782     -57.0772615
9.075                0.937766358     -57.1607384
9.076                0.937586241     -57.2444325
9.077                 0.93740543     -57.3283449
9.078                 0.93722392     -57.4124762
9.079                0.937041708     -57.4968273
9.08                 0.936858792      -57.581399
9.081                0.936675168     -57.6661921
9.082                0.936490833     -57.7512075
9.083                0.936305784      -57.836446
9.084                0.936120017     -57.9219085
9.085                0.935933529     -58.0075957
9.086                0.935746318     -58.0935085
9.087                0.935558379     -58.1796478
9.088                 0.93536971     -58.2660145
9.089                0.935180307     -58.3526093
9.09                 0.934990166     -58.4394331
9.091                0.934799285     -58.5264868
9.092                0.934607661     -58.6137713
9.093                0.934415289     -58.7012875
9.094                0.934222166     -58.7890361
9.095                 0.93402829     -58.8770181
9.096                0.933833656     -58.9652345
9.097                0.933638262     -59.0536859
9.098                0.933442103     -59.1423734
9.099                0.933245177     -59.2312979
9.1                  0.933047479     -59.3204602
9.101                0.932849007     -59.4098612
9.102                0.932649757     -59.4995019
9.103                0.932449725     -59.5893832
9.104                0.932248908     -59.6795059
9.105                0.932047303      -59.769871
9.106                0.931844905     -59.8604794
9.107                0.931641711     -59.9513321
9.108                0.931437718       -60.04243
9.109                0.931232922      -60.133774
9.11                  0.93102732      -60.225365
9.111                0.930820907      -60.317204
9.112                0.930613681      -60.409292
9.113                0.930405636     -60.5016298
9.114                0.930196771     -60.5942186
9.115                0.929987081     -60.6870591
9.116                0.929776562     -60.7801524
9.117                0.929565211     -60.8734994
9.118                0.929353024     -60.9671012
9.119                0.929139997     -61.0609587
9.12                 0.928926126     -61.1550729
9.121                0.928711408     -61.2494447
9.122                0.928495839     -61.3440752
9.123                0.928279415     -61.4389654
9.124                0.928062132     -61.5341162
9.125                0.927843986     -61.6295287
9.126                0.927624974     -61.7252038
9.127                0.927405091     -61.8211427
9.128                0.927184334     -61.9173462
9.129                0.926962699     -62.0138155
9.13                 0.926740181     -62.1105516
9.131                0.926516778     -62.2075554
9.132                0.926292484     -62.3048281
9.133                0.926067297     -62.4023706
9.134                0.925841211     -62.5001841
9.135                0.925614224     -62.5982695
9.136                 0.92538633      -62.696628
9.137                0.925157526     -62.7952605
9.138                0.924927808     -62.8941682
9.139                0.924697172     -62.9933521
9.14                 0.924465614     -63.0928133
9.141                0.924233129     -63.1925528
9.142                0.923999713     -63.2925719
9.143                0.923765363     -63.3928715
9.144                0.923530074     -63.4934527
9.145                0.923293843     -63.5943167
9.146                0.923056664     -63.6954645
9.147                0.922818533     -63.7968973
9.148                0.922579447     -63.8986161
9.149                0.922339402     -64.0006222
9.15                 0.922098392     -64.1029165
9.151                0.921856414     -64.2055003
9.152                0.921613463     -64.3083747
9.153                0.921369536     -64.4115408
9.154                0.921124627     -64.5149998
9.155                0.920878733     -64.6187528
9.156                0.920631849     -64.7228009
9.157                0.920383971     -64.8271454
9.158                0.920135094     -64.9317874
9.159                0.919885214      -65.036728
9.16                 0.919634327     -65.1419685
9.161                0.919382428       -65.24751
9.162                0.919129513     -65.3533537
9.163                0.918875578     -65.4595008
9.164                0.918620617     -65.5659525
9.165                0.918364626       -65.67271
9.166                0.918107602     -65.7797745
9.167                0.917849539     -65.8871473
9.168                0.917590433     -65.9948294
9.169                0.917330279     -66.1028223
9.17                 0.917069073      -66.211127
9.171                 0.91680681     -66.3197448
9.172                0.916543486      -66.428677
9.173                0.916279096     -66.5379248
9.174                0.916013635     -66.6474895
9.175                0.915747099     -66.7573723
9.176                0.915479484     -66.8675745
9.177                0.915210783     -66.9780973
9.178                0.914940994     -67.0889421
9.179                 0.91467011     -67.2001101
9.18                 0.914398128     -67.3116025
9.181                0.914125043     -67.4234208
9.182                 0.91385085     -67.5355661
9.183                0.913575544     -67.6480398
9.184                 0.91329912     -67.7608431
9.185                0.913021574     -67.8739775
9.186                0.912742901     -67.9874442
9.187                0.912463096     -68.1012446
9.188                0.912182154     -68.2153799
9.189                0.911900071     -68.3298515
9.19                 0.911616841     -68.4446608
9.191                 0.91133246     -68.5598091
9.192                0.911046923     -68.6752978
9.193                0.910760224     -68.7911282
9.194                 0.91047236     -68.9073017
9.195                0.910183325     -69.0238196
9.196                0.909893115     -69.1406834
9.197                0.909601723     -69.2578944
9.198                0.909309146     -69.3754541
9.199                0.909015378     -69.4933637
9.2                  0.908720415     -69.6116248
9.201                0.908424251     -69.7302387
9.202                0.908126882     -69.8492069
9.203                0.907828302     -69.9685307
9.204                0.907528506     -70.0882116
9.205                0.907227489      -70.208251
9.206                0.906925247     -70.3286504
9.207                0.906621775     -70.4494112
9.208                0.906317066     -70.5705349
9.209                0.906011116     -70.6920229
9.21                 0.905703921     -70.8138768
9.211                0.905395474     -70.9360978
9.212                0.905085771     -71.0586877
9.213                0.904774807     -71.1816477
9.214                0.904462576     -71.3049795
9.215                0.904149073     -71.4286845
9.216                0.903834294     -71.5527642
9.217                0.903518233     -71.6772202
9.218                0.903200885     -71.8020539
9.219                0.902882244     -71.9272669
9.22                 0.902562306     -72.0528607
9.221                0.902241065     -72.1788368
9.222                0.901918516     -72.3051968
9.223                0.901594655     -72.4319423
9.224                0.901269474     -72.5590747
9.225                0.900942971     -72.6865957
9.226                0.900615138     -72.8145068
9.227                0.900285971     -72.9428096
9.228                0.899955465     -73.0715057
9.229                0.899623614     -73.2005967
9.23                 0.899290414     -73.3300842
9.231                0.898955858     -73.4599697
9.232                0.898619942     -73.5902549
9.233                 0.89828266     -73.7209414
9.234                0.897944007     -73.8520309
9.235                0.897603978     -73.9835249
9.236                0.897262568     -74.1154251
9.237                 0.89691977     -74.2477331
9.238                 0.89657558     -74.3804506
9.239                0.896229993     -74.5135793
9.24                 0.895883002     -74.6471207
9.241                0.895534604     -74.7810767
9.242                0.895184792     -74.9154488
9.243                0.894833561     -75.0502388
9.244                0.894480906     -75.1854483
9.245                0.894126822     -75.3210791
9.246                0.893771303     -75.4571328
9.247                0.893414343     -75.5936111
9.248                0.893055938     -75.7305159
9.249                0.892696083     -75.8678487
9.25                 0.892334771     -76.0056114
9.251                0.891971997     -76.1438057
9.252                0.891607757     -76.2824333
9.253                0.891242045      -76.421496
9.254                0.890874855     -76.5609956
9.255                0.890506182     -76.7009338
9.256                0.890136022     -76.8413123
9.257                0.889764367     -76.9821331
9.258                0.889391214     -77.1233979
9.259                0.889016557     -77.2651084
9.26                 0.888640391     -77.4072665
9.261                0.888262709      -77.549874
9.262                0.887883508     -77.6929328
9.263                0.887502782     -77.8364445
9.264                0.887120525     -77.9804112
9.265                0.886736732     -78.1248346
9.266                0.886351397     -78.2697165
9.267                0.885964517     -78.4150589
9.268                0.885576085     -78.5608636
9.269                0.885186096     -78.7071324
9.27                 0.884794544     -78.8538673
9.271                0.884401426     -79.0010701
9.272                0.884006734     -79.1487427
9.273                0.883610465     -79.2968871
9.274                0.883212613     -79.4455051
9.275                0.882813173     -79.5945986
9.276                 0.88241214     -79.7441696
9.277                0.882009508     -79.8942199
9.278                0.881605272     -80.0447517
9.279                0.881199428     -80.1957666
9.28                  0.88079197     -80.3472669
9.281                0.880382893     -80.4992543
9.282                0.879972192     -80.6517308
9.283                0.879559862     -80.8046985
9.284                0.879145897     -80.9581593
9.285                0.878730294     -81.1121151
9.286                0.878313047     -81.2665681
9.287                 0.87789415     -81.4215202
9.288                0.877473599     -81.5769733
9.289                 0.87705139     -81.7329296
9.29                 0.876627516      -81.889391
9.291                0.876201974     -82.0463596
9.292                0.875774758     -82.2038374
9.293                0.875345864     -82.3618265
9.294                0.874915286     -82.5203289
9.295                0.874483021     -82.6793467
9.296                0.874049062     -82.8388819
9.297                0.873613406     -82.9989366
9.298                0.873176048     -83.1595129
9.299                0.872736983     -83.3206129
9.3                  0.872296206     -83.4822387
9.301                0.871853713     -83.6443924
9.302                0.871409499     -83.8070761
9.303                0.870963561     -83.9702919
9.304                0.870515892      -84.134042
9.305                0.870066489     -84.2983284
9.306                0.869615348     -84.4631534
9.307                0.869162464      -84.628519
9.308                0.868707832     -84.7944275
9.309                0.868251448     -84.9608809
9.31                 0.867793309     -85.1278815
9.311                0.867333409     -85.2954314
9.312                0.866871746     -85.4635328
9.313                0.866408313     -85.6321879
9.314                0.865943108     -85.8013989
9.315                0.865476126      -85.971168
9.316                0.865007364     -86.1414974
9.317                0.864536817     -86.3123894
9.318                0.864064482      -86.483846
9.319                0.863590354     -86.6558697
9.32                  0.86311443     -86.8284626
9.321                0.862636707     -87.0016269
9.322                0.862157179     -87.1753649
9.323                0.861675845     -87.3496789
9.324                0.861192699     -87.5245712
9.325                 0.86070774     -87.7000439
9.326                0.860220962     -87.8760994
9.327                0.859732364       -88.05274
9.328                0.859241941     -88.2299679
9.329                 0.85874969     -88.4077855
9.33                 0.858255608      -88.586195
9.331                0.857759692     -88.7651988
9.332                0.857261938     -88.9447992
9.333                0.856762345     -89.1249985
9.334                0.856260908      -89.305799
9.335                0.855757625      -89.487203
9.336                0.855252494      -89.669213
9.337                 0.85474551     -89.8518312
9.338                0.854236673       -90.03506
9.339                0.853725979     -90.2189017
9.34                 0.853213425     -90.4033588
9.341                 0.85269901     -90.5884336
9.342                0.852182731     -90.7741284
9.343                0.851664585     -90.9604457
9.344                0.851144571     -91.1473879
9.345                0.850622687     -91.3349572
9.346                 0.85009893     -91.5231562
9.347                0.849573299     -91.7119872
9.348                0.849045791     -91.9014527
9.349                0.848516406     -92.0915549
9.35                 0.847985141     -92.2822965
9.351                0.847451995     -92.4736798
9.352                0.846916966     -92.6657072
9.353                0.846380054     -92.8583811
9.354                0.845841257      -93.051704
9.355                0.845300573     -93.2456784
9.356                0.844758003     -93.4403067
9.357                0.844213544     -93.6355913
9.358                0.843667196     -93.8315347
9.359                0.843118959     -94.0281393
9.36                 0.842568832     -94.2254077
9.361                0.842016814     -94.4233423
9.362                0.841462905     -94.6219455
9.363                0.840907104     -94.8212199
9.364                0.840349413     -95.0211679
9.365                 0.83978983     -95.2217921
9.366                0.839228356     -95.4230948
9.367                0.838664991     -95.6250786
9.368                0.838099735     -95.8277461
9.369                0.837532589     -96.0310996
9.37                 0.836963554     -96.2351417
9.371                 0.83639263     -96.4398749
9.372                0.835819819     -96.6453017
9.373                 0.83524512     -96.8514246
9.374                0.834668536     -97.0582462
9.375                0.834090068     -97.2657689
9.376                0.833509718     -97.4739953
9.377                0.832927486     -97.6829278
9.378                0.832343375     -97.8925691
9.379                0.831757386     -98.1029216
9.38                 0.831169522     -98.3139879
9.381                0.830579785     -98.5257705
9.382                0.829988177     -98.7382718
9.383                  0.8293947     -98.9514946
9.384                0.828799359     -99.1654412
9.385                0.828202154     -99.3801142
9.386                 0.82760309     -99.5955162
9.387                0.827002169     -99.8116497
9.388                0.826399395     -100.028517
9.389                0.825794771     -100.246121
9.39                 0.825188302     -100.464464
9.391                 0.82457999     -100.683549
9.392                0.823969841     -100.903378
9.393                0.823357857     -101.123954
9.394                0.822744045     -101.345278
9.395                0.822128407     -101.567355
9.396                 0.82151095     -101.790186
