! TOUCHSTONE file generated by CST DESIGN STUDIO
! Date and time: Tue Feb  4 13:46:37 2025
! Project name: C:\Work\MatlabApps\UnitCellOptimizationMatlab\CST\unitcell.cst
! Tree item: Tasks\Sweep1\SPara1\S-Parameters
! Header version: 2024
! Port assignment regex: !\s*Touchstone port\s*([0-9]+)\s*=\s*(CST MWS port|CST DES external port|CST DES block port)\s*(.+)\s* \(\"(.*)\"\)(\s*mode\s*([0-9]+))?.*
! Touchstone port assignment:
! Touchstone port 1 = CST DES external port 1 ("")
# GHz S MA R 50
9                    0.965750046     -72.1759415
9.001                0.965678158     -72.2862145
9.002                0.965606033     -72.3967692
9.003                 0.96553367     -72.5076067
9.004                0.965461069     -72.6187277
9.005                0.965388228     -72.7301332
9.006                0.965315146     -72.8418241
9.007                0.965241824     -72.9538012
9.008                 0.96516826     -73.0660656
9.009                0.965094454     -73.1786181
9.01                 0.965020405     -73.2914597
9.011                0.964946112     -73.4045912
9.012                0.964871574     -73.5180137
9.013                0.964796792     -73.6317279
9.014                0.964721763     -73.7457349
9.015                0.964646488     -73.8600356
9.016                0.964570966     -73.9746309
9.017                0.964495196     -74.0895217
9.018                0.964419176     -74.2047091
9.019                0.964342908     -74.3201939
9.02                 0.964266389     -74.4359771
9.021                 0.96418962     -74.5520596
9.022                0.964112599     -74.6684424
9.023                0.964035326     -74.7851264
9.024                  0.9639578     -74.9021127
9.025                 0.96388002      -75.019402
9.026                0.963801986     -75.1369955
9.027                0.963723697     -75.2548941
9.028                0.963645152     -75.3730988
9.029                 0.96356635     -75.4916104
9.03                 0.963487292       -75.61043
9.031                0.963407976     -75.7295586
9.032                0.963328401     -75.8489972
9.033                0.963248567     -75.9687466
9.034                0.963168473      -76.088808
9.035                0.963088119     -76.2091822
9.036                0.963007503     -76.3298703
9.037                0.962926625     -76.4508733
9.038                0.962845485     -76.5721921
9.039                0.962764081     -76.6938277
9.04                 0.962682414     -76.8157812
9.041                0.962600481     -76.9380536
9.042                0.962518284     -77.0606457
9.043                 0.96243582     -77.1835588
9.044                0.962353089     -77.3067937
9.045                0.962270092     -77.4303514
9.046                0.962186826     -77.5542331
9.047                0.962103291     -77.6784396
9.048                0.962019487      -77.802972
9.049                0.961935413     -77.9278314
9.05                 0.961851068     -78.0530187
9.051                0.961766452      -78.178535
9.052                0.961681564     -78.3043812
9.053                0.961596403     -78.4305586
9.054                0.961510969     -78.5570679
9.055                0.961425261     -78.6839104
9.056                0.961339279      -78.811087
9.057                0.961253021     -78.9385988
9.058                0.961166487     -79.0664467
9.059                0.961079677     -79.1946319
9.06                  0.96099259     -79.3231555
9.061                0.960905224     -79.4520183
9.062                0.960817581     -79.5812216
9.063                0.960729658     -79.7107663
9.064                0.960641456     -79.8406535
9.065                0.960552974     -79.9708843
9.066                 0.96046421     -80.1014596
9.067                0.960375166     -80.2323807
9.068                0.960285839     -80.3636485
9.069                0.960196229     -80.4952641
9.07                 0.960106337     -80.6272286
9.071                 0.96001616      -80.759543
9.072                0.959925699     -80.8922084
9.073                0.959834953     -81.0252259
9.074                0.959743921     -81.1585966
9.075                0.959652604     -81.2923216
9.076                0.959560999     -81.4264018
9.077                0.959469107     -81.5608385
9.078                0.959376928     -81.6956326
9.079                 0.95928446     -81.8307854
9.08                 0.959191703     -81.9662978
9.081                0.959098656     -82.1021709
9.082                 0.95900532     -82.2384059
9.083                0.958911693     -82.3750039
9.084                0.958817774     -82.5119658
9.085                0.958723565      -82.649293
9.086                0.958629063     -82.7869863
9.087                0.958534268      -82.925047
9.088                0.958439181     -83.0634761
9.089                0.958343799     -83.2022748
9.09                 0.958248124     -83.3414441
9.091                0.958152154     -83.4809852
9.092                0.958055888     -83.6208992
9.093                0.957959328     -83.7611872
9.094                0.957862471     -83.9018502
9.095                0.957765317     -84.0428895
9.096                0.957667867     -84.1843061
9.097                0.957570119     -84.3261011
9.098                0.957472074     -84.4682757
9.099                 0.95737373     -84.6108311
9.1                  0.957275087     -84.7537682
9.101                0.957176146     -84.8970882
9.102                0.957076905     -85.0407924
9.103                0.956977363     -85.1848817
9.104                0.956877522     -85.3293574
9.105                 0.95677738     -85.4742205
9.106                0.956676937     -85.6194722
9.107                0.956576192     -85.7651136
9.108                0.956475145     -85.9111459
9.109                0.956373796     -86.0575701
9.11                 0.956272145     -86.2043875
9.111                0.956170191     -86.3515991
9.112                0.956067934     -86.4992062
9.113                0.955965373     -86.6472098
9.114                0.955862508     -86.7956111
9.115                0.955759339     -86.9444112
9.116                0.955655866     -87.0936112
9.117                0.955552088     -87.2432124
9.118                0.955448005     -87.3932159
9.119                0.955343617     -87.5436227
9.12                 0.955238923     -87.6944341
9.121                0.955133924     -87.8456512
9.122                0.955028619     -87.9972752
9.123                0.954923007     -88.1493071
9.124                0.954817089     -88.3017482
9.125                0.954710865     -88.4545996
9.126                0.954604334     -88.6078624
9.127                0.954497495     -88.7615379
9.128                 0.95439035     -88.9156271
9.129                0.954282897     -89.0701312
9.13                 0.954175137     -89.2250513
9.131                 0.95406707     -89.3803887
9.132                0.953958694     -89.5361444
9.133                0.953850011     -89.6923196
9.134                 0.95374102     -89.8489155
9.135                0.953631722     -90.0059333
9.136                0.953522115      -90.163374
9.137                  0.9534122     -90.3212388
9.138                0.953301977      -90.479529
9.139                0.953191445     -90.6382456
9.14                 0.953080606     -90.7973897
9.141                0.952969458     -90.9569627
9.142                0.952858002     -91.1169655
9.143                0.952746239     -91.2773994
9.144                0.952634166     -91.4382655
9.145                0.952521786      -91.599565
9.146                0.952409098      -91.761299
9.147                0.952296102     -91.9234687
9.148                0.952182798     -92.0860751
9.149                0.952069187     -92.2491196
9.15                 0.951955268     -92.4126032
9.151                0.951841041      -92.576527
9.152                0.951726507     -92.7408923
9.153                0.951611667     -92.9057002
9.154                0.951496519     -93.0709518
9.155                0.951381064     -93.2366482
9.156                0.951265303     -93.4027906
9.157                0.951149236     -93.5693802
9.158                0.951032863     -93.7364181
9.159                0.950916184     -93.9039055
9.16                 0.950799199     -94.0718434
9.161                 0.95068191     -94.2402331
9.162                0.950564315     -94.4090756
9.163                0.950446416     -94.5783721
9.164                0.950328214     -94.7481237
9.165                0.950209707     -94.9183316
9.166                0.950090897     -95.0889969
9.167                0.949971784     -95.2601207
9.168                0.949852369     -95.4317041
9.169                0.949732651     -95.6037484
9.17                 0.949612632     -95.7762545
9.171                0.949492312     -95.9492237
9.172                0.949371692      -96.122657
9.173                0.949250771     -96.2965556
9.174                0.949129551     -96.4709205
9.175                0.949008033      -96.645753
9.176                0.948886216      -96.821054
9.177                0.948764101     -96.9968248
9.178                0.948641689     -97.1730663
9.179                0.948518981     -97.3497798
9.18                 0.948395977     -97.5269663
9.181                0.948272678     -97.7046269
9.182                0.948149085     -97.8827627
9.183                0.948025198     -98.0613749
9.184                0.947901019     -98.2404644
9.185                0.947776547     -98.4200324
9.186                0.947651785     -98.6000799
9.187                0.947526732      -98.780608
9.188                0.947401389     -98.9616179
9.189                0.947275759     -99.1431106
9.19                  0.94714984      -99.325087
9.191                0.947023635     -99.5075484
9.192                0.946897144     -99.6904958
9.193                0.946770368     -99.8739302
9.194                0.946643308     -100.057853
9.195                0.946515966     -100.242264
9.196                0.946388342     -100.427166
9.197                0.946260437     -100.612559
9.198                0.946132253     -100.798444
9.199                0.946003791     -100.984822
9.2                  0.945875051     -101.171695
9.201                0.945746035     -101.359063
9.202                0.945616745     -101.546927
9.203                0.945487181     -101.735289
9.204                0.945357345     -101.924149
9.205                0.945227237     -102.113509
9.206                 0.94509686     -102.303368
9.207                0.944966215     -102.493729
9.208                0.944835303     -102.684593
9.209                0.944704125     -102.875959
9.21                 0.944572684      -103.06783
9.211                 0.94444098     -103.260206
9.212                0.944309014     -103.453088
9.213                0.944176789     -103.646478
9.214                0.944044306     -103.840375
9.215                0.943911567     -104.034782
9.216                0.943778573     -104.229698
9.217                0.943645326     -104.425125
9.218                0.943511827     -104.621064
9.219                0.943378079     -104.817516
9.22                 0.943244082     -105.014482
9.221                 0.94310984     -105.211962
9.222                0.942975353     -105.409957
9.223                0.942840623     -105.608469
9.224                0.942705652     -105.807498
9.225                0.942570443     -106.007045
9.226                0.942434997     -106.207111
9.227                0.942299316     -106.407697
9.228                0.942163403     -106.608803
9.229                0.942027258     -106.810431
9.23                 0.941890885     -107.012581
9.231                0.941754284     -107.215254
9.232                 0.94161746     -107.418451
9.233                0.941480413     -107.622173
9.234                0.941343146      -107.82642
9.235                0.941205661     -108.031194
9.236                 0.94106796     -108.236495
9.237                0.940930046     -108.442324
9.238                0.940791921     -108.648681
9.239                0.940653588     -108.855568
9.24                 0.940515048     -109.062984
9.241                0.940376305     -109.270932
9.242                0.940237361     -109.479411
9.243                0.940098218     -109.688423
9.244                0.939958879     -109.897967
9.245                0.939819346     -110.108045
9.246                0.939679623     -110.318658
9.247                0.939539711     -110.529806
9.248                0.939399614     -110.741489
9.249                0.939259335     -110.953708
9.25                 0.939118875     -111.166465
9.251                0.938978239     -111.379759
9.252                0.938837428     -111.593591
9.253                0.938696446     -111.807962
9.254                0.938555296     -112.022873
9.255                0.938413981     -112.238323
9.256                0.938272503     -112.454314
9.257                0.938130867     -112.670847
9.258                0.937989074      -112.88792
9.259                0.937847128     -113.105536
9.26                 0.937705033     -113.323695
9.261                0.937562791     -113.542397
9.262                0.937420406     -113.761642
9.263                0.937277882     -113.981432
9.264                 0.93713522     -114.201766
9.265                0.936992426     -114.422645
9.266                0.936849502      -114.64407
9.267                0.936706452     -114.866041
9.268                0.936563279     -115.088558
9.269                0.936419987     -115.311621
9.27                 0.936276579     -115.535232
9.271                 0.93613306     -115.759391
9.272                0.935989432     -115.984097
9.273                  0.9358457     -116.209351
9.274                0.935701868     -116.435154
9.275                0.935557938     -116.661505
9.276                0.935413916     -116.888406
9.277                0.935269805     -117.115856
9.278                0.935125608     -117.343856
9.279                0.934981331     -117.572405
9.28                 0.934836976     -117.801505
9.281                0.934692548     -118.031155
9.282                0.934548052     -118.261355
9.283                 0.93440349     -118.492106
9.284                0.934258869     -118.723408
9.285                0.934114191     -118.955261
9.286                0.933969461     -119.187665
9.287                0.933824683      -119.42062
9.288                0.933679862     -119.654126
9.289                0.933535003     -119.888184
9.29                 0.933390109     -120.122793
9.291                0.933245185     -120.357954
9.292                0.933100236     -120.593666
9.293                0.932955266      -120.82993
9.294                 0.93281028     -121.066745
9.295                0.932665283     -121.304112
9.296                0.932520279      -121.54203
9.297                0.932375273     -121.780499
9.298                0.932230271      -122.01952
9.299                0.932085276     -122.259092
9.3                  0.931940294     -122.499215
9.301                0.931795329     -122.739888
9.302                0.931650387     -122.981113
9.303                0.931505473     -123.222887
9.304                0.931360592     -123.465212
9.305                0.931215749     -123.708087
9.306                0.931070949     -123.951512
9.307                0.930926197     -124.195487
9.308                0.930781499     -124.440011
9.309                0.930636859     -124.685083
9.31                 0.930492284     -124.930704
9.311                0.930347778     -125.176874
9.312                0.930203347     -125.423591
9.313                0.930058997     -125.670856
9.314                0.929914733     -125.918667
9.315                 0.92977056     -126.167026
9.316                0.929626484      -126.41593
9.317                0.929482511      -126.66538
9.318                0.929338647     -126.915376
9.319                0.929194897     -127.165915
9.32                 0.929051266     -127.416999
9.321                0.928907761     -127.668627
9.322                0.928764388     -127.920797
9.323                0.928621152     -128.173509
9.324                 0.92847806     -128.426763
9.325                0.928335116     -128.680558
9.326                0.928192328     -128.934893
9.327                0.928049702     -129.189768
9.328                0.927907242     -129.445181
9.329                0.927764957     -129.701132
9.33                 0.927622851     -129.957621
9.331                 0.92748093     -130.214646
9.332                0.927339202     -130.472206
9.333                0.927197672     -130.730301
9.334                0.927056347      -130.98893
9.335                0.926915233     -131.248091
9.336                0.926774336     -131.507785
9.337                0.926633663     -131.768009
9.338                0.926493221     -132.028763
9.339                0.926353015     -132.290046
9.34                 0.926213052     -132.551857
9.341                0.926073339     -132.814195
9.342                0.925933882     -133.077059
9.343                0.925794689     -133.340447
9.344                0.925655764     -133.604358
9.345                0.925517117     -133.868792
9.346                0.925378752     -134.133746
9.347                0.925240677     -134.399221
9.348                0.925102899     -134.665213
9.349                0.924965424     -134.931724
9.35                 0.924828259      -135.19875
9.351                0.924691411      -135.46629
9.352                0.924554888     -135.734344
9.353                0.924418695      -136.00291
9.354                 0.92428284     -136.271986
9.355                 0.92414733     -136.541571
9.356                0.924012171     -136.811663
9.357                0.923877372     -137.082261
9.358                0.923742938     -137.353364
9.359                0.923608877      -137.62497
9.36                 0.923475197     -137.897076
9.361                0.923341903     -138.169683
9.362                0.923209004     -138.442787
9.363                0.923076507     -138.716388
9.364                0.922944418     -138.990483
9.365                0.922812745     -139.265071
9.366                0.922681495      -139.54015
9.367                0.922550675     -139.815719
9.368                0.922420293     -140.091775
9.369                0.922290356     -140.368317
9.37                 0.922160872     -140.645342
9.371                0.922031847     -140.922849
9.372                0.921903288     -141.200836
9.373                0.921775204     -141.479301
9.374                0.921647601     -141.758242
9.375                0.921520488     -142.037657
9.376                 0.92139387     -142.317543
9.377                0.921267757       -142.5979
9.378                0.921142154     -142.878724
9.379                 0.92101707     -143.160013
9.38                 0.920892512     -143.441766
9.381                0.920768487      -143.72398
9.382                0.920645003     -144.006653
9.383                0.920522067     -144.289782
9.384                0.920399687     -144.573366
9.385                 0.92027787     -144.857402
9.386                0.920156623     -145.141887
9.387                0.920035955      -145.42682
9.388                0.919915872     -145.712198
9.389                0.919796381     -145.998018
9.39                 0.919677491     -146.284278
9.391                0.919559209     -146.570975
9.392                0.919441542     -146.858107
9.393                0.919324498     -147.145672
9.394                0.919208083     -147.433667
9.395                0.919092307     -147.722088
9.396                0.918977175     -148.010935
