! TOUCHSTONE file generated by CST DESIGN STUDIO
! Date and time: Tue Feb  4 13:46:34 2025
! Project name: C:\Work\MatlabApps\UnitCellOptimizationMatlab\CST\unitcell.cst
! Tree item: Tasks\Sweep1\SPara1\S-Parameters
! Header version: 2024
! Port assignment regex: !\s*Touchstone port\s*([0-9]+)\s*=\s*(CST MWS port|CST DES external port|CST DES block port)\s*(.+)\s* \(\"(.*)\"\)(\s*mode\s*([0-9]+))?.*
! Touchstone port assignment:
! Touchstone port 1 = CST DES external port 1 ("")
# GHz S MA R 50
9                    0.963162135     -78.2408652
9.001                0.963079525       -78.36596
9.002                0.962996672     -78.4913846
9.003                0.962913576     -78.6171399
9.004                0.962830235      -78.743227
9.005                 0.96274665      -78.869647
9.006                 0.96266282     -78.9964009
9.007                0.962578744     -79.1234896
9.008                 0.96249442     -79.2509144
9.009                 0.96240985     -79.3786761
9.01                 0.962325031     -79.5067759
9.011                0.962239964     -79.6352148
9.012                0.962154647     -79.7639938
9.013                 0.96206908      -79.893114
9.014                0.961983262     -80.0225765
9.015                0.961897193     -80.1523822
9.016                0.961810872     -80.2825324
9.017                0.961724298     -80.4130279
9.018                0.961637471     -80.5438699
9.019                 0.96155039     -80.6750595
9.02                 0.961463053     -80.8065977
9.021                0.961375462     -80.9384856
9.022                0.961287615     -81.0707242
9.023                0.961199511     -81.2033147
9.024                 0.96111115      -81.336258
9.025                0.961022531     -81.4695554
9.026                0.960933653     -81.6032078
9.027                0.960844517     -81.7372163
9.028                 0.96075512     -81.8715821
9.029                0.960665464     -82.0063062
9.03                 0.960575546     -82.1413896
9.031                0.960485367     -82.2768336
9.032                0.960394926     -82.4126391
9.033                0.960304222     -82.5488073
9.034                0.960213255     -82.6853393
9.035                0.960122024     -82.8222361
9.036                0.960030529     -82.9594989
9.037                0.959938768     -83.0971287
9.038                0.959846742     -83.2351267
9.039                 0.95975445      -83.373494
9.04                 0.959661891     -83.5122317
9.041                0.959569065     -83.6513408
9.042                0.959475971     -83.7908225
9.043                0.959382609     -83.9306779
9.044                0.959288978     -84.0709081
9.045                0.959195077     -84.2115143
9.046                0.959100907     -84.3524975
9.047                0.959006466     -84.4938588
9.048                0.958911754     -84.6355994
9.049                0.958816771     -84.7777205
9.05                 0.958721516      -84.920223
9.051                0.958625988     -85.0631082
9.052                0.958530188     -85.2063771
9.053                0.958434114      -85.350031
9.054                0.958337767     -85.4940709
9.055                0.958241145     -85.6384979
9.056                0.958144248     -85.7833132
9.057                0.958047076     -85.9285179
9.058                0.957949629     -86.0741131
9.059                0.957851905        -86.2201
9.06                 0.957753906     -86.3664798
9.061                0.957655629     -86.5132534
9.062                0.957557075     -86.6604222
9.063                0.957458243     -86.8079872
9.064                0.957359133     -86.9559496
9.065                0.957259745     -87.1043104
9.066                0.957160077     -87.2530709
9.067                0.957060131     -87.4022322
9.068                0.956959905     -87.5517954
9.069                0.956859399     -87.7017617
9.07                 0.956758613     -87.8521322
9.071                0.956657547     -88.0029081
9.072                0.956556199     -88.1540905
9.073                0.956454571     -88.3056805
9.074                0.956352661     -88.4576794
9.075                0.956250469     -88.6100882
9.076                0.956147995     -88.7629081
9.077                0.956045239     -88.9161403
9.078                  0.9559422     -89.0697858
9.079                0.955838879     -89.2238459
9.08                 0.955735274     -89.3783217
9.081                0.955631386     -89.5332144
9.082                0.955527215     -89.6885251
9.083                 0.95542276     -89.8442549
9.084                0.955318021      -90.000405
9.085                0.955212998     -90.1569766
9.086                0.955107691     -90.3139708
9.087                  0.9550021     -90.4713888
9.088                0.954896224     -90.6292317
9.089                0.954790063     -90.7875006
9.09                 0.954683618     -90.9461968
9.091                0.954576888     -91.1053214
9.092                0.954469872     -91.2648754
9.093                0.954362572     -91.4248602
9.094                0.954254987     -91.5852768
9.095                0.954147116     -91.7461263
9.096                 0.95403896       -91.90741
9.097                 0.95393052     -92.0691289
9.098                0.953821793     -92.2312843
9.099                0.953712782     -92.3938773
9.1                  0.953603485     -92.5569089
9.101                0.953493903     -92.7203805
9.102                0.953384036     -92.8842931
9.103                0.953273884     -93.0486478
9.104                0.953163447     -93.2134458
9.105                0.953052725     -93.3786883
9.106                0.952941719     -93.5443764
9.107                0.952830427     -93.7105112
9.108                0.952718851     -93.8770939
9.109                 0.95260699     -94.0441256
9.11                 0.952494846     -94.2116074
9.111                0.952382417     -94.3795406
9.112                0.952269704     -94.5479262
9.113                0.952156708     -94.7167653
9.114                0.952043428     -94.8860591
9.115                0.951929865     -95.0558088
9.116                 0.95181602     -95.2260154
9.117                0.951701891     -95.3966801
9.118                0.951587481     -95.5678039
9.119                0.951472788     -95.7393881
9.12                 0.951357814     -95.9114338
9.121                0.951242558      -96.083942
9.122                0.951127022     -96.2569139
9.123                0.951011205     -96.4303507
9.124                0.950895108     -96.6042533
9.125                0.950778732     -96.7786229
9.126                0.950662076     -96.9534607
9.127                0.950545141     -97.1287677
9.128                0.950427929     -97.3045451
9.129                0.950310438     -97.4807939
9.13                 0.950192671     -97.6575152
9.131                0.950074627     -97.8347102
9.132                0.949956306     -98.0123799
9.133                0.949837711     -98.1905254
9.134                 0.94971884     -98.3691478
9.135                0.949599696     -98.5482481
9.136                0.949480277     -98.7278275
9.137                0.949360586     -98.9078871
9.138                0.949240623     -99.0884278
9.139                0.949120389     -99.2694509
9.14                 0.948999884     -99.4509572
9.141                0.948879109      -99.632948
9.142                0.948758064     -99.8154242
9.143                0.948636752     -99.9983869
9.144                0.948515172     -100.181837
9.145                0.948393326     -100.365776
9.146                0.948271214     -100.550204
9.147                0.948148837     -100.735124
9.148                0.948026197     -100.920535
9.149                0.947903294     -101.106438
9.15                 0.947780128     -101.292835
9.151                0.947656703     -101.479728
9.152                0.947533017     -101.667116
9.153                0.947409072        -101.855
9.154                 0.94728487     -102.043383
9.155                0.947160412     -102.232264
9.156                0.947035698     -102.421645
9.157                 0.94691073     -102.611527
9.158                0.946785509      -102.80191
9.159                0.946660036     -102.992797
9.16                 0.946534313     -103.184187
9.161                0.946408341     -103.376081
9.162                0.946282121     -103.568482
9.163                0.946155654     -103.761389
9.164                0.946028942     -103.954803
9.165                0.945901986     -104.148726
9.166                0.945774788     -104.343158
9.167                0.945647349       -104.5381
9.168                 0.94551967     -104.733554
9.169                0.945391754      -104.92952
9.17                 0.945263601     -105.125999
9.171                0.945135214     -105.322992
9.172                0.945006593     -105.520499
9.173                0.944877741     -105.718523
9.174                0.944748658     -105.917063
9.175                0.944619348      -106.11612
9.176                0.944489811     -106.315696
9.177                 0.94436005     -106.515791
9.178                0.944230065     -106.716406
9.179                 0.94409986     -106.917542
9.18                 0.943969435     -107.119199
9.181                0.943838793     -107.321379
9.182                0.943707936     -107.524083
9.183                0.943576865      -107.72731
9.184                0.943445582     -107.931063
9.185                 0.94331409     -108.135341
9.186                0.943182391     -108.340145
9.187                0.943050487     -108.545477
9.188                0.942918379     -108.751337
9.189                 0.94278607     -108.957726
9.19                 0.942653563     -109.164644
9.191                0.942520858     -109.372092
9.192                 0.94238796     -109.580072
9.193                0.942254869     -109.788583
9.194                0.942121589     -109.997626
9.195                0.941988121     -110.207202
9.196                0.941854469     -110.417312
9.197                0.941720634     -110.627957
9.198                0.941586618     -110.839136
9.199                0.941452426     -111.050852
9.2                  0.941318058     -111.263103
9.201                0.941183518     -111.475892
9.202                0.941048809     -111.689218
9.203                0.940913932     -111.903082
9.204                0.940778891     -112.117485
9.205                0.940643688     -112.332427
9.206                0.940508326     -112.547909
9.207                0.940372809     -112.763932
9.208                0.940237138     -112.980496
9.209                0.940101317     -113.197601
9.21                 0.939965348     -113.415248
9.211                0.939829235     -113.633438
9.212                0.939692981     -113.852171
9.213                0.939556588     -114.071447
9.214                 0.93942006     -114.291267
9.215                  0.9392834     -114.511632
9.216                0.939146611     -114.732541
9.217                0.939009696     -114.953996
9.218                0.938872659     -115.175997
9.219                0.938735502     -115.398543
9.22                  0.93859823     -115.621636
9.221                0.938460845     -115.845276
9.222                0.938323351     -116.069463
9.223                0.938185751     -116.294198
9.224                0.938048049      -116.51948
9.225                0.937910248     -116.745311
9.226                0.937772352      -116.97169
9.227                0.937634365     -117.198617
9.228                 0.93749629     -117.426094
9.229                0.937358131      -117.65412
9.23                 0.937219891     -117.882695
9.231                0.937081575      -118.11182
9.232                0.936943186     -118.341495
9.233                0.936804728      -118.57172
9.234                0.936666205     -118.802495
9.235                0.936527622     -119.033821
9.236                 0.93638898     -119.265697
9.237                0.936250286     -119.498123
9.238                0.936111543       -119.7311
9.239                0.935972755     -119.964628
9.24                 0.935833927     -120.198707
9.241                0.935695062     -120.433337
9.242                0.935556164     -120.668517
9.243                0.935417239     -120.904249
9.244                 0.93527829     -121.140531
9.245                0.935139321     -121.377364
9.246                0.935000338     -121.614748
9.247                0.934861345     -121.852682
9.248                0.934722345     -122.091168
9.249                0.934583344     -122.330204
9.25                 0.934444347      -122.56979
9.251                0.934305357     -122.809926
9.252                0.934166379     -123.050613
9.253                0.934027419     -123.291849
9.254                0.933888481     -123.533635
9.255                0.933749569     -123.775971
9.256                0.933610689     -124.018856
9.257                0.933471846      -124.26229
9.258                0.933333044     -124.506272
9.259                0.933194288     -124.750803
9.26                 0.933055583     -124.995882
9.261                0.932916935     -125.241509
9.262                0.932778349     -125.487683
9.263                0.932639829     -125.734403
9.264                 0.93250138     -125.981671
9.265                0.932363009     -126.229484
9.266                 0.93222472     -126.477843
9.267                0.932086518     -126.726747
9.268                0.931948409     -126.976196
9.269                0.931810399     -127.226189
9.27                 0.931672492     -127.476725
9.271                0.931534694     -127.727804
9.272                 0.93139701     -127.979426
9.273                0.931259447     -128.231589
9.274                0.931122009     -128.484294
9.275                0.930984702     -128.737539
9.276                0.930847533     -128.991323
9.277                0.930710506     -129.245647
9.278                0.930573627     -129.500509
9.279                0.930436902     -129.755908
9.28                 0.930300338     -130.011845
9.281                0.930163938     -130.268317
9.282                0.930027711     -130.525324
9.283                0.929891661     -130.782865
9.284                0.929755794      -131.04094
9.285                0.929620117     -131.299547
9.286                0.929484635     -131.558686
9.287                0.929349355     -131.818355
9.288                0.929214282     -132.078554
9.289                0.929079423     -132.339282
9.29                 0.928944784     -132.600536
9.291                0.928810371     -132.862318
9.292                 0.92867619     -133.124624
9.293                0.928542248     -133.387455
9.294                 0.92840855     -133.650809
9.295                0.928275104     -133.914685
9.296                0.928141915     -134.179081
9.297                 0.92800899     -134.443997
9.298                0.927876335     -134.709432
9.299                0.927743957     -134.975383
9.3                  0.927611862      -135.24185
9.301                0.927480057     -135.508831
9.302                0.927348549     -135.776325
9.303                0.927217343     -136.044331
9.304                0.927086446     -136.312846
9.305                0.926955866     -136.581871
9.306                0.926825608     -136.851403
9.307                0.926695679     -137.121441
9.308                0.926566087     -137.391982
9.309                0.926436837     -137.663027
9.31                 0.926307937     -137.934572
9.311                0.926179393     -138.206618
9.312                0.926051212      -138.47916
9.313                0.925923401       -138.7522
9.314                0.925795967     -139.025733
9.315                0.925668916      -139.29976
9.316                0.925542256     -139.574277
9.317                0.925415993     -139.849284
9.318                0.925290134     -140.124778
9.319                0.925164686     -140.400757
9.32                 0.925039657     -140.677221
9.321                0.924915052     -140.954166
9.322                 0.92479088     -141.231591
9.323                0.924667146     -141.509494
9.324                0.924543859     -141.787873
9.325                0.924421025     -142.066726
9.326                0.924298651     -142.346051
9.327                0.924176744     -142.625845
9.328                0.924055311     -142.906108
9.329                0.923934359     -143.186836
9.33                 0.923813896     -143.468027
9.331                0.923693928      -143.74968
9.332                0.923574463     -144.031792
9.333                0.923455507      -144.31436
9.334                0.923337069     -144.597384
9.335                0.923219154     -144.880859
9.336                 0.92310177     -145.164784
9.337                0.922984924     -145.449157
9.338                0.922868623     -145.733975
9.339                0.922752875     -146.019235
9.34                 0.922637686     -146.304936
9.341                0.922523063     -146.591075
9.342                0.922409015     -146.877649
9.343                0.922295547     -147.164655
9.344                0.922182667     -147.452092
9.345                0.922070382     -147.739956
9.346                  0.9219587     -148.028246
9.347                0.921847626     -148.316957
9.348                0.921737169     -148.606088
9.349                0.921627336     -148.895636
9.35                 0.921518133     -149.185598
9.351                0.921409567     -149.475971
9.352                0.921301647     -149.766753
9.353                0.921194378     -150.057941
9.354                0.921087767     -150.349532
9.355                0.920981823     -150.641522
9.356                0.920876551     -150.933909
9.357                0.920771959     -151.226691
9.358                0.920668053     -151.519864
9.359                0.920564842     -151.813424
9.36                 0.920462331      -152.10737
9.361                0.920360527     -152.401698
9.362                0.920259438     -152.696405
9.363                 0.92015907     -152.991488
9.364                 0.92005943     -153.286943
9.365                0.919960525     -153.582768
9.366                0.919862362     -153.878959
9.367                0.919764947     -154.175513
9.368                0.919668287     -154.472427
9.369                 0.91957239     -154.769698
9.37                 0.919477261     -155.067322
9.371                0.919382907     -155.365295
9.372                0.919289335     -155.663616
9.373                0.919196552     -155.962279
9.374                0.919104563     -156.261282
9.375                0.919013376     -156.560622
9.376                0.918922998     -156.860294
9.377                0.918833433     -157.160296
9.378                 0.91874469     -157.460623
9.379                0.918656773     -157.761273
9.38                  0.91856969     -158.062241
9.381                0.918483447     -158.363525
9.382                 0.91839805      -158.66512
9.383                0.918313505     -158.967022
9.384                0.918229819     -159.269229
9.385                0.918146997     -159.571737
9.386                0.918065046     -159.874541
9.387                0.917983971     -160.177638
9.388                0.917903778     -160.481025
9.389                0.917824474     -160.784697
9.39                 0.917746065      -161.08865
9.391                0.917668555     -161.392882
9.392                0.917591951     -161.697387
9.393                0.917516258     -162.002162
9.394                0.917441483     -162.307204
9.395                 0.91736763     -162.612508
9.396                0.917294706      -162.91807
