! TOUCHSTONE file generated by CST DESIGN STUDIO
! Date and time: Tue Feb  4 13:46:44 2025
! Project name: C:\Work\MatlabApps\UnitCellOptimizationMatlab\CST\unitcell.cst
! Tree item: Tasks\Sweep1\SPara1\S-Parameters
! Header version: 2024
! Port assignment regex: !\s*Touchstone port\s*([0-9]+)\s*=\s*(CST MWS port|CST DES external port|CST DES block port)\s*(.+)\s* \(\"(.*)\"\)(\s*mode\s*([0-9]+))?.*
! Touchstone port assignment:
! Touchstone port 1 = CST DES external port 1 ("")
# GHz S MA R 50
9                       0.972149     -57.4224071
9.001                0.972102137     -57.5007767
9.002                0.972055101      -57.579327
9.003                0.972007891     -57.6580586
9.004                0.971960506      -57.736972
9.005                0.971912945     -57.8160679
9.006                0.971865208     -57.8953468
9.007                0.971817295     -57.9748092
9.008                0.971769204     -58.0544558
9.009                0.971720935     -58.1342872
9.01                 0.971672488     -58.2143039
9.011                0.971623861     -58.2945066
9.012                0.971575055     -58.3748957
9.013                0.971526068      -58.455472
9.014                  0.9714769      -58.536236
9.015                 0.97142755     -58.6171883
9.016                0.971378018     -58.6983294
9.017                0.971328303     -58.7796602
9.018                0.971278404      -58.861181
9.019                0.971228321     -58.9428925
9.02                 0.971178053     -59.0247954
9.021                  0.9711276     -59.1068902
9.022                 0.97107696     -59.1891775
9.023                0.971026133      -59.271658
9.024                0.970975119     -59.3543324
9.025                0.970923916     -59.4372011
9.026                0.970872525     -59.5202648
9.027                0.970820944     -59.6035242
9.028                0.970769173     -59.6869798
9.029                0.970717211     -59.7706324
9.03                 0.970665057     -59.8544825
9.031                0.970612712     -59.9385308
9.032                0.970560173     -60.0227779
9.033                0.970507441     -60.1072244
9.034                0.970454515      -60.191871
9.035                0.970401394     -60.2767183
9.036                0.970348077      -60.361767
9.037                0.970294564     -60.4470177
9.038                0.970240854     -60.5324711
9.039                0.970186946     -60.6181278
9.04                 0.970132841     -60.7039884
9.041                0.970078536     -60.7900537
9.042                0.970024031     -60.8763242
9.043                0.969969327     -60.9628008
9.044                0.969914421     -61.0494839
9.045                0.969859313     -61.1363742
9.046                0.969804003     -61.2234726
9.047                 0.96974849     -61.3107795
9.048                0.969692773     -61.3982957
9.049                0.969636852     -61.4860219
9.05                 0.969580725     -61.5739587
9.051                0.969524392     -61.6621068
9.052                0.969467853     -61.7504669
9.053                0.969411106     -61.8390397
9.054                0.969354152     -61.9278259
9.055                0.969296988     -62.0168261
9.056                0.969239615      -62.106041
9.057                0.969182032     -62.1954714
9.058                0.969124237      -62.285118
9.059                0.969066232     -62.3749814
9.06                 0.969008013     -62.4650623
9.061                0.968949582     -62.5553614
9.062                0.968890937     -62.6458795
9.063                0.968832077     -62.7366173
9.064                0.968773002     -62.8275754
9.065                0.968713711     -62.9187547
9.066                0.968654204     -63.0101557
9.067                0.968594478     -63.1017792
9.068                0.968534535      -63.193626
9.069                0.968474373     -63.2856967
9.07                 0.968413991     -63.3779921
9.071                0.968353388      -63.470513
9.072                0.968292565     -63.5632599
9.073                0.968231519     -63.6562338
9.074                0.968170251     -63.7494353
9.075                0.968108759     -63.8428651
9.076                0.968047043     -63.9365241
9.077                0.967985103     -64.0304129
9.078                0.967922937     -64.1245322
9.079                0.967860544     -64.2188829
9.08                 0.967797924     -64.3134657
9.081                0.967735076     -64.4082814
9.082                   0.967672     -64.5033306
9.083                0.967608694     -64.5986143
9.084                0.967545158      -64.694133
9.085                0.967481391     -64.7898876
9.086                0.967417392     -64.8858789
9.087                0.967353161     -64.9821076
9.088                0.967288696     -65.0785745
9.089                0.967223998     -65.1752804
9.09                 0.967159064      -65.272226
9.091                0.967093896     -65.3694122
9.092                 0.96702849     -65.4668396
9.093                0.966962848     -65.5645092
9.094                0.966896968     -65.6624217
9.095                0.966830849     -65.7605778
9.096                0.966764491     -65.8589784
9.097                0.966697892     -65.9576243
9.098                0.966631053     -66.0565162
9.099                0.966563972     -66.1556551
9.1                  0.966496648     -66.2550415
9.101                0.966429081     -66.3546765
9.102                0.966361269     -66.4545608
9.103                0.966293213     -66.5546952
9.104                0.966224911     -66.6550805
9.105                0.966156363     -66.7557175
9.106                0.966087567     -66.8566071
9.107                0.966018524       -66.95775
9.108                0.965949231     -67.0591472
9.109                0.965879689     -67.1607994
9.11                 0.965809897     -67.2627075
9.111                0.965739853     -67.3648723
9.112                0.965669557     -67.4672946
9.113                0.965599008     -67.5699753
9.114                0.965528206     -67.6729152
9.115                0.965457149     -67.7761152
9.116                0.965385837     -67.8795761
9.117                0.965314269     -67.9832988
9.118                0.965242445     -68.0872841
9.119                0.965170362     -68.1915328
9.12                 0.965098022     -68.2960459
9.121                0.965025422     -68.4008242
9.122                0.964952562     -68.5058686
9.123                0.964879441     -68.6111799
9.124                0.964806058     -68.7167589
9.125                0.964732413     -68.8226067
9.126                0.964658505      -68.928724
9.127                0.964584333     -69.0351117
9.128                0.964509896     -69.1417707
9.129                0.964435194     -69.2487019
9.13                 0.964360225     -69.3559062
9.131                0.964284988     -69.4633845
9.132                0.964209484     -69.5711376
9.133                 0.96413371     -69.6791665
9.134                0.964057667      -69.787472
9.135                0.963981354     -69.8960551
9.136                0.963904769     -70.0049167
9.137                0.963827912     -70.1140576
9.138                0.963750783     -70.2234787
9.139                0.963673379     -70.3331811
9.14                 0.963595701     -70.4431656
9.141                0.963517748     -70.5534331
9.142                0.963439518     -70.6639845
9.143                0.963361012     -70.7748208
9.144                0.963282227     -70.8859429
9.145                0.963203164     -70.9973516
9.146                0.963123822     -71.1090481
9.147                  0.9630442     -71.2210331
9.148                0.962964296     -71.3333077
9.149                0.962884111     -71.4458727
9.15                 0.962803643     -71.5587291
9.151                0.962722892     -71.6718779
9.152                0.962641857       -71.78532
9.153                0.962560536     -71.8990563
9.154                 0.96247893     -72.0130878
9.155                0.962397037     -72.1274155
9.156                0.962314857     -72.2420403
9.157                0.962232388     -72.3569632
9.158                0.962149631     -72.4721852
9.159                0.962066584     -72.5877072
9.16                 0.961983246     -72.7035302
9.161                0.961899616     -72.8196551
9.162                0.961815695      -72.936083
9.163                 0.96173148     -73.0528148
9.164                0.961646971     -73.1698515
9.165                0.961562168     -73.2871941
9.166                 0.96147707     -73.4048436
9.167                0.961391675     -73.5228009
9.168                0.961305984     -73.6410672
9.169                0.961219994     -73.7596432
9.17                 0.961133707     -73.8785302
9.171                0.961047119      -73.997729
9.172                0.960960232     -74.1172406
9.173                0.960873044     -74.2370662
9.174                0.960785554     -74.3572066
9.175                0.960697762     -74.4776629
9.176                0.960609666     -74.5984362
9.177                0.960521267     -74.7195274
9.178                0.960432562     -74.8409375
9.179                0.960343553     -74.9626676
9.18                 0.960254237     -75.0847187
9.181                0.960164613     -75.2070918
9.182                0.960074682      -75.329788
9.183                0.959984443     -75.4528084
9.184                0.959893894     -75.5761538
9.185                0.959803035     -75.6998254
9.186                0.959711865     -75.8238243
9.187                0.959620384     -75.9481514
9.188                 0.95952859     -76.0728079
9.189                0.959436483     -76.1977947
9.19                 0.959344063     -76.3231129
9.191                0.959251327     -76.4487636
9.192                0.959158277     -76.5747479
9.193                 0.95906491     -76.7010667
9.194                0.958971227     -76.8277212
9.195                0.958877227     -76.9547125
9.196                0.958782908     -77.0820415
9.197                 0.95868827     -77.2097094
9.198                0.958593313     -77.3377173
9.199                0.958498035     -77.4660662
9.2                  0.958402436     -77.5947572
9.201                0.958306516     -77.7237914
9.202                0.958210273     -77.8531698
9.203                0.958113707     -77.9828936
9.204                0.958016817     -78.1129639
9.205                0.957919603     -78.2433817
9.206                0.957822063     -78.3741481
9.207                0.957724198     -78.5052643
9.208                0.957626006     -78.6367313
9.209                0.957527487     -78.7685503
9.21                  0.95742864     -78.9007223
9.211                0.957329465     -79.0332484
9.212                 0.95722996     -79.1661298
9.213                0.957130126     -79.2993676
9.214                0.957029961     -79.4329628
9.215                0.956929465     -79.5669167
9.216                0.956828638     -79.7012303
9.217                0.956727478     -79.8359047
9.218                0.956625986     -79.9709411
9.219                0.956524159     -80.1063405
9.22                 0.956421999     -80.2421042
9.221                0.956319504     -80.3782333
9.222                0.956216673     -80.5147288
9.223                0.956113507     -80.6515919
9.224                0.956010004     -80.7888238
9.225                0.955906164     -80.9264256
9.226                0.955801986     -81.0643985
9.227                 0.95569747     -81.2027435
9.228                0.955592616     -81.3414618
9.229                0.955487422     -81.4805546
9.23                 0.955381888     -81.6200231
9.231                0.955276014     -81.7598683
9.232                0.955169799     -81.9000914
9.233                0.955063242     -82.0406936
9.234                0.954956344     -82.1816761
9.235                0.954849103     -82.3230399
9.236                0.954741519     -82.4647863
9.237                0.954633592     -82.6069165
9.238                0.954525321     -82.7494315
9.239                0.954416706     -82.8923326
9.24                 0.954307746     -83.0356209
9.241                 0.95419844     -83.1792976
9.242                0.954088789     -83.3233639
9.243                0.953978792      -83.467821
9.244                0.953868448     -83.6126699
9.245                0.953757757      -83.757912
9.246                0.953646719     -83.9035483
9.247                0.953535333     -84.0495801
9.248                0.953423599     -84.1960085
9.249                0.953311517     -84.3428348
9.25                 0.953199085     -84.4900601
9.251                0.953086305     -84.6376855
9.252                0.952973174     -84.7857124
9.253                0.952859694     -84.9341418
9.254                0.952745864      -85.082975
9.255                0.952631683     -85.2322131
9.256                0.952517151     -85.3818575
9.257                0.952402269     -85.5319091
9.258                0.952287034     -85.6823693
9.259                0.952171448     -85.8332392
9.26                 0.952055511     -85.9845201
9.261                0.951939221     -86.1362131
9.262                0.951822578     -86.2883195
9.263                0.951705583     -86.4408404
9.264                0.951588235      -86.593777
9.265                0.951470535     -86.7471306
9.266                0.951352481     -86.9009023
9.267                0.951234074     -87.0550934
9.268                0.951115313     -87.2097051
9.269                0.950996198     -87.3647386
9.27                  0.95087673      -87.520195
9.271                0.950756908     -87.6760756
9.272                0.950636732     -87.8323816
9.273                0.950516202     -87.9891142
9.274                0.950395318     -88.1462746
9.275                 0.95027408     -88.3038641
9.276                0.950152488     -88.4618838
9.277                0.950030541     -88.6203349
9.278                 0.94990824     -88.7792187
9.279                0.949785585     -88.9385364
9.28                 0.949662576     -89.0982892
9.281                0.949539213     -89.2584783
9.282                0.949415495     -89.4191049
9.283                0.949291424     -89.5801702
9.284                0.949166998     -89.7416754
9.285                0.949042219     -89.9036218
9.286                0.948917086     -90.0660106
9.287                  0.9487916     -90.2288429
9.288                 0.94866576     -90.3921201
9.289                0.948539567     -90.5558432
9.29                 0.948413021     -90.7200136
9.291                0.948286122     -90.8846324
9.292                0.948158871     -91.0497008
9.293                0.948031267       -91.21522
9.294                0.947903311     -91.3811914
9.295                0.947775004      -91.547616
9.296                0.947646345      -91.714495
9.297                0.947517335     -91.8818298
9.298                0.947387974     -92.0496214
9.299                0.947258262     -92.2178712
9.3                  0.947128201     -92.3865802
9.301                 0.94699779     -92.5557497
9.302                 0.94686703      -92.725381
9.303                0.946735921     -92.8954752
9.304                0.946604464     -93.0660335
9.305                0.946472659     -93.2370571
9.306                0.946340507     -93.4085472
9.307                0.946208008      -93.580505
9.308                0.946075163     -93.7529317
9.309                0.945941972     -93.9258285
9.31                 0.945808437     -94.0991966
9.311                0.945674557     -94.2730372
9.312                0.945540333     -94.4473514
9.313                0.945405766     -94.6221405
9.314                0.945270857     -94.7974056
9.315                0.945135607      -94.973148
9.316                0.945000015     -95.1493687
9.317                0.944864084     -95.3260691
9.318                0.944727813     -95.5032501
9.319                0.944591204     -95.6809131
9.32                 0.944454257     -95.8590592
9.321                0.944316973     -96.0376896
9.322                0.944179354     -96.2168054
9.323                0.944041399     -96.3964078
9.324                0.943903111     -96.5764979
9.325                0.943764489     -96.7570769
9.326                0.943625536      -96.938146
9.327                0.943486252     -97.1197063
9.328                0.943346638      -97.301759
9.329                0.943206695     -97.4843052
9.33                 0.943066424      -97.667346
9.331                0.942925827     -97.8508826
9.332                0.942784904     -98.0349161
9.333                0.942643658     -98.2194476
9.334                0.942502088     -98.4044783
9.335                0.942360197     -98.5900093
9.336                0.942217985     -98.7760418
9.337                0.942075454     -98.9625767
9.338                0.941932606     -99.1496152
9.339                0.941789441     -99.3371585
9.34                 0.941645962     -99.5252077
9.341                0.941502169     -99.7137638
9.342                0.941358064     -99.9028278
9.343                0.941213649     -100.092401
9.344                0.941068925     -100.282484
9.345                0.940923893     -100.473079
9.346                0.940778556     -100.664186
9.347                0.940632914     -100.855807
9.348                0.940486971     -101.047941
9.349                0.940340726     -101.240592
9.35                 0.940194183     -101.433759
9.351                0.940047342     -101.627443
9.352                0.939900207     -101.821647
9.353                0.939752777      -102.01637
9.354                0.939605056     -102.211613
9.355                0.939457046     -102.407379
9.356                0.939308747     -102.603667
9.357                0.939160163     -102.800479
9.358                0.939011295     -102.997815
9.359                0.938862146     -103.195678
9.36                 0.938712717     -103.394067
9.361                 0.93856301     -103.592984
9.362                0.938413028     -103.792429
9.363                0.938262774     -103.992404
9.364                0.938112248      -104.19291
9.365                0.937961454     -104.393947
9.366                0.937810394     -104.595517
9.367                 0.93765907     -104.797621
9.368                0.937507484     -105.000258
9.369                 0.93735564     -105.203431
9.37                 0.937203539     -105.407141
9.371                0.937051184     -105.611387
9.372                0.936898578     -105.816171
9.373                0.936745723     -106.021494
9.374                0.936592623     -106.227357
9.375                0.936439278     -106.433761
9.376                0.936285693     -106.640706
9.377                 0.93613187     -106.848194
9.378                0.935977812     -107.056224
9.379                0.935823522     -107.264799
9.38                 0.935669003     -107.473918
9.381                0.935514257     -107.683584
9.382                0.935359287     -107.893795
9.383                0.935204098     -108.104554
9.384                0.935048691     -108.315861
9.385                0.934893069     -108.527717
9.386                0.934737237     -108.740122
9.387                0.934581197     -108.953077
9.388                0.934424953     -109.166584
9.389                0.934268507     -109.380642
9.39                 0.934111863     -109.595253
9.391                0.933955025     -109.810417
9.392                0.933797996     -110.026135
9.393                0.933640779     -110.242407
9.394                0.933483378     -110.459235
9.395                0.933325796     -110.676619
9.396                0.933168038     -110.894559
