! TOUCHSTONE file generated by CST DESIGN STUDIO
! Date and time: Tue Feb  4 13:46:40 2025
! Project name: C:\Work\MatlabApps\UnitCellOptimizationMatlab\CST\unitcell.cst
! Tree item: Tasks\Sweep1\SPara1\S-Parameters
! Header version: 2024
! Port assignment regex: !\s*Touchstone port\s*([0-9]+)\s*=\s*(CST MWS port|CST DES external port|CST DES block port)\s*(.+)\s* \(\"(.*)\"\)(\s*mode\s*([0-9]+))?.*
! Touchstone port assignment:
! Touchstone port 1 = CST DES external port 1 ("")
# GHz S MA R 50
9                     0.96836285     -66.1430308
9.001                0.968301001     -66.2393975
9.002                0.968238942      -66.336002
9.003                0.968176672     -66.4328448
9.004                 0.96811419     -66.5299269
9.005                0.968051495      -66.627249
9.006                0.967988586     -66.7248118
9.007                0.967925463     -66.8226162
9.008                0.967862126     -66.9206629
9.009                0.967798573     -67.0189527
9.01                 0.967734803     -67.1174864
9.011                0.967670817     -67.2162648
9.012                0.967606612     -67.3152886
9.013                 0.96754219     -67.4145586
9.014                0.967477548     -67.5140757
9.015                0.967412686     -67.6138407
9.016                0.967347603     -67.7138543
9.017                0.967282299     -67.8141173
9.018                0.967216773     -67.9146306
9.019                0.967151024     -68.0153949
9.02                 0.967085051     -68.1164111
9.021                0.967018854       -68.21768
9.022                0.966952432     -68.3192023
9.023                0.966885784      -68.420979
9.024                0.966818909     -68.5230108
9.025                0.966751807     -68.6252985
9.026                0.966684477      -68.727843
9.027                0.966616918     -68.8306451
9.028                 0.96654913     -68.9337057
9.029                0.966481111     -69.0370255
9.03                 0.966412862     -69.1406054
9.031                 0.96634438     -69.2444463
9.032                0.966275666     -69.3485489
9.033                0.966206719     -69.4529142
9.034                0.966137537      -69.557543
9.035                0.966068121      -69.662436
9.036                 0.96599847     -69.7675943
9.037                0.965928582     -69.8730186
9.038                0.965858457     -69.9787097
9.039                0.965788094     -70.0846686
9.04                 0.965717493     -70.1908962
9.041                0.965646652     -70.2973932
9.042                0.965575572     -70.4041605
9.043                 0.96550425      -70.511199
9.044                0.965432687     -70.6185097
9.045                0.965360882     -70.7260933
9.046                0.965288833     -70.8339507
9.047                0.965216541     -70.9420829
9.048                0.965144004     -71.0504906
9.049                0.965071222     -71.1591749
9.05                 0.964998194     -71.2681365
9.051                0.964924919     -71.3773765
9.052                0.964851396     -71.4868955
9.053                0.964777625     -71.5966947
9.054                0.964703605     -71.7067748
9.055                0.964629335     -71.8171368
9.056                0.964554814     -71.9277815
9.057                0.964480042       -72.03871
9.058                0.964405018      -72.149923
9.059                0.964329741     -72.2614215
9.06                  0.96425421     -72.3732065
9.061                0.964178425     -72.4852788
9.062                0.964102384     -72.5976394
9.063                0.964026088     -72.7102891
9.064                0.963949535      -72.823229
9.065                0.963872724     -72.9364599
9.066                0.963795655     -73.0499828
9.067                0.963718327     -73.1637986
9.068                 0.96364074     -73.2779082
9.069                0.963562892     -73.3923126
9.07                 0.963484782     -73.5070128
9.071                0.963406411     -73.6220096
9.072                0.963327777     -73.7373041
9.073                 0.96324888     -73.8528972
9.074                0.963169718     -73.9687897
9.075                0.963090291     -74.0849828
9.076                0.963010598     -74.2014773
9.077                0.962930639     -74.3182742
9.078                0.962850413     -74.4353745
9.079                0.962769919     -74.5527791
9.08                 0.962689156      -74.670489
9.081                0.962608123     -74.7885052
9.082                 0.96252682     -74.9068286
9.083                0.962445246     -75.0254603
9.084                0.962363401     -75.1444012
9.085                0.962281283     -75.2636523
9.086                0.962198892     -75.3832146
9.087                0.962116227      -75.503089
9.088                0.962033287     -75.6232766
9.089                0.961950072     -75.7437783
9.09                  0.96186658     -75.8645952
9.091                0.961782812     -75.9857282
9.092                0.961698766     -76.1071784
9.093                0.961614442     -76.2289467
9.094                0.961529839     -76.3510341
9.095                0.961444956     -76.4734418
9.096                0.961359792     -76.5961706
9.097                0.961274347     -76.7192216
9.098                0.961188621     -76.8425957
9.099                0.961102611     -76.9662941
9.1                  0.961016319     -77.0903178
9.101                0.960929742     -77.2146677
9.102                 0.96084288     -77.3393449
9.103                0.960755733     -77.4643504
9.104                  0.9606683     -77.5896853
9.105                0.960580579     -77.7153505
9.106                0.960492572     -77.8413472
9.107                0.960404276     -77.9676763
9.108                 0.96031569      -78.094339
9.109                0.960226816     -78.2213362
9.11                 0.960137651     -78.3486689
9.111                0.960048194     -78.4763383
9.112                0.959958446     -78.6043454
9.113                0.959868406     -78.7326912
9.114                0.959778073     -78.8613768
9.115                0.959687446     -78.9904033
9.116                0.959596524     -79.1197717
9.117                0.959505308      -79.249483
9.118                0.959413795     -79.3795384
9.119                0.959321986     -79.5099389
9.12                 0.959229881     -79.6406855
9.121                0.959137477     -79.7717795
9.122                0.959044776     -79.9032217
9.123                0.958951775     -80.0350133
9.124                0.958858474     -80.1671554
9.125                0.958764874     -80.2996491
9.126                0.958670973     -80.4324953
9.127                 0.95857677     -80.5656953
9.128                0.958482265     -80.6992501
9.129                0.958387457     -80.8331609
9.13                 0.958292346     -80.9674285
9.131                0.958196931     -81.1020543
9.132                0.958101212     -81.2370393
9.133                0.958005187     -81.3723845
9.134                0.957908857     -81.5080911
9.135                0.957812221     -81.6441601
9.136                0.957715278     -81.7805928
9.137                0.957618027     -81.9173901
9.138                0.957520469     -82.0545532
9.139                0.957422601     -82.1920832
9.14                 0.957324425     -82.3299812
9.141                0.957225939     -82.4682484
9.142                0.957127143     -82.6068857
9.143                0.957028037     -82.7458945
9.144                0.956928619     -82.8852757
9.145                0.956828889     -83.0250305
9.146                0.956728847       -83.16516
9.147                0.956628493     -83.3056653
9.148                0.956527825     -83.4465476
9.149                0.956426843      -83.587808
9.15                 0.956325547     -83.7294477
9.151                0.956223937     -83.8714676
9.152                0.956122011     -84.0138691
9.153                 0.95601977     -84.1566532
9.154                0.955917212      -84.299821
9.155                0.955814338     -84.4433737
9.156                0.955711147     -84.5873125
9.157                0.955607639     -84.7316384
9.158                0.955503813     -84.8763527
9.159                0.955399668     -85.0214564
9.16                 0.955295205     -85.1669506
9.161                0.955190423     -85.3128367
9.162                0.955085321     -85.4591156
9.163                  0.9549799     -85.6057886
9.164                0.954874158     -85.7528567
9.165                0.954768096     -85.9003212
9.166                0.954661713     -86.0481832
9.167                0.954555009     -86.1964438
9.168                0.954447983     -86.3451042
9.169                0.954340635     -86.4941656
9.17                 0.954232965     -86.6436291
9.171                0.954124972     -86.7934958
9.172                0.954016657      -86.943767
9.173                0.953908019     -87.0944438
9.174                0.953799057     -87.2455273
9.175                0.953689772     -87.3970187
9.176                0.953580163     -87.5489192
9.177                0.953470229     -87.7012299
9.178                0.953359972      -87.853952
9.179                 0.95324939     -88.0070866
9.18                 0.953138483      -88.160635
9.181                0.953027251     -88.3145983
9.182                0.952915694     -88.4689776
9.183                0.952803812     -88.6237741
9.184                0.952691604     -88.7789891
9.185                0.952579071     -88.9346235
9.186                0.952466212     -89.0906787
9.187                0.952353028     -89.2471558
9.188                0.952239517      -89.404056
9.189                0.952125681     -89.5613803
9.19                 0.952011518     -89.7191301
9.191                0.951897029     -89.8773064
9.192                0.951782214     -90.0359104
9.193                0.951667073     -90.1949434
9.194                0.951551606     -90.3544064
9.195                0.951435812     -90.5143007
9.196                0.951319692     -90.6746273
9.197                0.951203246     -90.8353876
9.198                0.951086474     -90.9965825
9.199                0.950969375     -91.1582134
9.2                  0.950851951     -91.3202814
9.201                0.950734201     -91.4827876
9.202                0.950616124     -91.6457332
9.203                0.950497722     -91.8091194
9.204                0.950378995     -91.9729473
9.205                0.950259942     -92.1372182
9.206                0.950140563     -92.3019331
9.207                 0.95002086     -92.4670932
9.208                0.949900831     -92.6326997
9.209                0.949780478     -92.7987538
9.21                 0.949659801     -92.9652567
9.211                0.949538799     -93.1322094
9.212                0.949417473     -93.2996131
9.213                0.949295824      -93.467469
9.214                0.949173851     -93.6357783
9.215                0.949051556     -93.8045421
9.216                0.948928937     -93.9737615
9.217                0.948805997     -94.1434378
9.218                0.948682734      -94.313572
9.219                 0.94855915     -94.4841653
9.22                 0.948435245     -94.6552189
9.221                0.948311019     -94.8267338
9.222                0.948186473     -94.9987114
9.223                0.948061608     -95.1711526
9.224                0.947936423     -95.3440586
9.225                0.947810919     -95.5174306
9.226                0.947685097     -95.6912698
9.227                0.947558958     -95.8655771
9.228                0.947432502     -96.0403538
9.229                0.947305729      -96.215601
9.23                 0.947178641     -96.3913199
9.231                0.947051238     -96.5675114
9.232                 0.94692352     -96.7441769
9.233                0.946795489     -96.9213173
9.234                0.946667144     -97.0989338
9.235                0.946538488     -97.2770276
9.236                0.946409519     -97.4555997
9.237                0.946280241     -97.6346512
9.238                0.946150652     -97.8141832
9.239                0.946020755     -97.9941969
9.24                 0.945890549     -98.1746933
9.241                0.945760036     -98.3556735
9.242                0.945629217     -98.5371387
9.243                0.945498092     -98.7190899
9.244                0.945366663     -98.9015281
9.245                0.945234931     -99.0844546
9.246                0.945102896     -99.2678702
9.247                 0.94497056     -99.4517762
9.248                0.944837924     -99.6361736
9.249                0.944704988     -99.8210634
9.25                 0.944571755     -100.006447
9.251                0.944438224     -100.192325
9.252                0.944304398     -100.378698
9.253                0.944170277     -100.565568
9.254                0.944035864     -100.752936
9.255                0.943901158     -100.940803
9.256                0.943766161     -101.129169
9.257                0.943630875     -101.318036
9.258                0.943495302     -101.507405
9.259                0.943359441     -101.697277
9.26                 0.943223296     -101.887653
9.261                0.943086866     -102.078533
9.262                0.942950155      -102.26992
9.263                0.942813162     -102.461813
9.264                 0.94267589     -102.654214
9.265                0.942538341     -102.847124
9.266                0.942400516     -103.040543
9.267                0.942262416     -103.234474
9.268                0.942124043     -103.428916
9.269                  0.9419854     -103.623871
9.27                 0.941846487     -103.819339
9.271                0.941707306     -104.015322
9.272                 0.94156786     -104.211821
9.273                 0.94142815     -104.408836
9.274                0.941288177     -104.606368
9.275                0.941147945     -104.804419
9.276                0.941007454     -105.002989
9.277                0.940866706     -105.202079
9.278                0.940725705      -105.40169
9.279                0.940584451     -105.601822
9.28                 0.940442947     -105.802478
9.281                0.940301195     -106.003657
9.282                0.940159197     -106.205361
9.283                0.940016955      -106.40759
9.284                0.939874471     -106.610345
9.285                0.939731749     -106.813627
9.286                0.939588789     -107.017438
9.287                0.939445594     -107.221776
9.288                0.939302167     -107.426645
9.289                 0.93915851     -107.632043
9.29                 0.939014626     -107.837973
9.291                0.938870516     -108.044435
9.292                0.938726184     -108.251429
9.293                0.938581632     -108.458957
9.294                0.938436862     -108.667019
9.295                0.938291878     -108.875616
9.296                0.938146682     -109.084748
9.297                0.938001276     -109.294417
9.298                0.937855663     -109.504623
9.299                0.937709846     -109.715367
9.3                  0.937563829     -109.926649
9.301                0.937417613      -110.13847
9.302                0.937271202     -110.350832
9.303                0.937124599     -110.563734
9.304                0.936977806     -110.777177
9.305                0.936830827     -110.991161
9.306                0.936683664     -111.205689
9.307                0.936536322     -111.420759
9.308                0.936388802     -111.636373
9.309                0.936241109     -111.852531
9.31                 0.936093245     -112.069234
9.311                0.935945214     -112.286483
9.312                0.935797018     -112.504277
9.313                0.935648663     -112.722618
9.314                 0.93550015     -112.941506
9.315                0.935351483     -113.160942
9.316                0.935202666     -113.380925
9.317                0.935053702     -113.601458
9.318                0.934904596     -113.822539
9.319                0.934755349     -114.044169
9.32                 0.934605967      -114.26635
9.321                0.934456453     -114.489081
9.322                0.934306811     -114.712362
9.323                0.934157044     -114.936195
9.324                0.934007156      -115.16058
9.325                0.933857152     -115.385516
9.326                0.933707035     -115.611005
9.327                0.933556808     -115.837046
9.328                0.933406477     -116.063641
9.329                0.933256046     -116.290789
9.33                 0.933105517      -116.51849
9.331                0.932954897     -116.746745
9.332                0.932804188     -116.975555
9.333                0.932653395     -117.204919
9.334                0.932502522     -117.434837
9.335                0.932351574     -117.665311
9.336                0.932200555     -117.896339
9.337                0.932049469     -118.127923
9.338                0.931898322     -118.360063
9.339                0.931747117     -118.592758
9.34                 0.931595859     -118.826008
9.341                0.931444553     -119.059815
9.342                0.931293204     -119.294177
9.343                0.931141815     -119.529096
9.344                0.930990393     -119.764571
9.345                0.930838941     -120.000602
9.346                0.930687465     -120.237189
9.347                0.930535969     -120.474332
9.348                0.930384459     -120.712031
9.349                0.930232939     -120.950287
9.35                 0.930081415     -121.189099
9.351                0.929929892     -121.428467
9.352                0.929778374     -121.668391
9.353                0.929626867      -121.90887
9.354                0.929475376     -122.149906
9.355                0.929323907     -122.391497
9.356                0.929172464     -122.633643
9.357                0.929021054     -122.876345
9.358                0.928869681     -123.119602
9.359                0.928718352     -123.363414
9.36                 0.928567071      -123.60778
9.361                0.928415844       -123.8527
9.362                0.928264677     -124.098175
9.363                0.928113575     -124.344203
9.364                0.927962544     -124.590785
9.365                 0.92781159      -124.83792
9.366                0.927660719     -125.085607
9.367                0.927509936     -125.333847
9.368                0.927359247     -125.582638
9.369                0.927208659     -125.831981
9.37                 0.927058177     -126.081875
9.371                0.926907807     -126.332319
9.372                0.926757555     -126.583313
9.373                0.926607427     -126.834857
9.374                0.926457431      -127.08695
9.375                 0.92630757      -127.33959
9.376                0.926157853     -127.592779
9.377                0.926008285     -127.846514
9.378                0.925858873     -128.100796
9.379                0.925709622     -128.355623
9.38                 0.925560539     -128.610996
9.381                0.925411632     -128.866913
9.382                0.925262905     -129.123373
9.383                0.925114366     -129.380376
9.384                0.924966022     -129.637921
9.385                0.924817878     -129.896008
9.386                0.924669941     -130.154634
9.387                0.924522219       -130.4138
9.388                0.924374718     -130.673505
9.389                0.924227445     -130.933747
9.39                 0.924080406     -131.194525
9.391                0.923933608      -131.45584
9.392                0.923787058     -131.717689
9.393                0.923640764     -131.980072
9.394                0.923494732     -132.242987
9.395                0.923348968     -132.506434
9.396                0.923203481     -132.770411
