! TOUCHSTONE file generated by CST DESIGN STUDIO
! Date and time: Tue Feb  4 13:46:43 2025
! Project name: C:\Work\MatlabApps\UnitCellOptimizationMatlab\CST\unitcell.cst
! Tree item: Tasks\Sweep1\SPara1\S-Parameters
! Header version: 2024
! Port assignment regex: !\s*Touchstone port\s*([0-9]+)\s*=\s*(CST MWS port|CST DES external port|CST DES block port)\s*(.+)\s* \(\"(.*)\"\)(\s*mode\s*([0-9]+))?.*
! Touchstone port assignment:
! Touchstone port 1 = CST DES external port 1 ("")
# GHz S MA R 50
9                     0.97091521     -60.2715399
9.001                0.970863768     -60.3555311
9.002                0.970812138     -60.4397206
9.003                 0.97076032     -60.5241092
9.004                0.970708314     -60.6086974
9.005                0.970656118     -60.6934858
9.006                0.970603732     -60.7784752
9.007                0.970551155     -60.8636661
9.008                0.970498387     -60.9490592
9.009                0.970445427     -61.0346552
9.01                 0.970392274     -61.1204547
9.011                0.970338928     -61.2064583
9.012                0.970285387     -61.2926667
9.013                0.970231652     -61.3790805
9.014                0.970177722     -61.4657005
9.015                0.970123595     -61.5525272
9.016                0.970069272     -61.6395614
9.017                0.970014751     -61.7268037
9.018                0.969960032     -61.8142547
9.019                0.969905114     -61.9019152
9.02                 0.969849996     -61.9897858
9.021                0.969794679     -62.0778672
9.022                 0.96973916     -62.1661601
9.023                 0.96968344     -62.2546651
9.024                0.969627517     -62.3433829
9.025                0.969571392     -62.4323142
9.026                0.969515062     -62.5214598
9.027                0.969458528     -62.6108202
9.028                0.969401789     -62.7003962
9.029                0.969344845     -62.7901885
9.03                 0.969287693     -62.8801977
9.031                0.969230334     -62.9704246
9.032                0.969172768     -63.0608699
9.033                0.969114992     -63.1515342
9.034                0.969057008     -63.2424183
9.035                0.968998813      -63.333523
9.036                0.968940407     -63.4248488
9.037                 0.96888179     -63.5163965
9.038                 0.96882296     -63.6081668
9.039                0.968763918     -63.7001605
9.04                 0.968704661     -63.7923783
9.041                 0.96864519     -63.8848208
9.042                0.968585504     -63.9774889
9.043                0.968525603     -64.0703832
9.044                0.968465484     -64.1635045
9.045                0.968405148     -64.2568535
9.046                0.968344594     -64.3504309
9.047                0.968283821     -64.4442375
9.048                0.968222828     -64.5382741
9.049                0.968161615     -64.6325413
9.05                 0.968100181     -64.7270399
9.051                0.968038525     -64.8217707
9.052                0.967976647     -64.9167344
9.053                0.967914545     -65.0119317
9.054                0.967852219     -65.1073635
9.055                0.967789668     -65.2030304
9.056                0.967726892     -65.2989333
9.057                0.967663889     -65.3950729
9.058                 0.96760066       -65.49145
9.059                0.967537202     -65.5880653
9.06                 0.967473516     -65.6849196
9.061                0.967409601     -65.7820138
9.062                0.967345455     -65.8793484
9.063                0.967281079     -65.9769244
9.064                0.967216471     -66.0747426
9.065                 0.96715163     -66.1728036
9.066                0.967086556     -66.2711084
9.067                0.967021249     -66.3696576
9.068                0.966955707     -66.4684521
9.069                0.966889929     -66.5674927
9.07                 0.966823915     -66.6667801
9.071                0.966757664     -66.7663153
9.072                0.966691175     -66.8660989
9.073                0.966624448     -66.9661317
9.074                0.966557482     -67.0664147
9.075                0.966490275     -67.1669486
9.076                0.966422827     -67.2677342
9.077                0.966355138     -67.3687723
9.078                0.966287207     -67.4700637
9.079                0.966219032     -67.5716094
9.08                 0.966150613       -67.67341
9.081                 0.96608195     -67.7754664
9.082                0.966013041     -67.8777795
9.083                0.965943885     -67.9803501
9.084                0.965874483      -68.083179
9.085                0.965804832     -68.1862671
9.086                0.965734933     -68.2896151
9.087                0.965664784      -68.393224
9.088                0.965594386     -68.4970946
9.089                0.965523736     -68.6012277
9.09                 0.965452834     -68.7056242
9.091                 0.96538168      -68.810285
9.092                0.965310272     -68.9152108
9.093                 0.96523861     -69.0204026
9.094                0.965166693     -69.1258612
9.095                 0.96509452     -69.2315875
9.096                0.965022091     -69.3375824
9.097                0.964949404     -69.4438467
9.098                0.964876459     -69.5503813
9.099                0.964803255      -69.657187
9.1                  0.964729792     -69.7642648
9.101                0.964656068     -69.8716155
9.102                0.964582082     -69.9792401
9.103                0.964507834     -70.0871393
9.104                0.964433324     -70.1953142
9.105                 0.96435855     -70.3037655
9.106                0.964283511     -70.4124942
9.107                0.964208207     -70.5215012
9.108                0.964132636     -70.6307874
9.109                0.964056799     -70.7403536
9.11                 0.963980694     -70.8502009
9.111                0.963904321       -70.96033
9.112                0.963827678      -71.070742
9.113                0.963750765     -71.1814376
9.114                0.963673582      -71.292418
9.115                0.963596126     -71.4036838
9.116                0.963518398     -71.5152362
9.117                0.963440397      -71.627076
9.118                0.963362122     -71.7392041
9.119                0.963283572     -71.8516215
9.12                 0.963204746     -71.9643291
9.121                0.963125644     -72.0773278
9.122                0.963046264     -72.1906186
9.123                0.962966607     -72.3042024
9.124                 0.96288667     -72.4180802
9.125                0.962806454     -72.5322529
9.126                0.962725958     -72.6467215
9.127                 0.96264518     -72.7614868
9.128                 0.96256412       -72.87655
9.129                0.962482778     -72.9919119
9.13                 0.962401152     -73.1075735
9.131                0.962319241     -73.2235357
9.132                0.962237046     -73.3397996
9.133                0.962154564      -73.456366
9.134                0.962071796     -73.5732361
9.135                 0.96198874     -73.6904106
9.136                0.961905396     -73.8078907
9.137                0.961821763     -73.9256773
9.138                 0.96173784     -74.0437714
9.139                0.961653627     -74.1621739
9.14                 0.961569122     -74.2808859
9.141                0.961484325     -74.3999083
9.142                0.961399235     -74.5192422
9.143                0.961313851     -74.6388885
9.144                0.961228172     -74.7588483
9.145                0.961142199     -74.8791225
9.146                0.961055929     -74.9997122
9.147                0.960969363     -75.1206183
9.148                0.960882499     -75.2418418
9.149                0.960795337     -75.3633839
9.15                 0.960707876     -75.4852454
9.151                0.960620115     -75.6074274
9.152                0.960532053      -75.729931
9.153                 0.96044369     -75.8527572
9.154                0.960355025     -75.9759069
9.155                0.960266057     -76.0993812
9.156                0.960176786     -76.2231812
9.157                 0.96008721     -76.3473078
9.158                0.959997329     -76.4717622
9.159                0.959907143     -76.5965453
9.16                  0.95981665     -76.7216581
9.161                0.959725849     -76.8471019
9.162                0.959634741     -76.9728775
9.163                0.959543324      -77.098986
9.164                0.959451598     -77.2254286
9.165                0.959359562     -77.3522062
9.166                0.959267214     -77.4793198
9.167                0.959174555     -77.6067707
9.168                0.959081584     -77.7345597
9.169                  0.9589883      -77.862688
9.17                 0.958894703     -77.9911567
9.171                0.958800791     -78.1199668
9.172                0.958706564     -78.2491194
9.173                0.958612021     -78.3786156
9.174                0.958517162     -78.5084564
9.175                0.958421985     -78.6386429
9.176                0.958326491     -78.7691763
9.177                0.958230679     -78.9000575
9.178                0.958134547     -79.0312877
9.179                0.958038096      -79.162868
9.18                 0.957941324     -79.2947994
9.181                0.957844231     -79.4270831
9.182                0.957746816     -79.5597201
9.183                0.957649079     -79.6927116
9.184                0.957551019     -79.8260586
9.185                0.957452636     -79.9597622
9.186                0.957353928     -80.0938236
9.187                0.957254895     -80.2282439
9.188                0.957155537     -80.3630242
9.189                0.957055853     -80.4981655
9.19                 0.956955842      -80.633669
9.191                0.956855503     -80.7695358
9.192                0.956754837     -80.9057671
9.193                0.956653842     -81.0423639
9.194                0.956552519     -81.1793274
9.195                0.956450865     -81.3166586
9.196                0.956348882     -81.4543588
9.197                0.956246567     -81.5924291
9.198                0.956143922     -81.7308705
9.199                0.956040944     -81.8696843
9.2                  0.955937634     -82.0088715
9.201                0.955833991     -82.1484333
9.202                0.955730015     -82.2883708
9.203                0.955625704     -82.4286852
9.204                 0.95552106     -82.5693775
9.205                 0.95541608     -82.7104491
9.206                0.955310765     -82.8519009
9.207                0.955205113     -82.9937342
9.208                0.955099126     -83.1359501
9.209                0.954992801     -83.2785497
9.21                 0.954886139     -83.4215342
9.211                0.954779139     -83.5649048
9.212                0.954671801     -83.7086626
9.213                0.954564124     -83.8528088
9.214                0.954456108     -83.9973445
9.215                0.954347752     -84.1422708
9.216                0.954239056     -84.2875891
9.217                 0.95413002     -84.4333003
9.218                0.954020644     -84.5794058
9.219                0.953910926     -84.7259066
9.22                 0.953800866     -84.8728039
9.221                0.953690465     -85.0200989
9.222                0.953579721     -85.1677927
9.223                0.953468635     -85.3158866
9.224                0.953357206     -85.4643817
9.225                0.953245434     -85.6132792
9.226                0.953133318     -85.7625802
9.227                0.953020858      -85.912286
9.228                0.952908054     -86.0623977
9.229                0.952794906     -86.2129165
9.23                 0.952681413     -86.3638436
9.231                0.952567576     -86.5151801
9.232                0.952453393     -86.6669273
9.233                0.952338864     -86.8190863
9.234                 0.95222399     -86.9716584
9.235                0.952108771     -87.1246446
9.236                0.951993205     -87.2780462
9.237                0.951877293     -87.4318644
9.238                0.951761035     -87.5861003
9.239                 0.95164443     -87.7407552
9.24                 0.951527479     -87.8958302
9.241                 0.95141018     -88.0513266
9.242                0.951292535     -88.2072454
9.243                0.951174543      -88.363588
9.244                0.951056204     -88.5203555
9.245                0.950937518     -88.6775491
9.246                0.950818485       -88.83517
9.247                0.950699104     -88.9932193
9.248                0.950579376     -89.1516983
9.249                0.950459301     -89.3106082
9.25                 0.950338879     -89.4699502
9.251                0.950218109     -89.6297254
9.252                0.950096992      -89.789935
9.253                0.949975528     -89.9505803
9.254                0.949853717     -90.1116624
9.255                0.949731559     -90.2731826
9.256                0.949609054      -90.435142
9.257                0.949486202     -90.5975418
9.258                0.949363003     -90.7603832
9.259                0.949239458     -90.9236674
9.26                 0.949115567     -91.0873956
9.261                0.948991329      -91.251569
9.262                0.948866746     -91.4161887
9.263                0.948741817      -91.581256
9.264                0.948616542     -91.7467721
9.265                0.948490922     -91.9127381
9.266                0.948364957     -92.0791553
9.267                0.948238647     -92.2460248
9.268                0.948111993     -92.4133478
9.269                0.947984995     -92.5811254
9.27                 0.947857654      -92.749359
9.271                0.947729969     -92.9180496
9.272                0.947601941     -93.0871985
9.273                0.947473571     -93.2568068
9.274                0.947344858     -93.4268757
9.275                0.947215804     -93.5974064
9.276                0.947086409     -93.7684001
9.277                0.946956673     -93.9398579
9.278                0.946826597      -94.111781
9.279                0.946696182     -94.2841706
9.28                 0.946565427     -94.4570279
9.281                0.946434335      -94.630354
9.282                0.946302904     -94.8041501
9.283                0.946171136     -94.9784173
9.284                0.946039032     -95.1531569
9.285                0.945906591     -95.3283699
9.286                0.945773816     -95.5040576
9.287                0.945640706     -95.6802211
9.288                0.945507263     -95.8568616
9.289                0.945373486     -96.0339801
9.29                 0.945239378     -96.2115779
9.291                0.945104938     -96.3896561
9.292                0.944970167     -96.5682159
9.293                0.944835068     -96.7472583
9.294                0.944699639     -96.9267845
9.295                0.944563883     -97.1067958
9.296                  0.9444278     -97.2872931
9.297                0.944291391     -97.4682776
9.298                0.944154657     -97.6497505
9.299                  0.9440176     -97.8317128
9.3                   0.94388022     -98.0141657
9.301                0.943742518     -98.1971103
9.302                0.943604496     -98.3805478
9.303                0.943466154     -98.5644791
9.304                0.943327494     -98.7489055
9.305                0.943188517      -98.933828
9.306                0.943049224     -99.1192477
9.307                0.942909617     -99.3051657
9.308                0.942769697     -99.4915832
9.309                0.942629464     -99.6785011
9.31                 0.942488921     -99.8659205
9.311                0.942348069     -100.053843
9.312                0.942206909     -100.242268
9.313                0.942065443     -100.431199
9.314                0.941923672     -100.620635
9.315                0.941781597     -100.810579
9.316                0.941639221      -101.00103
9.317                0.941496544      -101.19199
9.318                0.941353568      -101.38346
9.319                0.941210296     -101.575442
9.32                 0.941066728     -101.767935
9.321                0.940922867     -101.960941
9.322                0.940778713     -102.154462
9.323                 0.94063427     -102.348498
9.324                0.940489537     -102.543049
9.325                0.940344519     -102.738118
9.326                0.940199215     -102.933706
9.327                0.940053629     -103.129812
9.328                0.939907762     -103.326438
9.329                0.939761616     -103.523585
9.33                 0.939615194     -103.721255
9.331                0.939468496     -103.919447
9.332                0.939321526     -104.118163
9.333                0.939174285     -104.317404
9.334                0.939026775     -104.517171
9.335                0.938878999     -104.717465
9.336                0.938730959     -104.918286
9.337                0.938582658     -105.119636
9.338                0.938434097     -105.321516
9.339                0.938285278     -105.523926
9.34                 0.938136205     -105.726867
9.341                 0.93798688      -105.93034
9.342                0.937837304     -106.134346
9.343                0.937687482     -106.338887
9.344                0.937537414     -106.543961
9.345                0.937387104     -106.749572
9.346                0.937236555     -106.955719
9.347                0.937085768     -107.162403
9.348                0.936934747     -107.369626
9.349                0.936783495     -107.577387
9.35                 0.936632014     -107.785688
9.351                0.936480307     -107.994529
9.352                0.936328377     -108.203912
9.353                0.936176226     -108.413837
9.354                0.936023859     -108.624305
9.355                0.935871277     -108.835316
9.356                0.935718484     -109.046871
9.357                0.935565483     -109.258972
9.358                0.935412276     -109.471618
9.359                0.935258868     -109.684811
9.36                 0.935105262      -109.89855
9.361                 0.93495146     -110.112838
9.362                0.934797465     -110.327674
9.363                0.934643283      -110.54306
9.364                0.934488914     -110.758995
9.365                0.934334364     -110.975481
9.366                0.934179636     -111.192518
9.367                0.934024732     -111.410106
9.368                0.933869657     -111.628247
9.369                0.933714414     -111.846941
9.37                 0.933559008     -112.066188
9.371                 0.93340344     -112.285989
9.372                0.933247716     -112.506345
9.373                 0.93309184     -112.727256
9.374                0.932935814     -112.948723
9.375                0.932779643     -113.170746
9.376                0.932623331     -113.393325
9.377                0.932466882     -113.616462
9.378                  0.9323103     -113.840156
9.379                0.932153588     -114.064408
9.38                 0.931996752     -114.289219
9.381                0.931839795     -114.514589
9.382                0.931682721     -114.740518
9.383                0.931525535     -114.967007
9.384                0.931368241     -115.194056
9.385                0.931210843     -115.421666
9.386                0.931053346     -115.649836
9.387                0.930895755     -115.878568
9.388                0.930738073     -116.107861
9.389                0.930580305     -116.337716
9.39                 0.930422457     -116.568133
9.391                0.930264532     -116.799112
9.392                0.930106536     -117.030654
9.393                0.929948472     -117.262759
9.394                0.929790347     -117.495427
9.395                0.929632164     -117.728658
9.396                0.929473929     -117.962453
