! TOUCHSTONE file generated by CST DESIGN STUDIO
! Date and time: Tue Feb  4 14:09:34 2025
! Project name: C:\Work\MatlabApps\UnitCellOptimizationMatlab\CST\unitcell.cst
! Tree item: Tasks\Sweep1\SPara1\S-Parameters
! Header version: 2024
! Port assignment regex: !\s*Touchstone port\s*([0-9]+)\s*=\s*(CST MWS port|CST DES external port|CST DES block port)\s*(.+)\s* \(\"(.*)\"\)(\s*mode\s*([0-9]+))?.*
! Touchstone port assignment:
! Touchstone port 1 = CST DES external port 1 ("")
# GHz S MA R 50
9                    0.981871743     -73.5536993
9.001                0.981828533     -73.6646168
9.002                 0.98178519     -73.7758087
9.003                0.981741715     -73.8872761
9.004                0.981698106     -73.9990197
9.005                0.981654363     -74.1110403
9.006                0.981610487     -74.2233388
9.007                0.981566477     -74.3359161
9.008                0.981522331     -74.4487731
9.009                0.981478051     -74.5619104
9.01                 0.981433636     -74.6753291
9.011                0.981389085       -74.78903
9.012                0.981344399     -74.9030139
9.013                0.981299576     -75.0172818
9.014                0.981254617     -75.1318343
9.015                 0.98120952     -75.2466726
9.016                0.981164287     -75.3617973
9.017                0.981118916     -75.4772094
9.018                0.981073407     -75.5929097
9.019                0.981027761     -75.7088992
9.02                 0.980981976     -75.8251786
9.021                0.980936052      -75.941749
9.022                0.980889988     -76.0586111
9.023                0.980843786     -76.1757658
9.024                0.980797444     -76.2932141
9.025                0.980750962     -76.4109568
9.026                0.980704339     -76.5289948
9.027                0.980657576      -76.647329
9.028                0.980610672     -76.7659603
9.029                0.980563627     -76.8848896
9.03                  0.98051644     -77.0041178
9.031                0.980469111     -77.1236458
9.032                 0.98042164     -77.2434745
9.033                0.980374026     -77.3636048
9.034                 0.98032627     -77.4840376
9.035                0.980278371     -77.6047738
9.036                0.980230328     -77.7258143
9.037                0.980182142     -77.8471601
9.038                0.980133811     -77.9688121
9.039                0.980085337     -78.0907711
9.04                 0.980036718     -78.2130382
9.041                0.979987954     -78.3356141
9.042                0.979939044     -78.4584999
9.043                 0.97988999     -78.5816965
9.044                 0.97984079     -78.7052047
9.045                0.979791443     -78.8290256
9.046                0.979741951       -78.95316
9.047                0.979692312      -79.077609
9.048                0.979642526     -79.2023733
9.049                0.979592593      -79.327454
9.05                 0.979542512     -79.4528521
9.051                0.979492284     -79.5785683
9.052                0.979441908     -79.7046038
9.053                0.979391384     -79.8309594
9.054                0.979340711      -79.957636
9.055                 0.97928989     -80.0846347
9.056                0.979238919     -80.2119564
9.057                  0.9791878      -80.339602
9.058                0.979136531     -80.4675724
9.059                0.979085112     -80.5958688
9.06                 0.979033543     -80.7244919
9.061                0.978981824     -80.8534427
9.062                0.978929954     -80.9827223
9.063                0.978877934     -81.1123316
9.064                0.978825763     -81.2422715
9.065                 0.97877344      -81.372543
9.066                0.978720966     -81.5031471
9.067                0.978668341     -81.6340848
9.068                0.978615563      -81.765357
9.069                0.978562634     -81.8969646
9.07                 0.978509552     -82.0289088
9.071                0.978456317     -82.1611903
9.072                 0.97840293     -82.2938103
9.073                0.978349389     -82.4267697
9.074                0.978295696     -82.5600695
9.075                0.978241848     -82.6937107
9.076                0.978187848     -82.8276942
9.077                0.978133693      -82.962021
9.078                0.978079385     -83.0966922
9.079                0.978024922     -83.2317086
9.08                 0.977970305     -83.3670714
9.081                0.977915533     -83.5027815
9.082                0.977860606     -83.6388398
9.083                0.977805524     -83.7752474
9.084                0.977750288     -83.9120053
9.085                0.977694896     -84.0491145
9.086                0.977639348     -84.1865759
9.087                0.977583645     -84.3243906
9.088                0.977527786     -84.4625596
9.089                0.977471771     -84.6010838
9.09                 0.977415599     -84.7399643
9.091                0.977359272     -84.8792021
9.092                0.977302788     -85.0187981
9.093                0.977246148     -85.1587535
9.094                 0.97718935     -85.2990691
9.095                0.977132396      -85.439746
9.096                0.977075285     -85.5807853
9.097                0.977018017     -85.7221879
9.098                0.976960592     -85.8639548
9.099                 0.97690301      -86.006087
9.1                   0.97684527     -86.1485856
9.101                0.976787372     -86.2914516
9.102                0.976729317      -86.434686
9.103                0.976671104     -86.5782898
9.104                0.976612734      -86.722264
9.105                0.976554205     -86.8666096
9.106                0.976495519     -87.0113277
9.107                0.976436674     -87.1564193
9.108                0.976377671     -87.3018853
9.109                0.976318511     -87.4477269
9.11                 0.976259192     -87.5939451
9.111                0.976199714     -87.7405407
9.112                0.976140079      -87.887515
9.113                0.976080285     -88.0348689
9.114                0.976020332     -88.1826034
9.115                0.975960221     -88.3307195
9.116                0.975899952     -88.4792183
9.117                0.975839524     -88.6281008
9.118                0.975778938     -88.7773681
9.119                0.975718193      -88.927021
9.12                  0.97565729     -89.0770608
9.121                0.975596228     -89.2274883
9.122                0.975535008     -89.3783047
9.123                0.975473629     -89.5295109
9.124                0.975412092      -89.681108
9.125                0.975350397      -89.833097
9.126                0.975288543      -89.985479
9.127                0.975226531     -90.1382548
9.128                0.975164361     -90.2914257
9.129                0.975102032     -90.4449925
9.13                 0.975039545     -90.5989564
9.131                0.974976901     -90.7533184
9.132                0.974914098     -90.9080794
9.133                0.974851138     -91.0632405
9.134                 0.97478802     -91.2188027
9.135                0.974724744     -91.3747671
9.136                 0.97466131     -91.5311347
9.137                0.974597719     -91.6879065
9.138                0.974533971     -91.8450834
9.139                0.974470066     -92.0026667
9.14                 0.974406004     -92.1606572
9.141                0.974341785     -92.3190559
9.142                0.974277409      -92.477864
9.143                0.974212876     -92.6370824
9.144                0.974148188     -92.7967121
9.145                0.974083343     -92.9567542
9.146                0.974018342     -93.1172097
9.147                0.973953185     -93.2780795
9.148                0.973887873     -93.4393648
9.149                0.973822405     -93.6010665
9.15                 0.973756782     -93.7631856
9.151                0.973691005     -93.9257231
9.152                0.973625073     -94.0886801
9.153                0.973558986     -94.2520575
9.154                0.973492745     -94.4158564
9.155                0.973426351     -94.5800778
9.156                0.973359803     -94.7447226
9.157                0.973293102      -94.909792
9.158                0.973226247     -95.0752868
9.159                 0.97315924      -95.241208
9.16                 0.973092081     -95.4075567
9.161                 0.97302477     -95.5743339
9.162                0.972957307     -95.7415406
9.163                0.972889693     -95.9091777
9.164                0.972821928     -96.0772462
9.165                0.972754013     -96.2457472
9.166                0.972685947     -96.4146816
9.167                0.972617732     -96.5840504
9.168                0.972549367     -96.7538545
9.169                0.972480853      -96.924095
9.17                 0.972412191     -97.0947728
9.171                0.972343381      -97.265889
9.172                0.972274423     -97.4374444
9.173                0.972205318       -97.60944
9.174                0.972136067     -97.7818769
9.175                0.972066669     -97.9547559
9.176                0.971997126      -98.128078
9.177                0.971927437     -98.3018442
9.178                0.971857604     -98.4760555
9.179                0.971787627     -98.6507128
9.18                 0.971717506      -98.825817
9.181                0.971647242      -99.001369
9.182                0.971576836     -99.1773699
9.183                0.971506287     -99.3538206
9.184                0.971435598     -99.5307219
9.185                0.971364768     -99.7080749
9.186                0.971293798     -99.8858804
9.187                0.971222688     -100.064139
9.188                 0.97115144     -100.242853
9.189                0.971080054     -100.422021
9.19                  0.97100853     -100.601646
9.191                 0.97093687     -100.781728
9.192                0.970865073     -100.962268
9.193                0.970793142     -101.143267
9.194                0.970721075     -101.324726
9.195                0.970648875     -101.506646
9.196                0.970576542     -101.689027
9.197                0.970504077      -101.87187
9.198                 0.97043148     -102.055177
9.199                0.970358752     -102.238948
9.2                  0.970285894     -102.423185
9.201                0.970212907     -102.607887
9.202                0.970139792     -102.793056
9.203                 0.97006655     -102.978693
9.204                0.969993181     -103.164798
9.205                0.969919687     -103.351372
9.206                0.969846068     -103.538417
9.207                0.969772325     -103.725933
9.208                0.969698459      -103.91392
9.209                0.969624471      -104.10238
9.21                 0.969550363     -104.291314
9.211                0.969476134     -104.480722
9.212                0.969401786     -104.670605
9.213                0.969327321     -104.860964
9.214                0.969252738       -105.0518
9.215                 0.96917804     -105.243112
9.216                0.969103227     -105.434904
9.217                  0.9690283     -105.627174
9.218                 0.96895326     -105.819924
9.219                0.968878109     -106.013154
9.22                 0.968802847     -106.206866
9.221                0.968727476      -106.40106
9.222                0.968651997     -106.595736
9.223                0.968576411     -106.790896
9.224                 0.96850072      -106.98654
9.225                0.968424923     -107.182669
9.226                0.968349024     -107.379283
9.227                0.968273022     -107.576384
9.228                 0.96819692     -107.773971
9.229                0.968120718     -107.972047
9.23                 0.968044418     -108.170611
9.231                0.967968021     -108.369663
9.232                0.967891529     -108.569205
9.233                0.967814942     -108.769238
9.234                0.967738263     -108.969762
9.235                0.967661492     -109.170777
9.236                0.967584631     -109.372284
9.237                0.967507681     -109.574284
9.238                0.967430645     -109.776778
9.239                0.967353522     -109.979765
9.24                 0.967276316     -110.183247
9.241                0.967199026     -110.387224
9.242                0.967121656     -110.591697
9.243                0.967044206     -110.796667
9.244                0.966966678     -111.002133
9.245                0.966889073     -111.208096
9.246                0.966811394     -111.414558
9.247                0.966733641     -111.621518
9.248                0.966655817     -111.828976
9.249                0.966577923     -112.036934
9.25                  0.96649996     -112.245392
9.251                0.966421931     -112.454351
9.252                0.966343837      -112.66381
9.253                 0.96626568     -112.873771
9.254                0.966187461     -113.084233
9.255                0.966109183     -113.295198
9.256                0.966030847     -113.506665
9.257                0.965952455     -113.718635
9.258                0.965874009     -113.931109
9.259                 0.96579551     -114.144086
9.26                 0.965716962     -114.357568
9.261                0.965638364     -114.571554
9.262                 0.96555972     -114.786045
9.263                0.965481032     -115.001041
9.264                0.965402301     -115.216543
9.265                0.965323529     -115.432551
9.266                0.965244718     -115.649064
9.267                0.965165871     -115.866085
9.268                0.965086989     -116.083612
9.269                0.965008075     -116.301646
9.27                  0.96492913     -116.520187
9.271                0.964850157     -116.739236
9.272                0.964771157     -116.958792
9.273                0.964692134     -117.178857
9.274                0.964613088     -117.399429
9.275                0.964534023      -117.62051
9.276                 0.96445494     -117.842099
9.277                0.964375842     -118.064197
9.278                0.964296731     -118.286803
9.279                 0.96421761     -118.509919
9.28                  0.96413848     -118.733543
9.281                0.964059343     -118.957677
9.282                0.963980203     -119.182319
9.283                0.963901062     -119.407471
9.284                0.963821921     -119.633132
9.285                0.963742784     -119.859303
9.286                0.963663653     -120.085982
9.287                 0.96358453     -120.313171
9.288                0.963505418      -120.54087
9.289                0.963426319     -120.769077
9.29                 0.963347236     -120.997794
9.291                0.963268171      -121.22702
9.292                0.963189127     -121.456755
9.293                0.963110106     -121.686999
9.294                0.963031111     -121.917752
9.295                0.962952145     -122.149014
9.296                 0.96287321     -122.380785
9.297                0.962794309     -122.613063
9.298                0.962715444     -122.845851
9.299                0.962636619     -123.079146
9.3                  0.962557836     -123.312949
9.301                0.962479098      -123.54726
9.302                0.962400407     -123.782078
9.303                0.962321767     -124.017403
9.304                0.962243179     -124.253235
9.305                0.962164648     -124.489574
9.306                0.962086175     -124.726419
9.307                0.962007764      -124.96377
9.308                0.961929418     -125.201626
9.309                0.961851139     -125.439987
9.31                  0.96177293     -125.678854
9.311                0.961694795     -125.918224
9.312                0.961616736     -126.158099
9.313                0.961538756     -126.398477
9.314                0.961460859     -126.639358
9.315                0.961383047     -126.880741
9.316                0.961305323     -127.122626
9.317                0.961227691     -127.365013
9.318                0.961150153     -127.607901
9.319                0.961072713     -127.851289
9.32                 0.960995374     -128.095177
9.321                0.960918139     -128.339564
9.322                 0.96084101     -128.584449
9.323                0.960763992     -128.829833
9.324                0.960687088     -129.075713
9.325                  0.9606103      -129.32209
9.326                0.960533632     -129.568963
9.327                0.960457087     -129.816331
9.328                0.960380668     -130.064193
9.329                0.960304379     -130.312548
9.33                 0.960228223     -130.561397
9.331                0.960152204     -130.810737
9.332                0.960076324     -131.060568
9.333                0.960000587     -131.310889
9.334                0.959924996       -131.5617
9.335                0.959849556     -131.812999
9.336                0.959774268     -132.064785
9.337                0.959699137     -132.317058
9.338                0.959624166     -132.569816
9.339                0.959549359     -132.823059
9.34                 0.959474718     -133.076786
9.341                0.959400248     -133.330995
9.342                0.959325952     -133.585685
9.343                0.959251833     -133.840856
9.344                0.959177895     -134.096505
9.345                0.959104142     -134.352633
9.346                0.959030577     -134.609238
9.347                0.958957203     -134.866318
9.348                0.958884025     -135.123873
9.349                0.958811045     -135.381902
9.35                 0.958738268     -135.640402
9.351                0.958665696     -135.899373
9.352                0.958593335     -136.158814
9.353                0.958521186     -136.418722
9.354                0.958449254     -136.679098
9.355                0.958377543     -136.939939
9.356                0.958306057     -137.201244
9.357                0.958234798     -137.463011
9.358                 0.95816377      -137.72524
9.359                0.958092978     -137.987928
9.36                 0.958022425     -138.251075
9.361                0.957952115     -138.514678
9.362                0.957882051     -138.778737
9.363                0.957812237     -139.043249
9.364                0.957742677     -139.308213
9.365                0.957673375     -139.573628
9.366                0.957604334     -139.839491
9.367                0.957535558     -140.105802
9.368                0.957467051     -140.372557
9.369                0.957398817     -140.639757
9.37                  0.95733086     -140.907398
9.371                0.957263182      -141.17548
9.372                0.957195789        -141.444
9.373                0.957128684     -141.712957
9.374                 0.95706187     -141.982349
9.375                0.956995352     -142.252173
9.376                0.956929132     -142.522429
9.377                0.956863216     -142.793113
9.378                0.956797607     -143.064225
9.379                0.956732309     -143.335762
9.38                 0.956667324     -143.607722
9.381                0.956602659     -143.880104
9.382                0.956538315     -144.152904
9.383                0.956474297     -144.426122
9.384                0.956410609     -144.699755
9.385                0.956347254       -144.9738
9.386                0.956284236     -145.248257
9.387                 0.95622156     -145.523122
9.388                0.956159229     -145.798394
9.389                0.956097246     -146.074069
9.39                 0.956035616     -146.350147
9.391                0.955974342     -146.626625
9.392                0.955913428       -146.9035
9.393                0.955852878      -147.18077
9.394                0.955792695     -147.458433
9.395                0.955732884     -147.736486
9.396                0.955673448     -148.014927
