! TOUCHSTONE file generated by CST DESIGN STUDIO
! Date and time: Tue Feb  4 14:09:30 2025
! Project name: C:\Work\MatlabApps\UnitCellOptimizationMatlab\CST\unitcell.cst
! Tree item: Tasks\Sweep1\SPara1\S-Parameters
! Header version: 2024
! Port assignment regex: !\s*Touchstone port\s*([0-9]+)\s*=\s*(CST MWS port|CST DES external port|CST DES block port)\s*(.+)\s* \(\"(.*)\"\)(\s*mode\s*([0-9]+))?.*
! Touchstone port assignment:
! Touchstone port 1 = CST DES external port 1 ("")
# GHz S MA R 50
9                    0.981143354     -76.8903081
9.001                0.981096685     -77.0090375
9.002                0.981049874     -77.1280647
9.003                 0.98100292     -77.2473905
9.004                0.980955824     -77.3670158
9.005                0.980908586     -77.4869414
9.006                0.980861204     -77.6071684
9.007                0.980813679     -77.7276976
9.008                0.980766009     -77.8485299
9.009                0.980718196     -77.9696661
9.01                 0.980670239     -78.0911073
9.011                0.980622137     -78.2128544
9.012                 0.98057389     -78.3349081
9.013                0.980525497     -78.4572696
9.014                 0.98047696     -78.5799396
9.015                0.980428276     -78.7029191
9.016                0.980379446      -78.826209
9.017                 0.98033047     -78.9498103
9.018                0.980281346     -79.0737238
9.019                0.980232076     -79.1979505
9.02                 0.980182659     -79.3224913
9.021                0.980133094     -79.4473472
9.022                0.980083381      -79.572519
9.023                0.980033519     -79.6980078
9.024                 0.97998351     -79.8238144
9.025                0.979933351     -79.9499398
9.026                0.979883044     -80.0763849
9.027                0.979832587     -80.2031507
9.028                0.979781981     -80.3302381
9.029                0.979731225     -80.4576481
9.03                 0.979680319     -80.5853815
9.031                0.979629262     -80.7134394
9.032                0.979578055     -80.8418228
9.033                0.979526696     -80.9705324
9.034                0.979475187     -81.0995694
9.035                0.979423526     -81.2289347
9.036                0.979371714     -81.3586291
9.037                0.979319749     -81.4886538
9.038                0.979267633     -81.6190095
9.039                0.979215364     -81.7496974
9.04                 0.979162942     -81.8807184
9.041                0.979110368     -82.0120734
9.042                 0.97905764     -82.1437634
9.043                0.979004759     -82.2757893
9.044                0.978951724     -82.4081522
9.045                0.978898536      -82.540853
9.046                0.978845193     -82.6738927
9.047                0.978791696     -82.8072722
9.048                0.978738045     -82.9409926
9.049                0.978684239     -83.0750548
9.05                 0.978630277     -83.2094598
9.051                0.978576161     -83.3442085
9.052                 0.97852189      -83.479302
9.053                0.978467462     -83.6147413
9.054                0.978412879     -83.7505272
9.055                0.978358141     -83.8866609
9.056                0.978303246     -84.0231433
9.057                0.978248194     -84.1599753
9.058                0.978192986     -84.2971581
9.059                0.978137622     -84.4346925
9.06                   0.9780821     -84.5725795
9.061                0.978026421     -84.7108202
9.062                0.977970586     -84.8494156
9.063                0.977914592     -84.9883665
9.064                0.977858442     -85.1276742
9.065                0.977802133     -85.2673394
9.066                0.977745667     -85.4073633
9.067                0.977689042     -85.5477469
9.068                 0.97763226     -85.6884911
9.069                0.977575319     -85.8295969
9.07                  0.97751822     -85.9710654
9.071                0.977460962     -86.1128975
9.072                0.977403545     -86.2550942
9.073                 0.97734597     -86.3976567
9.074                0.977288235     -86.5405858
9.075                0.977230342     -86.6838825
9.076                0.977172289      -86.827548
9.077                0.977114078     -86.9715831
9.078                0.977055706      -87.115989
9.079                0.976997176     -87.2607665
9.08                 0.976938486     -87.4059168
9.081                0.976879636     -87.5514408
9.082                0.976820626     -87.6973396
9.083                0.976761457     -87.8436141
9.084                0.976702128     -87.9902654
9.085                0.976642639     -88.1372945
9.086                 0.97658299     -88.2847024
9.087                 0.97652318     -88.4324901
9.088                0.976463211     -88.5806587
9.089                0.976403082     -88.7292091
9.09                 0.976342793     -88.8781423
9.091                0.976282343     -89.0274595
9.092                0.976221734     -89.1771615
9.093                0.976160964     -89.3272495
9.094                0.976100034     -89.4777244
9.095                0.976038944     -89.6285872
9.096                0.975977693      -89.779839
9.097                0.975916283     -89.9314808
9.098                0.975854712     -90.0835136
9.099                0.975792981     -90.2359384
9.1                   0.97573109     -90.3887563
9.101                0.975669039     -90.5419682
9.102                0.975606828     -90.6955752
9.103                0.975544457     -90.8495782
9.104                0.975481926     -91.0039784
9.105                0.975419235     -91.1587767
9.106                0.975356384     -91.3139741
9.107                0.975293374     -91.4695716
9.108                0.975230204     -91.6255704
9.109                0.975166874     -91.7819713
9.11                 0.975103386     -91.9387754
9.111                0.975039737     -92.0959837
9.112                 0.97497593     -92.2535972
9.113                0.974911964     -92.4116169
9.114                0.974847838     -92.5700439
9.115                0.974783554     -92.7288791
9.116                0.974719112     -92.8881236
9.117                 0.97465451     -93.0477784
9.118                0.974589751     -93.2078444
9.119                0.974524833     -93.3683228
9.12                 0.974459758     -93.5292144
9.121                0.974394525     -93.6905203
9.122                0.974329134     -93.8522415
9.123                0.974263586      -94.014379
9.124                 0.97419788     -94.1769338
9.125                0.974132018     -94.3399069
9.126                0.974065999     -94.5032993
9.127                0.973999824     -94.6671119
9.128                0.973933493     -94.8313459
9.129                0.973867005     -94.9960022
9.13                 0.973800363     -95.1610817
9.131                0.973733564     -95.3265855
9.132                0.973666611     -95.4925145
9.133                0.973599503     -95.6588698
9.134                0.973532241     -95.8256523
9.135                0.973464824      -95.992863
9.136                0.973397254     -96.1605029
9.137                0.973329531      -96.328573
9.138                0.973261654     -96.4970742
9.139                0.973193625     -96.6660076
9.14                 0.973125443      -96.835374
9.141                 0.97305711     -97.0051744
9.142                0.972988624     -97.1754099
9.143                0.972919988     -97.3460814
9.144                0.972851201     -97.5171899
9.145                0.972782264     -97.6887362
9.146                0.972713177     -97.8607215
9.147                0.972643941     -98.0331465
9.148                0.972574556     -98.2060123
9.149                0.972505022     -98.3793199
9.15                  0.97243534     -98.5530701
9.151                0.972365511     -98.7272639
9.152                0.972295535     -98.9019023
9.153                0.972225413     -99.0769862
9.154                0.972155145     -99.2525165
9.155                0.972084731     -99.4284941
9.156                0.972014173       -99.60492
9.157                 0.97194347     -99.7817952
9.158                0.971872624     -99.9591204
9.159                0.971801635     -100.136897
9.16                 0.971730503     -100.315125
9.161                 0.97165923     -100.493806
9.162                0.971587816     -100.672941
9.163                0.971516261      -100.85253
9.164                0.971444566     -101.032575
9.165                0.971372732     -101.213077
9.166                 0.97130076     -101.394035
9.167                 0.97122865     -101.575452
9.168                0.971156402     -101.757328
9.169                0.971084019     -101.939664
9.17                   0.9710115     -102.122461
9.171                0.970938846      -102.30572
9.172                0.970866059     -102.489441
9.173                0.970793138     -102.673625
9.174                0.970720084     -102.858274
9.175                0.970646899     -103.043388
9.176                0.970573584     -103.228968
9.177                0.970500138     -103.415014
9.178                0.970426563     -103.601529
9.179                 0.97035286     -103.788511
9.18                  0.97027903     -103.975963
9.181                0.970205073     -104.163885
9.182                0.970130991     -104.352278
9.183                0.970056785     -104.541142
9.184                0.969982454     -104.730479
9.185                0.969908001     -104.920289
9.186                0.969833427     -105.110573
9.187                0.969758732     -105.301332
9.188                0.969683917     -105.492567
9.189                0.969608984     -105.684277
9.19                 0.969533933     -105.876465
9.191                0.969458766     -106.069131
9.192                0.969383484     -106.262275
9.193                0.969308087     -106.455899
9.194                0.969232577     -106.650003
9.195                0.969156955     -106.844587
9.196                0.969081222     -107.039653
9.197                 0.96900538     -107.235201
9.198                0.968929428     -107.431232
9.199                 0.96885337     -107.627746
9.2                  0.968777206     -107.824745
9.201                0.968700936     -108.022229
9.202                0.968624563     -108.220198
9.203                0.968548088     -108.418654
9.204                0.968471512     -108.617596
9.205                0.968394836     -108.817026
9.206                0.968318061     -109.016944
9.207                0.968241189     -109.217351
9.208                0.968164222     -109.418248
9.209                0.968087161     -109.619634
9.21                 0.968010006     -109.821511
9.211                 0.96793276     -110.023879
9.212                0.967855424      -110.22674
9.213                0.967777999     -110.430092
9.214                0.967700487     -110.633938
9.215                 0.96762289     -110.838277
9.216                0.967545208      -111.04311
9.217                0.967467444     -111.248437
9.218                0.967389599      -111.45426
9.219                0.967311674     -111.660579
9.22                 0.967233671     -111.867393
9.221                0.967155592     -112.074704
9.222                0.967077438     -112.282512
9.223                0.966999212     -112.490818
9.224                0.966920913     -112.699622
9.225                0.966842546     -112.908924
9.226                 0.96676411     -113.118726
9.227                0.966685608     -113.329026
9.228                0.966607042     -113.539827
9.229                0.966528412     -113.751128
9.23                 0.966449722     -113.962929
9.231                0.966370973     -114.175231
9.232                0.966292167     -114.388035
9.233                0.966213305      -114.60134
9.234                0.966134389     -114.815147
9.235                0.966055422     -115.029457
9.236                0.965976405     -115.244269
9.237                 0.96589734     -115.459585
9.238                0.965818229     -115.675404
9.239                0.965739074     -115.891726
9.24                 0.965659877     -116.108553
9.241                0.965580641     -116.325883
9.242                0.965501366     -116.543718
9.243                0.965422056     -116.762058
9.244                0.965342711     -116.980902
9.245                0.965263335     -117.200252
9.246                 0.96518393     -117.420107
9.247                0.965104497     -117.640467
9.248                0.965025039     -117.861333
9.249                0.964945558     -118.082705
9.25                 0.964866056     -118.304582
9.251                0.964786535     -118.526966
9.252                0.964706998     -118.749856
9.253                0.964627447     -118.973252
9.254                0.964547883     -119.197155
9.255                0.964468311     -119.421563
9.256                0.964388731     -119.646479
9.257                0.964309146     -119.871901
9.258                0.964229559     -120.097829
9.259                0.964149971     -120.324264
9.26                 0.964070386     -120.551205
9.261                0.963990806     -120.778653
9.262                0.963911233     -121.006607
9.263                0.963831669     -121.235068
9.264                0.963752118     -121.464035
9.265                0.963672581     -121.693508
9.266                0.963593062     -121.923488
9.267                0.963513562     -122.153973
9.268                0.963434085     -122.384964
9.269                0.963354633     -122.616461
9.27                 0.963275208     -122.848464
9.271                0.963195814     -123.080972
9.272                0.963116453     -123.313985
9.273                0.963037127     -123.547503
9.274                 0.96295784     -123.781525
9.275                0.962878593     -124.016053
9.276                0.962799391     -124.251084
9.277                0.962720235     -124.486619
9.278                0.962641128     -124.722657
9.279                0.962562074     -124.959199
9.28                 0.962483074     -125.196244
9.281                0.962404133     -125.433791
9.282                0.962325252      -125.67184
9.283                0.962246435     -125.910391
9.284                0.962167684     -126.149443
9.285                0.962089003     -126.388996
9.286                0.962010394      -126.62905
9.287                0.961931861     -126.869603
9.288                0.961853406     -127.110656
9.289                0.961775033     -127.352207
9.29                 0.961696744     -127.594257
9.291                0.961618542     -127.836805
9.292                0.961540431      -128.07985
9.293                0.961462414     -128.323391
9.294                0.961384494     -128.567429
9.295                0.961306673     -128.811961
9.296                0.961228956     -129.056989
9.297                0.961151345      -129.30251
9.298                0.961073843     -129.548525
9.299                0.960996453     -129.795032
9.3                   0.96091918     -130.042031
9.301                0.960842026     -130.289521
9.302                0.960764993     -130.537502
9.303                0.960688087     -130.785972
9.304                0.960611309      -131.03493
9.305                0.960534664     -131.284376
9.306                0.960458154      -131.53431
9.307                0.960381783     -131.784729
9.308                0.960305554     -132.035633
9.309                 0.96022947     -132.287022
9.31                 0.960153536     -132.538894
9.311                0.960077754     -132.791248
9.312                0.960002127     -133.044083
9.313                 0.95992666     -133.297398
9.314                0.959851356     -133.551193
9.315                0.959776217     -133.805466
9.316                0.959701249     -134.060215
9.317                0.959626453     -134.315441
9.318                0.959551834     -134.571141
9.319                0.959477395     -134.827315
9.32                  0.95940314     -135.083961
9.321                0.959329071     -135.341079
9.322                0.959255194     -135.598666
9.323                0.959181511     -135.856722
9.324                0.959108026     -136.115246
9.325                0.959034742     -136.374236
9.326                0.958961664      -136.63369
9.327                0.958888794     -136.893608
9.328                0.958816137     -137.153988
9.329                0.958743695     -137.414829
9.33                 0.958671473     -137.676129
9.331                0.958599475     -137.937886
9.332                0.958527704     -138.200101
9.333                0.958456163      -138.46277
9.334                0.958384856     -138.725892
9.335                0.958313788     -138.989466
9.336                0.958242961      -139.25349
9.337                 0.95817238     -139.517964
9.338                0.958102048     -139.782884
9.339                 0.95803197     -140.048249
9.34                 0.957962147     -140.314058
9.341                0.957892585      -140.58031
9.342                0.957823288     -140.847001
9.343                0.957754258     -141.114132
9.344                  0.9576855     -141.381699
9.345                0.957617017     -141.649701
9.346                0.957548814     -141.918136
9.347                0.957480893     -142.187003
9.348                 0.95741326       -142.4563
9.349                0.957345916     -142.726024
9.35                 0.957278868     -142.996174
9.351                0.957212117     -143.266747
9.352                0.957145668     -143.537743
9.353                0.957079525     -143.809158
9.354                0.957013691     -144.080992
9.355                0.956948171     -144.353241
9.356                0.956882968     -144.625904
9.357                0.956818085     -144.898979
9.358                0.956753528     -145.172464
9.359                0.956689298     -145.446355
9.36                 0.956625401     -145.720653
9.361                 0.95656184     -145.995353
9.362                0.956498618     -146.270455
9.363                0.956435741     -146.545955
9.364                 0.95637321     -146.821851
9.365                0.956311031     -147.098142
9.366                0.956249206     -147.374824
9.367                 0.95618774     -147.651897
9.368                0.956126637     -147.929356
9.369                  0.9560659       -148.2072
9.37                 0.956005532     -148.485427
9.371                0.955945538     -148.764033
9.372                0.955885922     -149.043017
9.373                0.955826686     -149.322376
9.374                0.955767836     -149.602108
9.375                0.955709374      -149.88221
9.376                0.955651304     -150.162679
9.377                0.955593629     -150.443513
9.378                0.955536355     -150.724709
9.379                0.955479483     -151.006265
9.38                 0.955423019     -151.288178
9.381                0.955366965     -151.570446
9.382                0.955311325     -151.853065
9.383                0.955256102     -152.136033
9.384                0.955201301     -152.419347
9.385                0.955146925     -152.703005
9.386                0.955092977     -152.987003
9.387                0.955039462      -153.27134
9.388                0.954986381     -153.556011
9.389                 0.95493374     -153.841014
9.39                 0.954881542     -154.126347
9.391                0.954829789     -154.412006
9.392                0.954778486     -154.697989
9.393                0.954727636     -154.984292
9.394                0.954677242     -155.270912
9.395                0.954627308     -155.557847
9.396                0.954577838     -155.845094
