! TOUCHSTONE file generated by CST DESIGN STUDIO
! Date and time: Tue Feb  4 14:09:42 2025
! Project name: C:\Work\MatlabApps\UnitCellOptimizationMatlab\CST\unitcell.cst
! Tree item: Tasks\Sweep1\SPara1\S-Parameters
! Header version: 2024
! Port assignment regex: !\s*Touchstone port\s*([0-9]+)\s*=\s*(CST MWS port|CST DES external port|CST DES block port)\s*(.+)\s* \(\"(.*)\"\)(\s*mode\s*([0-9]+))?.*
! Touchstone port assignment:
! Touchstone port 1 = CST DES external port 1 ("")
# GHz S MA R 50
9                    0.983333466     -66.8185838
9.001                0.983297265     -66.9147521
9.002                0.983260952     -67.0111511
9.003                0.983224528     -67.1077814
9.004                0.983187992     -67.2046437
9.005                0.983151343     -67.3017388
9.006                0.983114582     -67.3990674
9.007                0.983077707     -67.4966303
9.008                0.983040719     -67.5944281
9.009                0.983003618     -67.6924617
9.01                 0.982966402     -67.7907316
9.011                0.982929072     -67.8892388
9.012                0.982891627     -67.9879839
9.013                0.982854067     -68.0869676
9.014                0.982816392     -68.1861908
9.015                0.982778601     -68.2856541
9.016                0.982740694     -68.3853583
9.017                0.982702671     -68.4853041
9.018                0.982664531     -68.5854924
9.019                0.982626274     -68.6859239
9.02                   0.9825879     -68.7865992
9.021                0.982549407     -68.8875193
9.022                0.982510797     -68.9886848
9.023                0.982472069     -69.0900966
9.024                0.982433221     -69.1917553
9.025                0.982394255     -69.2936618
9.026                0.982355169     -69.3958169
9.027                0.982315964     -69.4982212
9.028                0.982276639     -69.6008757
9.029                0.982237193      -69.703781
9.03                 0.982197626      -69.806938
9.031                0.982157939     -69.9103474
9.032                 0.98211813       -70.01401
9.033                0.982078199     -70.1179266
9.034                0.982038146     -70.2220981
9.035                0.981997971     -70.3265251
9.036                0.981957674     -70.4312086
9.037                0.981917253     -70.5361492
9.038                0.981876708     -70.6413478
9.039                0.981836041     -70.7468053
9.04                 0.981795249     -70.8525223
9.041                0.981754332     -70.9584998
9.042                0.981713291     -71.0647385
9.043                0.981672125     -71.1712393
9.044                0.981630834     -71.2780028
9.045                0.981589416     -71.3850301
9.046                0.981547873     -71.4923219
9.047                0.981506204      -71.599879
9.048                0.981464407     -71.7077022
9.049                0.981422484     -71.8157924
9.05                 0.981380433     -71.9241504
9.051                0.981338255      -72.032777
9.052                0.981295948     -72.1416731
9.053                0.981253514     -72.2508395
9.054                 0.98121095     -72.3602771
9.055                0.981168258     -72.4699866
9.056                0.981125436      -72.579969
9.057                0.981082485      -72.690225
9.058                0.981039403     -72.8007556
9.059                0.980996191     -72.9115615
9.06                 0.980952849     -73.0226436
9.061                0.980909376     -73.1340029
9.062                0.980865771       -73.24564
9.063                0.980822035      -73.357556
9.064                0.980778167     -73.4697517
9.065                0.980734166     -73.5822278
9.066                0.980690033     -73.6949854
9.067                0.980645767     -73.8080252
9.068                0.980601368     -73.9213482
9.069                0.980556835     -74.0349551
9.07                 0.980512169      -74.148847
9.071                0.980467368     -74.2630246
9.072                0.980422433     -74.3774889
9.073                0.980377363     -74.4922407
9.074                0.980332158     -74.6072809
9.075                0.980286817     -74.7226104
9.076                0.980241341     -74.8382301
9.077                0.980195728     -74.9541409
9.078                 0.98014998     -75.0703437
9.079                0.980104094     -75.1868393
9.08                 0.980058072     -75.3036287
9.081                0.980011912     -75.4207129
9.082                0.979965615     -75.5380925
9.083                0.979919179     -75.6557687
9.084                0.979872606     -75.7737423
9.085                0.979825894     -75.8920142
9.086                0.979779043     -76.0105853
9.087                0.979732053     -76.1294565
9.088                0.979684924     -76.2486288
9.089                0.979637655     -76.3681031
9.09                 0.979590246     -76.4878802
9.091                0.979542697     -76.6079612
9.092                0.979495007     -76.7283469
9.093                0.979447176     -76.8490383
9.094                0.979399204     -76.9700363
9.095                 0.97935109     -77.0913418
9.096                0.979302835     -77.2129558
9.097                0.979254438     -77.3348792
9.098                0.979205898      -77.457113
9.099                0.979157216      -77.579658
9.1                  0.979108391     -77.7025153
9.101                0.979059423     -77.8256858
9.102                0.979010311     -77.9491703
9.103                0.978961056       -78.07297
9.104                0.978911657     -78.1970856
9.105                0.978862113     -78.3215183
9.106                0.978812425     -78.4462689
9.107                0.978762592     -78.5713384
9.108                0.978712614     -78.6967277
9.109                0.978662491     -78.8224378
9.11                 0.978612222     -78.9484698
9.111                0.978561807     -79.0748244
9.112                0.978511247     -79.2015028
9.113                 0.97846054     -79.3285059
9.114                0.978409686     -79.4558346
9.115                0.978358686       -79.58349
9.116                0.978307538     -79.7114729
9.117                0.978256243     -79.8397845
9.118                0.978204801     -79.9684256
9.119                0.978153211     -80.0973972
9.12                 0.978101473     -80.2267004
9.121                0.978049586     -80.3563361
9.122                0.977997551     -80.4863053
9.123                0.977945368      -80.616609
9.124                0.977893035     -80.7472482
9.125                0.977840553     -80.8782238
9.126                0.977787922     -81.0095369
9.127                0.977735141     -81.1411885
9.128                0.977682211     -81.2731795
9.129                 0.97762913      -81.405511
9.13                 0.977575899      -81.538184
9.131                0.977522518     -81.6711994
9.132                0.977468986     -81.8045584
9.133                0.977415304     -81.9382617
9.134                 0.97736147     -82.0723106
9.135                0.977307485      -82.206706
9.136                0.977253349     -82.3414489
9.137                0.977199061     -82.4765403
9.138                0.977144622     -82.6119812
9.139                 0.97709003     -82.7477727
9.14                 0.977035287     -82.8839158
9.141                0.976980391     -83.0204114
9.142                0.976925343     -83.1572607
9.143                0.976870142     -83.2944646
9.144                0.976814788     -83.4320242
9.145                0.976759282     -83.5699404
9.146                0.976703623     -83.7082144
9.147                 0.97664781     -83.8468471
9.148                0.976591844     -83.9858395
9.149                0.976535725     -84.1251928
9.15                 0.976479452     -84.2649078
9.151                0.976423025     -84.4049858
9.152                0.976366445     -84.5454276
9.153                 0.97630971     -84.6862344
9.154                0.976252822     -84.8274071
9.155                0.976195779     -84.9689468
9.156                0.976138582     -85.1108546
9.157                0.976081231     -85.2531315
9.158                0.976023725     -85.3957785
9.159                0.975966065     -85.5387966
9.16                  0.97590825      -85.682187
9.161                0.975850281     -85.8259506
9.162                0.975792156     -85.9700886
9.163                0.975733877     -86.1146018
9.164                0.975675443     -86.2594915
9.165                0.975616854     -86.4047586
9.166                 0.97555811     -86.5504042
9.167                0.975499211     -86.6964293
9.168                0.975440156     -86.8428351
9.169                0.975380947     -86.9896224
9.17                 0.975321583     -87.1367925
9.171                0.975262063     -87.2843463
9.172                0.975202388     -87.4322849
9.173                0.975142558     -87.5806093
9.174                0.975082572     -87.7293207
9.175                0.975022432       -87.87842
9.176                0.974962136     -88.0279083
9.177                0.974901685     -88.1777867
9.178                0.974841079     -88.3280562
9.179                0.974780318      -88.478718
9.18                 0.974719401     -88.6297729
9.181                 0.97465833     -88.7812221
9.182                0.974597103     -88.9330667
9.183                0.974535722     -89.0853077
9.184                0.974474185     -89.2379462
9.185                0.974412494     -89.3909832
9.186                0.974350648     -89.5444198
9.187                0.974288647      -89.698257
9.188                0.974226492     -89.8524959
9.189                0.974164182     -90.0071376
9.19                 0.974101718     -90.1621831
9.191                0.974039099     -90.3176334
9.192                0.973976327     -90.4734897
9.193                  0.9739134     -90.6297529
9.194                0.973850319     -90.7864242
9.195                0.973787085     -90.9435046
9.196                0.973723697     -91.1009952
9.197                0.973660155      -91.258897
9.198                0.973596461      -91.417211
9.199                0.973532613     -91.5759383
9.2                  0.973468612       -91.73508
9.201                0.973404458     -91.8946371
9.202                0.973340152     -92.0546108
9.203                0.973275694     -92.2150019
9.204                0.973211083     -92.3758116
9.205                0.973146321     -92.5370409
9.206                0.973081407      -92.698691
9.207                0.973016341     -92.8607627
9.208                0.972951124     -93.0232572
9.209                0.972885757     -93.1861755
9.21                 0.972820239     -93.3495187
9.211                 0.97275457     -93.5132878
9.212                0.972688752     -93.6774839
9.213                0.972622783     -93.8421079
9.214                0.972556665      -94.007161
9.215                0.972490399     -94.1726441
9.216                0.972423983     -94.3385584
9.217                0.972357419     -94.5049047
9.218                0.972290707     -94.6716843
9.219                0.972223847      -94.838898
9.22                  0.97215684      -95.006547
9.221                0.972089685     -95.1746323
9.222                0.972022384     -95.3431548
9.223                0.971954937     -95.5121157
9.224                0.971887345     -95.6815158
9.225                0.971819607     -95.8513564
9.226                0.971751724     -96.0216383
9.227                0.971683696     -96.1923626
9.228                0.971615525     -96.3635303
9.229                 0.97154721     -96.5351424
9.23                 0.971478752     -96.7071999
9.231                0.971410151     -96.8797039
9.232                0.971341409     -97.0526552
9.233                0.971272525     -97.2260551
9.234                0.971203499     -97.3999043
9.235                0.971134334      -97.574204
9.236                0.971065028      -97.748955
9.237                0.970995584     -97.9241585
9.238                   0.970926     -98.0998154
9.239                0.970856278     -98.2759266
9.24                 0.970786419     -98.4524932
9.241                0.970716423     -98.6295162
9.242                0.970646291     -98.8069964
9.243                0.970576022     -98.9849349
9.244                0.970505619     -99.1633326
9.245                0.970435082     -99.3421905
9.246                 0.97036441     -99.5215096
9.247                0.970293606     -99.7012908
9.248                 0.97022267     -99.8815351
9.249                0.970151602     -100.062243
9.25                 0.970080403     -100.243417
9.251                0.970009074     -100.425056
9.252                0.969937616     -100.607162
9.253                 0.96986603     -100.789735
9.254                0.969794315     -100.972778
9.255                0.969722474      -101.15629
9.256                0.969650507     -101.340272
9.257                0.969578415     -101.524726
9.258                0.969506198     -101.709652
9.259                0.969433857     -101.895052
9.26                 0.969361394     -102.080925
9.261                0.969288809     -102.267274
9.262                0.969216104     -102.454099
9.263                0.969143278       -102.6414
9.264                0.969070334     -102.829179
9.265                0.968997271     -103.017436
9.266                0.968924092     -103.206173
9.267                0.968850796     -103.395391
9.268                0.968777386     -103.585089
9.269                0.968703861     -103.775269
9.27                 0.968630223     -103.965932
9.271                0.968556474     -104.157079
9.272                0.968482614      -104.34871
9.273                0.968408644     -104.540827
9.274                0.968334565     -104.733429
9.275                0.968260379     -104.926519
9.276                0.968186086     -105.120096
9.277                0.968111688     -105.314161
9.278                0.968037186     -105.508716
9.279                0.967962582     -105.703762
9.28                 0.967887875     -105.899297
9.281                0.967813068     -106.095325
9.282                0.967738162     -106.291845
9.283                0.967663158     -106.488858
9.284                0.967588058     -106.686365
9.285                0.967512862     -106.884366
9.286                0.967437571     -107.082863
9.287                0.967362189     -107.281856
9.288                0.967286715     -107.481346
9.289                 0.96721115     -107.681333
9.29                 0.967135498     -107.881819
9.291                0.967059758     -108.082803
9.292                0.966983932     -108.284287
9.293                0.966908022     -108.486271
9.294                0.966832029     -108.688756
9.295                0.966755955     -108.891742
9.296                  0.9666798     -109.095231
9.297                0.966603568     -109.299222
9.298                0.966527258     -109.503717
9.299                0.966450873     -109.708716
9.3                  0.966374415     -109.914219
9.301                0.966297884     -110.120228
9.302                0.966221283     -110.326743
9.303                0.966144614     -110.533764
9.304                0.966067876     -110.741292
9.305                0.965991074     -110.949328
9.306                0.965914207     -111.157871
9.307                0.965837279     -111.366924
9.308                 0.96576029     -111.576485
9.309                0.965683242     -111.786556
9.31                 0.965606138     -111.997138
9.311                0.965528979      -112.20823
9.312                0.965451766     -112.419833
9.313                0.965374502     -112.631948
9.314                0.965297188     -112.844574
9.315                0.965219827     -113.057714
9.316                 0.96514242     -113.271366
9.317                0.965064969     -113.485532
9.318                0.964987477     -113.700211
9.319                0.964909944     -113.915405
9.32                 0.964832373     -114.131113
9.321                0.964754767     -114.347336
9.322                0.964677126     -114.564075
9.323                0.964599454     -114.781329
9.324                0.964521752     -114.999099
9.325                0.964444022     -115.217385
9.326                0.964366267     -115.436188
9.327                0.964288488     -115.655508
9.328                0.964210688     -115.875346
9.329                0.964132869       -116.0957
9.33                 0.964055032     -116.316573
9.331                0.963977181     -116.537963
9.332                0.963899318     -116.759871
9.333                0.963821444     -116.982298
9.334                0.963743563     -117.205244
9.335                0.963665675     -117.428708
9.336                0.963587785     -117.652692
9.337                0.963509893     -117.877194
9.338                0.963432003     -118.102216
9.339                0.963354117     -118.327757
9.34                 0.963276237     -118.553817
9.341                0.963198365     -118.780398
9.342                0.963120505     -119.007497
9.343                0.963042658     -119.235117
9.344                0.962964827     -119.463256
9.345                0.962887015     -119.691915
9.346                0.962809224     -119.921094
9.347                0.962731457     -120.150793
9.348                0.962653716     -120.381012
9.349                0.962576004      -120.61175
9.35                 0.962498323     -120.843008
9.351                0.962420677     -121.074786
9.352                0.962343068     -121.307083
9.353                0.962265498       -121.5399
9.354                 0.96218797     -121.773236
9.355                0.962110487     -122.007091
9.356                0.962033052     -122.241466
9.357                0.961955668     -122.476359
9.358                0.961878337     -122.711771
9.359                0.961801062     -122.947701
9.36                 0.961723846      -123.18415
9.361                0.961646692     -123.421117
9.362                0.961569603     -123.658601
9.363                0.961492581     -123.896603
9.364                 0.96141563     -124.135122
9.365                0.961338752     -124.374158
9.366                0.961261951      -124.61371
9.367                 0.96118523     -124.853779
9.368                 0.96110859     -125.094363
9.369                0.961032037     -125.335463
9.37                 0.960955572     -125.577078
9.371                0.960879198     -125.819207
9.372                 0.96080292      -126.06185
9.373                0.960726739     -126.305007
9.374                0.960650659     -126.548677
9.375                0.960574683     -126.792859
9.376                0.960498815     -127.037554
9.377                0.960423056      -127.28276
9.378                0.960347412     -127.528477
9.379                0.960271884     -127.774704
9.38                 0.960196477      -128.02144
9.381                0.960121193     -128.268686
9.382                0.960046036     -128.516441
9.383                0.959971008     -128.764702
9.384                0.959896114     -129.013471
9.385                0.959821356     -129.262746
9.386                0.959746739     -129.512527
9.387                0.959672265     -129.762812
9.388                0.959597937     -130.013601
9.389                 0.95952376     -130.264894
9.39                 0.959449736     -130.516688
9.391                0.959375869     -130.768984
9.392                0.959302162     -131.021781
9.393                 0.95922862     -131.275077
9.394                0.959155245     -131.528872
9.395                 0.95908204     -131.783164
9.396                0.959009011     -132.037953
