! TOUCHSTONE file generated by CST DESIGN STUDIO
! Date and time: Tue Feb  4 14:09:26 2025
! Project name: C:\Work\MatlabApps\UnitCellOptimizationMatlab\CST\unitcell.cst
! Tree item: Tasks\Sweep1\SPara1\S-Parameters
! Header version: 2024
! Port assignment regex: !\s*Touchstone port\s*([0-9]+)\s*=\s*(CST MWS port|CST DES external port|CST DES block port)\s*(.+)\s* \(\"(.*)\"\)(\s*mode\s*([0-9]+))?.*
! Touchstone port assignment:
! Touchstone port 1 = CST DES external port 1 ("")
# GHz S MA R 50
9                    0.980440279     -80.1130121
9.001                  0.9803903     -80.2395816
9.002                 0.98034017     -80.3664717
9.003                 0.98028989     -80.4936835
9.004                0.980239458     -80.6212178
9.005                0.980188876     -80.7490757
9.006                0.980138142      -80.877258
9.007                0.980087256     -81.0057657
9.008                0.980036218     -81.1345997
9.009                0.979985027      -81.263761
9.01                 0.979933684     -81.3932506
9.011                0.979882188     -81.5230694
9.012                0.979830539     -81.6532184
9.013                0.979778736     -81.7836985
9.014                 0.97972678     -81.9145107
9.015                 0.97967467     -82.0456559
9.016                0.979622406     -82.1771352
9.017                0.979569987     -82.3089494
9.018                0.979517413     -82.4410996
9.019                0.979464685     -82.5735866
9.02                 0.979411801     -82.7064116
9.021                0.979358763     -82.8395753
9.022                0.979305568      -82.973079
9.023                0.979252218     -83.1069234
9.024                0.979198711     -83.2411095
9.025                0.979145048     -83.3756384
9.026                0.979091229     -83.5105111
9.027                0.979037253     -83.6457284
9.028                0.978983119     -83.7812914
9.029                0.978928829     -83.9172011
9.03                 0.978874381     -84.0534585
9.031                0.978819776     -84.1900644
9.032                0.978765013       -84.32702
9.033                0.978710092     -84.4643262
9.034                0.978655013      -84.601984
9.035                0.978599775     -84.7399944
9.036                0.978544379     -84.8783583
9.037                0.978488824     -85.0170768
9.038                 0.97843311     -85.1561509
9.039                0.978377237     -85.2955815
9.04                 0.978321205     -85.4353697
9.041                0.978265013     -85.5755164
9.042                0.978208662     -85.7160227
9.043                 0.97815215     -85.8568895
9.044                0.978095479     -85.9981178
9.045                0.978038648     -86.1397087
9.046                0.977981657     -86.2816631
9.047                0.977924505      -86.423982
9.048                0.977867193     -86.5666665
9.049                0.977809721     -86.7097176
9.05                 0.977752087     -86.8531362
9.051                0.977694293     -86.9969233
9.052                0.977636337       -87.14108
9.053                0.977578221     -87.2856073
9.054                0.977519943     -87.4305062
9.055                0.977461505     -87.5757776
9.056                0.977402904     -87.7214227
9.057                0.977344142     -87.8674423
9.058                0.977285219     -88.0138376
9.059                0.977226134     -88.1606094
9.06                 0.977166887     -88.3077589
9.061                0.977107479     -88.4552871
9.062                0.977047908     -88.6031949
9.063                0.976988176     -88.7514833
9.064                0.976928281     -88.9001535
9.065                0.976868225     -89.0492063
9.066                0.976808007     -89.1986428
9.067                0.976747626      -89.348464
9.068                0.976687083      -89.498671
9.069                0.976626378     -89.6492647
9.07                 0.976565511     -89.8002462
9.071                0.976504482     -89.9516164
9.072                0.976443291     -90.1033764
9.073                0.976381937     -90.2555272
9.074                0.976320421     -90.4080698
9.075                0.976258743     -90.5610052
9.076                0.976196903     -90.7143345
9.077                0.976134901     -90.8680585
9.078                0.976072737     -91.0221785
9.079                 0.97601041     -91.1766953
9.08                 0.975947922       -91.33161
9.081                0.975885272     -91.4869236
9.082                 0.97582246      -91.642637
9.083                0.975759486     -91.7987514
9.084                 0.97569635     -91.9552677
9.085                0.975633053      -92.112187
9.086                0.975569594     -92.2695101
9.087                0.975505974     -92.4272383
9.088                0.975442192     -92.5853723
9.089                0.975378249     -92.7439134
9.09                 0.975314146     -92.9028624
9.091                0.975249881     -93.0622203
9.092                0.975185455     -93.2219883
9.093                0.975120869     -93.3821672
9.094                0.975056122     -93.5427581
9.095                0.974991215     -93.7037619
9.096                0.974926147     -93.8651798
9.097                 0.97486092     -94.0270126
9.098                0.974795533     -94.1892614
9.099                0.974729986     -94.3519272
9.1                   0.97466428     -94.5150109
9.101                0.974598415     -94.6785136
9.102                0.974532391     -94.8424362
9.103                0.974466208     -95.0067798
9.104                0.974399867     -95.1715453
9.105                0.974333367     -95.3367337
9.106                 0.97426671      -95.502346
9.107                0.974199895     -95.6683832
9.108                0.974132922     -95.8348462
9.109                0.974065793     -96.0017361
9.11                 0.973998506     -96.1690538
9.111                0.973931064     -96.3368003
9.112                0.973863465     -96.5049765
9.113                 0.97379571     -96.6735835
9.114                  0.9737278     -96.8426222
9.115                0.973659735     -97.0120936
9.116                0.973591515     -97.1819986
9.117                 0.97352314     -97.3523382
9.118                0.973454612     -97.5231133
9.119                 0.97338593      -97.694325
9.12                 0.973317095     -97.8659741
9.121                0.973248107     -98.0380617
9.122                0.973178967     -98.2105886
9.123                0.973109676     -98.3835558
9.124                0.973040232     -98.5569643
9.125                0.972970638     -98.7308149
9.126                0.972900893     -98.9051087
9.127                0.972830999     -99.0798466
9.128                0.972760955     -99.2550294
9.129                0.972690762     -99.4306582
9.13                  0.97262042     -99.6067338
9.131                0.972549931     -99.7832572
9.132                0.972479294     -99.9602292
9.133                0.972408511     -100.137651
9.134                0.972337581     -100.315523
9.135                0.972266506     -100.493847
9.136                0.972195285     -100.672622
9.137                0.972123921     -100.851851
9.138                0.972052412     -101.031534
9.139                0.971980761     -101.211673
9.14                 0.971908967     -101.392267
9.141                0.971837031     -101.573317
9.142                0.971764954     -101.754826
9.143                0.971692737     -101.936792
9.144                 0.97162038     -102.119219
9.145                0.971547884     -102.302105
9.146                0.971475249     -102.485452
9.147                0.971402478     -102.669262
9.148                0.971329569     -102.853534
9.149                0.971256525      -103.03827
9.15                 0.971183345      -103.22347
9.151                0.971110031     -103.409136
9.152                0.971036584     -103.595267
9.153                0.970963003     -103.781866
9.154                0.970889291     -103.968932
9.155                0.970815448     -104.156467
9.156                0.970741475     -104.344471
9.157                0.970667373     -104.532946
9.158                0.970593142     -104.721891
9.159                0.970518784     -104.911308
9.16                   0.9704443     -105.101198
9.161                 0.97036969     -105.291561
9.162                0.970294955     -105.482398
9.163                0.970220098      -105.67371
9.164                0.970145117     -105.865497
9.165                0.970070016     -106.057761
9.166                0.969994794     -106.250502
9.167                0.969919452      -106.44372
9.168                0.969843992     -106.637417
9.169                0.969768416     -106.831594
9.17                 0.969692723      -107.02625
9.171                0.969616915     -107.221387
9.172                0.969540993     -107.417005
9.173                0.969464958     -107.613106
9.174                0.969388813     -107.809689
9.175                0.969312556     -108.006755
9.176                0.969236191     -108.204306
9.177                0.969159718     -108.402341
9.178                0.969083138     -108.600862
9.179                0.969006453     -108.799869
9.18                 0.968929664     -108.999363
9.181                0.968852772     -109.199343
9.182                0.968775779     -109.399812
9.183                0.968698686     -109.600769
9.184                0.968621493     -109.802216
9.185                0.968544204     -110.004152
9.186                0.968466818     -110.206578
9.187                0.968389338     -110.409496
9.188                0.968311765     -110.612904
9.189                  0.9682341     -110.816805
9.19                 0.968156345     -111.021198
9.191                0.968078501     -111.226085
9.192                 0.96800057     -111.431465
9.193                0.967922553     -111.637339
9.194                0.967844452     -111.843707
9.195                0.967766268     -112.050571
9.196                0.967688003     -112.257931
9.197                0.967609659     -112.465786
9.198                0.967531236     -112.674138
9.199                0.967452738     -112.882987
9.2                  0.967374165     -113.092334
9.201                 0.96729552     -113.302178
9.202                0.967216803     -113.512521
9.203                0.967138016     -113.723362
9.204                0.967059162     -113.934703
9.205                0.966980242     -114.146543
9.206                0.966901258     -114.358883
9.207                0.966822212     -114.571723
9.208                0.966743105     -114.785063
9.209                0.966663939     -114.998905
9.21                 0.966584716     -115.213248
9.211                0.966505439     -115.428092
9.212                0.966426108     -115.643439
9.213                0.966346726     -115.859287
9.214                0.966267295     -116.075638
9.215                0.966187817     -116.292492
9.216                0.966108294     -116.509849
9.217                0.966028727     -116.727708
9.218                0.965949119     -116.946072
9.219                0.965869472     -117.164939
9.22                 0.965789788     -117.384309
9.221                0.965710069     -117.604184
9.222                0.965630316     -117.824563
9.223                0.965550534     -118.045447
9.224                0.965470722     -118.266835
9.225                0.965390884     -118.488727
9.226                0.965311022     -118.711124
9.227                0.965231137     -118.934027
9.228                0.965151233     -119.157434
9.229                0.965071312     -119.381346
9.23                 0.964991375     -119.605763
9.231                0.964911425     -119.830685
9.232                0.964831464     -120.056113
9.233                0.964751496     -120.282045
9.234                0.964671521     -120.508483
9.235                0.964591542     -120.735426
9.236                0.964511563     -120.962874
9.237                0.964431585     -121.190827
9.238                 0.96435161     -121.419285
9.239                0.964271642     -121.648248
9.24                 0.964191682     -121.877716
9.241                0.964111734     -122.107689
9.242                  0.9640318     -122.338166
9.243                0.963951881     -122.569147
9.244                0.963871982     -122.800633
9.245                0.963792104     -123.032623
9.246                 0.96371225     -123.265116
9.247                0.963632423     -123.498113
9.248                0.963552625     -123.731614
9.249                 0.96347286     -123.965618
9.25                 0.963393129     -124.200125
9.251                0.963313435     -124.435134
9.252                0.963233782     -124.670646
9.253                0.963154172      -124.90666
9.254                0.963074608     -125.143175
9.255                0.962995092     -125.380192
9.256                0.962915628     -125.617709
9.257                0.962836218     -125.855728
9.258                0.962756865     -126.094246
9.259                0.962677572     -126.333264
9.26                 0.962598342     -126.572781
9.261                0.962519178     -126.812797
9.262                0.962440083     -127.053311
9.263                0.962361059     -127.294323
9.264                0.962282111     -127.535832
9.265                 0.96220324     -127.777838
9.266                 0.96212445     -128.020339
9.267                0.962045743     -128.263337
9.268                0.961967124     -128.506829
9.269                0.961888595     -128.750816
9.27                 0.961810158     -128.995296
9.271                0.961731818     -129.240269
9.272                0.961653578     -129.485735
9.273                0.961575439     -129.731692
9.274                0.961497407      -129.97814
9.275                0.961419483     -130.225077
9.276                0.961341672     -130.472505
9.277                0.961263975      -130.72042
9.278                0.961186398     -130.968824
9.279                0.961108942     -131.217714
9.28                 0.961031611     -131.467091
9.281                0.960954409     -131.716952
9.282                0.960877338     -131.967298
9.283                0.960800403     -132.218127
9.284                0.960723605     -132.469438
9.285                 0.96064695     -132.721231
9.286                 0.96057044     -132.973504
9.287                0.960494078     -133.226256
9.288                0.960417868     -133.479487
9.289                0.960341814     -133.733195
9.29                 0.960265919      -133.98738
9.291                0.960190185     -134.242039
9.292                0.960114618     -134.497173
9.293                 0.96003922     -134.752779
9.294                0.959963994     -135.008857
9.295                0.959888945     -135.265406
9.296                0.959814076     -135.522424
9.297                 0.95973939      -135.77991
9.298                 0.95966489     -136.037862
9.299                0.959590582      -136.29628
9.3                  0.959516467     -136.555163
9.301                 0.95944255     -136.814508
9.302                0.959368834     -137.074315
9.303                0.959295323     -137.334582
9.304                 0.95922202     -137.595307
9.305                0.959148929      -137.85649
9.306                0.959076055     -138.118129
9.307                0.959003399     -138.380222
9.308                0.958930967     -138.642768
9.309                0.958858761     -138.905765
9.31                 0.958786785     -139.169212
9.311                0.958715044     -139.433107
9.312                0.958643541     -139.697449
9.313                0.958572279     -139.962236
9.314                0.958501262     -140.227467
9.315                0.958430494     -140.493139
9.316                0.958359979     -140.759251
9.317                 0.95828972     -141.025801
9.318                0.958219721     -141.292788
9.319                0.958149987      -141.56021
9.32                  0.95808052     -141.828065
9.321                0.958011324     -142.096351
9.322                0.957942403     -142.365066
9.323                0.957873762     -142.634209
9.324                0.957805403     -142.903778
9.325                 0.95773733      -143.17377
9.326                0.957669548     -143.444184
9.327                 0.95760206     -143.715018
9.328                0.957534869     -143.986269
9.329                 0.95746798     -144.257937
9.33                 0.957401397     -144.530018
9.331                0.957335122      -144.80251
9.332                0.957269161     -145.075413
9.333                0.957203516     -145.348723
9.334                0.957138192     -145.622438
9.335                0.957073192     -145.896557
9.336                 0.95700852     -146.171077
9.337                 0.95694418     -146.445995
9.338                0.956880176      -146.72131
9.339                0.956816511     -146.997019
9.34                 0.956753189     -147.273121
9.341                0.956690214     -147.549612
9.342                0.956627589     -147.826491
9.343                0.956565319     -148.103754
9.344                0.956503407     -148.381401
9.345                0.956441857     -148.659427
9.346                0.956380673     -148.937832
9.347                0.956319858     -149.216612
9.348                0.956259416     -149.495764
9.349                0.956199351     -149.775288
9.35                 0.956139667     -150.055179
9.351                0.956080366     -150.335435
9.352                0.956021454     -150.616054
9.353                0.955962933     -150.897034
9.354                0.955904807     -151.178371
9.355                0.955847081     -151.460062
9.356                0.955789756     -151.742106
9.357                0.955732838       -152.0245
9.358                 0.95567633      -152.30724
9.359                0.955620235     -152.590325
9.36                 0.955564557     -152.873751
9.361                0.955509299     -153.157515
9.362                0.955454465     -153.441615
9.363                 0.95540006     -153.726048
9.364                0.955346085     -154.010811
9.365                0.955292545     -154.295901
9.366                0.955239443     -154.581315
9.367                0.955186783     -154.867051
9.368                0.955134567     -155.153105
9.369                0.955082801     -155.439474
9.37                 0.955031486     -155.726156
9.371                0.954980627     -156.013148
9.372                0.954930226     -156.300445
9.373                0.954880288     -156.588046
9.374                0.954830814     -156.875947
9.375                 0.95478181     -157.164146
9.376                0.954733278     -157.452638
9.377                0.954685221     -157.741421
9.378                0.954637642     -158.030492
9.379                0.954590546     -158.319848
9.38                 0.954543934     -158.609485
9.381                 0.95449781       -158.8994
9.382                0.954452178     -159.189589
9.383                 0.95440704     -159.480051
9.384                  0.9543624      -159.77078
9.385                 0.95431826     -160.061775
9.386                0.954274624     -160.353031
9.387                0.954231495     -160.644546
9.388                0.954188875     -160.936315
9.389                0.954146768     -161.228336
9.39                 0.954105176     -161.520606
9.391                0.954064102      -161.81312
9.392                 0.95402355     -162.105875
9.393                0.953983522     -162.398868
9.394                0.953944021     -162.692096
9.395                 0.95390505     -162.985554
9.396                 0.95386661      -163.27924
