! TOUCHSTONE file generated by CST DESIGN STUDIO
! Date and time: Tue Feb  4 16:00:37 2025
! Project name: C:\Work\MatlabApps\UnitCellOptimizationMatlab\CST\unitcell.cst
! Tree item: Tasks\Sweep1\SPara1\S-Parameters
! Header version: 2024
! Port assignment regex: !\s*Touchstone port\s*([0-9]+)\s*=\s*(CST MWS port|CST DES external port|CST DES block port)\s*(.+)\s* \(\"(.*)\"\)(\s*mode\s*([0-9]+))?.*
! Touchstone port assignment:
! Touchstone port 1 = CST DES external port 1 ("")
# GHz S MA R 50
9                    0.902989058     -72.1385544
9.001                  0.9027059     -72.2618065
9.002                0.902421696     -72.3854301
9.003                0.902136443     -72.5094266
9.004                0.901850137     -72.6337975
9.005                0.901562774     -72.7585442
9.006                 0.90127435     -72.8836684
9.007                0.900984861     -73.0091714
9.008                0.900694304     -73.1350548
9.009                0.900402675       -73.26132
9.01                 0.900109971     -73.3879686
9.011                0.899816186     -73.5150022
9.012                0.899521318     -73.6424221
9.013                0.899225363       -73.77023
9.014                0.898928316     -73.8984274
9.015                0.898630175     -74.0270157
9.016                0.898330935     -74.1559967
9.017                0.898030593     -74.2853718
9.018                0.897729144     -74.4151426
9.019                0.897426586     -74.5453106
9.02                 0.897122913     -74.6758774
9.021                0.896818123     -74.8068447
9.022                0.896512212     -74.9382139
9.023                0.896205175     -75.0699867
9.024                 0.89589701     -75.2021647
9.025                0.895587712     -75.3347495
9.026                0.895277277     -75.4677426
9.027                0.894965702     -75.6011458
9.028                0.894652983     -75.7349606
9.029                0.894339116     -75.8691887
9.03                 0.894024098     -76.0038316
9.031                0.893707925     -76.1388911
9.032                0.893390593     -76.2743688
9.033                0.893072097     -76.4102663
9.034                0.892752436     -76.5465853
9.035                0.892431604     -76.6833275
9.036                0.892109598     -76.8204945
9.037                0.891786415      -76.958088
9.038                0.891462051     -77.0961098
9.039                0.891136501     -77.2345615
9.04                 0.890809763     -77.3734447
9.041                0.890481832     -77.5127613
9.042                0.890152706     -77.6525129
9.043                 0.88982238     -77.7927012
9.044                 0.88949085      -77.933328
9.045                0.889158114      -78.074395
9.046                0.888824167     -78.2159039
9.047                0.888489006     -78.3578565
9.048                0.888152627     -78.5002545
9.049                0.887815027     -78.6430998
9.05                 0.887476201     -78.7863939
9.051                0.887136148     -78.9301388
9.052                0.886794862     -79.0743362
9.053                0.886452341     -79.2189879
9.054                0.886108581     -79.3640956
9.055                0.885763578     -79.5096613
9.056                0.885417329     -79.6556865
9.057                 0.88506983     -79.8021733
9.058                0.884721079     -79.9491234
9.059                0.884371071     -80.0965386
9.06                 0.884019804     -80.2444207
9.061                0.883667273     -80.3927716
9.062                0.883313476     -80.5415932
9.063                0.882958408     -80.6908872
9.064                0.882602068     -80.8406555
9.065                0.882244451     -80.9909001
9.066                0.881885554     -81.1416226
9.067                0.881525373     -81.2928251
9.068                0.881163907     -81.4445095
9.069                0.880801151     -81.5966775
9.07                 0.880437102     -81.7493311
9.071                0.880071757     -81.9024721
9.072                0.879705112     -82.0561026
9.073                0.879337166     -82.2102244
9.074                0.878967914     -82.3648394
9.075                0.878597354     -82.5199495
9.076                0.878225482     -82.6755567
9.077                0.877852296     -82.8316629
9.078                0.877477792     -82.9882701
9.079                0.877101968     -83.1453802
9.08                  0.87672482     -83.3029951
9.081                0.876346346     -83.4611169
9.082                0.875966543     -83.6197474
9.083                0.875585408     -83.7788888
9.084                0.875202939     -83.9385428
9.085                0.874819132     -84.0987116
9.086                0.874433984     -84.2593971
9.087                0.874047494     -84.4206013
9.088                0.873659658     -84.5823263
9.089                0.873270474     -84.7445739
9.09                 0.872879939     -84.9073464
9.091                0.872488051     -85.0706456
9.092                0.872094807     -85.2344736
9.093                0.871700205     -85.3988324
9.094                0.871304242     -85.5637241
9.095                0.870906916     -85.7291507
9.096                0.870508225     -85.8951144
9.097                0.870108166      -86.061617
9.098                0.869706737     -86.2286607
9.099                0.869303936     -86.3962476
9.1                  0.868899761     -86.5643797
9.101                 0.86849421     -86.7330592
9.102                 0.86808728      -86.902288
9.103                 0.86767897     -87.0720684
9.104                0.867269278     -87.2424023
9.105                0.866858201     -87.4132919
9.106                0.866445738     -87.5847393
9.107                0.866031888     -87.7567466
9.108                0.865616648      -87.929316
9.109                0.865200017     -88.1024495
9.11                 0.864781992     -88.2761493
9.111                0.864362574     -88.4504175
9.112                0.863941759     -88.6252562
9.113                0.863519548     -88.8006677
9.114                0.863095937      -88.976654
9.115                0.862670926     -89.1532173
9.116                0.862244514     -89.3303597
9.117                  0.8618167     -89.5080835
9.118                0.861387482     -89.6863908
9.119                0.860956859     -89.8652837
9.12                  0.86052483     -90.0447645
9.121                0.860091395     -90.2248352
9.122                0.859656553     -90.4054982
9.123                0.859220302     -90.5867556
9.124                0.858782642     -90.7686096
9.125                0.858343573     -90.9510623
9.126                0.857903093     -91.1341161
9.127                0.857461203     -91.3177731
9.128                0.857017902     -91.5020354
9.129                0.856573189     -91.6869054
9.13                 0.856127065     -91.8723852
9.131                0.855679529     -92.0584772
9.132                0.855230581     -92.2451834
9.133                0.854780221     -92.4325061
9.134                 0.85432845     -92.6204476
9.135                0.853875267       -92.80901
9.136                0.853420672     -92.9981958
9.137                0.852964667     -93.1880069
9.138                0.852507251     -93.3784459
9.139                0.852048425     -93.5695148
9.14                  0.85158819     -93.7612159
9.141                0.851126546     -93.9535515
9.142                0.850663494     -94.1465238
9.143                0.850199035     -94.3401352
9.144                 0.84973317     -94.5343878
9.145                0.849265901     -94.7292839
9.146                0.848797227     -94.9248258
9.147                0.848327152     -95.1210158
9.148                0.847855676     -95.3178561
9.149                  0.8473828      -95.515349
9.15                 0.846908527     -95.7134969
9.151                0.846432858     -95.9123018
9.152                0.845955794     -96.1117663
9.153                0.845477339     -96.3118924
9.154                0.844997493     -96.5126825
9.155                 0.84451626     -96.7141389
9.156                0.844033641     -96.9162639
9.157                 0.84354964     -97.1190597
9.158                0.843064257     -97.3225287
9.159                0.842577497      -97.526673
9.16                 0.842089362     -97.7314951
9.161                0.841599855     -97.9369971
9.162                0.841108978     -98.1431814
9.163                0.840616736     -98.3500503
9.164                0.840123131      -98.557606
9.165                0.839628167     -98.7658508
9.166                0.839131848     -98.9747871
9.167                0.838634177      -99.184417
9.168                0.838135158     -99.3947429
9.169                0.837634795      -99.605767
9.17                 0.837133092     -99.8174917
9.171                0.836630053     -100.029919
9.172                0.836125684     -100.243052
9.173                0.835619988     -100.456892
9.174                0.835112969     -100.671441
9.175                0.834604634     -100.886703
9.176                0.834094987     -101.102678
9.177                0.833584033      -101.31937
9.178                0.833071778     -101.536781
9.179                0.832558226     -101.754912
9.18                 0.832043384     -101.973767
9.181                0.831527258     -102.193348
9.182                0.831009852     -102.413655
9.183                0.830491174     -102.634693
9.184                 0.82997123     -102.856463
9.185                0.829450026     -103.078968
9.186                0.828927569     -103.302209
9.187                0.828403865     -103.526189
9.188                0.827878922      -103.75091
9.189                0.827352746     -103.976375
9.19                 0.826825345     -104.202585
9.191                0.826296727     -104.429542
9.192                0.825766899      -104.65725
9.193                0.825235869     -104.885709
9.194                0.824703644     -105.114923
9.195                0.824170234     -105.344893
9.196                0.823635647     -105.575622
9.197                 0.82309989     -105.807112
9.198                0.822562974     -106.039365
9.199                0.822024907     -106.272383
9.2                  0.821485697     -106.506167
9.201                0.820945355     -106.740722
9.202                 0.82040389     -106.976048
9.203                0.819861312     -107.212147
9.204                0.819317631     -107.449022
9.205                0.818772857     -107.686675
9.206                   0.818227     -107.925107
9.207                 0.81768007     -108.164322
9.208                 0.81713208      -108.40432
9.209                0.816583039     -108.645105
9.21                 0.816032959     -108.886677
9.211                0.815481851      -109.12904
9.212                0.814929728     -109.372194
9.213                  0.8143766     -109.616143
9.214                 0.81382248     -109.860888
9.215                 0.81326738     -110.106431
9.216                0.812711313     -110.352774
9.217                0.812154292     -110.599918
9.218                0.811596329     -110.847867
9.219                0.811037437     -111.096621
9.22                 0.810477631     -111.346184
9.221                0.809916923     -111.596555
9.222                0.809355329     -111.847738
9.223                0.808792861     -112.099735
9.224                0.808229534     -112.352546
9.225                0.807665363     -112.606175
9.226                0.807100363     -112.860622
9.227                0.806534548     -113.115889
9.228                0.805967935     -113.371979
9.229                0.805400538     -113.628893
9.23                 0.804832374     -113.886633
9.231                0.804263458       -114.1452
9.232                0.803693807     -114.404596
9.233                0.803123438     -114.664824
9.234                0.802552367     -114.925883
9.235                0.801980611     -115.187777
9.236                0.801408188     -115.450506
9.237                0.800835116     -115.714073
9.238                0.800261411     -115.978478
9.239                0.799687093     -116.243724
9.24                  0.79911218     -116.509812
9.241                0.798536689     -116.776742
9.242                0.797960641     -117.044518
9.243                0.797384054      -117.31314
9.244                0.796806948      -117.58261
9.245                0.796229342     -117.852928
9.246                0.795651256     -118.124097
9.247                0.795072711     -118.396118
9.248                0.794493727     -118.668992
9.249                0.793914325      -118.94272
9.25                 0.793334525     -119.217303
9.251                 0.79275435     -119.492744
9.252                 0.79217382     -119.769042
9.253                0.791592958     -120.046199
9.254                0.791011785     -120.324217
9.255                0.790430324     -120.603096
9.256                0.789848598     -120.882837
9.257                0.789266629     -121.163441
9.258                0.788684441      -121.44491
9.259                0.788102057     -121.727244
9.26                 0.787519502     -122.010445
9.261                0.786936798     -122.294513
9.262                0.786353971     -122.579448
9.263                0.785771044     -122.865253
9.264                0.785188043     -123.151927
9.265                0.784604993     -123.439472
9.266                 0.78402192     -123.727887
9.267                0.783438848     -124.017175
9.268                0.782855804     -124.307334
9.269                0.782272815     -124.598367
9.27                 0.781689906     -124.890273
9.271                0.781107105     -125.183053
9.272                0.780524438     -125.476708
9.273                0.779941934     -125.771238
9.274                0.779359619     -126.066643
9.275                0.778777521     -126.362924
9.276                0.778195669      -126.66008
9.277                0.777614091     -126.958113
9.278                0.777032816     -127.257023
9.279                0.776451873     -127.556808
9.28                  0.77587129     -127.857471
9.281                0.775291098      -128.15901
9.282                0.774711327     -128.461427
9.283                0.774132005      -128.76472
9.284                0.773553165     -129.068889
9.285                0.772974836     -129.373936
9.286                0.772397049     -129.679859
9.287                0.771819835     -129.986658
9.288                0.771243226     -130.294332
9.289                0.770667252     -130.602883
9.29                 0.770091948     -130.912309
9.291                0.769517343     -131.222609
9.292                0.768943471     -131.533784
9.293                0.768370364     -131.845832
9.294                0.767798055     -132.158754
9.295                0.767226578     -132.472548
9.296                0.766655965     -132.787214
9.297                 0.76608625     -133.102752
9.298                0.765517467     -133.419159
9.299                0.764949651     -133.736435
9.3                  0.764382835     -134.054581
9.301                0.763817054     -134.373593
9.302                0.763252343     -134.693472
9.303                0.762688736     -135.014216
9.304                 0.76212627     -135.335824
9.305                0.761564979     -135.658295
9.306                0.761004899     -135.981627
9.307                0.760446066      -136.30582
9.308                0.759888515     -136.630871
9.309                0.759332284      -136.95678
9.31                 0.758777409     -137.283544
9.311                0.758223926     -137.611162
9.312                0.757671872     -137.939632
9.313                0.757121285     -138.268953
9.314                  0.7565722     -138.599123
9.315                0.756024657      -138.93014
9.316                0.755478692     -139.262001
9.317                0.754934343     -139.594705
9.318                0.754391648      -139.92825
9.319                0.753850645     -140.262634
9.32                 0.753311372     -140.597854
9.321                0.752773869     -140.933908
9.322                0.752238172     -141.270793
9.323                0.751704321     -141.608508
9.324                0.751172354     -141.947049
9.325                0.750642312     -142.286414
9.326                0.750114231     -142.626601
9.327                0.749588153     -142.967606
9.328                0.749064115     -143.309427
9.329                0.748542158      -143.65206
9.33                  0.74802232     -143.995504
9.331                0.747504642     -144.339754
9.332                0.746989163     -144.684808
9.333                0.746475923     -145.030663
9.334                0.745964961     -145.377314
9.335                0.745456318      -145.72476
9.336                0.744950034     -146.072995
9.337                0.744446148     -146.422018
9.338                  0.7439447     -146.771824
9.339                0.743445731     -147.122409
9.34                 0.742949281      -147.47377
9.341                0.742455389     -147.825903
9.342                0.741964097     -148.178805
9.343                0.741475444      -148.53247
9.344                0.740989471     -148.886895
9.345                0.740506217     -149.242076
9.346                0.740025724     -149.598008
9.347                 0.73954803     -149.954688
9.348                0.739073177      -150.31211
9.349                0.738601204     -150.670271
9.35                 0.738132152     -151.029165
9.351                 0.73766606     -151.388789
9.352                0.737202969     -151.749137
9.353                0.736742919     -152.110204
9.354                0.736285949     -152.471986
9.355                0.735832099     -152.834477
9.356                0.735381409     -153.197674
9.357                0.734933918     -153.561569
9.358                0.734489667     -153.926159
9.359                0.734048694     -154.291438
9.36                 0.733611039       -154.6574
9.361                0.733176741      -155.02404
9.362                0.732745838     -155.391353
9.363                 0.73231837     -155.759332
9.364                0.731894376     -156.127972
9.365                0.731473894     -156.497268
9.366                0.731056963     -156.867213
9.367                 0.73064362     -157.237801
9.368                0.730233903     -157.609027
9.369                0.729827852     -157.980884
9.37                 0.729425502     -158.353366
9.371                0.729026892     -158.726467
9.372                0.728632059     -159.100179
9.373                0.728241039     -159.474498
9.374                 0.72785387     -159.849416
9.375                0.727470588     -160.224927
9.376                0.727091229     -160.601023
9.377                0.726715829     -160.977699
9.378                0.726344424     -161.354947
9.379                0.725977049      -161.73276
9.38                 0.725613739     -162.111132
9.381                0.725254529     -162.490055
9.382                0.724899453     -162.869523
9.383                0.724548546     -163.249527
9.384                0.724201842     -163.630061
9.385                0.723859374     -164.011117
9.386                0.723521174     -164.392687
9.387                0.723187277     -164.774765
9.388                0.722857714     -165.157342
9.389                0.722532517     -165.540412
9.39                 0.722211719     -165.923965
9.391                 0.72189535     -166.307995
9.392                0.721583442     -166.692493
9.393                0.721276024     -167.077452
9.394                0.720973127     -167.462863
9.395                0.720674781     -167.848718
9.396                0.720381014     -168.235009
