! TOUCHSTONE file generated by CST DESIGN STUDIO
! Date and time: Tue Feb  4 16:00:45 2025
! Project name: C:\Work\MatlabApps\UnitCellOptimizationMatlab\CST\unitcell.cst
! Tree item: Tasks\Sweep1\SPara1\S-Parameters
! Header version: 2024
! Port assignment regex: !\s*Touchstone port\s*([0-9]+)\s*=\s*(CST MWS port|CST DES external port|CST DES block port)\s*(.+)\s* \(\"(.*)\"\)(\s*mode\s*([0-9]+))?.*
! Touchstone port assignment:
! Touchstone port 1 = CST DES external port 1 ("")
# GHz S MA R 50
9                    0.969792465     -44.4599195
9.001                0.969745376     -44.5147864
9.002                0.969698034     -44.5697651
9.003                0.969650439     -44.6248561
9.004                 0.96960259     -44.6800597
9.005                0.969554486     -44.7353762
9.006                0.969506126     -44.7908059
9.007                0.969457509     -44.8463491
9.008                0.969408635     -44.9020062
9.009                0.969359502     -44.9577775
9.01                  0.96931011     -45.0136633
9.011                0.969260458      -45.069664
9.012                0.969210545     -45.1257799
9.013                 0.96916037     -45.1820114
9.014                0.969109932     -45.2383587
9.015                0.969059231     -45.2948223
9.016                0.969008265     -45.3514024
9.017                0.968957034     -45.4080995
9.018                0.968905537     -45.4649138
9.019                0.968853773     -45.5218456
9.02                  0.96880174     -45.5788954
9.021                0.968749439     -45.6360635
9.022                0.968696868     -45.6933503
9.023                0.968644026      -45.750756
9.024                0.968590912      -45.808281
9.025                0.968537527     -45.8659258
9.026                0.968483867     -45.9236906
9.027                0.968429934     -45.9815757
9.028                0.968375725     -46.0395817
9.029                 0.96832124     -46.0977087
9.03                 0.968266478     -46.1559572
9.031                0.968211438     -46.2143276
9.032                0.968156119     -46.2728201
9.033                0.968100521     -46.3314353
9.034                0.968044642     -46.3901733
9.035                0.967988481     -46.4490346
9.036                0.967932037     -46.5080196
9.037                 0.96787531     -46.5671286
9.038                0.967818299      -46.626362
9.039                0.967761002     -46.6857202
9.04                 0.967703419     -46.7452035
9.041                0.967645548     -46.8048124
9.042                 0.96758739     -46.8645471
9.043                0.967528942     -46.9244082
9.044                0.967470204     -46.9843958
9.045                0.967411175     -47.0445106
9.046                0.967351853     -47.1047527
9.047                0.967292239     -47.1651226
9.048                0.967232331     -47.2256208
9.049                0.967172128     -47.2862475
9.05                 0.967111628     -47.3470032
9.051                0.967050832     -47.4078882
9.052                0.966989738      -47.468903
9.053                0.966928345     -47.5300479
9.054                0.966866653     -47.5913234
9.055                0.966804659     -47.6527298
9.056                0.966742363     -47.7142675
9.057                0.966679765      -47.775937
9.058                0.966616863     -47.8377386
9.059                0.966553656     -47.8996727
9.06                 0.966490143     -47.9617398
9.061                0.966426323     -48.0239402
9.062                0.966362195     -48.0862744
9.063                0.966297758     -48.1487427
9.064                0.966233012     -48.2113456
9.065                0.966167954     -48.2740835
9.066                0.966102585     -48.3369568
9.067                0.966036902     -48.3999659
9.068                0.965970905     -48.4631113
9.069                0.965904593     -48.5263933
9.07                 0.965837965     -48.5898124
9.071                 0.96577102     -48.6533689
9.072                0.965703757     -48.7170634
9.073                0.965636174     -48.7808963
9.074                0.965568271     -48.8448679
9.075                0.965500047     -48.9089787
9.076                  0.9654315     -48.9732292
9.077                 0.96536263     -49.0376197
9.078                0.965293435     -49.1021507
9.079                0.965223914     -49.1668227
9.08                 0.965154067      -49.231636
9.081                0.965083892     -49.2965912
9.082                0.965013388     -49.3616886
9.083                0.964942554     -49.4269287
9.084                0.964871388      -49.492312
9.085                0.964799891     -49.5578388
9.086                 0.96472806     -49.6235097
9.087                0.964655895     -49.6893251
9.088                0.964583395     -49.7552854
9.089                0.964510557     -49.8213912
9.09                 0.964437382     -49.8876427
9.091                0.964363869     -49.9540406
9.092                0.964290015     -50.0205853
9.093                 0.96421582     -50.0872772
9.094                0.964141283     -50.1541168
9.095                0.964066403     -50.2211045
9.096                0.963991178     -50.2882409
9.097                0.963915607     -50.3555264
9.098                 0.96383969     -50.4229614
9.099                0.963763424     -50.4905465
9.1                   0.96368681      -50.558282
9.101                0.963609845     -50.6261686
9.102                0.963532529     -50.6942067
9.103                0.963454861     -50.7623967
9.104                0.963376839     -50.8307391
9.105                0.963298461     -50.8992344
9.106                0.963219728     -50.9678831
9.107                0.963140637     -51.0366858
9.108                0.963061188     -51.1056428
9.109                 0.96298138     -51.1747547
9.11                  0.96290121     -51.2440219
9.111                0.962820678      -51.313445
9.112                0.962739783     -51.3830245
9.113                0.962658524     -51.4527608
9.114                0.962576899     -51.5226544
9.115                0.962494907      -51.592706
9.116                0.962412547     -51.6629159
9.117                0.962329818     -51.7332847
9.118                0.962246718     -51.8038129
9.119                0.962163246      -51.874501
9.12                 0.962079401     -51.9453495
9.121                0.961995182     -52.0163589
9.122                0.961910588     -52.0875298
9.123                0.961825617     -52.1588626
9.124                0.961740267      -52.230358
9.125                0.961654539     -52.3020164
9.126                0.961568429     -52.3738383
9.127                0.961481938     -52.4458243
9.128                0.961395064     -52.5179749
9.129                0.961307806     -52.5902906
9.13                 0.961220162      -52.662772
9.131                0.961132131     -52.7354197
9.132                0.961043712      -52.808234
9.133                0.960954903     -52.8812157
9.134                0.960865703     -52.9543652
9.135                0.960776112     -53.0276832
9.136                0.960686127       -53.10117
9.137                0.960595747     -53.1748263
9.138                0.960504971     -53.2486527
9.139                0.960413797     -53.3226497
9.14                 0.960322225     -53.3968178
9.141                0.960230253     -53.4711577
9.142                 0.96013788     -53.5456698
9.143                0.960045103     -53.6203547
9.144                0.959951923     -53.6952131
9.145                0.959858337     -53.7702455
9.146                0.959764345     -53.8454524
9.147                0.959669944     -53.9208344
9.148                0.959575134     -53.9963921
9.149                0.959479913     -54.0721261
9.15                 0.959384279      -54.148037
9.151                0.959288232     -54.2241253
9.152                 0.95919177     -54.3003916
9.153                0.959094892     -54.3768366
9.154                0.958997595     -54.4534607
9.155                 0.95889988     -54.5302647
9.156                0.958801743     -54.6072491
9.157                0.958703185     -54.6844144
9.158                0.958604204     -54.7617614
9.159                0.958504797     -54.8392905
9.16                 0.958404964     -54.9170025
9.161                0.958304704     -54.9948978
9.162                0.958204014     -55.0729772
9.163                0.958102894     -55.1512412
9.164                0.958001341     -55.2296905
9.165                0.957899355     -55.3083257
9.166                0.957796934     -55.3871473
9.167                0.957694077      -55.466156
9.168                0.957590782     -55.5453525
9.169                0.957487047     -55.6247373
9.17                 0.957382872     -55.7043111
9.171                0.957278254     -55.7840746
9.172                0.957173193     -55.8640283
9.173                0.957067686     -55.9441729
9.174                0.956961732     -56.0245091
9.175                0.956855331     -56.1050374
9.176                0.956748479     -56.1857586
9.177                0.956641176     -56.2666733
9.178                 0.95653342      -56.347782
9.179                 0.95642521     -56.4290856
9.18                 0.956316543     -56.5105846
9.181                 0.95620742     -56.5922797
9.182                0.956097837     -56.6741716
9.183                0.955987794     -56.7562609
9.184                0.955877289     -56.8385483
9.185                 0.95576632     -56.9210345
9.186                0.955654886     -57.0037201
9.187                0.955542985     -57.0866058
9.188                0.955430616     -57.1696924
9.189                0.955317777     -57.2529804
9.19                 0.955204467     -57.3364705
9.191                0.955090683     -57.4201635
9.192                0.954976425       -57.50406
9.193                0.954861691     -57.5881608
9.194                0.954746478     -57.6724665
9.195                0.954630786     -57.7569778
9.196                0.954514613     -57.8416954
9.197                0.954397958     -57.9266201
9.198                0.954280817     -58.0117525
9.199                0.954163191     -58.0970933
9.2                  0.954045078     -58.1826433
9.201                0.953926475     -58.2684031
9.202                0.953807381     -58.3543736
9.203                0.953687794     -58.4405553
9.204                0.953567713     -58.5269491
9.205                0.953447137     -58.6135557
9.206                0.953326062     -58.7003757
9.207                0.953204489       -58.78741
9.208                0.953082414     -58.8746592
9.209                0.952959837     -58.9621242
9.21                 0.952836756     -59.0498055
9.211                0.952713168     -59.1377041
9.212                0.952589073     -59.2258206
9.213                0.952464469     -59.3141558
9.214                0.952339353     -59.4027104
9.215                0.952213724     -59.4914852
9.216                0.952087581      -59.580481
9.217                0.951960921     -59.6696985
9.218                0.951833743     -59.7591385
9.219                0.951706046     -59.8488017
9.22                 0.951577827      -59.938689
9.221                0.951449084     -60.0288011
9.222                0.951319817     -60.1191388
9.223                0.951190022     -60.2097028
9.224                0.951059699      -60.300494
9.225                0.950928846     -60.3915132
9.226                 0.95079746      -60.482761
9.227                 0.95066554     -60.5742384
9.228                0.950533084     -60.6659462
9.229                0.950400091      -60.757885
9.23                 0.950266559     -60.8500558
9.231                0.950132485     -60.9424593
9.232                0.949997868     -61.0350964
9.233                0.949862706     -61.1279679
9.234                0.949726998     -61.2210745
9.235                0.949590741     -61.3144172
9.236                0.949453934     -61.4079966
9.237                0.949316575     -61.5018138
9.238                0.949178661     -61.5958694
9.239                0.949040192     -61.6901643
9.24                 0.948901164     -61.7846994
9.241                0.948761577     -61.8794755
9.242                0.948621429     -61.9744935
9.243                0.948480717     -62.0697542
9.244                 0.94833944     -62.1652584
9.245                0.948197596     -62.2610069
9.246                0.948055182     -62.3570008
9.247                0.947912198     -62.4532408
9.248                 0.94776864     -62.5497277
9.249                0.947624508     -62.6464626
9.25                 0.947479799     -62.7434461
9.251                0.947334512     -62.8406792
9.252                0.947188644     -62.9381629
9.253                0.947042193     -63.0358978
9.254                0.946895158     -63.1338851
9.255                0.946747537     -63.2321254
9.256                0.946599327     -63.3306198
9.257                0.946450527     -63.4293692
9.258                0.946301134     -63.5283743
9.259                0.946151148     -63.6276362
9.26                 0.946000565     -63.7271557
9.261                0.945849384     -63.8269338
9.262                0.945697603     -63.9269713
9.263                 0.94554522     -64.0272692
9.264                0.945392232     -64.1278285
9.265                0.945238638     -64.2286499
9.266                0.945084437     -64.3297345
9.267                0.944929625     -64.4310832
9.268                0.944774201     -64.5326969
9.269                0.944618162     -64.6345766
9.27                 0.944461508     -64.7367232
9.271                0.944304235     -64.8391377
9.272                0.944146342      -64.941821
9.273                0.943987827      -65.044774
9.274                0.943828687     -65.1479978
9.275                0.943668921     -65.2514932
9.276                0.943508526     -65.3552613
9.277                0.943347501      -65.459303
9.278                0.943185844     -65.5636193
9.279                0.943023551     -65.6682112
9.28                 0.942860622     -65.7730796
9.281                0.942697055     -65.8782256
9.282                0.942532846     -65.9836501
9.283                0.942367995     -66.0893542
9.284                0.942202498     -66.1953387
9.285                0.942036354     -66.3016048
9.286                0.941869561     -66.4081533
9.287                0.941702117     -66.5149855
9.288                0.941534019     -66.6221021
9.289                0.941365266     -66.7295043
9.29                 0.941195855     -66.8371931
9.291                0.941025784     -66.9451695
9.292                0.940855052     -67.0534346
9.293                0.940683655     -67.1619893
9.294                0.940511592     -67.2708347
9.295                0.940338861     -67.3799718
9.296                 0.94016546     -67.4894017
9.297                0.939991386     -67.5991255
9.298                0.939816637     -67.7091441
9.299                0.939641211     -67.8194587
9.3                  0.939465106     -67.9300702
9.301                0.939288321     -68.0409798
9.302                0.939110851     -68.1521886
9.303                0.938932697     -68.2636975
9.304                0.938753854     -68.3755078
9.305                0.938574322     -68.4876203
9.306                0.938394098     -68.6000364
9.307                 0.93821318     -68.7127569
9.308                0.938031565     -68.8257831
9.309                0.937849252     -68.9391159
9.31                 0.937666238     -69.0527566
9.311                0.937482521     -69.1667063
9.312                0.937298099     -69.2809659
9.313                 0.93711297     -69.3955367
9.314                0.936927131     -69.5104197
9.315                0.936740581     -69.6256161
9.316                0.936553317     -69.7411271
9.317                0.936365336     -69.8569536
9.318                0.936176638     -69.9730969
9.319                0.935987219     -70.0895582
9.32                 0.935797077     -70.2063384
9.321                0.935606211     -70.3234389
9.322                0.935414617     -70.4408607
9.323                0.935222294      -70.558605
9.324                0.935029239     -70.6766729
9.325                0.934835451     -70.7950657
9.326                0.934640927     -70.9137844
9.327                0.934445665     -71.0328303
9.328                0.934249662     -71.1522045
9.329                0.934052917     -71.2719082
9.33                 0.933855427     -71.3919427
9.331                 0.93365719      -71.512309
9.332                0.933458203     -71.6330083
9.333                0.933258465      -71.754042
9.334                0.933057974     -71.8754111
9.335                0.932856726     -71.9971168
9.336                0.932654721     -72.1191605
9.337                0.932451955     -72.2415432
9.338                0.932248427     -72.3642663
9.339                0.932044134     -72.4873309
9.34                 0.931839073     -72.6107382
9.341                0.931633244     -72.7344896
9.342                0.931426643     -72.8585861
9.343                0.931219269     -72.9830292
9.344                0.931011119     -73.1078199
9.345                 0.93080219     -73.2329596
9.346                0.930592482     -73.3584495
9.347                0.930381991     -73.4842909
9.348                0.930170715      -73.610485
9.349                0.929958652     -73.7370331
9.35                   0.9297458     -73.8639364
9.351                0.929532157     -73.9911963
9.352                0.929317721     -74.1188139
9.353                0.929102489     -74.2467907
9.354                0.928886459     -74.3751279
9.355                0.928669629     -74.5038267
9.356                0.928451996     -74.6328884
9.357                0.928233559     -74.7623145
9.358                0.928014316     -74.8921061
9.359                0.927794264     -75.0222645
9.36                 0.927573401     -75.1527912
9.361                0.927351725     -75.2836873
9.362                0.927129233     -75.4149543
9.363                0.926905924     -75.5465934
9.364                0.926681796      -75.678606
9.365                0.926456846     -75.8109934
9.366                0.926231071     -75.9437569
9.367                0.926004471      -76.076898
9.368                0.925777043     -76.2104178
9.369                0.925548785     -76.3443179
9.37                 0.925319694     -76.4785995
9.371                0.925089769      -76.613264
9.372                0.924859007     -76.7483127
9.373                0.924627406     -76.8837471
9.374                0.924394965     -77.0195684
9.375                0.924161681     -77.1557782
9.376                0.923927552     -77.2923777
9.377                0.923692576     -77.4293683
9.378                0.923456751     -77.5667515
9.379                0.923220075     -77.7045286
9.38                 0.922982545      -77.842701
9.381                0.922744161     -77.9812701
9.382                0.922504919     -78.1202374
9.383                0.922264819     -78.2596042
9.384                0.922023857     -78.3993719
9.385                0.921782031      -78.539542
9.386                0.921539341     -78.6801159
9.387                0.921295784      -78.821095
9.388                0.921051357     -78.9624807
9.389                0.920806059     -79.1042746
9.39                 0.920559889     -79.2464779
9.391                0.920312843     -79.3890922
9.392                0.920064921     -79.5321189
9.393                 0.91981612     -79.6755594
9.394                0.919566438     -79.8194153
9.395                0.919315874     -79.9636879
9.396                0.919064425     -80.1083787
