! TOUCHSTONE file generated by CST DESIGN STUDIO
! Date and time: Tue Feb  4 16:00:29 2025
! Project name: C:\Work\MatlabApps\UnitCellOptimizationMatlab\CST\unitcell.cst
! Tree item: Tasks\Sweep1\SPara1\S-Parameters
! Header version: 2024
! Port assignment regex: !\s*Touchstone port\s*([0-9]+)\s*=\s*(CST MWS port|CST DES external port|CST DES block port)\s*(.+)\s* \(\"(.*)\"\)(\s*mode\s*([0-9]+))?.*
! Touchstone port assignment:
! Touchstone port 1 = CST DES external port 1 ("")
# GHz S MA R 50
9                    0.706435899     -152.772416
9.001                0.705703135     -153.166121
9.002                 0.70497485     -153.560712
9.003                0.704251111     -153.956184
9.004                0.703531985     -154.352529
9.005                0.702817538     -154.749743
9.006                0.702107837     -155.147819
9.007                0.701402947     -155.546751
9.008                0.700702936     -155.946531
9.009                 0.70000787     -156.347155
9.01                 0.699317813     -156.748615
9.011                0.698632832     -157.150903
9.012                0.697952992     -157.554015
9.013                0.697278357     -157.957941
9.014                0.696608993     -158.362676
9.015                0.695944963     -158.768211
9.016                0.695286333      -159.17454
9.017                0.694633166     -159.581654
9.018                0.693985525     -159.989546
9.019                0.693343473     -160.398209
9.02                 0.692707073     -160.807634
9.021                0.692076387     -161.217813
9.022                0.691451478     -161.628738
9.023                0.690832406       -162.0404
9.024                0.690219233     -162.452792
9.025                 0.68961202     -162.865904
9.026                0.689010826     -163.279728
9.027                 0.68841571     -163.694255
9.028                0.687826733     -164.109475
9.029                0.687243953     -164.525381
9.03                 0.686667427     -164.941962
9.031                0.686097213      -165.35921
9.032                0.685533369     -165.777114
9.033                0.684975949     -166.195666
9.034                0.684425011     -166.614855
9.035                0.683880608     -167.034672
9.036                0.683342797     -167.455107
9.037                0.682811629     -167.876149
9.038                0.682287158     -168.297789
9.039                0.681769438     -168.720016
9.04                 0.681258518     -169.142819
9.041                0.680754452     -169.566189
9.042                0.680257287     -169.990115
9.043                0.679767075     -170.414585
9.044                0.679283864     -170.839589
9.045                0.678807701     -171.265117
9.046                0.678338635     -171.691156
9.047                 0.67787671     -172.117696
9.048                0.677421974     -172.544726
9.049                 0.67697447     -172.972233
9.05                 0.676534242     -173.400208
9.051                0.676101334     -173.828637
9.052                0.675675787     -174.257509
9.053                0.675257643     -174.686814
9.054                0.674846941     -175.116537
9.055                0.674443722     -175.546669
9.056                0.674048023     -175.977196
9.057                0.673659883     -176.408107
9.058                0.673279337      -176.83939
9.059                0.672906422     -177.271031
9.06                 0.672541171     -177.703019
9.061                0.672183619     -178.135341
9.062                0.671833798     -178.567985
9.063                 0.67149174     -179.000938
9.064                0.671157475     -179.434187
9.065                0.670831033      -179.86772
9.066                0.670512443      179.698476
9.067                0.670201731      179.264414
9.068                0.669898925      178.830107
9.069                0.669604049      178.395568
9.07                 0.669317128      177.960809
9.071                0.669038186      177.525845
9.072                0.668767243      177.090689
9.073                0.668504322      176.655352
9.074                0.668249442       176.21985
9.075                0.668002622      175.784194
9.076                 0.66776388      175.348399
9.077                0.667533231      174.912477
9.078                0.667310693      174.476442
9.079                0.667096279      174.040308
9.08                 0.666890002      173.604088
9.081                0.666691874      173.167795
9.082                0.666501906      172.731443
9.083                0.666320109      172.295045
9.084                 0.66614649      171.858616
9.085                0.665981057      171.422168
9.086                0.665823817      170.985715
9.087                0.665674774       170.54927
9.088                0.665533934      170.112848
9.089                0.665401298      169.676462
9.09                 0.665276868      169.240125
9.091                0.665160646      168.803852
9.092                 0.66505263      168.367654
9.093                0.664952819      167.931547
9.094                 0.66486121      167.495544
9.095                0.664777799      167.059657
9.096                0.664702581      166.623902
9.097                0.664635549       166.18829
9.098                0.664576697      165.752836
9.099                0.664526016      165.317554
9.1                  0.664483496      164.882455
9.101                0.664449127      164.447555
9.102                0.664422896      164.012866
9.103                0.664404791      163.578401
9.104                0.664394797      163.144174
9.105                  0.6643929      162.710198
9.106                0.664399082      162.276486
9.107                0.664413328      161.843051
9.108                0.664435618      161.409906
9.109                0.664465933      160.977065
9.11                 0.664504252       160.54454
9.111                0.664550554      160.112344
9.112                0.664604816       159.68049
9.113                0.664667014      159.248991
9.114                0.664737124      158.817859
9.115                 0.66481512      158.387107
9.116                0.664900976      157.956748
9.117                0.664994662      157.526793
9.118                0.665096152      157.097256
9.119                0.665205415      156.668149
9.12                 0.665322421      156.239484
9.121                0.665447137      155.811272
9.122                0.665579532      155.383527
9.123                0.665719572       154.95626
9.124                0.665867223      154.529482
9.125                0.666022449      154.103207
9.126                0.666185214      153.677444
9.127                0.666355482      153.252207
9.128                0.666533214      152.827506
9.129                0.666718372      152.403353
9.13                 0.666910916      151.979759
9.131                0.667110806      151.556736
9.132                0.667318001      151.134294
9.133                0.667532458      150.712444
9.134                0.667754135      150.291197
9.135                0.667982988      149.870564
9.136                0.668218974      149.450555
9.137                0.668462047      149.031182
9.138                0.668712161      148.612454
9.139                0.668969271      148.194381
9.14                 0.669233329      147.776975
9.141                0.669504286      147.360244
9.142                0.669782096      146.944199
9.143                0.670066709       146.52885
9.144                0.670358075      146.114206
9.145                0.670656144      145.700277
9.146                0.670960865      145.287071
9.147                0.671272187        144.8746
9.148                0.671590058      144.462871
9.149                0.671914424      144.051894
9.15                 0.672245234      143.641677
9.151                0.672582434       143.23223
9.152                0.672925969       142.82356
9.153                0.673275785      142.415678
9.154                0.673631827       142.00859
9.155                0.673994039      141.602306
9.156                0.674362367      141.196833
9.157                0.674736753      140.792179
9.158                 0.67511714      140.388352
9.159                0.675503472      139.985361
9.16                 0.675895692      139.583212
9.161                0.676293741      139.181912
9.162                0.676697561      138.781471
9.163                0.677107094      138.381893
9.164                0.677522282      137.983188
9.165                0.677943065      137.585361
9.166                0.678369383      137.188419
9.167                0.678801179      136.792369
9.168                0.679238391      136.397218
9.169                0.679680959      136.002971
9.17                 0.680128824      135.609636
9.171                0.680581925      135.217218
9.172                0.681040202      134.825724
9.173                0.681503593      134.435158
9.174                0.681972038      134.045528
9.175                0.682445476      133.656838
9.176                0.682923846      133.269094
9.177                0.683407086      132.882301
9.178                0.683895135      132.496465
9.179                0.684387932      132.111591
9.18                 0.684885414      131.727683
9.181                0.685387522      131.344747
9.182                0.685894192      130.962787
9.183                0.686405364      130.581807
9.184                0.686920976      130.201813
9.185                0.687440965      129.822809
9.186                0.687965271      129.444798
9.187                0.688493833      129.067785
9.188                0.689026587      128.691774
9.189                0.689563474      128.316768
9.19                  0.69010443      127.942772
9.191                0.690649396      127.569788
9.192                 0.69119831      127.197821
9.193                0.691751111      126.826874
9.194                0.692307737       126.45695
9.195                0.692868128      126.088052
9.196                0.693432222      125.720183
9.197                 0.69399996      125.353347
9.198                 0.69457128      124.987545
9.199                0.695146123       124.62278
9.2                  0.695724428      124.259056
9.201                0.696306134      123.896374
9.202                0.696891183      123.534738
9.203                0.697479515      123.174148
9.204                0.698071069      122.814608
9.205                0.698665788      122.456119
9.206                0.699263611      122.098683
9.207                0.699864481      121.742302
9.208                0.700468339      121.386978
9.209                0.701075126      121.032712
9.21                 0.701684784      120.679506
9.211                0.702297257      120.327362
9.212                0.702912485       119.97628
9.213                0.703530413      119.626262
9.214                0.704150983      119.277309
9.215                0.704774139      118.929423
9.216                0.705399824      118.582603
9.217                0.706027983      118.236851
9.218                0.706658559      117.892167
9.219                0.707291498      117.548553
9.22                 0.707926745      117.206009
9.221                0.708564244      116.864535
9.222                0.709203942      116.524132
9.223                0.709845784        116.1848
9.224                0.710489717       115.84654
9.225                0.711135687      115.509351
9.226                0.711783642      115.173234
9.227                0.712433529      114.838188
9.228                0.713085296      114.504214
9.229                0.713738891      114.171312
9.23                 0.714394262      113.839481
9.231                0.715051359       113.50872
9.232                 0.71571013      113.179031
9.233                0.716370526      112.850411
9.234                0.717032496      112.522861
9.235                0.717695992      112.196381
9.236                0.718360963      111.870968
9.237                0.719027361      111.546624
9.238                0.719695138      111.223346
9.239                0.720364247      110.901135
9.24                 0.721034638      110.579989
9.241                0.721706266      110.259907
9.242                0.722379083      109.940888
9.243                0.723053044      109.622931
9.244                0.723728102      109.306035
9.245                0.724404213      108.990199
9.246                 0.72508133      108.675422
9.247                0.725759409      108.361702
9.248                0.726438407      108.049038
9.249                 0.72711828      107.737428
9.25                 0.727798983      107.426871
9.251                0.728480475      107.117365
9.252                0.729162712      106.808909
9.253                0.729845653      106.501501
9.254                0.730529256       106.19514
9.255                 0.73121348      105.889824
9.256                0.731898284       105.58555
9.257                0.732583628      105.282318
9.258                0.733269471      104.980125
9.259                0.733955775       104.67897
9.26                   0.7346425       104.37885
9.261                0.735329608      104.079763
9.262                 0.73601706      103.781708
9.263                0.736704819      103.484682
9.264                0.737392846      103.188684
9.265                0.738081107      102.893711
9.266                0.738769563       102.59976
9.267                0.739458178       102.30683
9.268                0.740146918      102.014919
9.269                0.740835747      101.724024
9.27                 0.741524629      101.434143
9.271                0.742213532      101.145273
9.272                0.742902419      100.857413
9.273                0.743591259      100.570559
9.274                0.744280018      100.284709
9.275                0.744968663       99.999861
9.276                0.745657162      99.7160123
9.277                0.746345483      99.4331603
9.278                0.747033595      99.1513025
9.279                0.747721466      98.8704362
9.28                 0.748409066      98.5905589
9.281                0.749096364      98.3116679
9.282                0.749783331      98.0337605
9.283                0.750469937      97.7568341
9.284                0.751156153       97.480886
9.285                 0.75184195      97.2059134
9.286                0.752527301      96.9319136
9.287                0.753212177      96.6588837
9.288                0.753896551      96.3868211
9.289                0.754580395      96.1157228
9.29                 0.755263683      95.8455862
9.291                0.755946389      95.5764082
9.292                0.756628487      95.3081861
9.293                0.757309951      95.0409169
9.294                0.757990756      94.7745979
9.295                0.758670876      94.5092259
9.296                0.759350289      94.2447982
9.297                0.760028969      93.9813118
9.298                0.760706893      93.7187636
9.299                0.761384038      93.4571508
9.3                   0.76206038      93.1964704
9.301                0.762735898      92.9367193
9.302                0.763410567      92.6778946
9.303                0.764084368      92.4199932
9.304                0.764757278      92.1630122
9.305                0.765429276      91.9069483
9.306                0.766100342      91.6517987
9.307                0.766770454      91.3975602
9.308                0.767439592      91.1442298
9.309                0.768107737      90.8918044
9.31                 0.768774869       90.640281
9.311                 0.76944097      90.3896563
9.312                0.770106019      90.1399273
9.313                0.770769999       89.891091
9.314                0.771432892      89.6431442
9.315                0.772094679      89.3960837
9.316                0.772755343      89.1499066
9.317                0.773414867      88.9046095
9.318                0.774073234      88.6601894
9.319                0.774730427      88.4166432
9.32                  0.77538643      88.1739677
9.321                0.776041227      87.9321598
9.322                0.776694802      87.6912163
9.323                 0.77734714      87.4511341
9.324                0.777998226        87.21191
9.325                0.778648045      86.9735408
9.326                0.779296583      86.7360235
9.327                0.779943824      86.4993548
9.328                0.780589756      86.2635316
9.329                0.781234364      86.0285507
9.33                 0.781877636       85.794409
9.331                0.782519557      85.5611033
9.332                0.783160116      85.3286304
9.333                  0.7837993      85.0969872
9.334                0.784437095      84.8661705
9.335                0.785073492      84.6361773
9.336                0.785708476      84.4070042
9.337                0.786342038      84.1786481
9.338                0.786974165       83.951106
9.339                0.787604847      83.7243746
9.34                 0.788234073      83.4984508
9.341                0.788861832      83.2733315
9.342                0.789488115      83.0490134
9.343                 0.79011291      82.8254936
9.344                0.790736209      82.6027687
9.345                0.791358002      82.3808357
9.346                0.791978279      82.1596915
9.347                0.792597031       81.939333
9.348                 0.79321425      81.7197569
9.349                0.793829926      81.5009602
9.35                 0.794444052      81.2829398
9.351                 0.79505662      81.0656926
9.352                 0.79566762      80.8492154
9.353                0.796277046      80.6335051
9.354                0.796884889      80.4185588
9.355                0.797491144      80.2043732
9.356                0.798095801      79.9909452
9.357                0.798698856      79.7782719
9.358                0.799300299      79.5663501
9.359                0.799900127      79.3551768
9.36                  0.80049833      79.1447489
9.361                0.801094905      78.9350634
9.362                0.801689845      78.7261171
9.363                0.802283143      78.5179072
9.364                0.802874795      78.3104304
9.365                0.803464795      78.1036839
9.366                0.804053138      77.8976645
9.367                0.804639818      77.6923693
9.368                0.805224832      77.4877952
9.369                0.805808173      77.2839393
9.37                 0.806389839      77.0807986
9.371                0.806969824        76.87837
9.372                0.807548124      76.6766507
9.373                0.808124736      76.4756376
9.374                0.808699655      76.2753278
9.375                0.809272877      76.0757182
9.376                  0.8098444      75.8768061
9.377                 0.81041422      75.6785884
9.378                0.810982333      75.4810622
9.379                0.811548737      75.2842246
9.38                 0.812113429      75.0880727
9.381                0.812676405      74.8926035
9.382                0.813237664      74.6978142
9.383                0.813797203      74.5037019
9.384                0.814355019      74.3102638
9.385                0.814911111      74.1174968
9.386                0.815465476      73.9253983
9.387                0.816018112      73.7339653
9.388                0.816569018      73.5431949
9.389                0.817118192      73.3530845
9.39                 0.817665632       73.163631
9.391                0.818211337      72.9748318
9.392                0.818755306       72.786684
9.393                0.819297538      72.5991848
9.394                0.819838031      72.4123314
9.395                0.820376785      72.2261211
9.396                0.820913798       72.040551
