! TOUCHSTONE file generated by CST DESIGN STUDIO
! Date and time: Tue Feb  4 18:15:44 2025
! Project name: C:\Work\MatlabApps\UnitCellOptimizationMatlab\CST\unitcell.cst
! Tree item: Tasks\Sweep1\SPara1\S-Parameters
! Header version: 2024
! Port assignment regex: !\s*Touchstone port\s*([0-9]+)\s*=\s*(CST MWS port|CST DES external port|CST DES block port)\s*(.+)\s* \(\"(.*)\"\)(\s*mode\s*([0-9]+))?.*
! Touchstone port assignment:
! Touchstone port 1 = CST DES external port 1 ("")
# GHz S MA R 50
9                    0.968823254     -40.3744376
9.001                0.968785609     -40.4208278
9.002                0.968747813     -40.4673047
9.003                0.968709864     -40.5138686
9.004                0.968671764     -40.5605197
9.005                 0.96863351     -40.6072583
9.006                0.968595103     -40.6540847
9.007                0.968556542      -40.700999
9.008                0.968517827     -40.7480015
9.009                0.968478956     -40.7950925
9.01                  0.96843993     -40.8422723
9.011                0.968400747      -40.889541
9.012                0.968361408     -40.9368989
9.013                0.968321912     -40.9843463
9.014                0.968282257     -41.0318834
9.015                0.968242445     -41.0795105
9.016                0.968202473     -41.1272279
9.017                0.968162342     -41.1750358
9.018                0.968122051     -41.2229344
9.019                0.968081599      -41.270924
9.02                 0.968040986     -41.3190049
9.021                0.968000211     -41.3671773
9.022                0.967959274     -41.4154415
9.023                0.967918174     -41.4637978
9.024                 0.96787691     -41.5122464
9.025                0.967835482     -41.5607876
9.026                 0.96779389     -41.6094216
9.027                0.967752133     -41.6581487
9.028                0.967710209     -41.7069692
9.029                0.967668119     -41.7558834
9.03                 0.967625863     -41.8048915
9.031                0.967583438     -41.8539937
9.032                0.967540846     -41.9031904
9.033                0.967498084     -41.9524819
9.034                0.967455153     -42.0018683
9.035                0.967412053       -42.05135
9.036                0.967368781     -42.1009272
9.037                0.967325338     -42.1506003
9.038                0.967281724     -42.2003695
9.039                0.967237937      -42.250235
9.04                 0.967193977     -42.3001972
9.041                0.967149843     -42.3502564
9.042                0.967105535     -42.4004127
9.043                0.967061052     -42.4506666
9.044                0.967016394     -42.5010182
9.045                0.966971559     -42.5514679
9.046                0.966926548     -42.6020159
9.047                0.966881359     -42.6526626
9.048                0.966835991     -42.7034082
9.049                0.966790446      -42.754253
9.05                  0.96674472     -42.8051972
9.051                0.966698815     -42.8562413
9.052                0.966652729     -42.9073855
9.053                0.966606462       -42.95863
9.054                0.966560012     -43.0099751
9.055                0.966513381     -43.0614213
9.056                0.966466565     -43.1129686
9.057                0.966419566     -43.1646175
9.058                0.966372382     -43.2163683
9.059                0.966325013     -43.2682212
9.06                 0.966277458     -43.3201766
9.061                0.966229716     -43.3722346
9.062                0.966181787     -43.4243958
9.063                0.966133669     -43.4766602
9.064                0.966085363     -43.5290283
9.065                0.966036868     -43.5815004
9.066                0.965988183     -43.6340767
9.067                0.965939306     -43.6867576
9.068                0.965890239     -43.7395434
9.069                0.965840979     -43.7924344
9.07                 0.965791526     -43.8454308
9.071                 0.96574188     -43.8985331
9.072                0.965692039     -43.9517414
9.073                0.965642004     -44.0050562
9.074                0.965591773     -44.0584778
9.075                0.965541345     -44.1120064
9.076                 0.96549072     -44.1656424
9.077                0.965439897     -44.2193861
9.078                0.965388876     -44.2732378
9.079                0.965337656     -44.3271979
9.08                 0.965286235     -44.3812666
9.081                0.965234614     -44.4354444
9.082                0.965182791     -44.4897314
9.083                0.965130765      -44.544128
9.084                0.965078537     -44.5986347
9.085                0.965026105     -44.6532516
9.086                0.964973469     -44.7079791
9.087                0.964920627     -44.7628176
9.088                0.964867579     -44.8177674
9.089                0.964814325     -44.8728288
9.09                 0.964760863     -44.9280022
9.091                0.964707192     -44.9832878
9.092                0.964653313     -45.0386861
9.093                0.964599223     -45.0941973
9.094                0.964544923     -45.1498218
9.095                0.964490412       -45.20556
9.096                0.964435688     -45.2614121
9.097                0.964380752     -45.3173786
9.098                0.964325601     -45.3734597
9.099                0.964270236     -45.4296559
9.1                  0.964214656     -45.4859674
9.101                 0.96415886     -45.5423946
9.102                0.964102846     -45.5989379
9.103                0.964046615     -45.6555976
9.104                0.963990165     -45.7123741
9.105                0.963933496     -45.7692677
9.106                0.963876607     -45.8262788
9.107                0.963819496     -45.8834077
9.108                0.963762164     -45.9406547
9.109                0.963704609     -45.9980204
9.11                 0.963646831     -46.0555049
9.111                0.963588828     -46.1131087
9.112                  0.9635306     -46.1708321
9.113                0.963472146     -46.2286755
9.114                0.963413465     -46.2866393
9.115                0.963354556     -46.3447238
9.116                0.963295419     -46.4029294
9.117                0.963236052     -46.4612564
9.118                0.963176455     -46.5197053
9.119                0.963116627     -46.5782764
9.12                 0.963056566     -46.6369701
9.121                0.962996273     -46.6957867
9.122                0.962935746     -46.7547267
9.123                0.962874985     -46.8137904
9.124                0.962813987     -46.8729781
9.125                0.962752754     -46.9322904
9.126                0.962691283     -46.9917275
9.127                0.962629574     -47.0512898
9.128                0.962567626     -47.1109777
9.129                0.962505437     -47.1707917
9.13                 0.962443008     -47.2307321
9.131                0.962380337     -47.2907992
9.132                0.962317423     -47.3509935
9.133                0.962254266     -47.4113154
9.134                0.962190864     -47.4717653
9.135                0.962127217     -47.5323435
9.136                0.962063323     -47.5930505
9.137                0.961999182     -47.6538866
9.138                0.961934792     -47.7148523
9.139                0.961870153     -47.7759479
9.14                 0.961805264     -47.8371739
9.141                0.961740124     -47.8985307
9.142                0.961674732     -47.9600187
9.143                0.961609087     -48.0216382
9.144                0.961543187     -48.0833897
9.145                0.961477033     -48.1452736
9.146                0.961410623     -48.2072903
9.147                0.961343956     -48.2694403
9.148                0.961277031     -48.3317238
9.149                0.961209847     -48.3941415
9.15                 0.961142404     -48.4566936
9.151                0.961074699     -48.5193806
9.152                0.961006733      -48.582203
9.153                0.960938504      -48.645161
9.154                0.960870011     -48.7082553
9.155                0.960801253     -48.7714861
9.156                0.960732229      -48.834854
9.157                0.960662939     -48.8983593
9.158                0.960593381     -48.9620025
9.159                0.960523553      -49.025784
9.16                 0.960453456     -49.0897043
9.161                0.960383088     -49.1537638
9.162                0.960312448     -49.2179628
9.163                0.960241534      -49.282302
9.164                0.960170347     -49.3467817
9.165                0.960098885     -49.4114023
9.166                0.960027146     -49.4761643
9.167                 0.95995513     -49.5410681
9.168                0.959882836     -49.6061143
9.169                0.959810262     -49.6713031
9.17                 0.959737408     -49.7366352
9.171                0.959664273     -49.8021109
9.172                0.959590855     -49.8677308
9.173                0.959517153     -49.9334952
9.174                0.959443167     -49.9994046
9.175                0.959368894     -50.0654594
9.176                0.959294335     -50.1316603
9.177                0.959219487     -50.1980075
9.178                0.959144351     -50.2645016
9.179                0.959068924      -50.331143
9.18                 0.958993205     -50.3979323
9.181                0.958917195     -50.4648698
9.182                 0.95884089     -50.5319561
9.183                0.958764291     -50.5991916
9.184                0.958687396     -50.6665768
9.185                0.958610204     -50.7341122
9.186                0.958532713     -50.8017982
9.187                0.958454923     -50.8696354
9.188                0.958376833     -50.9376243
9.189                0.958298441     -51.0057652
9.19                 0.958219746     -51.0740587
9.191                0.958140748     -51.1425054
9.192                0.958061444     -51.2111056
9.193                0.957981833     -51.2798599
9.194                0.957901916     -51.3487688
9.195                0.957821689     -51.4178327
9.196                0.957741153     -51.4870522
9.197                0.957660305     -51.5564278
9.198                0.957579145       -51.62596
9.199                0.957497672     -51.6956492
9.2                  0.957415884      -51.765496
9.201                 0.95733378     -51.8355009
9.202                0.957251359     -51.9056645
9.203                0.957168619     -51.9759871
9.204                 0.95708556     -52.0464694
9.205                 0.95700218     -52.1171118
9.206                0.956918478     -52.1879149
9.207                0.956834452     -52.2588791
9.208                0.956750102     -52.3300051
9.209                0.956665426     -52.4012934
9.21                 0.956580423     -52.4727443
9.211                0.956495091     -52.5443586
9.212                 0.95640943     -52.6161367
9.213                0.956323438     -52.6880792
9.214                0.956237114     -52.7601866
9.215                0.956150456     -52.8324593
9.216                0.956063463     -52.9048981
9.217                0.955976134     -52.9775034
9.218                0.955888468     -53.0502757
9.219                0.955800463     -53.1232156
9.22                 0.955712118     -53.1963236
9.221                0.955623432     -53.2696004
9.222                0.955534403     -53.3430464
9.223                 0.95544503     -53.4166622
9.224                0.955355312     -53.4904484
9.225                0.955265247     -53.5644054
9.226                0.955174834      -53.638534
9.227                0.955084071     -53.7128346
9.228                0.954992958     -53.7873078
9.229                0.954901493     -53.8619542
9.23                 0.954809674     -53.9367743
9.231                0.954717501     -54.0117687
9.232                0.954624971      -54.086938
9.233                0.954532084     -54.1622828
9.234                0.954438837     -54.2378036
9.235                 0.95434523      -54.313501
9.236                0.954251262     -54.3893756
9.237                 0.95415693      -54.465428
9.238                0.954062234     -54.5416588
9.239                0.953967171     -54.6180686
9.24                 0.953871742     -54.6946579
9.241                0.953775943     -54.7714273
9.242                0.953679774     -54.8483775
9.243                0.953583233     -54.9255091
9.244                0.953486319     -55.0028226
9.245                0.953389031     -55.0803186
9.246                0.953291366     -55.1579978
9.247                0.953193324     -55.2358608
9.248                0.953094903     -55.3139081
9.249                0.952996101     -55.3921404
9.25                 0.952896917     -55.4705583
9.251                 0.95279735     -55.5491624
9.252                0.952697398     -55.6279534
9.253                 0.95259706     -55.7069318
9.254                0.952496333     -55.7860983
9.255                0.952395217     -55.8654535
9.256                 0.95229371     -55.9449981
9.257                0.952191811     -56.0247326
9.258                0.952089518     -56.1046578
9.259                0.951986829     -56.1847741
9.26                 0.951883743     -56.2650824
9.261                0.951780258     -56.3455832
9.262                0.951676374     -56.4262771
9.263                0.951572087     -56.5071649
9.264                0.951467398     -56.5882471
9.265                0.951362303     -56.6695245
9.266                0.951256802     -56.7509976
9.267                0.951150894     -56.8326672
9.268                0.951044575     -56.9145338
9.269                0.950937846     -56.9965982
9.27                 0.950830704      -57.078861
9.271                0.950723147     -57.1613229
9.272                0.950615175     -57.2439845
9.273                0.950506784     -57.3268465
9.274                0.950397975     -57.4099097
9.275                0.950288745     -57.4931746
9.276                0.950179093      -57.576642
9.277                0.950069017     -57.6603125
9.278                0.949958514     -57.7441868
9.279                0.949847585     -57.8282657
9.28                 0.949736227     -57.9125497
9.281                0.949624438     -57.9970397
9.282                0.949512216     -58.0817362
9.283                0.949399561       -58.16664
9.284                 0.94928647     -58.2517519
9.285                0.949172942     -58.3370724
9.286                0.949058974     -58.4226023
9.287                0.948944566     -58.5083423
9.288                0.948829716     -58.5942932
9.289                0.948714421     -58.6804555
9.29                 0.948598681     -58.7668302
9.291                0.948482493     -58.8534178
9.292                0.948365856     -58.9402191
9.293                0.948248768     -59.0272349
9.294                0.948131227     -59.1144658
9.295                0.948013232     -59.2019126
9.296                 0.94789478      -59.289576
9.297                0.947775871     -59.3774568
9.298                0.947656502     -59.4655556
9.299                0.947536671     -59.5538733
9.3                  0.947416377     -59.6424106
9.301                0.947295618     -59.7311683
9.302                0.947174392      -59.820147
9.303                0.947052698     -59.9093476
9.304                0.946930533     -59.9987708
9.305                0.946807896     -60.0884173
9.306                0.946684786     -60.1782879
9.307                0.946561199     -60.2683835
9.308                0.946437135     -60.3587047
9.309                0.946312591     -60.4492523
9.31                 0.946187566     -60.5400272
9.311                0.946062058       -60.63103
9.312                0.945936065     -60.7222616
9.313                0.945809585     -60.8137227
9.314                0.945682616     -60.9054142
9.315                0.945555157     -60.9973368
9.316                0.945427206     -61.0894914
9.317                 0.94529876     -61.1818786
9.318                0.945169819     -61.2744994
9.319                0.945040379     -61.3673544
9.32                  0.94491044     -61.4604446
9.321                0.944779998     -61.5537707
9.322                0.944649053     -61.6473336
9.323                0.944517603      -61.741134
9.324                0.944385645     -61.8351728
9.325                0.944253177     -61.9294508
9.326                0.944120199     -62.0239688
9.327                0.943986707     -62.1187276
9.328                0.943852699     -62.2137281
9.329                0.943718175     -62.3089711
9.33                 0.943583132     -62.4044575
9.331                0.943447568      -62.500188
9.332                 0.94331148     -62.5961636
9.333                0.943174868      -62.692385
9.334                0.943037729     -62.7888531
9.335                0.942900061     -62.8855688
9.336                0.942761863      -62.982533
9.337                0.942623131     -63.0797464
9.338                0.942483865       -63.17721
9.339                0.942344062     -63.2749245
9.34                  0.94220372      -63.372891
9.341                0.942062837     -63.4711102
9.342                0.941921412      -63.569583
9.343                0.941779441     -63.6683103
9.344                0.941636924      -63.767293
9.345                0.941493858      -63.866532
9.346                0.941350241     -63.9660281
9.347                0.941206071     -64.0657823
9.348                0.941061347     -64.1657954
9.349                0.940916065     -64.2660684
9.35                 0.940770224     -64.3666021
9.351                0.940623822     -64.4673974
9.352                0.940476857     -64.5684553
9.353                0.940329327     -64.6697766
9.354                0.940181229     -64.7713624
9.355                0.940032562     -64.8732134
9.356                0.939883323     -64.9753306
9.357                0.939733511      -65.077715
9.358                0.939583124     -65.1803674
9.359                0.939432158     -65.2832889
9.36                 0.939280613     -65.3864802
9.361                0.939128486     -65.4899425
9.362                0.938975775     -65.5936766
9.363                0.938822477     -65.6976834
9.364                0.938668592     -65.8019639
9.365                0.938514115     -65.9065191
9.366                0.938359047     -66.0113499
9.367                0.938203384     -66.1164573
9.368                0.938047124     -66.2218422
9.369                0.937890265     -66.3275056
9.37                 0.937732805     -66.4334485
9.371                0.937574742     -66.5396719
9.372                0.937416073     -66.6461766
9.373                0.937256797     -66.7529638
9.374                0.937096911     -66.8600343
9.375                0.936936414     -66.9673892
9.376                0.936775302     -67.0750295
9.377                0.936613574     -67.1829562
9.378                0.936451228     -67.2911702
9.379                0.936288261     -67.3996725
9.38                 0.936124672     -67.5084643
9.381                0.935960458     -67.6175463
9.382                0.935795617     -67.7269198
9.383                0.935630146     -67.8365857
9.384                0.935464044      -67.946545
9.385                0.935297308     -68.0567987
9.386                0.935129937     -68.1673479
9.387                0.934961927     -68.2781936
9.388                0.934793277     -68.3893368
9.389                0.934623984     -68.5007786
9.39                 0.934454047       -68.61252
9.391                0.934283463     -68.7245621
9.392                 0.93411223     -68.8369058
9.393                0.933940346     -68.9495524
9.394                0.933767808     -69.0625027
9.395                0.933594614     -69.1757579
9.396                0.933420762      -69.289319
