! TOUCHSTONE file generated by CST DESIGN STUDIO
! Date and time: Tue Feb  4 18:15:32 2025
! Project name: C:\Work\MatlabApps\UnitCellOptimizationMatlab\CST\unitcell.cst
! Tree item: Tasks\Sweep1\SPara1\S-Parameters
! Header version: 2024
! Port assignment regex: !\s*Touchstone port\s*([0-9]+)\s*=\s*(CST MWS port|CST DES external port|CST DES block port)\s*(.+)\s* \(\"(.*)\"\)(\s*mode\s*([0-9]+))?.*
! Touchstone port assignment:
! Touchstone port 1 = CST DES external port 1 ("")
# GHz S MA R 50
9                    0.871873814     -83.7063451
9.001                0.871445556     -83.8625056
9.002                0.871015942     -84.0191543
9.003                0.870584971      -84.176293
9.004                 0.87015264     -84.3339237
9.005                0.869718947     -84.4920482
9.006                0.869283889     -84.6506684
9.007                0.868847465     -84.8097863
9.008                0.868409672     -84.9694036
9.009                0.867970508     -85.1295223
9.01                  0.86752997     -85.2901444
9.011                0.867088058     -85.4512717
9.012                0.866644768     -85.6129061
9.013                0.866200098     -85.7750496
9.014                0.865754048     -85.9377041
9.015                0.865306614     -86.1008715
9.016                0.864857795     -86.2645538
9.017                0.864407589     -86.4287529
9.018                0.863955995     -86.5934708
9.019                 0.86350301     -86.7587094
9.02                 0.863048634     -86.9244707
9.021                0.862592864     -87.0907567
9.022                0.862135698     -87.2575693
9.023                0.861677136     -87.4249105
9.024                0.861217177     -87.5927823
9.025                0.860755817     -87.7611866
9.026                0.860293057     -87.9301256
9.027                0.859828895     -88.0996011
9.028                 0.85936333     -88.2696151
9.029                 0.85889636     -88.4401698
9.03                 0.858427985      -88.611267
9.031                0.857958203     -88.7829089
9.032                0.857487014     -88.9550974
9.033                0.857014417     -89.1278345
9.034                0.856540411     -89.3011223
9.035                0.856064994     -89.4749629
9.036                0.855588167     -89.6493582
9.037                0.855109929     -89.8243103
9.038                 0.85463028     -89.9998213
9.039                0.854149218     -90.1758932
9.04                 0.853666743     -90.3525281
9.041                0.853182855      -90.529728
9.042                0.852697555     -90.7074949
9.043                 0.85221084     -90.8858311
9.044                0.851722713     -91.0647385
9.045                0.851233172     -91.2442193
9.046                0.850742217     -91.4242754
9.047                0.850249849      -91.604909
9.048                0.849756068     -91.7861223
9.049                0.849260874     -91.9679172
9.05                 0.848764268     -92.1502959
9.051                 0.84826625     -92.3332604
9.052                 0.84776682      -92.516813
9.053                 0.84726598     -92.7009556
9.054                 0.84676373     -92.8856904
9.055                 0.84626007     -93.0710196
9.056                0.845755002     -93.2569452
9.057                0.845248527     -93.4434694
9.058                0.844740646     -93.6305942
9.059                 0.84423136     -93.8183219
9.06                  0.84372067     -94.0066545
9.061                0.843208579     -94.1955941
9.062                0.842695086      -94.385143
9.063                0.842180194     -94.5753033
9.064                0.841663905      -94.766077
9.065                 0.84114622     -94.9574664
9.066                0.840627142     -95.1494735
9.067                0.840106672     -95.3421006
9.068                0.839584812     -95.5353497
9.069                0.839061565     -95.7292231
9.07                 0.838536933     -95.9237229
9.071                0.838010919     -96.1188512
9.072                0.837483525     -96.3146102
9.073                0.836954753      -96.511002
9.074                0.836424607     -96.7080289
9.075                 0.83589309     -96.9056929
9.076                0.835360204     -97.1039962
9.077                0.834825954     -97.3029411
9.078                0.834290341     -97.5025296
9.079                 0.83375337     -97.7027639
9.08                 0.833215043     -97.9036463
9.081                0.832675366     -98.1051788
9.082                0.832134341     -98.3073636
9.083                0.831591973     -98.5102029
9.084                0.831048265     -98.7136988
9.085                0.830503222     -98.9178536
9.086                0.829956848     -99.1226693
9.087                0.829409148     -99.3281482
9.088                0.828860126     -99.5342924
9.089                0.828309787     -99.7411041
9.09                 0.827758135     -99.9485854
9.091                0.827205177     -100.156739
9.092                0.826650917     -100.365566
9.093                 0.82609536     -100.575069
9.094                0.825538513      -100.78525
9.095                 0.82498038     -100.996112
9.096                0.824420967     -101.207657
9.097                0.823860281     -101.419886
9.098                0.823298327     -101.632802
9.099                0.822735112     -101.846407
9.1                  0.822170643     -102.060704
9.101                0.821604925     -102.275693
9.102                0.821037965     -102.491379
9.103                0.820469771     -102.707761
9.104                0.819900349     -102.924844
9.105                0.819329707     -103.142628
9.106                0.818757852     -103.361116
9.107                0.818184792     -103.580311
9.108                0.817610534     -103.800213
9.109                0.817035087     -104.020826
9.11                 0.816458458     -104.242152
9.111                0.815880656     -104.464192
9.112                 0.81530169     -104.686948
9.113                0.814721567     -104.910423
9.114                0.814140297     -105.134619
9.115                0.813557888     -105.359538
9.116                0.812974351     -105.585182
9.117                0.812389694     -105.811553
9.118                0.811803927     -106.038653
9.119                0.811217059     -106.266484
9.12                 0.810629102     -106.495049
9.121                0.810040064     -106.724348
9.122                0.809449956     -106.954385
9.123                0.808858789     -107.185161
9.124                0.808266573     -107.416679
9.125                 0.80767332     -107.648939
9.126                0.807079041     -107.881945
9.127                0.806483746     -108.115698
9.128                0.805887448     -108.350201
9.129                0.805290158     -108.585455
9.13                 0.804691889     -108.821462
9.131                0.804092652     -109.058224
9.132                 0.80349246     -109.295743
9.133                0.802891325     -109.534021
9.134                0.802289261      -109.77306
9.135                0.801686281     -110.012862
9.136                0.801082397     -110.253428
9.137                0.800477623     -110.494762
9.138                0.799871974     -110.736863
9.139                0.799265462     -110.979735
9.14                 0.798658103     -111.223379
9.141                 0.79804991     -111.467797
9.142                0.797440898     -111.712991
9.143                0.796831082     -111.958963
9.144                0.796220477     -112.205713
9.145                0.795609099     -112.453245
9.146                0.794996963      -112.70156
9.147                0.794384085      -112.95066
9.148                 0.79377048     -113.200546
9.149                0.793156166      -113.45122
9.15                 0.792541158     -113.702684
9.151                0.791925474     -113.954939
9.152                0.791309131     -114.207987
9.153                0.790692145      -114.46183
9.154                0.790074534      -114.71647
9.155                0.789456317     -114.971907
9.156                 0.78883751     -115.228144
9.157                0.788218132     -115.485182
9.158                0.787598202     -115.743023
9.159                0.786977739     -116.001668
9.16                 0.786356761     -116.261118
9.161                0.785735288     -116.521376
9.162                0.785113339     -116.782442
9.163                0.784490934     -117.044318
9.164                0.783868092     -117.307006
9.165                0.783244836     -117.570506
9.166                0.782621183     -117.834821
9.167                0.781997157     -118.099951
9.168                0.781372777     -118.365898
9.169                0.780748065     -118.632663
9.17                 0.780123043     -118.900248
9.171                0.779497732     -119.168653
9.172                0.778872154      -119.43788
9.173                0.778246332      -119.70793
9.174                0.777620289     -119.978804
9.175                0.776994047     -120.250504
9.176                 0.77636763      -120.52303
9.177                0.775741061     -120.796384
9.178                0.775114363     -121.070566
9.179                0.774487561     -121.345577
9.18                 0.773860678      -121.62142
9.181                 0.77323374     -121.898093
9.182                0.772606772       -122.1756
9.183                0.771979797     -122.453939
9.184                0.771352841     -122.733113
9.185                0.770725931     -123.013121
9.186                0.770099091     -123.293966
9.187                0.769472349     -123.575647
9.188                0.768845729     -123.858165
9.189                 0.76821926     -124.141521
9.19                 0.767592967     -124.425716
9.191                0.766966878      -124.71075
9.192                0.766341021     -124.996623
9.193                0.765715422     -125.283337
9.194                0.765090111     -125.570892
9.195                0.764465115     -125.859288
9.196                0.763840463     -126.148526
9.197                0.763216183     -126.438606
9.198                0.762592304     -126.729529
9.199                0.761968857     -127.021294
9.2                  0.761345869     -127.313902
9.201                0.760723372     -127.607353
9.202                0.760101395     -127.901648
9.203                0.759479968     -128.196786
9.204                0.758859123     -128.492768
9.205                0.758238889     -128.789594
9.206                0.757619298     -129.087263
9.207                0.757000381     -129.385776
9.208                 0.75638217     -129.685132
9.209                0.755764697     -129.985331
9.21                 0.755147993     -130.286374
9.211                0.754532091      -130.58826
9.212                0.753917024     -130.890989
9.213                0.753302824     -131.194559
9.214                0.752689524     -131.498972
9.215                0.752077158     -131.804226
9.216                0.751465758     -132.110322
9.217                 0.75085536     -132.417258
9.218                0.750245997     -132.725033
9.219                0.749637702     -133.033648
9.22                 0.749030511     -133.343102
9.221                0.748424458     -133.653393
9.222                0.747819577     -133.964521
9.223                0.747215905     -134.276486
9.224                0.746613476     -134.589286
9.225                0.746012325     -134.902919
9.226                0.745412489     -135.217387
9.227                0.744814003     -135.532686
9.228                0.744216903     -135.848816
9.229                0.743621227     -136.165776
9.23                 0.743027009     -136.483565
9.231                0.742434287     -136.802181
9.232                0.741843098     -137.121623
9.233                0.741253478     -137.441889
9.234                0.740665466     -137.762978
9.235                0.740079098     -138.084888
9.236                0.739494412     -138.407618
9.237                0.738911445     -138.731165
9.238                0.738330236     -139.055529
9.239                0.737750823     -139.380708
9.24                 0.737173244     -139.706699
9.241                0.736597537       -140.0335
9.242                 0.73602374      -140.36111
9.243                0.735451893     -140.689526
9.244                0.734882034     -141.018747
9.245                0.734314201     -141.348769
9.246                0.733748435     -141.679592
9.247                0.733184774     -142.011211
9.248                0.732623258     -142.343626
9.249                0.732063925     -142.676833
9.25                 0.731506815      -143.01083
9.251                0.730951968     -143.345614
9.252                0.730399423     -143.681183
9.253                0.729849221     -144.017533
9.254                  0.7293014     -144.354662
9.255                0.728756001     -144.692568
9.256                0.728213064     -145.031246
9.257                0.727672629     -145.370694
9.258                0.727134735     -145.710908
9.259                0.726599424     -146.051887
9.26                 0.726066734     -146.393625
9.261                0.725536707      -146.73612
9.262                0.725009382     -147.079369
9.263                  0.7244848     -147.423367
9.264                0.723963001     -147.768112
9.265                0.723444025     -148.113599
9.266                0.722927913     -148.459825
9.267                0.722414704     -148.806786
9.268                 0.72190444     -149.154478
9.269                0.721397159     -149.502898
9.27                 0.720892903      -149.85204
9.271                0.720391712     -150.201901
9.272                0.719893625     -150.552477
9.273                0.719398683     -150.903763
9.274                0.718906926     -151.255755
9.275                0.718418393     -151.608449
9.276                0.717933125      -151.96184
9.277                0.717451161     -152.315924
9.278                0.716972542     -152.670695
9.279                0.716497306     -153.026149
9.28                 0.716025493     -153.382281
9.281                0.715557143     -153.739087
9.282                0.715092295      -154.09656
9.283                0.714630988     -154.454697
9.284                 0.71417326     -154.813492
9.285                0.713719152     -155.172939
9.286                0.713268702     -155.533034
9.287                0.712821947     -155.893772
9.288                0.712378927     -156.255145
9.289                 0.71193968      -156.61715
9.29                 0.711504243      -156.97978
9.291                0.711072656     -157.343029
9.292                0.710644954     -157.706893
9.293                0.710221176     -158.071365
9.294                0.709801359     -158.436438
9.295                 0.70938554     -158.802108
9.296                0.708973756     -159.168368
9.297                0.708566043     -159.535211
9.298                0.708162436     -159.902632
9.299                0.707762974     -160.270624
9.3                   0.70736769     -160.639181
9.301                0.706976621     -161.008297
9.302                0.706589801     -161.377964
9.303                0.706207266     -161.748176
9.304                0.705829051     -162.118927
9.305                0.705455188     -162.490209
9.306                0.705085712     -162.862017
9.307                0.704720658     -163.234342
9.308                0.704360057     -163.607178
9.309                0.704003944     -163.980518
9.31                  0.70365235     -164.354355
9.311                0.703305308     -164.728681
9.312                 0.70296285      -165.10349
9.313                0.702625006     -165.478773
9.314                0.702291809     -165.854524
9.315                0.701963289     -166.230735
9.316                0.701639476     -166.607399
9.317                  0.7013204     -166.984507
9.318                0.701006091     -167.362052
9.319                0.700696577     -167.740027
9.32                 0.700391887     -168.118424
9.321                0.700092049     -168.497234
9.322                0.699797092     -168.876451
9.323                0.699507042     -169.256065
9.324                0.699221926     -169.636069
9.325                0.698941771     -170.016455
9.326                0.698666602     -170.397214
9.327                0.698396445     -170.778339
9.328                0.698131324      -171.15982
9.329                0.697871265     -171.541651
9.33                 0.697616291     -171.923822
9.331                0.697366425     -172.306324
9.332                 0.69712169      -172.68915
9.333                0.696882109     -173.072291
9.334                0.696647703     -173.455738
9.335                0.696418495     -173.839483
9.336                0.696194503     -174.223517
9.337                 0.69597575     -174.607831
9.338                0.695762254     -174.992417
9.339                0.695554035     -175.377265
9.34                  0.69535111     -175.762367
9.341                0.695153499     -176.147714
9.342                0.694961219     -176.533297
9.343                0.694774286     -176.919106
9.344                0.694592716     -177.305134
9.345                0.694416526      -177.69137
9.346                 0.69424573     -178.077807
9.347                0.694080344     -178.464434
9.348                 0.69392038     -178.851242
9.349                0.693765852     -179.238223
9.35                 0.693616773     -179.625368
9.351                0.693473155      179.987334
9.352                0.693335009      179.599892
9.353                0.693202347      179.212314
9.354                0.693075178       178.82461
9.355                0.692953513      178.436789
9.356                0.692837359       178.04886
9.357                0.692726726      177.660834
9.358                0.692621621      177.272719
9.359                0.692522052      176.884525
9.36                 0.692428024      176.496261
9.361                0.692339544      176.107936
9.362                0.692256617      175.719561
9.363                0.692179248      175.331144
9.364                0.692107439      174.942695
9.365                0.692041196      174.554223
9.366                 0.69198052      174.165739
9.367                0.691925414       173.77725
9.368                0.691875878      173.388767
9.369                0.691831913        173.0003
9.37                 0.691793521      172.611857
9.371                0.691760699      172.223448
9.372                0.691733448      171.835083
9.373                0.691711764      171.446771
9.374                0.691695646      171.058522
9.375                0.691685091      170.670344
9.376                0.691680094      170.282248
9.377                0.691680652      169.894243
9.378                 0.69168676      169.506337
9.379                0.691698411      169.118542
9.38                   0.6917156      168.730865
9.381                0.691738319      168.343317
9.382                0.691766561      167.955906
9.383                0.691800319      167.568642
9.384                0.691839583      167.181534
9.385                0.691884344      166.794592
9.386                0.691934591      166.407824
9.387                0.691990315       166.02124
9.388                0.692051504       165.63485
9.389                0.692118146      165.248661
9.39                 0.692190229      164.862684
9.391                 0.69226774      164.476927
9.392                0.692350666        164.0914
9.393                0.692438991      163.706111
9.394                0.692532701      163.321069
9.395                0.692631782      162.936284
9.396                0.692736217      162.551764
