! TOUCHSTONE file generated by CST DESIGN STUDIO
! Date and time: Tue Feb  4 18:15:27 2025
! Project name: C:\Work\MatlabApps\UnitCellOptimizationMatlab\CST\unitcell.cst
! Tree item: Tasks\Sweep1\SPara1\S-Parameters
! Header version: 2024
! Port assignment regex: !\s*Touchstone port\s*([0-9]+)\s*=\s*(CST MWS port|CST DES external port|CST DES block port)\s*(.+)\s* \(\"(.*)\"\)(\s*mode\s*([0-9]+))?.*
! Touchstone port assignment:
! Touchstone port 1 = CST DES external port 1 ("")
# GHz S MA R 50
9                    0.772450731     -129.147683
9.001                0.771696736     -129.462733
9.002                0.770943099     -129.778708
9.003                0.770189859      -130.09561
9.004                0.769437058     -130.413437
9.005                0.768684735     -130.732189
9.006                0.767932933     -131.051867
9.007                0.767181693      -131.37247
9.008                0.766431056     -131.693998
9.009                0.765681065      -132.01645
9.01                 0.764931762     -132.339827
9.011                0.764183191     -132.664127
9.012                0.763435395      -132.98935
9.013                0.762688416     -133.315495
9.014                  0.7619423     -133.642562
9.015                 0.76119709      -133.97055
9.016                 0.76045283     -134.299459
9.017                0.759709566     -134.629286
9.018                0.758967343     -134.960033
9.019                0.758226206     -135.291696
9.02                 0.757486201     -135.624276
9.021                0.756747373     -135.957771
9.022                0.756009771     -136.292181
9.023                0.755273439     -136.627503
9.024                0.754538425     -136.963736
9.025                0.753804776      -137.30088
9.026                0.753072539     -137.638932
9.027                0.752341763     -137.977892
9.028                0.751612496     -138.317756
9.029                0.750884785     -138.658525
9.03                 0.750158679     -139.000195
9.031                0.749434227     -139.342765
9.032                0.748711478     -139.686234
9.033                0.747990481     -140.030599
9.034                0.747271285     -140.375857
9.035                0.746553942     -140.722008
9.036                0.745838499     -141.069048
9.037                0.745125008     -141.416976
9.038                0.744413518     -141.765789
9.039                0.743704081     -142.115484
9.04                 0.742996747     -142.466059
9.041                0.742291567     -142.817511
9.042                0.741588592     -143.169837
9.043                0.740887874     -143.523036
9.044                0.740189463     -143.877103
9.045                0.739493411     -144.232036
9.046                 0.73879977     -144.587832
9.047                0.738108592     -144.944487
9.048                0.737419929     -145.301999
9.049                0.736733833     -145.660363
9.05                 0.736050356     -146.019577
9.051                 0.73536955     -146.379637
9.052                0.734691468      -146.74054
9.053                0.734016163     -147.102281
9.054                0.733343687     -147.464858
9.055                0.732674092     -147.828265
9.056                0.732007431     -148.192499
9.057                0.731343758     -148.557557
9.058                0.730683124     -148.923433
9.059                0.730025583     -149.290124
9.06                 0.729371187     -149.657626
9.061                 0.72871999     -150.025933
9.062                0.728072044     -150.395041
9.063                0.727427402     -150.764946
9.064                0.726786117     -151.135644
9.065                0.726148242     -151.507128
9.066                0.725513829     -151.879395
9.067                0.724882931     -152.252438
9.068                0.724255601     -152.626254
9.069                0.723631891     -153.000837
9.07                 0.723011854     -153.376182
9.071                0.722395543     -153.752282
9.072                0.721783009     -154.129134
9.073                0.721174304     -154.506731
9.074                0.720569482     -154.885067
9.075                0.719968593     -155.264136
9.076                0.719371689     -155.643934
9.077                0.718778823     -156.024453
9.078                0.718190045     -156.405689
9.079                0.717605407     -156.787633
9.08                 0.717024959     -157.170281
9.081                0.716448754     -157.553626
9.082                 0.71587684     -157.937661
9.083                0.715309269      -158.32238
9.084                0.714746091     -158.707777
9.085                0.714187355     -159.093843
9.086                0.713633112     -159.480574
9.087                0.713083411     -159.867961
9.088                  0.7125383     -160.255997
9.089                0.711997829     -160.644676
9.09                 0.711462045      -161.03399
9.091                0.710930998     -161.423932
9.092                0.710404735     -161.814495
9.093                0.709883303      -162.20567
9.094                 0.70936675     -162.597451
9.095                0.708855121     -162.989829
9.096                0.708348465     -163.382796
9.097                0.707846825     -163.776346
9.098                0.707350249     -164.170469
9.099                 0.70685878     -164.565159
9.1                  0.706372464     -164.960405
9.101                0.705891345     -165.356201
9.102                0.705415467     -165.752538
9.103                0.704944873     -166.149408
9.104                0.704479606     -166.546801
9.105                0.704019708      -166.94471
9.106                0.703565221     -167.343126
9.107                0.703116187     -167.742039
9.108                0.702672645     -168.141442
9.109                0.702234638     -168.541324
9.11                 0.701802203     -168.941678
9.111                0.701375381     -169.342493
9.112                 0.70095421     -169.743761
9.113                0.700538728     -170.145473
9.114                0.700128973     -170.547618
9.115                0.699724981     -170.950189
9.116                0.699326788     -171.353174
9.117                0.698934431     -171.756565
9.118                0.698547945     -172.160352
9.119                0.698167363     -172.564525
9.12                 0.697792719     -172.969075
9.121                0.697424047     -173.373991
9.122                0.697061379     -173.779264
9.123                0.696704746     -174.184883
9.124                 0.69635418     -174.590839
9.125                0.696009711     -174.997121
9.126                0.695671369      -175.40372
9.127                0.695339183     -175.810625
9.128                 0.69501318     -176.217825
9.129                0.694693389     -176.625311
9.13                 0.694379835     -177.033072
9.131                0.694072546     -177.441098
9.132                0.693771547     -177.849377
9.133                0.693476861       -178.2579
9.134                0.693188513     -178.666656
9.135                0.692906526     -179.075633
9.136                0.692630922     -179.484823
9.137                0.692361722     -179.894213
9.138                0.692098948      179.696207
9.139                0.691842618      179.286448
9.14                 0.691592753      178.876521
9.141                0.691349369      178.466436
9.142                0.691112486      178.056205
9.143                0.690882119      177.645838
9.144                0.690658284      177.235347
9.145                0.690440997      176.824742
9.146                0.690230271      176.414035
9.147                 0.69002612      176.003236
9.148                0.689828556      175.592358
9.149                0.689637591       175.18141
9.15                 0.689453236      174.770404
9.151                0.689275501      174.359351
9.152                0.689104395      173.948262
9.153                0.688939927      173.537149
9.154                0.688782104      173.126023
9.155                0.688630932      172.714894
9.156                0.688486417      172.303774
9.157                0.688348565      171.892674
9.158                0.688217379      171.481606
9.159                0.688092863       171.07058
9.16                 0.687975019      170.659607
9.161                0.687863848        170.2487
9.162                0.687759352      169.837869
9.163                 0.68766153      169.427125
9.164                0.687570381      169.016479
9.165                0.687485903      168.605943
9.166                0.687408093      168.195527
9.167                0.687336949      167.785243
9.168                0.687272465      167.375102
9.169                0.687214637      166.965115
9.17                 0.687163458      166.555293
9.171                0.687118922      166.145646
9.172                 0.68708102      165.736187
9.173                0.687049745      165.326926
9.174                0.687025087      164.917873
9.175                0.687007035       164.50904
9.176                 0.68699558      164.100437
9.177                0.686990708      163.692076
9.178                0.686992408      163.283967
9.179                0.687000665      162.876121
9.18                 0.687015467      162.468549
9.181                0.687036797      162.061261
9.182                0.687064641      161.654267
9.183                0.687098981      161.247579
9.184                0.687139801      160.841207
9.185                0.687187081      160.435161
9.186                0.687240805      160.029452
9.187                0.687300951       159.62409
9.188                0.687367499      159.219085
9.189                 0.68744043      158.814448
9.19                  0.68751972      158.410189
9.191                0.687605347      158.006317
9.192                0.687697289      157.602843
9.193                0.687795521      157.199777
9.194                0.687900018      156.797129
9.195                0.688010756      156.394908
9.196                0.688127708      155.993125
9.197                0.688250848      155.591789
9.198                0.688380149      155.190909
9.199                0.688515582      154.790496
9.2                   0.68865712      154.390558
9.201                0.688804732      153.991105
9.202                 0.68895839      153.592147
9.203                0.689118062      153.193692
9.204                0.689283717       152.79575
9.205                0.689455325      152.398329
9.206                0.689632853       152.00144
9.207                0.689816267       151.60509
9.208                0.690005535      151.209288
9.209                0.690200623      150.814044
9.21                 0.690401497      150.419366
9.211                 0.69060812      150.025262
9.212                0.690820459      149.631742
9.213                0.691038477      149.238812
9.214                0.691262137      148.846482
9.215                0.691491402       148.45476
9.216                0.691726236      148.063653
9.217                  0.6919666      147.673171
9.218                0.692212456       147.28332
9.219                0.692463764      146.894109
9.22                 0.692720487      146.505545
9.221                0.692982583      146.117636
9.222                0.693250014       145.73039
9.223                0.693522738      145.343813
9.224                0.693800716      144.957914
9.225                0.694083904      144.572699
9.226                0.694372263      144.188175
9.227                 0.69466575      143.804351
9.228                0.694964322      143.421232
9.229                0.695267938      143.038825
9.23                 0.695576554      142.657137
9.231                0.695890127      142.276175
9.232                0.696208613      141.895946
9.233                0.696531969      141.516455
9.234                0.696860151      141.137709
9.235                0.697193114      140.759715
9.236                0.697530814      140.382478
9.237                0.697873206      140.006004
9.238                0.698220244        139.6303
9.239                0.698571884      139.255371
9.24                  0.69892808      138.881223
9.241                0.699288787      138.507862
9.242                0.699653958      138.135292
9.243                0.700023547       137.76352
9.244                0.700397509      137.392551
9.245                0.700775797       137.02239
9.246                0.701158364      136.653042
9.247                0.701545163      136.284512
9.248                0.701936149      135.916805
9.249                0.702331274      135.549926
9.25                 0.702730491      135.183879
9.251                0.703133754       134.81867
9.252                0.703541014      134.454302
9.253                0.703952225       134.09078
9.254                0.704367339      133.728109
9.255                 0.70478631      133.366293
9.256                0.705209089      133.005335
9.257                 0.70563563       132.64524
9.258                0.706065885      132.286011
9.259                0.706499806      131.927653
9.26                 0.706937346      131.570169
9.261                0.707378458      131.213564
9.262                0.707823094      130.857839
9.263                0.708271207      130.502999
9.264                0.708722749      130.149048
9.265                0.709177673      129.795988
9.266                0.709635932      129.443822
9.267                0.710097478      129.092554
9.268                0.710562265      128.742187
9.269                0.711030245      128.392723
9.27                  0.71150137      128.044166
9.271                0.711975595      127.696518
9.272                0.712452872      127.349781
9.273                0.712933155      127.003958
9.274                0.713416396      126.659052
9.275                 0.71390255      126.315065
9.276                0.714391569      125.971999
9.277                0.714883409      125.629857
9.278                0.715378021       125.28864
9.279                0.715875361       124.94835
9.28                 0.716375383       124.60899
9.281                 0.71687804      124.270561
9.282                0.717383288      123.933066
9.283                 0.71789108      123.596505
9.284                0.718401373       123.26088
9.285                 0.71891412      122.926193
9.286                0.719429276      122.592445
9.287                0.719946798      122.259639
9.288                0.720466641      121.927774
9.289                 0.72098876      121.596852
9.29                 0.721513112      121.266874
9.291                0.722039652      120.937842
9.292                0.722568337      120.609756
9.293                0.723099123      120.282618
9.294                0.723631968      119.956427
9.295                0.724166828      119.631186
9.296                0.724703661      119.306894
9.297                0.725242424      118.983552
9.298                0.725783075      118.661161
9.299                0.726325572      118.339722
9.3                  0.726869873      118.019234
9.301                0.727415936      117.699698
9.302                0.727963722      117.381115
9.303                0.728513187      117.063484
9.304                0.729064293      116.746807
9.305                0.729616998      116.431082
9.306                0.730171262       116.11631
9.307                0.730727045      115.802491
9.308                0.731284308      115.489625
9.309                0.731843011      115.177712
9.31                 0.732403116      114.866751
9.311                0.732964583      114.556742
9.312                0.733527374      114.247686
9.313                 0.73409145      113.939582
9.314                0.734656775      113.632428
9.315                 0.73522331      113.326226
9.316                0.735791017      113.020973
9.317                0.736359861      112.716671
9.318                0.736929803      112.413317
9.319                0.737500809      112.110912
9.32                  0.73807284      111.809455
9.321                0.738645863      111.508945
9.322                0.739219841       111.20938
9.323                0.739794739      110.910761
9.324                0.740370521      110.613086
9.325                0.740947155      110.316355
9.326                0.741524604      110.020566
9.327                0.742102836      109.725718
9.328                0.742681816      109.431811
9.329                0.743261511      109.138842
9.33                 0.743841888      108.846812
9.331                0.744422915      108.555718
9.332                0.745004559      108.265559
9.333                0.745586787      107.976335
9.334                0.746169568      107.688043
9.335                0.746752871      107.400683
9.336                0.747336664      107.114253
9.337                0.747920917      106.828751
9.338                0.748505598      106.544176
9.339                0.749090678      106.260527
9.34                 0.749676127      105.977802
9.341                0.750261915      105.695999
9.342                0.750848013      105.415117
9.343                0.751434392      105.135154
9.344                0.752021023      104.856109
9.345                0.752607877      104.577979
9.346                0.753194928      104.300763
9.347                0.753782146      104.024459
9.348                0.754369506      103.749066
9.349                0.754956978      103.474581
9.35                 0.755544538      103.201003
9.351                0.756132157      102.928329
9.352                0.756719811      102.656559
9.353                0.757307473      102.385689
9.354                0.757895117      102.115718
9.355                0.758482719      101.846644
9.356                0.759070253      101.578464
9.357                0.759657695      101.311178
9.358                0.760245019      101.044782
9.359                0.760832204      100.779276
9.36                 0.761419223      100.514655
9.361                0.762006055      100.250919
9.362                0.762592675      99.9880655
9.363                0.763179061      99.7260919
9.364                0.763765191      99.4649962
9.365                0.764351042      99.2047761
9.366                0.764936591      98.9454295
9.367                0.765521818      98.6869541
9.368                0.766106701      98.4293476
9.369                0.766691219      98.1726077
9.37                 0.767275351      97.9167322
9.371                0.767859076      97.6617186
9.372                0.768442374      97.4075647
9.373                0.769025225      97.1542681
9.374                0.769607609      96.9018264
9.375                0.770189507      96.6502373
9.376                  0.7707709      96.3994984
9.377                0.771351769      96.1496072
9.378                0.771932095      95.9005614
9.379                0.772511859      95.6523584
9.38                 0.773091044      95.4049959
9.381                0.773669632      95.1584714
9.382                0.774247606      94.9127824
9.383                0.774824947      94.6679264
9.384                0.775401639       94.423901
9.385                0.775977665      94.1807036
9.386                0.776553009      93.9383317
9.387                0.777127654      93.6967829
9.388                0.777701585      93.4560545
9.389                0.778274785       93.216144
9.39                 0.778847239       92.977049
9.391                0.779418931      92.7387667
9.392                0.779989848      92.5012948
9.393                0.780559973      92.2646305
9.394                0.781129293      92.0287713
9.395                0.781697792      91.7937147
9.396                0.782265458       91.559458
