! TOUCHSTONE file generated by CST DESIGN STUDIO
! Date and time: Tue Feb  4 18:15:41 2025
! Project name: C:\Work\MatlabApps\UnitCellOptimizationMatlab\CST\unitcell.cst
! Tree item: Tasks\Sweep1\SPara1\S-Parameters
! Header version: 2024
! Port assignment regex: !\s*Touchstone port\s*([0-9]+)\s*=\s*(CST MWS port|CST DES external port|CST DES block port)\s*(.+)\s* \(\"(.*)\"\)(\s*mode\s*([0-9]+))?.*
! Touchstone port assignment:
! Touchstone port 1 = CST DES external port 1 ("")
# GHz S MA R 50
9                    0.955172623     -47.6841678
9.001                0.955097082     -47.7434163
9.002                0.955021275     -47.8027924
9.003                0.954945202     -47.8622966
9.004                0.954868861     -47.9219292
9.005                0.954792251     -47.9816907
9.006                0.954715371     -48.0415814
9.007                0.954638221     -48.1016017
9.008                0.954560798     -48.1617521
9.009                0.954483103      -48.222033
9.01                 0.954405133     -48.2824447
9.011                0.954326888     -48.3429877
9.012                0.954248366     -48.4036625
9.013                0.954169567     -48.4644693
9.014                 0.95409049     -48.5254087
9.015                0.954011133      -48.586481
9.016                0.953931495     -48.6476866
9.017                0.953851575     -48.7090261
9.018                0.953771371     -48.7704997
9.019                0.953690884      -48.832108
9.02                 0.953610111     -48.8938513
9.021                0.953529052     -48.9557301
9.022                0.953447705     -49.0177449
9.023                0.953366069     -49.0798959
9.024                0.953284143     -49.1421838
9.025                0.953201925     -49.2046088
9.026                0.953119416     -49.2671715
9.027                0.953036613     -49.3298723
9.028                0.952953515     -49.3927115
9.029                0.952870121     -49.4556898
9.03                  0.95278643     -49.5188074
9.031                0.952702441     -49.5820649
9.032                0.952618152     -49.6454627
9.033                0.952533562     -49.7090012
9.034                0.952448671     -49.7726809
9.035                0.952363476     -49.8365022
9.036                0.952277977     -49.9004656
9.037                0.952192172     -49.9645716
9.038                0.952106061     -50.0288206
9.039                0.952019641      -50.093213
9.04                 0.951932912     -50.1577493
9.041                0.951845872       -50.22243
9.042                 0.95175852     -50.2872556
9.043                0.951670856     -50.3522264
9.044                0.951582876     -50.4173431
9.045                0.951494582     -50.4826059
9.046                 0.95140597     -50.5480155
9.047                 0.95131704     -50.6135723
9.048                 0.95122779     -50.6792767
9.049                0.951138219     -50.7451292
9.05                 0.951048327     -50.8111304
9.051                 0.95095811     -50.8772807
9.052                 0.95086757     -50.9435805
9.053                0.950776703     -51.0100304
9.054                0.950685508     -51.0766308
9.055                0.950593985     -51.1433823
9.056                0.950502132     -51.2102852
9.057                0.950409947     -51.2773402
9.058                 0.95031743     -51.3445477
9.059                0.950224578     -51.4119081
9.06                 0.950131391     -51.4794221
9.061                0.950037867       -51.54709
9.062                0.949944005     -51.6149125
9.063                0.949849803     -51.6828899
9.064                0.949755261     -51.7510228
9.065                0.949660376     -51.8193118
9.066                0.949565147     -51.8877572
9.067                0.949469573     -51.9563597
9.068                0.949373652     -52.0251197
9.069                0.949277384     -52.0940378
9.07                 0.949180766     -52.1631144
9.071                0.949083797     -52.2323501
9.072                0.948986476     -52.3017454
9.073                0.948888802     -52.3713008
9.074                0.948790772     -52.4410169
9.075                0.948692385     -52.5108942
9.076                0.948593641     -52.5809331
9.077                0.948494537     -52.6511344
9.078                0.948395073     -52.7214983
9.079                0.948295245     -52.7920256
9.08                 0.948195054     -52.8627167
9.081                0.948094498     -52.9335723
9.082                0.947993575     -53.0045927
9.083                0.947892283     -53.0757786
9.084                0.947790621     -53.1471305
9.085                0.947688588      -53.218649
9.086                0.947586183     -53.2903345
9.087                0.947483402     -53.3621878
9.088                0.947380246     -53.4342092
9.089                0.947276713     -53.5063995
9.09                   0.9471728      -53.578759
9.091                0.947068507     -53.6512885
9.092                0.946963832     -53.7239884
9.093                0.946858773     -53.7968593
9.094                0.946753328     -53.8699018
9.095                0.946647497     -53.9431164
9.096                0.946541278     -54.0165038
9.097                0.946434669     -54.0900645
9.098                0.946327668     -54.1637991
9.099                0.946220274     -54.2377081
9.1                  0.946112485     -54.3117922
9.101                  0.9460043     -54.3860518
9.102                0.945895717     -54.4604877
9.103                0.945786734     -54.5351004
9.104                 0.94567735     -54.6098904
9.105                0.945567563     -54.6848585
9.106                0.945457372     -54.7600051
9.107                0.945346774     -54.8353308
9.108                0.945235769     -54.9108364
9.109                0.945124354     -54.9865223
9.11                 0.945012528     -55.0623892
9.111                 0.94490029     -55.1384376
9.112                0.944787636     -55.2146682
9.113                0.944674567     -55.2910817
9.114                0.944561079     -55.3676785
9.115                0.944447172     -55.4444594
9.116                0.944332844      -55.521425
9.117                0.944218093     -55.5985758
9.118                0.944102917     -55.6759124
9.119                0.943987314     -55.7534357
9.12                 0.943871284      -55.831146
9.121                0.943754823     -55.9090441
9.122                0.943637931     -55.9871307
9.123                0.943520605     -56.0654063
9.124                0.943402844     -56.1438715
9.125                0.943284646     -56.2225271
9.126                0.943166009     -56.3013737
9.127                0.943046932     -56.3804119
9.128                0.942927412     -56.4596423
9.129                0.942807448     -56.5390657
9.13                 0.942687038     -56.6186826
9.131                0.942566181     -56.6984938
9.132                0.942444874     -56.7784998
9.133                0.942323115     -56.8587014
9.134                0.942200903     -56.9390992
9.135                0.942078236     -57.0196938
9.136                0.941955113     -57.1004861
9.137                 0.94183153     -57.1814765
9.138                0.941707487     -57.2626658
9.139                0.941582981     -57.3440547
9.14                 0.941458011     -57.4256438
9.141                0.941332575     -57.5074339
9.142                0.941206671     -57.5894255
9.143                0.941080296     -57.6716195
9.144                 0.94095345     -57.7540165
9.145                0.940826129     -57.8366172
9.146                0.940698333     -57.9194222
9.147                 0.94057006     -58.0024323
9.148                0.940441306     -58.0856483
9.149                0.940312071     -58.1690707
9.15                 0.940182353     -58.2527003
9.151                0.940052149     -58.3365378
9.152                0.939921458     -58.4205839
9.153                0.939790277     -58.5048393
9.154                0.939658605     -58.5893048
9.155                 0.93952644     -58.6739811
9.156                0.939393779     -58.7588689
9.157                0.939260621     -58.8439689
9.158                0.939126964     -58.9292819
9.159                0.938992805     -59.0148085
9.16                 0.938858143     -59.1005496
9.161                0.938722975     -59.1865058
9.162                0.938587301      -59.272678
9.163                0.938451116     -59.3590668
9.164                0.938314421     -59.4456729
9.165                0.938177211     -59.5324972
9.166                0.938039486     -59.6195405
9.167                0.937901244     -59.7068033
9.168                0.937762482     -59.7942866
9.169                0.937623198     -59.8819911
9.17                  0.93748339     -59.9699175
9.171                0.937343056     -60.0580666
9.172                0.937202194     -60.1464392
9.173                0.937060801      -60.235036
9.174                0.936918877     -60.3238578
9.175                0.936776418     -60.4129055
9.176                0.936633422     -60.5021798
9.177                0.936489888     -60.5916814
9.178                0.936345813     -60.6814112
9.179                0.936201194       -60.77137
9.18                 0.936056031     -60.8615585
9.181                 0.93591032     -60.9519776
9.182                 0.93576406      -61.042628
9.183                0.935617248     -61.1335106
9.184                0.935469882     -61.2246262
9.185                0.935321961     -61.3159755
9.186                 0.93517348     -61.4075595
9.187                 0.93502444     -61.4993788
9.188                0.934874837     -61.5914344
9.189                0.934724668      -61.683727
9.19                 0.934573933     -61.7762576
9.191                0.934422628     -61.8690268
9.192                0.934270752     -61.9620356
9.193                0.934118302     -62.0552847
9.194                0.933965276     -62.1487751
9.195                0.933811671     -62.2425076
9.196                0.933657485      -62.336483
9.197                0.933502717     -62.4307021
9.198                0.933347364     -62.5251659
9.199                0.933191423     -62.6198751
9.2                  0.933034892     -62.7148306
9.201                0.932877769     -62.8100334
9.202                0.932720051     -62.9054842
9.203                0.932561737      -63.001184
9.204                0.932402824     -63.0971335
9.205                 0.93224331     -63.1933338
9.206                0.932083191     -63.2897856
9.207                0.931922467     -63.3864898
9.208                0.931761134     -63.4834474
9.209                 0.93159919     -63.5806592
9.21                 0.931436634     -63.6781261
9.211                0.931273461     -63.7758491
9.212                0.931109671     -63.8738289
9.213                0.930945261     -63.9720666
9.214                0.930780228      -64.070563
9.215                0.930614569      -64.169319
9.216                0.930448284     -64.2683356
9.217                0.930281368     -64.3676136
9.218                 0.93011382     -64.4671541
9.219                0.929945638     -64.5669578
9.22                 0.929776818     -64.6670258
9.221                0.929607359      -64.767359
9.222                0.929437257     -64.8679583
9.223                0.929266511     -64.9688246
9.224                0.929095119      -65.069959
9.225                0.928923077     -65.1713622
9.226                0.928750383     -65.2730354
9.227                0.928577034     -65.3749794
9.228                0.928403029     -65.4771952
9.229                0.928228365     -65.5796838
9.23                 0.928053039     -65.6824461
9.231                0.927877049      -65.785483
9.232                0.927700392     -65.8887957
9.233                0.927523066      -65.992385
9.234                0.927345067     -66.0962519
9.235                0.927166395     -66.2003974
9.236                0.926987046     -66.3048225
9.237                0.926807018     -66.4095282
9.238                0.926626307     -66.5145155
9.239                0.926444913     -66.6197853
9.24                 0.926262831     -66.7253387
9.241                 0.92608006     -66.8311767
9.242                0.925896597     -66.9373003
9.243                0.925712439     -67.0437105
9.244                0.925527585     -67.1504082
9.245                 0.92534203     -67.2573947
9.246                0.925155773     -67.3646708
9.247                0.924968812     -67.4722375
9.248                0.924781143      -67.580096
9.249                0.924592763     -67.6882473
9.25                 0.924403672     -67.7966923
9.251                0.924213865     -67.9054322
9.252                 0.92402334      -68.014468
9.253                0.923832095     -68.1238007
9.254                0.923640127     -68.2334314
9.255                0.923447433     -68.3433611
9.256                0.923254011      -68.453591
9.257                0.923059859      -68.564122
9.258                0.922864972     -68.6749553
9.259                 0.92266935     -68.7860919
9.26                 0.922472989     -68.8975329
9.261                0.922275887     -69.0092794
9.262                 0.92207804     -69.1213325
9.263                0.921879447     -69.2336932
9.264                0.921680105     -69.3463627
9.265                0.921480011      -69.459342
9.266                0.921279162     -69.5726323
9.267                0.921077556     -69.6862347
9.268                0.920875191     -69.8001502
9.269                0.920672062       -69.91438
9.27                 0.920468169     -70.0289252
9.271                0.920263508     -70.1437869
9.272                0.920058076     -70.2589663
9.273                0.919851871     -70.3744644
9.274                 0.91964489     -70.4902825
9.275                0.919437131     -70.6064216
9.276                0.919228591     -70.7228829
9.277                0.919019266     -70.8396675
9.278                0.918809156     -70.9567766
9.279                0.918598256     -71.0742114
9.28                 0.918386564     -71.1919729
9.281                0.918174078     -71.3100624
9.282                0.917960794     -71.4284811
9.283                0.917746711       -71.54723
9.284                0.917531825     -71.6663104
9.285                0.917316134     -71.7857235
9.286                0.917099635     -71.9054704
9.287                0.916882325     -72.0255523
9.288                0.916664202     -72.1459705
9.289                0.916445263      -72.266726
9.29                 0.916225506     -72.3878201
9.291                0.916004927     -72.5092541
9.292                0.915783524      -72.631029
9.293                0.915561294     -72.7531462
9.294                0.915338235     -72.8756068
9.295                0.915114345     -72.9984121
9.296                0.914889619     -73.1215633
9.297                0.914664056     -73.2450615
9.298                0.914437653     -73.3689081
9.299                0.914210407     -73.4931043
9.3                  0.913982316     -73.6176514
9.301                0.913753377     -73.7425504
9.302                0.913523587     -73.8678028
9.303                0.913292944     -73.9934098
9.304                0.913061445     -74.1193725
9.305                0.912829087     -74.2456924
9.306                0.912595868     -74.3723706
9.307                0.912361785     -74.4994084
9.308                0.912126835     -74.6268071
9.309                0.911891016     -74.7545679
9.31                 0.911654326     -74.8826922
9.311                 0.91141676     -75.0111813
9.312                0.911178318     -75.1400363
9.313                0.910938996     -75.2692587
9.314                0.910698791     -75.3988497
9.315                0.910457702     -75.5288106
9.316                0.910215725     -75.6591427
9.317                0.909972858     -75.7898473
9.318                0.909729098     -75.9209258
9.319                0.909484442     -76.0523795
9.32                 0.909238889     -76.1842096
9.321                0.908992436     -76.3164176
9.322                0.908745079     -76.4490047
9.323                0.908496816     -76.5819723
9.324                0.908247646     -76.7153216
9.325                0.907997565     -76.8490542
9.326                 0.90774657     -76.9831713
9.327                 0.90749466     -77.1176742
9.328                0.907241832     -77.2525643
9.329                0.906988082      -77.387843
9.33                  0.90673341     -77.5235116
9.331                0.906477812     -77.6595716
9.332                0.906221285     -77.7960242
9.333                0.905963828     -77.9328709
9.334                0.905705437      -78.070113
9.335                0.905446111     -78.2077519
9.336                0.905185847      -78.345789
9.337                0.904924643     -78.4842257
9.338                0.904662495     -78.6230633
9.339                0.904399402     -78.7623034
9.34                 0.904135362     -78.9019473
9.341                0.903870371     -79.0419963
9.342                0.903604429      -79.182452
9.343                0.903337531     -79.3233157
9.344                0.903069676     -79.4645888
9.345                0.902800862     -79.6062728
9.346                0.902531086     -79.7483691
9.347                0.902260347     -79.8908791
9.348                0.901988641     -80.0338043
9.349                0.901715966      -80.177146
9.35                 0.901442321     -80.3209058
9.351                0.901167702     -80.4650851
9.352                0.900892109     -80.6096853
9.353                0.900615538     -80.7547079
9.354                0.900337987     -80.9001544
9.355                0.900059455     -81.0460261
9.356                0.899779939     -81.1923247
9.357                0.899499437     -81.3390514
9.358                0.899217947     -81.4862079
9.359                0.898935467     -81.6337955
9.36                 0.898651994     -81.7818158
9.361                0.898367527     -81.9302703
9.362                0.898082064     -82.0791604
9.363                0.897795603     -82.2284876
9.364                0.897508142     -82.3782535
9.365                0.897219678     -82.5284594
9.366                 0.89693021      -82.679107
9.367                0.896639737     -82.8301977
9.368                0.896348255      -82.981733
9.369                0.896055764     -83.1337144
9.37                 0.895762261     -83.2861435
9.371                0.895467744     -83.4390218
9.372                0.895172213     -83.5923507
9.373                0.894875664     -83.7461319
9.374                0.894578097     -83.9003668
9.375                 0.89427951      -84.055057
9.376                  0.8939799     -84.2102039
9.377                0.893679267     -84.3658093
9.378                0.893377609     -84.5218745
9.379                0.893074924     -84.6784011
9.38                  0.89277121     -84.8353907
9.381                0.892466467     -84.9928448
9.382                0.892160692      -85.150765
9.383                0.891853884     -85.3091528
9.384                0.891546042     -85.4680098
9.385                0.891237164     -85.6273376
9.386                0.890927249     -85.7871376
9.387                0.890616296     -85.9474116
9.388                0.890304302     -86.1081609
9.389                0.889991268     -86.2693873
9.39                 0.889677192     -86.4310923
9.391                0.889362073     -86.5932775
9.392                0.889045909     -86.7559444
9.393                0.888728699     -86.9190946
9.394                0.888410442     -87.0827297
9.395                0.888091138     -87.2468514
9.396                0.887770785     -87.4114611
