! TOUCHSTONE file generated by CST DESIGN STUDIO
! Date and time: Tue Feb  4 18:15:34 2025
! Project name: C:\Work\MatlabApps\UnitCellOptimizationMatlab\CST\unitcell.cst
! Tree item: Tasks\Sweep1\SPara1\S-Parameters
! Header version: 2024
! Port assignment regex: !\s*Touchstone port\s*([0-9]+)\s*=\s*(CST MWS port|CST DES external port|CST DES block port)\s*(.+)\s* \(\"(.*)\"\)(\s*mode\s*([0-9]+))?.*
! Touchstone port assignment:
! Touchstone port 1 = CST DES external port 1 ("")
# GHz S MA R 50
9                    0.897310279     -73.3558971
9.001                0.896998568     -73.4793016
9.002                0.896685839      -73.603069
9.003                0.896372088     -73.7272008
9.004                0.896057311     -73.8516983
9.005                0.895741505     -73.9765629
9.006                0.895424667     -74.1017961
9.007                0.895106792     -74.2273992
9.008                0.894787877     -74.3533737
9.009                0.894467918     -74.4797209
9.01                 0.894146913     -74.6064423
9.011                0.893824857     -74.7335394
9.012                0.893501748     -74.8610134
9.013                0.893177581      -74.988866
9.014                0.892852353     -75.1170985
9.015                 0.89252606     -75.2457124
9.016                  0.8921987     -75.3747092
9.017                0.891870268     -75.5040902
9.018                0.891540761      -75.633857
9.019                0.891210175      -75.764011
9.02                 0.890878508     -75.8945537
9.021                0.890545755     -76.0254867
9.022                0.890211914     -76.1568113
9.023                 0.88987698     -76.2885291
9.024                0.889540951     -76.4206416
9.025                0.889203822     -76.5531502
9.026                0.888865591     -76.6860566
9.027                0.888526254     -76.8193621
9.028                0.888185807     -76.9530684
9.029                0.887844248     -77.0871769
9.03                 0.887501572     -77.2216892
9.031                0.887157777     -77.3566068
9.032                0.886812859     -77.4919313
9.033                0.886466815     -77.6276642
9.034                0.886119641      -77.763807
9.035                0.885771335     -77.9003614
9.036                0.885421892     -78.0373289
9.037                 0.88507131      -78.174711
9.038                0.884719585     -78.3125094
9.039                0.884366713     -78.4507256
9.04                 0.884012693     -78.5893612
9.041                 0.88365752     -78.7284178
9.042                0.883301191      -78.867897
9.043                0.882943703     -79.0078004
9.044                0.882585053     -79.1481296
9.045                0.882225238     -79.2888863
9.046                0.881864254      -79.430072
9.047                0.881502098     -79.5716883
9.048                0.881138768      -79.713737
9.049                 0.88077426     -79.8562196
9.05                  0.88040857     -79.9991378
9.051                0.880041697     -80.1424932
9.052                0.879673637     -80.2862875
9.053                0.879304386     -80.4305224
9.054                0.878933943     -80.5751994
9.055                0.878562303     -80.7203204
9.056                0.878189464     -80.8658869
9.057                0.877815423     -81.0119006
9.058                0.877440177     -81.1583633
9.059                0.877063724     -81.3052766
9.06                  0.87668606     -81.4526422
9.061                0.876307182     -81.6004618
9.062                0.875927088     -81.7487371
9.063                0.875545774     -81.8974699
9.064                0.875163239     -82.0466618
9.065                0.874779479     -82.1963147
9.066                0.874394492     -82.3464301
9.067                0.874008275     -82.4970099
9.068                0.873620825     -82.6480558
9.069                 0.87323214     -82.7995695
9.07                 0.872842217     -82.9515528
9.071                0.872451053     -83.1040075
9.072                0.872058647     -83.2569353
9.073                0.871664994     -83.4103379
9.074                0.871270094     -83.5642172
9.075                0.870873944     -83.7185749
9.076                0.870476541     -83.8734129
9.077                0.870077882     -84.0287328
9.078                0.869677967     -84.1845365
9.079                0.869276791     -84.3408259
9.08                 0.868874353     -84.4976026
9.081                0.868470651     -84.6548685
9.082                0.868065683     -84.8126255
9.083                0.867659446     -84.9708752
9.084                0.867251939     -85.1296197
9.085                0.866843158     -85.2888606
9.086                0.866433103     -85.4485999
9.087                0.866021772     -85.6088394
9.088                0.865609161     -85.7695808
9.089                 0.86519527     -85.9308261
9.09                 0.864780097     -86.0925772
9.091                 0.86436364     -86.2548358
9.092                0.863945896     -86.4176038
9.093                0.863526865     -86.5808832
9.094                0.863106545     -86.7446757
9.095                0.862684934     -86.9089833
9.096                 0.86226203     -87.0738078
9.097                0.861837833     -87.2391511
9.098                 0.86141234     -87.4050152
9.099                 0.86098555     -87.5714019
9.1                  0.860557462     -87.7383131
9.101                0.860128074     -87.9057507
9.102                0.859697386     -88.0737167
9.103                0.859265396     -88.2422129
9.104                0.858832102     -88.4112412
9.105                0.858397505     -88.5808037
9.106                0.857961603     -88.7509022
9.107                0.857524394     -88.9215386
9.108                0.857085878     -89.0927149
9.109                0.856646055      -89.264433
9.11                 0.856204923     -89.4366948
9.111                0.855762482     -89.6095024
9.112                0.855318731     -89.7828577
9.113                0.854873669     -89.9567625
9.114                0.854427296     -90.1312189
9.115                0.853979612     -90.3062289
9.116                0.853530616     -90.4817944
9.117                0.853080307     -90.6579173
9.118                0.852628687     -90.8345997
9.119                0.852175753     -91.0118435
9.12                 0.851721507     -91.1896507
9.121                0.851265949     -91.3680233
9.122                0.850809077     -91.5469633
9.123                0.850350894     -91.7264726
9.124                0.849891398     -91.9065533
9.125                 0.84943059     -92.0872074
9.126                 0.84896847     -92.2684368
9.127                0.848505039     -92.4502435
9.128                0.848040298     -92.6326296
9.129                0.847574246     -92.8155971
9.13                 0.847106885      -92.999148
9.131                0.846638216     -93.1832842
9.132                0.846168239     -93.3680079
9.133                0.845696955      -93.553321
9.134                0.845224365     -93.7392255
9.135                0.844750471     -93.9257235
9.136                0.844275274     -94.1128169
9.137                0.843798774     -94.3005079
9.138                0.843320974     -94.4887985
9.139                0.842841875     -94.6776906
9.14                 0.842361479     -94.8671863
9.141                0.841879786     -95.0572876
9.142                  0.8413968     -95.2479967
9.143                0.840912521     -95.4393154
9.144                0.840426953     -95.6312459
9.145                0.839940096     -95.8237902
9.146                0.839451954     -96.0169503
9.147                0.838962528     -96.2107282
9.148                0.838471822     -96.4051261
9.149                0.837979836     -96.6001459
9.15                 0.837486575     -96.7957898
9.151                0.836992041     -96.9920596
9.152                0.836496236     -97.1889576
9.153                0.835999164     -97.3864857
9.154                0.835500828     -97.5846459
9.155                0.835001231     -97.7834404
9.156                0.834500377     -97.9828711
9.157                0.833998268     -98.1829402
9.158                0.833494908     -98.3836496
9.159                0.832990302     -98.5850013
9.16                 0.832484452     -98.7869975
9.161                0.831977363     -98.9896402
9.162                0.831469039     -99.1929314
9.163                0.830959484     -99.3968731
9.164                0.830448702     -99.6014675
9.165                0.829936698     -99.8067164
9.166                0.829423476     -100.012622
9.167                0.828909042     -100.219186
9.168                0.828393399     -100.426411
9.169                0.827876554     -100.634299
9.17                  0.82735851     -100.842852
9.171                0.826839274     -101.052071
9.172                 0.82631885     -101.261959
9.173                0.825797245     -101.472518
9.174                0.825274463      -101.68375
9.175                0.824750512     -101.895657
9.176                0.824225396     -102.108241
9.177                0.823699122     -102.321503
9.178                0.823171696     -102.535447
9.179                0.822643125     -102.750073
9.18                 0.822113415     -102.965384
9.181                0.821582573     -103.181382
9.182                0.821050606     -103.398069
9.183                0.820517521     -103.615447
9.184                0.819983325     -103.833517
9.185                0.819448025     -104.052282
9.186                 0.81891163     -104.271744
9.187                0.818374146     -104.491905
9.188                0.817835582     -104.712766
9.189                0.817295946      -104.93433
9.19                 0.816755245     -105.156599
9.191                0.816213489     -105.379573
9.192                0.815670685     -105.603257
9.193                0.815126843      -105.82765
9.194                0.814581972     -106.052756
9.195                 0.81403608     -106.278576
9.196                0.813489176     -106.505112
9.197                0.812941271     -106.732366
9.198                0.812392374      -106.96034
9.199                0.811842494     -107.189035
9.2                  0.811291642     -107.418454
9.201                0.810739827     -107.648598
9.202                0.810187061     -107.879469
9.203                0.809633353      -108.11107
9.204                0.809078714     -108.343401
9.205                0.808523156     -108.576465
9.206                0.807966689     -108.810264
9.207                0.807409325     -109.044799
9.208                0.806851075     -109.280072
9.209                0.806291951     -109.516085
9.21                 0.805731964     -109.752839
9.211                0.805171128     -109.990337
9.212                0.804609453      -110.22858
9.213                0.804046954     -110.467569
9.214                0.803483641     -110.707307
9.215                0.802919529     -110.947796
9.216                0.802354631     -111.189036
9.217                0.801788959      -111.43103
9.218                0.801222528     -111.673779
9.219                 0.80065535     -111.917285
9.22                 0.800087441      -112.16155
9.221                0.799518813     -112.406574
9.222                0.798949483     -112.652361
9.223                0.798379463      -112.89891
9.224                 0.79780877     -113.146225
9.225                0.797237418     -113.394306
9.226                0.796665421     -113.643154
9.227                0.796092797     -113.892772
9.228                 0.79551956     -114.143162
9.229                0.794945727     -114.394323
9.23                 0.794371313     -114.646258
9.231                0.793796336     -114.898969
9.232                0.793220811     -115.152456
9.233                0.792644755     -115.406722
9.234                0.792068186     -115.661767
9.235                 0.79149112     -115.917593
9.236                0.790913576     -116.174201
9.237                0.790335571     -116.431592
9.238                0.789757123     -116.689769
9.239                 0.78917825     -116.948731
9.24                 0.788598971     -117.208481
9.241                0.788019304     -117.469019
9.242                0.787439269     -117.730347
9.243                0.786858884     -117.992466
9.244                0.786278169     -118.255378
9.245                0.785697144     -118.519082
9.246                0.785115828     -118.783581
9.247                0.784534241     -119.048875
9.248                0.783952405     -119.314966
9.249                0.783370338     -119.581854
9.25                 0.782788063      -119.84954
9.251                0.782205601     -120.118027
9.252                0.781622972     -120.387313
9.253                0.781040198     -120.657401
9.254                0.780457302     -120.928292
9.255                0.779874304     -121.199985
9.256                0.779291228     -121.472482
9.257                0.778708095     -121.745784
9.258                 0.77812493     -122.019892
9.259                0.777541754     -122.294806
9.26                  0.77695859     -122.570527
9.261                0.776375464     -122.847055
9.262                0.775792397     -123.124392
9.263                0.775209414     -123.402538
9.264                 0.77462654     -123.681493
9.265                0.774043799     -123.961258
9.266                0.773461215     -124.241834
9.267                0.772878813     -124.523221
9.268                 0.77229662     -124.805419
9.269                0.771714659     -125.088429
9.27                 0.771132957     -125.372252
9.271                 0.77055154     -125.656887
9.272                0.769970433     -125.942334
9.273                0.769389664     -126.228595
9.274                0.768809258     -126.515669
9.275                0.768229243     -126.803557
9.276                0.767649646     -127.092258
9.277                0.767070494     -127.381773
9.278                0.766491815     -127.672102
9.279                0.765913636     -127.963245
9.28                 0.765335985     -128.255201
9.281                0.764758892     -128.547971
9.282                0.764182383     -128.841555
9.283                0.763606488     -129.135952
9.284                0.763031237     -129.431162
9.285                0.762456657     -129.727186
9.286                0.761882779     -130.024022
9.287                0.761309631      -130.32167
9.288                0.760737245      -130.62013
9.289                 0.76016565     -130.919402
9.29                 0.759594875     -131.219485
9.291                0.759024952     -131.520379
9.292                0.758455912     -131.822082
9.293                0.757887785     -132.124595
9.294                0.757320602     -132.427916
9.295                0.756754395     -132.732046
9.296                0.756189195     -133.036982
9.297                0.755625033     -133.342725
9.298                0.755061943     -133.649274
9.299                0.754499955     -133.956627
9.3                  0.753939103     -134.264784
9.301                0.753379418     -134.573743
9.302                0.752820933     -134.883504
9.303                0.752263682     -135.194065
9.304                0.751707697     -135.505425
9.305                0.751153011     -135.817583
9.306                0.750599658     -136.130538
9.307                0.750047671     -136.444288
9.308                0.749497085     -136.758832
9.309                0.748947933     -137.074168
9.31                 0.748400249     -137.390295
9.311                0.747854067     -137.707211
9.312                0.747309421     -138.024915
9.313                0.746766347     -138.343405
9.314                0.746224879     -138.662679
9.315                0.745685051     -138.982735
9.316                0.745146899     -139.303571
9.317                0.744610458     -139.625186
9.318                0.744075763     -139.947578
9.319                0.743542848     -140.270743
9.32                 0.743011751     -140.594681
9.321                0.742482506     -140.919389
9.322                0.741955149     -141.244865
9.323                0.741429715     -141.571106
9.324                0.740906241      -141.89811
9.325                0.740384763     -142.225875
9.326                0.739865317     -142.554398
9.327                0.739347938     -142.883676
9.328                0.738832664     -143.213707
9.329                 0.73831953     -143.544489
9.33                 0.737808573     -143.876017
9.331                 0.73729983     -144.208291
9.332                0.736793336     -144.541305
9.333                0.736289129     -144.875059
9.334                0.735787245     -145.209547
9.335                0.735287721     -145.544769
9.336                0.734790594     -145.880719
9.337                  0.7342959     -146.217395
9.338                0.733803676     -146.554794
9.339                0.733313959     -146.892913
9.34                 0.732826786     -147.231747
9.341                0.732342194     -147.571293
9.342                0.731860219     -147.911548
9.343                0.731380899     -148.252508
9.344                0.730904269     -148.594169
9.345                0.730430368     -148.936527
9.346                0.729959231     -149.279579
9.347                0.729490897     -149.623321
9.348                  0.7290254     -149.967747
9.349                0.728562778     -150.312856
9.35                 0.728103068     -150.658641
9.351                0.727646307       -151.0051
9.352                 0.72719253     -151.352227
9.353                0.726741774     -151.700018
9.354                0.726294076     -152.048469
9.355                0.725849472     -152.397576
9.356                0.725407998     -152.747333
9.357                 0.72496969     -153.097736
9.358                0.724534584      -153.44878
9.359                0.724102717     -153.800461
9.36                 0.723674124     -154.152773
9.361                 0.72324884     -154.505711
9.362                0.722826901     -154.859271
9.363                0.722408343     -155.213448
9.364                0.721993201     -155.568235
9.365                0.721581509     -155.923629
9.366                0.721173304     -156.279623
9.367                0.720768619     -156.636212
9.368                0.720367489     -156.993391
9.369                0.719969949     -157.351155
9.37                 0.719576032     -157.709496
9.371                0.719185774     -158.068411
9.372                0.718799207     -158.427893
9.373                0.718416365     -158.787936
9.374                0.718037281     -159.148535
9.375                 0.71766199     -159.509683
9.376                0.717290523     -159.871374
9.377                0.716922913     -160.233603
9.378                0.716559193     -160.596363
9.379                0.716199394     -160.959648
9.38                  0.71584355     -161.323451
9.381                0.715491691     -161.687767
9.382                0.715143848     -162.052589
9.383                0.714800054      -162.41791
9.384                0.714460338     -162.783723
9.385                 0.71412473     -163.150023
9.386                0.713793262     -163.516802
9.387                0.713465963     -163.884054
9.388                0.713142862     -164.251771
9.389                0.712823989     -164.619948
9.39                 0.712509372     -164.988576
9.391                0.712199041      -165.35765
9.392                0.711893022     -165.727161
9.393                0.711591344     -166.097103
9.394                0.711294034     -166.467469
9.395                 0.71100112     -166.838251
9.396                0.710712628     -167.209442
