! TOUCHSTONE file generated by CST DESIGN STUDIO
! Date and time: Tue Feb  4 18:15:42 2025
! Project name: C:\Work\MatlabApps\UnitCellOptimizationMatlab\CST\unitcell.cst
! Tree item: Tasks\Sweep1\SPara1\S-Parameters
! Header version: 2024
! Port assignment regex: !\s*Touchstone port\s*([0-9]+)\s*=\s*(CST MWS port|CST DES external port|CST DES block port)\s*(.+)\s* \(\"(.*)\"\)(\s*mode\s*([0-9]+))?.*
! Touchstone port assignment:
! Touchstone port 1 = CST DES external port 1 ("")
# GHz S MA R 50
9                    0.962767132     -43.7288145
9.001                0.962712137     -43.7807851
9.002                0.962656947     -43.8328594
9.003                 0.96260156     -43.8850379
9.004                0.962545977     -43.9373209
9.005                0.962490196     -43.9897086
9.006                0.962434216     -44.0422014
9.007                0.962378038     -44.0947995
9.008                0.962321659     -44.1475033
9.009                 0.96226508     -44.2003132
9.01                 0.962208299     -44.2532293
9.011                0.962151317     -44.3062521
9.012                0.962094131     -44.3593819
9.013                0.962036742     -44.4126189
9.014                0.961979148     -44.4659636
9.015                0.961921349     -44.5194161
9.016                0.961863344     -44.5729769
9.017                0.961805133     -44.6266462
9.018                0.961746713     -44.6804245
9.019                0.961688086     -44.7343119
9.02                 0.961629249     -44.7883089
9.021                0.961570202     -44.8424158
9.022                0.961510945     -44.8966329
9.023                0.961451476     -44.9509605
9.024                0.961391795      -45.005399
9.025                0.961331901     -45.0599486
9.026                0.961271793     -45.1146099
9.027                 0.96121147      -45.169383
9.028                0.961150932     -45.2242682
9.029                0.961090177     -45.2792661
9.03                 0.961029205     -45.3343768
9.031                0.960968015     -45.3896008
9.032                0.960906606     -45.4449383
9.033                0.960844978     -45.5003898
9.034                0.960783129     -45.5559555
9.035                0.960721058     -45.6116358
9.036                0.960658766     -45.6674311
9.037                 0.96059625     -45.7233417
9.038                0.960533511      -45.779368
9.039                0.960470547     -45.8355102
9.04                 0.960407357     -45.8917689
9.041                0.960343941     -45.9481442
9.042                0.960280297     -46.0046366
9.043                0.960216425     -46.0612464
9.044                0.960152325      -46.117974
9.045                0.960087994     -46.1748198
9.046                0.960023432     -46.2317841
9.047                0.959958639     -46.2888672
9.048                0.959893613     -46.3460696
9.049                0.959828353     -46.4033916
9.05                  0.95976286     -46.4608336
9.051                 0.95969713     -46.5183958
9.052                0.959631165     -46.5760788
9.053                0.959564963     -46.6338829
9.054                0.959498522     -46.6918084
9.055                0.959431843     -46.7498557
9.056                0.959364923     -46.8080252
9.057                0.959297763     -46.8663173
9.058                0.959230362     -46.9247324
9.059                0.959162717     -46.9832707
9.06                 0.959094829     -47.0419328
9.061                0.959026697      -47.100719
9.062                0.958958319     -47.1596297
9.063                0.958889694     -47.2186652
9.064                0.958820822     -47.2778259
9.065                0.958751702     -47.3371123
9.066                0.958682333     -47.3965247
9.067                0.958612713     -47.4560636
9.068                0.958542842     -47.5157292
9.069                0.958472719     -47.5755221
9.07                 0.958402343     -47.6354425
9.071                0.958331713     -47.6954909
9.072                0.958260827     -47.7556678
9.073                0.958189686     -47.8159734
9.074                0.958118287     -47.8764082
9.075                 0.95804663     -47.9369726
9.076                0.957974714      -47.997667
9.077                0.957902538     -48.0584918
9.078                0.957830101     -48.1194475
9.079                0.957757401     -48.1805343
9.08                 0.957684438     -48.2417528
9.081                0.957611212     -48.3031034
9.082                0.957537719     -48.3645864
9.083                0.957463961     -48.4262023
9.084                0.957389935     -48.4879514
9.085                0.957315641     -48.5498343
9.086                0.957241078     -48.6118514
9.087                0.957166244     -48.6740029
9.088                0.957091138     -48.7362895
9.089                 0.95701576     -48.7987115
9.09                 0.956940109     -48.8612693
9.091                0.956864182     -48.9239633
9.092                 0.95678798     -48.9867941
9.093                0.956711501     -49.0497619
9.094                0.956634744     -49.1128673
9.095                0.956557708     -49.1761108
9.096                0.956480392     -49.2394926
9.097                0.956402795     -49.3030133
9.098                0.956324915     -49.3666733
9.099                0.956246752      -49.430473
9.1                  0.956168304      -49.494413
9.101                0.956089571     -49.5584936
9.102                0.956010551     -49.6227152
9.103                0.955931242     -49.6870784
9.104                0.955851645     -49.7515836
9.105                0.955771758     -49.8162312
9.106                0.955691579     -49.8810217
9.107                0.955611108     -49.9459555
9.108                0.955530343     -50.0110331
9.109                0.955449284      -50.076255
9.11                 0.955367928     -50.1416216
9.111                0.955286275     -50.2071334
9.112                0.955204325     -50.2727909
9.113                0.955122074     -50.3385944
9.114                0.955039523     -50.4045445
9.115                 0.95495667     -50.4706417
9.116                0.954873514     -50.5368864
9.117                0.954790054     -50.6032791
9.118                0.954706289     -50.6698203
9.119                0.954622217     -50.7365104
9.12                 0.954537837       -50.80335
9.121                0.954453148     -50.8703394
9.122                0.954368148     -50.9374793
9.123                0.954282837       -51.00477
9.124                0.954197214     -51.0722121
9.125                0.954111276      -51.139806
9.126                0.954025024     -51.2075523
9.127                0.953938454     -51.2754514
9.128                0.953851567     -51.3435038
9.129                0.953764362     -51.4117101
9.13                 0.953676835     -51.4800707
9.131                0.953588988     -51.5485861
9.132                0.953500817     -51.6172568
9.133                0.953412323     -51.6860834
9.134                0.953323503     -51.7550662
9.135                0.953234357      -51.824206
9.136                0.953144882      -51.893503
9.137                0.953055079     -51.9629579
9.138                0.952964945     -52.0325713
9.139                0.952874479     -52.1023434
9.14                 0.952783679      -52.172275
9.141                0.952692546     -52.2423666
9.142                0.952601076     -52.3126185
9.143                 0.95250927     -52.3830315
9.144                0.952417125     -52.4536059
9.145                 0.95232464     -52.5243424
9.146                0.952231813     -52.5952414
9.147                0.952138645     -52.6663035
9.148                0.952045132     -52.7375293
9.149                0.951951274     -52.8089192
9.15                  0.95185707     -52.8804738
9.151                0.951762517     -52.9521936
9.152                0.951667615     -53.0240792
9.153                0.951572362     -53.0961311
9.154                0.951476757     -53.1683499
9.155                0.951380799     -53.2407361
9.156                0.951284485     -53.3132903
9.157                0.951187815      -53.386013
9.158                0.951090787     -53.4589048
9.159                  0.9509934     -53.5319662
9.16                 0.950895652     -53.6051978
9.161                0.950797542     -53.6786002
9.162                0.950699069     -53.7521738
9.163                 0.95060023     -53.8259194
9.164                0.950501025     -53.8998374
9.165                0.950401452     -53.9739285
9.166                 0.95030151     -54.0481931
9.167                0.950201196     -54.1226319
9.168                0.950100511     -54.1972455
9.169                0.949999451     -54.2720344
9.17                 0.949898016     -54.3469992
9.171                0.949796205     -54.4221404
9.172                0.949694014     -54.4974588
9.173                0.949591445     -54.5729549
9.174                0.949488493     -54.6486292
9.175                0.949385159     -54.7244823
9.176                0.949281441     -54.8005149
9.177                0.949177336     -54.8767276
9.178                0.949072845     -54.9531209
9.179                0.948967964     -55.0296954
9.18                 0.948862692     -55.1064518
9.181                0.948757029     -55.1833907
9.182                0.948650971     -55.2605126
9.183                0.948544519     -55.3378182
9.184                0.948437669     -55.4153081
9.185                0.948330422      -55.492983
9.186                0.948222774     -55.5708433
9.187                0.948114724     -55.6488898
9.188                0.948006272     -55.7271231
9.189                0.947897415     -55.8055438
9.19                 0.947788151     -55.8841526
9.191                0.947678479       -55.96295
9.192                0.947568397     -56.0419367
9.193                0.947457905     -56.1211133
9.194                0.947346999     -56.2004805
9.195                0.947235679      -56.280039
9.196                0.947123942     -56.3597893
9.197                0.947011788     -56.4397321
9.198                0.946899214      -56.519868
9.199                0.946786218     -56.6001978
9.2                    0.9466728      -56.680722
9.201                0.946558958     -56.7614413
9.202                0.946444689     -56.8423565
9.203                0.946329992      -56.923468
9.204                0.946214865     -57.0047767
9.205                0.946099308     -57.0862831
9.206                0.945983317      -57.167988
9.207                0.945866891      -57.249892
9.208                0.945750028     -57.3319958
9.209                0.945632728        -57.4143
9.21                 0.945514987     -57.4968054
9.211                0.945396805     -57.5795126
9.212                0.945278179     -57.6624223
9.213                0.945159108     -57.7455352
9.214                 0.94503959      -57.828852
9.215                0.944919623     -57.9123734
9.216                0.944799205     -57.9961001
9.217                0.944678335     -58.0800328
9.218                0.944557011     -58.1641721
9.219                0.944435231     -58.2485188
9.22                 0.944312993     -58.3330737
9.221                0.944190295     -58.4178373
9.222                0.944067136     -58.5028104
9.223                0.943943514     -58.5879938
9.224                0.943819427     -58.6733881
9.225                0.943694873     -58.7589941
9.226                 0.94356985     -58.8448125
9.227                0.943444357     -58.9308439
9.228                0.943318391     -59.0170893
9.229                 0.94319195     -59.1035492
9.23                 0.943065034     -59.1902245
9.231                0.942937639     -59.2771158
9.232                0.942809765     -59.3642239
9.233                0.942681409     -59.4515495
9.234                0.942552569     -59.5390934
9.235                0.942423243     -59.6268564
9.236                0.942293429     -59.7148391
9.237                0.942163127     -59.8030424
9.238                0.942032332      -59.891467
9.239                0.941901045     -59.9801136
9.24                 0.941769262     -60.0689831
9.241                0.941636982     -60.1580762
9.242                0.941504203     -60.2473936
9.243                0.941370922     -60.3369362
9.244                0.941237139     -60.4267047
9.245                 0.94110285     -60.5166998
9.246                0.940968055     -60.6069225
9.247                 0.94083275     -60.6973734
9.248                0.940696934     -60.7880533
9.249                0.940560606     -60.8789631
9.25                 0.940423762     -60.9701036
9.251                0.940286401     -61.0614754
9.252                0.940148522     -61.1530795
9.253                0.940010121     -61.2449166
9.254                0.939871197     -61.3369876
9.255                0.939731748     -61.4292932
9.256                0.939591772     -61.5218343
9.257                0.939451266     -61.6146116
9.258                 0.93931023     -61.7076261
9.259                 0.93916866     -61.8008784
9.26                 0.939026554     -61.8943696
9.261                0.938883911     -61.9881002
9.262                0.938740729     -62.0820713
9.263                0.938597005     -62.1762837
9.264                0.938452737     -62.2707381
9.265                0.938307923     -62.3654354
9.266                0.938162562     -62.4603765
9.267                 0.93801665     -62.5555622
9.268                0.937870186     -62.6509934
9.269                0.937723168     -62.7466709
9.27                 0.937575593     -62.8425955
9.271                 0.93742746     -62.9387682
9.272                0.937278766     -63.0351898
9.273                 0.93712951     -63.1318612
9.274                0.936979688     -63.2287832
9.275                0.936829299     -63.3259567
9.276                0.936678341     -63.4233826
9.277                0.936526811     -63.5210618
9.278                0.936374708     -63.6189951
9.279                0.936222028     -63.7171835
9.28                 0.936068771     -63.8156278
9.281                0.935914933     -63.9143289
9.282                0.935760513     -64.0132877
9.283                0.935605508     -64.1125052
9.284                0.935449916     -64.2119822
9.285                0.935293735     -64.3117196
9.286                0.935136963     -64.4117184
9.287                0.934979597     -64.5119794
9.288                0.934821636     -64.6125036
9.289                0.934663076     -64.7132919
9.29                 0.934503916     -64.8143453
9.291                0.934344153     -64.9156645
9.292                0.934183786     -65.0172507
9.293                0.934022812     -65.1191047
9.294                0.933861228     -65.2212274
9.295                0.933699032     -65.3236199
9.296                0.933536223      -65.426283
9.297                0.933372797     -65.5292177
9.298                0.933208753     -65.6324249
9.299                0.933044088     -65.7359056
9.3                    0.9328788     -65.8396608
9.301                0.932712886     -65.9436915
9.302                0.932546345     -66.0479985
9.303                0.932379174     -66.1525829
9.304                 0.93221137     -66.2574456
9.305                0.932042932     -66.3625876
9.306                0.931873856       -66.46801
9.307                0.931704142     -66.5737136
9.308                0.931533785     -66.6796995
9.309                0.931362785     -66.7859686
9.31                 0.931191138     -66.8925221
9.311                0.931018842     -66.9993607
9.312                0.930845895     -67.1064857
9.313                0.930672295     -67.2138979
9.314                0.930498039     -67.3215984
9.315                0.930323124     -67.4295881
9.316                0.930147549     -67.5378682
9.317                0.929971311     -67.6464396
9.318                0.929794408     -67.7553034
9.319                0.929616836     -67.8644606
9.32                 0.929438595     -67.9739122
9.321                0.929259681     -68.0836592
9.322                0.929080092     -68.1937027
9.323                0.928899826     -68.3040438
9.324                 0.92871888     -68.4146835
9.325                0.928537251     -68.5256228
9.326                0.928354938     -68.6368627
9.327                0.928171939     -68.7484045
9.328                0.927988249      -68.860249
9.329                0.927803868     -68.9723975
9.33                 0.927618792     -69.0848509
9.331                 0.92743302     -69.1976103
9.332                0.927246549     -69.3106768
9.333                0.927059376     -69.4240515
9.334                0.926871499     -69.5377355
9.335                0.926682915     -69.6517298
9.336                0.926493622     -69.7660356
9.337                0.926303619     -69.8806539
9.338                0.926112901     -69.9955859
9.339                0.925921467     -70.1108326
9.34                 0.925729314     -70.2263952
9.341                 0.92553644     -70.3422748
9.342                0.925342843     -70.4584724
9.343                0.925148519     -70.5749893
9.344                0.924953467     -70.6918265
9.345                0.924757684     -70.8089852
9.346                0.924561167     -70.9264664
9.347                0.924363915     -71.0442714
9.348                0.924165924     -71.1624013
9.349                0.923967192     -71.2808571
9.35                 0.923767716     -71.3996402
9.351                0.923567495     -71.5187515
9.352                0.923366526     -71.6381923
9.353                0.923164806     -71.7579637
9.354                0.922962333     -71.8780669
9.355                0.922759104      -71.998503
9.356                0.922555117     -72.1192733
9.357                 0.92235037     -72.2403789
9.358                0.922144859     -72.3618209
9.359                0.921938583     -72.4836006
9.36                 0.921731539     -72.6057192
9.361                0.921523724     -72.7281777
9.362                0.921315136     -72.8509775
9.363                0.921105773     -72.9741198
9.364                0.920895633     -73.0976056
9.365                0.920684712     -73.2214363
9.366                0.920473008      -73.345613
9.367                0.920260519      -73.470137
9.368                0.920047242     -73.5950095
9.369                0.919833175     -73.7202316
9.37                 0.919618316     -73.8458047
9.371                0.919402661     -73.9717299
9.372                 0.91918621     -74.0980084
9.373                0.918968958     -74.2246417
9.374                0.918750904     -74.3516307
9.375                0.918532045     -74.4789769
9.376                0.918312379     -74.6066814
9.377                0.918091904     -74.7347455
9.378                0.917870616     -74.8631705
9.379                0.917648514     -74.9919576
9.38                 0.917425595     -75.1211081
9.381                0.917201857     -75.2506232
9.382                0.916977297     -75.3805043
9.383                0.916751913     -75.5107526
9.384                0.916525703     -75.6413693
9.385                0.916298664     -75.7723558
9.386                0.916070793     -75.9037134
9.387                0.915842089     -76.0354433
9.388                0.915612549     -76.1675468
9.389                0.915382171     -76.3000253
9.39                 0.915150952     -76.4328801
9.391                 0.91491889     -76.5661123
9.392                0.914685983     -76.6997235
9.393                0.914452228     -76.8337148
9.394                0.914217623     -76.9680876
9.395                0.913982165     -77.1028432
9.396                0.913745853     -77.2379829
