! TOUCHSTONE file generated by CST DESIGN STUDIO
! Date and time: Tue Feb  4 18:15:35 2025
! Project name: C:\Work\MatlabApps\UnitCellOptimizationMatlab\CST\unitcell.cst
! Tree item: Tasks\Sweep1\SPara1\S-Parameters
! Header version: 2024
! Port assignment regex: !\s*Touchstone port\s*([0-9]+)\s*=\s*(CST MWS port|CST DES external port|CST DES block port)\s*(.+)\s* \(\"(.*)\"\)(\s*mode\s*([0-9]+))?.*
! Touchstone port assignment:
! Touchstone port 1 = CST DES external port 1 ("")
# GHz S MA R 50
9                    0.917494953      -64.936401
9.001                0.917272662      -65.035728
9.002                0.917049663     -65.1353264
9.003                0.916825953     -65.2351974
9.004                0.916601529     -65.3353418
9.005                0.916376387     -65.4357607
9.006                0.916150524     -65.5364551
9.007                0.915923936     -65.6374261
9.008                0.915696622     -65.7386746
9.009                0.915468577     -65.8402016
9.01                 0.915239799     -65.9420082
9.011                0.915010283     -66.0440955
9.012                0.914780027     -66.1464644
9.013                0.914549028      -66.249116
9.014                0.914317281     -66.3520513
9.015                0.914084785     -66.4552714
9.016                0.913851535     -66.5587773
9.017                0.913617529     -66.6625701
9.018                0.913382763     -66.7666509
9.019                0.913147234     -66.8710207
9.02                 0.912910938     -66.9756806
9.021                0.912673873     -67.0806316
9.022                0.912436034     -67.1858749
9.023                0.912197419     -67.2914114
9.024                0.911958024     -67.3972424
9.025                0.911717847     -67.5033689
9.026                0.911476883     -67.6097919
9.027                0.911235129     -67.7165127
9.028                0.910992583     -67.8235322
9.029                 0.91074924     -67.9308516
9.03                 0.910505097      -68.038472
9.031                0.910260152     -68.1463946
9.032                  0.9100144     -68.2546204
9.033                0.909767838     -68.3631505
9.034                0.909520464     -68.4719862
9.035                0.909272273     -68.5811285
9.036                0.909023262     -68.6905785
9.037                0.908773428     -68.8003375
9.038                0.908522768     -68.9104066
9.039                0.908271277     -69.0207868
9.04                 0.908018954     -69.1314794
9.041                0.907765794     -69.2424856
9.042                0.907511794     -69.3538065
9.043                 0.90725695     -69.4654432
9.044                 0.90700126      -69.577397
9.045                0.906744719      -69.689669
9.046                0.906487325     -69.8022605
9.047                0.906229074     -69.9151725
9.048                0.905969963     -70.0284063
9.049                0.905709988     -70.1419631
9.05                 0.905449145     -70.2558442
9.051                0.905187433     -70.3700506
9.052                0.904924846     -70.4845836
9.053                0.904661382     -70.5994445
9.054                0.904397037     -70.7146344
9.055                0.904131808     -70.8301546
9.056                0.903865691     -70.9460063
9.057                0.903598683     -71.0621908
9.058                0.903330781     -71.1787093
9.059                0.903061981      -71.295563
9.06                 0.902792279     -71.4127532
9.061                0.902521673     -71.5302811
9.062                0.902250159      -71.648148
9.063                0.901977734     -71.7663553
9.064                0.901704393      -71.884904
9.065                0.901430134     -72.0037956
9.066                0.901154954     -72.1230312
9.067                0.900878848     -72.2426123
9.068                0.900601813       -72.36254
9.069                0.900323847     -72.4828156
9.07                 0.900044945     -72.6034406
9.071                0.899765104     -72.7244161
9.072                0.899484321     -72.8457434
9.073                0.899202593      -72.967424
9.074                0.898919915     -73.0894591
9.075                0.898636285       -73.21185
9.076                0.898351699      -73.334598
9.077                0.898066154     -73.4577046
9.078                0.897779646      -73.581171
9.079                0.897492172     -73.7049986
9.08                 0.897203728     -73.8291887
9.081                0.896914312     -73.9537427
9.082                0.896623919     -74.0786619
9.083                0.896332547     -74.2039477
9.084                0.896040192     -74.3296015
9.085                 0.89574685     -74.4556247
9.086                0.895452519     -74.5820186
9.087                0.895157195     -74.7087845
9.088                0.894860874      -74.835924
9.089                0.894563553     -74.9634384
9.09                  0.89426523     -75.0913291
9.091                0.893965899     -75.2195975
9.092                0.893665559      -75.348245
9.093                0.893364206      -75.477273
9.094                0.893061836     -75.6066829
9.095                0.892758447     -75.7364762
9.096                0.892454034     -75.8666544
9.097                0.892148595     -75.9972187
9.098                0.891842126     -76.1281707
9.099                0.891534624     -76.2595119
9.1                  0.891226086     -76.3912436
9.101                0.890916509     -76.5233673
9.102                0.890605888     -76.6558845
9.103                0.890294222     -76.7887967
9.104                0.889981506     -76.9221053
9.105                0.889667738     -77.0558118
9.106                0.889352914     -77.1899177
9.107                0.889037031     -77.3244244
9.108                0.888720085     -77.4593335
9.109                0.888402075     -77.5946464
9.11                 0.888082996     -77.7303647
9.111                0.887762845     -77.8664899
9.112                 0.88744162     -78.0030234
9.113                0.887119316     -78.1399668
9.114                0.886795932     -78.2773217
9.115                0.886471463     -78.4150895
9.116                0.886145907     -78.5532717
9.117                 0.88581926       -78.69187
9.118                 0.88549152     -78.8308858
9.119                0.885162684     -78.9703207
9.12                 0.884832748     -79.1101763
9.121                0.884501709     -79.2504541
9.122                0.884169565     -79.3911557
9.123                0.883836312     -79.5322826
9.124                0.883501948     -79.6738364
9.125                0.883166469     -79.8158187
9.126                0.882829873     -79.9582311
9.127                0.882492157     -80.1010752
9.128                0.882153317     -80.2443525
9.129                0.881813351     -80.3880647
9.13                 0.881472256     -80.5322134
9.131                0.881130029     -80.6768001
9.132                0.880786668     -80.8218266
9.133                0.880442169     -80.9672943
9.134                 0.88009653      -81.113205
9.135                0.879749748     -81.2595602
9.136                0.879401821     -81.4063616
9.137                0.879052745     -81.5536108
9.138                0.878702518     -81.7013096
9.139                0.878351137     -81.8494594
9.14                   0.8779986     -81.9980621
9.141                0.877644904     -82.1471191
9.142                0.877290046     -82.2966323
9.143                0.876934024     -82.4466032
9.144                0.876576836     -82.5970336
9.145                0.876218478     -82.7479251
9.146                0.875858949     -82.8992794
9.147                0.875498246     -83.0510982
9.148                0.875136367     -83.2033832
9.149                0.874773308     -83.3561361
9.15                 0.874409069     -83.5093585
9.151                0.874043646     -83.6630522
9.152                0.873677037      -83.817219
9.153                 0.87330924     -83.9718604
9.154                0.872940253     -84.1269783
9.155                0.872570074     -84.2825744
9.156                  0.8721987     -84.4386503
9.157                0.871826129     -84.5952079
9.158                0.871452359     -84.7522489
9.159                0.871077389     -84.9097749
9.16                 0.870701216     -85.0677879
9.161                0.870323838     -85.2262894
9.162                0.869945253     -85.3852813
9.163                 0.86956546     -85.5447653
9.164                0.869184456     -85.7047433
9.165                0.868802239     -85.8652169
9.166                0.868418809     -86.0261879
9.167                0.868034163     -86.1876582
9.168                  0.8676483     -86.3496295
9.169                0.867261217     -86.5121035
9.17                 0.866872914     -86.6750822
9.171                0.866483388     -86.8385672
9.172                0.866092639     -87.0025604
9.173                0.865700664     -87.1670636
9.174                0.865307463     -87.3320785
9.175                0.864913034     -87.4976071
9.176                0.864517375     -87.6636511
9.177                0.864120486     -87.8302123
9.178                0.863722365     -87.9972926
9.179                0.863323011     -88.1648937
9.18                 0.862922423     -88.3330176
9.181                  0.8625206      -88.501666
9.182                0.862117541     -88.6708408
9.183                0.861713245     -88.8405439
9.184                0.861307711      -89.010777
9.185                0.860900938      -89.181542
9.186                0.860492926     -89.3528408
9.187                0.860083673     -89.5246753
9.188                 0.85967318     -89.6970472
9.189                0.859261445     -89.8699585
9.19                 0.858848467      -90.043411
9.191                0.858434248     -90.2174066
9.192                0.858018785     -90.3919471
9.193                0.857602079     -90.5670345
9.194                 0.85718413     -90.7426705
9.195                0.856764937     -90.9188572
9.196                  0.8563445     -91.0955963
9.197                0.855922819     -91.2728897
9.198                0.855499894     -91.4507394
9.199                0.855075725     -91.6291473
9.2                  0.854650312     -91.8081151
9.201                0.854223656     -91.9876449
9.202                0.853795756     -92.1677385
9.203                0.853366613     -92.3483978
9.204                0.852936228     -92.5296247
9.205                0.852504601     -92.7114211
9.206                0.852071732      -92.893789
9.207                0.851637623     -93.0767302
9.208                0.851202273     -93.2602467
9.209                0.850765685     -93.4443403
9.21                 0.850327858      -93.629013
9.211                0.849888793     -93.8142666
9.212                0.849448493     -94.0001032
9.213                0.849006957     -94.1865246
9.214                0.848564188     -94.3735327
9.215                0.848120185     -94.5611295
9.216                0.847674952     -94.7493168
9.217                0.847228489     -94.9380967
9.218                0.846780799      -95.127471
9.219                0.846331881     -95.3174416
9.22                  0.84588174     -95.5080105
9.221                0.845430375     -95.6991797
9.222                 0.84497779     -95.8909509
9.223                0.844523987     -96.0833262
9.224                0.844068966     -96.2763074
9.225                0.843612732     -96.4698966
9.226                0.843155286     -96.6640956
9.227                0.842696631     -96.8589063
9.228                0.842236769     -97.0543307
9.229                0.841775702     -97.2503708
9.23                 0.841313435     -97.4470283
9.231                0.840849969     -97.6443053
9.232                0.840385307     -97.8422037
9.233                0.839919454     -98.0407254
9.234                0.839452411     -98.2398723
9.235                0.838984183     -98.4396463
9.236                0.838514772     -98.6400494
9.237                0.838044182     -98.8410835
9.238                0.837572418     -99.0427504
9.239                0.837099482     -99.2450522
9.24                 0.836625378     -99.4479907
9.241                0.836150112     -99.6515678
9.242                0.835673686     -99.8557855
9.243                0.835196105     -100.060646
9.244                0.834717374      -100.26615
9.245                0.834237497     -100.472301
9.246                0.833756479     -100.679099
9.247                0.833274324     -100.886548
9.248                0.832791037     -101.094649
9.249                0.832306623     -101.303404
9.25                 0.831821089     -101.512814
9.251                0.831334438     -101.722882
9.252                0.830846676     -101.933609
9.253                0.830357809     -102.144998
9.254                0.829867843     -102.357049
9.255                0.829376783     -102.569766
9.256                0.828884636      -102.78315
9.257                0.828391407     -102.997202
9.258                0.827897103     -103.211926
9.259                 0.82740173     -103.427321
9.26                 0.826905295     -103.643391
9.261                0.826407805     -103.860137
9.262                0.825909266     -104.077561
9.263                0.825409685     -104.295665
9.264                 0.82490907      -104.51445
9.265                0.824407428     -104.733919
9.266                0.823904766     -104.954073
9.267                0.823401092     -105.174913
9.268                0.822896414     -105.396443
9.269                 0.82239074     -105.618663
9.27                 0.821884077     -105.841576
9.271                0.821376434     -106.065182
9.272                 0.82086782     -106.289485
9.273                0.820358243     -106.514485
9.274                0.819847712     -106.740184
9.275                0.819336235     -106.966585
9.276                0.818823822     -107.193688
9.277                0.818310483     -107.421496
9.278                0.817796225     -107.650009
9.279                 0.81728106     -107.879231
9.28                 0.816764997     -108.109162
9.281                0.816248046     -108.339805
9.282                0.815730216      -108.57116
9.283                0.815211519      -108.80323
9.284                0.814691964     -109.036017
9.285                0.814171563     -109.269521
9.286                0.813650326     -109.503744
9.287                0.813128264     -109.738688
9.288                0.812605389     -109.974355
9.289                0.812081711     -110.210747
9.29                 0.811557243     -110.447864
9.291                0.811031996     -110.685708
9.292                0.810505982     -110.924281
9.293                0.809979213     -111.163584
9.294                0.809451702      -111.40362
9.295                0.808923462     -111.644389
9.296                0.808394503     -111.885892
9.297                0.807864841     -112.128132
9.298                0.807334488      -112.37111
9.299                0.806803456     -112.614827
9.3                  0.806271761     -112.859284
9.301                0.805739414     -113.104484
9.302                0.805206431     -113.350427
9.303                0.804672826     -113.597115
9.304                0.804138612     -113.844549
9.305                0.803603804      -114.09273
9.306                0.803068417      -114.34166
9.307                0.802532466      -114.59134
9.308                0.801995966     -114.841772
9.309                0.801458933     -115.092956
9.31                 0.800921381     -115.344894
9.311                0.800383326     -115.597588
9.312                0.799844786     -115.851037
9.313                0.799305775     -116.105244
9.314                 0.79876631     -116.360209
9.315                0.798226407     -116.615935
9.316                0.797686084     -116.872421
9.317                0.797145358     -117.129669
9.318                0.796604246      -117.38768
9.319                0.796062764     -117.646455
9.32                 0.795520932     -117.905995
9.321                0.794978766     -118.166302
9.322                0.794436285     -118.427375
9.323                0.793893508     -118.689217
9.324                0.793350452     -118.951827
9.325                0.792807136     -119.215207
9.326                 0.79226358     -119.479358
9.327                0.791719802     -119.744281
9.328                0.791175823     -120.009976
9.329                0.790631661     -120.276444
9.33                 0.790087336     -120.543686
9.331                 0.78954287     -120.811702
9.332                0.788998281     -121.080495
9.333                 0.78845359     -121.350063
9.334                0.787908818     -121.620408
9.335                0.787363987      -121.89153
9.336                0.786819117      -122.16343
9.337                0.786274229     -122.436109
9.338                0.785729345     -122.709567
9.339                0.785184488     -122.983804
9.34                 0.784639679     -123.258822
9.341                 0.78409494      -123.53462
9.342                0.783550293     -123.811198
9.343                0.783005763     -124.088558
9.344                0.782461371       -124.3667
9.345                0.781917141     -124.645623
9.346                0.781373095     -124.925329
9.347                0.780829259     -125.205817
9.348                0.780285655     -125.487087
9.349                0.779742307     -125.769141
9.35                  0.77919924     -126.051977
9.351                0.778656478     -126.335596
9.352                0.778114046     -126.619998
9.353                0.777571969     -126.905183
9.354                0.777030271     -127.191151
9.355                0.776488979     -127.477902
9.356                0.775948118     -127.765436
9.357                0.775407712     -128.053752
9.358                0.774867789     -128.342851
9.359                0.774328375     -128.632732
9.36                 0.773789495     -128.923396
9.361                0.773251177     -129.214841
9.362                0.772713447     -129.507067
9.363                0.772176332     -129.800074
9.364                0.771639859     -130.093862
9.365                0.771104056      -130.38843
9.366                 0.77056895     -130.683777
9.367                0.770034569     -130.979903
9.368                0.769500942     -131.276808
9.369                0.768968095      -131.57449
9.37                 0.768436057     -131.872949
9.371                0.767904858     -132.172185
9.372                0.767374525     -132.472196
9.373                0.766845087     -132.772981
9.374                0.766316574     -133.074541
9.375                0.765789015     -133.376873
9.376                 0.76526244     -133.679976
9.377                0.764736877     -133.983851
9.378                0.764212357     -134.288495
9.379                0.763688909     -134.593907
9.38                 0.763166565     -134.900087
9.381                0.762645353     -135.207033
9.382                0.762125305     -135.514744
9.383                 0.76160645     -135.823218
9.384                0.761088821     -136.132454
9.385                0.760572448     -136.442451
9.386                0.760057361     -136.753207
9.387                0.759543592      -137.06472
9.388                0.759031173      -137.37699
9.389                0.758520134     -137.690013
9.39                 0.758010508     -138.003789
9.391                0.757502326     -138.318316
9.392                 0.75699562     -138.633592
9.393                0.756490423     -138.949615
9.394                0.755986766     -139.266383
9.395                0.755484681     -139.583894
9.396                0.754984201     -139.902146
