! TOUCHSTONE file generated by CST DESIGN STUDIO
! Date and time: Tue Feb  4 18:15:30 2025
! Project name: C:\Work\MatlabApps\UnitCellOptimizationMatlab\CST\unitcell.cst
! Tree item: Tasks\Sweep1\SPara1\S-Parameters
! Header version: 2024
! Port assignment regex: !\s*Touchstone port\s*([0-9]+)\s*=\s*(CST MWS port|CST DES external port|CST DES block port)\s*(.+)\s* \(\"(.*)\"\)(\s*mode\s*([0-9]+))?.*
! Touchstone port assignment:
! Touchstone port 1 = CST DES external port 1 ("")
# GHz S MA R 50
9                    0.841025277     -96.3862163
9.001                0.840461892     -96.5858529
9.002                 0.83989696     -96.7861385
9.003                0.839330485     -96.9870756
9.004                 0.83876247     -97.1886663
9.005                0.838192919     -97.3909129
9.006                0.837621835     -97.5938177
9.007                0.837049223      -97.797383
9.008                0.836475086      -98.001611
9.009                0.835899428      -98.206504
9.01                 0.835322255     -98.4120642
9.011                0.834743569     -98.6182939
9.012                0.834163377     -98.8251954
9.013                0.833581682     -99.0327709
9.014                0.832998489     -99.2410228
9.015                0.832413804     -99.4499532
9.016                0.831827632     -99.6595645
9.017                0.831239978     -99.8698589
9.018                0.830650847     -100.080839
9.019                0.830060246     -100.292506
9.02                  0.82946818     -100.504863
9.021                0.828874654     -100.717913
9.022                0.828279676     -100.931657
9.023                0.827683252     -101.146098
9.024                0.827085387     -101.361237
9.025                0.826486089     -101.577078
9.026                0.825885364     -101.793622
9.027                 0.82528322     -102.010873
9.028                0.824679663     -102.228831
9.029                0.824074702     -102.447499
9.03                 0.823468343      -102.66688
9.031                0.822860594     -102.886975
9.032                0.822251463     -103.107788
9.033                0.821640958      -103.32932
9.034                0.821029088     -103.551573
9.035                 0.82041586      -103.77455
9.036                0.819801284     -103.998252
9.037                0.819185369     -104.222683
9.038                0.818568123     -104.447845
9.039                0.817949555     -104.673738
9.04                 0.817329675     -104.900367
9.041                0.816708494     -105.127732
9.042                0.816086019     -105.355837
9.043                0.815462262     -105.584683
9.044                0.814837233     -105.814273
9.045                0.814210942     -106.044608
9.046                0.813583399     -106.275692
9.047                0.812954617     -106.507525
9.048                0.812324605     -106.740111
9.049                0.811693375      -106.97345
9.05                 0.811060939     -107.207547
9.051                0.810427308     -107.442402
9.052                0.809792494     -107.678018
9.053                 0.80915651     -107.914397
9.054                0.808519367     -108.151541
9.055                0.807881079     -108.389452
9.056                0.807241658     -108.628132
9.057                0.806601117     -108.867584
9.058                 0.80595947     -109.107809
9.059                0.805316731     -109.348809
9.06                 0.804672912     -109.590587
9.061                0.804028028     -109.833145
9.062                0.803382093     -110.076484
9.063                0.802735123     -110.320606
9.064                 0.80208713     -110.565514
9.065                0.801438131      -110.81121
9.066                0.800788141     -111.057696
9.067                0.800137175     -111.304972
9.068                0.799485249     -111.553043
9.069                0.798832379     -111.801909
9.07                 0.798178581     -112.051572
9.071                0.797523872     -112.302035
9.072                0.796868268     -112.553298
9.073                0.796211786     -112.805365
9.074                0.795554445     -113.058237
9.075                 0.79489626     -113.311915
9.076                 0.79423725     -113.566402
9.077                0.793577433       -113.8217
9.078                0.792916828      -114.07781
9.079                0.792255452     -114.334733
9.08                 0.791593326     -114.592473
9.081                0.790930467      -114.85103
9.082                0.790266895     -115.110406
9.083                0.789602631     -115.370604
9.084                0.788937693     -115.631624
9.085                0.788272103     -115.893468
9.086                 0.78760588     -116.156138
9.087                0.786939046     -116.419636
9.088                0.786271621     -116.683963
9.089                0.785603626     -116.949121
9.09                 0.784935085     -117.215111
9.091                0.784266017     -117.481935
9.092                0.783596446     -117.749594
9.093                0.782926395     -118.018091
9.094                0.782255884     -118.287425
9.095                0.781584939       -118.5576
9.096                0.780913582     -118.828615
9.097                0.780241836     -119.100473
9.098                0.779569726     -119.373175
9.099                0.778897276     -119.646723
9.1                   0.77822451     -119.921117
9.101                0.777551453     -120.196358
9.102                0.776878131     -120.472449
9.103                0.776204568      -120.74939
9.104                 0.77553079     -121.027183
9.105                0.774856823     -121.305828
9.106                0.774182693     -121.585327
9.107                0.773508428     -121.865681
9.108                0.772834053     -122.146891
9.109                0.772159596     -122.428958
9.11                 0.771485084     -122.711882
9.111                0.770810545     -122.995666
9.112                0.770136008      -123.28031
9.113                0.769461499     -123.565814
9.114                0.768787049      -123.85218
9.115                0.768112685     -124.139409
9.116                0.767438438       -124.4275
9.117                0.766764335     -124.716456
9.118                0.766090408     -125.006276
9.119                0.765416687     -125.296962
9.12                 0.764743201     -125.588514
9.121                0.764069981     -125.880932
9.122                0.763397059     -126.174217
9.123                0.762724465      -126.46837
9.124                0.762052231     -126.763391
9.125                 0.76138039     -127.059281
9.126                0.760708972      -127.35604
9.127                 0.76003801     -127.653668
9.128                0.759367538     -127.952165
9.129                0.758697587     -128.251533
9.13                 0.758028192      -128.55177
9.131                0.757359386     -128.852878
9.132                0.756691202     -129.154856
9.133                0.756023675     -129.457704
9.134                0.755356839     -129.761422
9.135                0.754690728     -130.066011
9.136                0.754025378     -130.371471
9.137                0.753360824       -130.6778
9.138                0.752697101        -130.985
9.139                0.752034246     -131.293069
9.14                 0.751372293     -131.602007
9.141                0.750711279     -131.911815
9.142                0.750051241     -132.222492
9.143                0.749392215     -132.534036
9.144                0.748734239     -132.846449
9.145                 0.74807735     -133.159728
9.146                0.747421585     -133.473875
9.147                0.746766982     -133.788887
9.148                0.746113579     -134.104764
9.149                0.745461415     -134.421506
9.15                 0.744810527     -134.739112
9.151                0.744160955      -135.05758
9.152                0.743512737      -135.37691
9.153                0.742865914     -135.697101
9.154                0.742220523     -136.018151
9.155                0.741576605     -136.340059
9.156                  0.7409342     -136.662825
9.157                0.740293347     -136.986447
9.158                0.739654088     -137.310924
9.159                0.739016462     -137.636253
9.16                 0.738380509     -137.962435
9.161                0.737746272     -138.289467
9.162                0.737113791     -138.617347
9.163                0.736483107     -138.946074
9.164                0.735854262     -139.275647
9.165                0.735227297     -139.606063
9.166                0.734602255      -139.93732
9.167                0.733979176     -140.269418
9.168                0.733358103     -140.602352
9.169                0.732739079     -140.936122
9.17                 0.732122145     -141.270726
9.171                0.731507345     -141.606161
9.172                0.730894721     -141.942424
9.173                0.730284315     -142.279514
9.174                0.729676172     -142.617428
9.175                0.729070333     -142.956163
9.176                0.728466842     -143.295717
9.177                0.727865743     -143.636087
9.178                0.727267078     -143.977271
9.179                0.726670891     -144.319266
9.18                 0.726077226     -144.662068
9.181                0.725486127     -145.005674
9.182                0.724897637     -145.350083
9.183                  0.7243118      -145.69529
9.184                0.723728659     -146.041292
9.185                 0.72314826     -146.388086
9.186                0.722570645     -146.735669
9.187                0.721995859     -147.084036
9.188                0.721423946     -147.433186
9.189                 0.72085495     -147.783113
9.19                 0.720288915     -148.133815
9.191                0.719725885     -148.485287
9.192                0.719165904     -148.837526
9.193                0.718609017     -149.190528
9.194                0.718055267     -149.544288
9.195                0.717504698     -149.898803
9.196                0.716957355     -150.254068
9.197                0.716413282     -150.610079
9.198                0.715872522     -150.966832
9.199                 0.71533512     -151.324322
9.2                  0.714801119     -151.682545
9.201                0.714270563     -152.041496
9.202                0.713743496      -152.40117
9.203                0.713219961     -152.761563
9.204                0.712700002     -153.122669
9.205                0.712183662     -153.484484
9.206                0.711670985     -153.847003
9.207                0.711162014     -154.210221
9.208                0.710656791     -154.574132
9.209                0.710155361     -154.938731
9.21                 0.709657764     -155.304012
9.211                0.709164045     -155.669971
9.212                0.708674245     -156.036601
9.213                0.708188407     -156.403898
9.214                0.707706573     -156.771854
9.215                0.707228784     -157.140466
9.216                0.706755083     -157.509725
9.217                 0.70628551     -157.879627
9.218                0.705820108     -158.250166
9.219                0.705358916     -158.621335
9.22                 0.704901976     -158.993128
9.221                0.704449328     -159.365539
9.222                0.704001013     -159.738561
9.223                 0.70355707     -160.112188
9.224                0.703117539     -160.486414
9.225                 0.70268246     -160.861231
9.226                0.702251871     -161.236633
9.227                0.701825811     -161.612613
9.228                0.701404319     -161.989164
9.229                0.700987434     -162.366279
9.23                 0.700575191     -162.743952
9.231                 0.70016763     -163.122174
9.232                0.699764788      -163.50094
9.233                  0.6993667     -163.880241
9.234                0.698973404      -164.26007
9.235                0.698584935     -164.640419
9.236                0.698201329     -165.021282
9.237                0.697822621      -165.40265
9.238                0.697448846     -165.784516
9.239                0.697080038     -166.166872
9.24                 0.696716232      -166.54971
9.241                 0.69635746     -166.933022
9.242                0.696003756     -167.316801
9.243                0.695655152     -167.701038
9.244                 0.69531168     -168.085725
9.245                0.694973373     -168.470854
9.246                 0.69464026     -168.856417
9.247                0.694312374     -169.242405
9.248                0.693989744      -169.62881
9.249                0.693672399     -170.015623
9.25                  0.69336037     -170.402837
9.251                0.693053684     -170.790441
9.252                 0.69275237     -171.178429
9.253                0.692456455      -171.56679
9.254                0.692165966     -171.955517
9.255                 0.69188093     -172.344599
9.256                0.691601373      -172.73403
9.257                 0.69132732     -173.123799
9.258                0.691058796     -173.513897
9.259                0.690795825     -173.904316
9.26                  0.69053843     -174.295046
9.261                0.690286635     -174.686078
9.262                0.690040462     -175.077403
9.263                0.689799934     -175.469012
9.264                 0.68956507     -175.860895
9.265                0.689335892     -176.253043
9.266                 0.68911242     -176.645446
9.267                0.688894672     -177.038096
9.268                0.688682669     -177.430982
9.269                0.688476427     -177.824095
9.27                 0.688275964     -178.217426
9.271                0.688081297     -178.610965
9.272                0.687892442     -179.004701
9.273                0.687709415     -179.398627
9.274                 0.68753223     -179.792731
9.275                0.687360901      179.812996
9.276                0.687195441      179.418563
9.277                0.687035864      179.023981
9.278                0.686882182       178.62926
9.279                0.686734406      178.234409
9.28                 0.686592546      177.839437
9.281                0.686456613      177.444356
9.282                0.686326616      177.049175
9.283                0.686202564      176.653903
9.284                0.686084464      176.258552
9.285                0.685972324       175.86313
9.286                 0.68586615      175.467648
9.287                0.685765948      175.072116
9.288                0.685671724      174.676544
9.289                0.685583481      174.280942
9.29                 0.685501223      173.885319
9.291                0.685424954      173.489687
9.292                0.685354676      173.094054
9.293                0.685290389      172.698431
9.294                0.685232096      172.302829
9.295                0.685179796      171.907256
9.296                0.685133489      171.511724
9.297                0.685093173      171.116242
9.298                0.685058847       170.72082
9.299                0.685030507      170.325468
9.3                  0.685008151      169.930196
9.301                0.684991775      169.535014
9.302                0.684981373      169.139933
9.303                 0.68497694      168.744961
9.304                 0.68497847       168.35011
9.305                0.684985956      167.955389
9.306                0.684999391      167.560807
9.307                0.685018766      167.166375
9.308                0.685044072      166.772103
9.309                  0.6850753         166.378
9.31                  0.68511244      165.984077
9.311                0.685155479      165.590342
9.312                0.685204408      165.196807
9.313                0.685259213      164.803479
9.314                0.685319881       164.41037
9.315                  0.6853864      164.017489
9.316                0.685458753      163.624845
9.317                0.685536927      163.232448
9.318                0.685620906      162.840307
9.319                0.685710673      162.448433
9.32                 0.685806212      162.056834
9.321                0.685907506       161.66552
9.322                0.686014535        161.2745
9.323                0.686127281      160.883783
9.324                0.686245725      160.493379
9.325                0.686369847      160.103298
9.326                0.686499626      159.713547
9.327                0.686635041      159.324137
9.328                 0.68677607      158.935076
9.329                0.686922691      158.546373
9.33                 0.687074881      158.158037
9.331                0.687232616      157.770078
9.332                0.687395872      157.382503
9.333                0.687564624      156.995322
9.334                0.687738848      156.608544
9.335                0.687918517      156.222176
9.336                0.688103606      155.836229
9.337                0.688294087      155.450709
9.338                0.688489934      155.065626
9.339                0.688691117      154.680988
9.34                  0.68889761      154.296803
9.341                0.689109383       153.91308
9.342                0.689326407      153.529826
9.343                0.689548651       153.14705
9.344                0.689776087       152.76476
9.345                0.690008683      152.382964
9.346                0.690246408      152.001669
9.347                 0.69048923      151.620884
9.348                0.690737117      151.240616
9.349                0.690990037      150.860872
9.35                 0.691247957      150.481662
9.351                0.691510844      150.102991
9.352                0.691778663      149.724867
9.353                0.692051381      149.347298
9.354                0.692328964      148.970292
9.355                0.692611376      148.593854
9.356                0.692898583      148.217992
9.357                0.693190548      147.842714
9.358                0.693487237      147.468026
9.359                0.693788612      147.093936
9.36                 0.694094636      146.720449
9.361                0.694405275      146.347572
9.362                0.694720489      145.975313
9.363                0.695040241      145.603677
9.364                0.695364495      145.232672
9.365                0.695693211      144.862303
9.366                0.696026351      144.492577
9.367                0.696363878      144.123499
9.368                0.696705751      143.755077
9.369                0.697051932      143.387316
9.37                 0.697402382      143.020222
9.371                0.697757061        142.6538
9.372                0.698115929      142.288058
9.373                0.698478946      141.922999
9.374                0.698846073       141.55863
9.375                0.699217268      141.194957
9.376                0.699592492      140.831985
9.377                0.699971703      140.469718
9.378                0.700354861      140.108163
9.379                0.700741925      139.747324
9.38                 0.701132853      139.387207
9.381                0.701527605      139.027816
9.382                0.701926139      138.669157
9.383                0.702328413      138.311234
9.384                0.702734385      137.954051
9.385                0.703144015      137.597615
9.386                0.703557261      137.241928
9.387                0.703974079      136.886996
9.388                0.704394429      136.532822
9.389                0.704818268      136.179412
9.39                 0.705245554      135.826769
9.391                0.705676245      135.474898
9.392                0.706110299      135.123802
9.393                0.706547674      134.773486
9.394                0.706988327      134.423953
9.395                0.707432216      134.075207
9.396                0.707879299      133.727252
