! TOUCHSTONE file generated by CST DESIGN STUDIO
! Date and time: Tue Feb  4 17:54:16 2025
! Project name: C:\Work\MatlabApps\UnitCellOptimizationMatlab\CST\unitcell.cst
! Tree item: Tasks\Sweep1\SPara1\S-Parameters
! Header version: 2024
! Port assignment regex: !\s*Touchstone port\s*([0-9]+)\s*=\s*(CST MWS port|CST DES external port|CST DES block port)\s*(.+)\s* \(\"(.*)\"\)(\s*mode\s*([0-9]+))?.*
! Touchstone port assignment:
! Touchstone port 1 = CST DES external port 1 ("")
# GHz S MA R 50
9                    0.971767964     -60.4577093
9.001                0.971714221      -60.541877
9.002                0.971660292     -60.6262424
9.003                0.971606176     -60.7108062
9.004                0.971551873      -60.795569
9.005                0.971497382     -60.8805315
9.006                0.971442703     -60.9656944
9.007                0.971387834     -61.0510581
9.008                0.971332776     -61.1366235
9.009                0.971277527     -61.2223911
9.01                 0.971222087     -61.3083615
9.011                0.971166455     -61.3945355
9.012                0.971110631     -61.4809136
9.013                0.971054615     -61.5674966
9.014                0.970998404      -61.654285
9.015                   0.970942     -61.7412796
9.016                  0.9708854      -61.828481
9.017                0.970828605     -61.9158899
9.018                0.970771614     -62.0035068
9.019                0.970714426     -62.0913326
9.02                  0.97065704     -62.1793678
9.021                0.970599457     -62.2676132
9.022                0.970541675     -62.3560693
9.023                0.970483693     -62.4447369
9.024                0.970425511     -62.5336167
9.025                0.970367129     -62.6227094
9.026                0.970308545     -62.7120155
9.027                0.970249759     -62.8015359
9.028                 0.97019077     -62.8912711
9.029                0.970131578     -62.9812219
9.03                 0.970072182      -63.071389
9.031                0.970012582     -63.1617731
9.032                0.969952776     -63.2523748
9.033                0.969892764      -63.343195
9.034                0.969832545     -63.4342341
9.035                0.969772119     -63.5254931
9.036                0.969711485     -63.6169725
9.037                0.969650642     -63.7086732
9.038                 0.96958959     -63.8005957
9.039                0.969528327     -63.8927408
9.04                 0.969466854     -63.9851093
9.041                 0.96940517     -64.0777018
9.042                0.969343273     -64.1705191
9.043                0.969281164      -64.263562
9.044                0.969218841      -64.356831
9.045                0.969156305      -64.450327
9.046                0.969093553     -64.5440506
9.047                0.969030586     -64.6380027
9.048                0.968967402      -64.732184
9.049                0.968904002     -64.8265951
9.05                 0.968840384     -64.9212369
9.051                0.968776548       -65.01611
9.052                0.968712493     -65.1112153
9.053                0.968648218     -65.2065535
9.054                0.968583723     -65.3021252
9.055                0.968519007     -65.3979314
9.056                0.968454069     -65.4939727
9.057                0.968388909     -65.5902499
9.058                0.968323525     -65.6867638
9.059                0.968257918     -65.7835151
9.06                 0.968192086     -65.8805045
9.061                0.968126028      -65.977733
9.062                0.968059745     -66.0752011
9.063                0.967993236     -66.1729098
9.064                0.967926498     -66.2708598
9.065                0.967859533     -66.3690518
9.066                0.967792339     -66.4674866
9.067                0.967724915     -66.5661651
9.068                0.967657262     -66.6650881
9.069                0.967589377     -66.7642562
9.07                 0.967521261     -66.8636703
9.071                0.967452912     -66.9633312
9.072                 0.96738433     -67.0632397
9.073                0.967315515     -67.1633967
9.074                0.967246465     -67.2638028
9.075                 0.96717718     -67.3644589
9.076                0.967107659     -67.4653658
9.077                0.967037901     -67.5665244
9.078                0.966967906     -67.6679353
9.079                0.966897673     -67.7695996
9.08                 0.966827201     -67.8715179
9.081                0.966756489     -67.9736911
9.082                0.966685537     -68.0761201
9.083                0.966614345     -68.1788055
9.084                 0.96654291     -68.2817484
9.085                0.966471234     -68.3849494
9.086                0.966399314     -68.4884096
9.087                 0.96632715     -68.5921295
9.088                0.966254742     -68.6961103
9.089                0.966182088     -68.8003525
9.09                 0.966109188     -68.9048572
9.091                0.966036042     -69.0096252
9.092                0.965962648     -69.1146572
9.093                0.965889006     -69.2199542
9.094                0.965815115     -69.3255171
9.095                0.965740975     -69.4313466
9.096                0.965666584     -69.5374437
9.097                0.965591942     -69.6438091
9.098                0.965517048     -69.7504439
9.099                0.965441901     -69.8573488
9.1                  0.965366501     -69.9645247
9.101                0.965290848     -70.0719725
9.102                0.965214939     -70.1796931
9.103                0.965138775     -70.2876873
9.104                0.965062355      -70.395956
9.105                0.964985678     -70.5045002
9.106                0.964908743     -70.6133207
9.107                 0.96483155     -70.7224184
9.108                0.964754098     -70.8317942
9.109                0.964676386     -70.9414489
9.11                 0.964598414     -71.0513836
9.111                 0.96452018     -71.1615991
9.112                0.964441684     -71.2720963
9.113                0.964362926      -71.382876
9.114                0.964283904     -71.4939393
9.115                0.964204618     -71.6052871
9.116                0.964125067     -71.7169202
9.117                 0.96404525     -71.8288395
9.118                0.963965167     -71.9410461
9.119                0.963884817     -72.0535407
9.12                   0.9638042     -72.1663244
9.121                0.963723313     -72.2793981
9.122                0.963642158     -72.3927627
9.123                0.963560733     -72.5064191
9.124                0.963479037     -72.6203683
9.125                0.963397069     -72.7346112
9.126                 0.96331483     -72.8491488
9.127                0.963232318      -72.963982
9.128                0.963149532     -73.0791118
9.129                0.963066472      -73.194539
9.13                 0.962983138     -73.3102647
9.131                0.962899527     -73.4262899
9.132                 0.96281564     -73.5426154
9.133                0.962731477     -73.6592423
9.134                0.962647035     -73.7761714
9.135                0.962562315     -73.8934039
9.136                0.962477316     -74.0109406
9.137                0.962392038     -74.1287825
9.138                0.962306478     -74.2469306
9.139                0.962220638     -74.3653859
9.14                 0.962134515     -74.4841493
9.141                 0.96204811     -74.6032219
9.142                0.961961421     -74.7226046
9.143                0.961874449     -74.8422984
9.144                0.961787192     -74.9623043
9.145                 0.96169965     -75.0826233
9.146                0.961611821     -75.2032564
9.147                0.961523706     -75.3242047
9.148                0.961435303      -75.445469
9.149                0.961346613     -75.5670504
9.15                 0.961257633     -75.6889499
9.151                0.961168365     -75.8111686
9.152                0.961078806     -75.9337074
9.153                0.960988956     -76.0565673
9.154                0.960898815     -76.1797494
9.155                0.960808382     -76.3032547
9.156                0.960717657     -76.4270842
9.157                0.960626638     -76.5512389
9.158                0.960535324       -76.67572
9.159                0.960443717     -76.8005283
9.16                 0.960351814     -76.9256649
9.161                0.960259615     -77.0511309
9.162                0.960167119     -77.1769273
9.163                0.960074327     -77.3030552
9.164                0.959981236     -77.4295155
9.165                0.959887847     -77.5563094
9.166                0.959794159     -77.6834379
9.167                0.959700171      -77.810902
9.168                0.959605883     -77.9387028
9.169                0.959511295     -78.0668413
9.17                 0.959416404     -78.1953187
9.171                0.959321212     -78.3241359
9.172                0.959225716      -78.453294
9.173                0.959129918     -78.5827941
9.174                0.959033815     -78.7126373
9.175                0.958937409     -78.8428246
9.176                0.958840697     -78.9733571
9.177                0.958743679     -79.1042359
9.178                0.958646355     -79.2354621
9.179                0.958548725     -79.3670367
9.18                 0.958450787     -79.4989608
9.181                0.958352541     -79.6312355
9.182                0.958253987     -79.7638619
9.183                0.958155124     -79.8968411
9.184                0.958055952     -80.0301741
9.185                0.957956469     -80.1638621
9.186                0.957856676     -80.2979062
9.187                0.957756572     -80.4323074
9.188                0.957656156     -80.5670668
9.189                0.957555428     -80.7021857
9.19                 0.957454388     -80.8376649
9.191                0.957353034     -80.9735058
9.192                0.957251367     -81.1097093
9.193                0.957149386     -81.2462766
9.194                 0.95704709     -81.3832088
9.195                0.956944479     -81.5205071
9.196                0.956841553     -81.6581724
9.197                0.956738311      -81.796206
9.198                0.956634753      -81.934609
9.199                0.956530877     -82.0733824
9.2                  0.956426685     -82.2125275
9.201                0.956322175     -82.3520453
9.202                0.956217346      -82.491937
9.203                0.956112199     -82.6322037
9.204                0.956006734     -82.7728465
9.205                0.955900949     -82.9138665
9.206                0.955794844      -83.055265
9.207                0.955688419      -83.197043
9.208                0.955581674     -83.3392017
9.209                0.955474608     -83.4817422
9.21                 0.955367221     -83.6246657
9.211                0.955259512     -83.7679733
9.212                0.955151481     -83.9116661
9.213                0.955043129     -84.0557453
9.214                0.954934453     -84.2002121
9.215                0.954825455     -84.3450675
9.216                0.954716134     -84.4903128
9.217                 0.95460649     -84.6359491
9.218                0.954496522     -84.7819776
9.219                 0.95438623     -84.9283994
9.22                 0.954275614     -85.0752156
9.221                0.954164673     -85.2224275
9.222                0.954053407     -85.3700361
9.223                0.953941817     -85.5180427
9.224                0.953829902     -85.6664484
9.225                0.953717661     -85.8152544
9.226                0.953605095     -85.9644619
9.227                0.953492203     -86.1140719
9.228                0.953378985     -86.2640857
9.229                0.953265441     -86.4145044
9.23                 0.953151571     -86.5653293
9.231                0.953037375     -86.7165615
9.232                0.952922852     -86.8682021
9.233                0.952808002     -87.0202523
9.234                0.952692826     -87.1727133
9.235                0.952577324     -87.3255863
9.236                0.952461494     -87.4788724
9.237                0.952345337     -87.6325729
9.238                0.952228854     -87.7866889
9.239                0.952112043     -87.9412215
9.24                 0.951994906      -88.096172
9.241                0.951877441     -88.2515415
9.242                 0.95175965     -88.4073312
9.243                0.951641531     -88.5635423
9.244                0.951523086      -88.720176
9.245                0.951404313     -88.8772334
9.246                0.951285214     -89.0347158
9.247                0.951165788     -89.1926243
9.248                0.951046035       -89.35096
9.249                0.950925956     -89.5097242
9.25                  0.95080555     -89.6689181
9.251                0.950684818     -89.8285428
9.252                 0.95056376     -89.9885995
9.253                0.950442376     -90.1490894
9.254                0.950320665     -90.3100136
9.255                 0.95019863     -90.4713735
9.256                0.950076269       -90.63317
9.257                0.949953583     -90.7954045
9.258                0.949830571      -90.958078
9.259                0.949707236     -91.1211919
9.26                 0.949583576     -91.2847472
9.261                0.949459591     -91.4487451
9.262                0.949335283     -91.6131868
9.263                0.949210652     -91.7780735
9.264                0.949085698     -91.9434064
9.265                0.948960421     -92.1091866
9.266                0.948834822     -92.2754153
9.267                0.948708901     -92.4420937
9.268                0.948582658      -92.609223
9.269                0.948456095     -92.7768043
9.27                 0.948329211     -92.9448388
9.271                0.948202007     -93.1133277
9.272                0.948074483     -93.2822721
9.273                0.947946641     -93.4516733
9.274                 0.94781848     -93.6215323
9.275                0.947690002     -93.7918504
9.276                0.947561206     -93.9626287
9.277                0.947432094     -94.1338683
9.278                0.947302665     -94.3055705
9.279                0.947172922     -94.4777364
9.28                 0.947042863     -94.6503671
9.281                0.946912491     -94.8234638
9.282                0.946781805     -94.9970277
9.283                0.946650808     -95.1710599
9.284                0.946519498     -95.3455616
9.285                0.946387877     -95.5205338
9.286                0.946255947     -95.6959778
9.287                0.946123707     -95.8718947
9.288                0.945991159     -96.0482856
9.289                0.945858303     -96.2251517
9.29                 0.945725141     -96.4024941
9.291                0.945591673     -96.5803139
9.292                  0.9454579     -96.7586123
9.293                0.945323824     -96.9373904
9.294                0.945189445     -97.1166493
9.295                0.945054764     -97.2963901
9.296                0.944919783      -97.476614
9.297                0.944784502      -97.657322
9.298                0.944648923     -97.8385154
9.299                0.944513047     -98.0201951
9.3                  0.944376875     -98.2023623
9.301                0.944240408     -98.3850181
9.302                0.944103647     -98.5681636
9.303                0.943966594     -98.7517999
9.304                0.943829249     -98.9359281
9.305                0.943691615     -99.1205492
9.306                0.943553693     -99.3056643
9.307                0.943415483     -99.4912746
9.308                0.943276988     -99.6773811
9.309                0.943138208     -99.8639848
9.31                 0.942999146     -100.051087
9.311                0.942859802     -100.238688
9.312                0.942720179      -100.42679
9.313                0.942580277     -100.615394
9.314                0.942440099     -100.804499
9.315                0.942299645     -100.994109
9.316                0.942158918     -101.184223
9.317                0.942017919     -101.374843
9.318                 0.94187665     -101.565969
9.319                0.941735113     -101.757603
9.32                 0.941593309     -101.949746
9.321                 0.94145124     -102.142398
9.322                0.941308908     -102.335562
9.323                0.941166316     -102.529236
9.324                0.941023464     -102.723424
9.325                0.940880354     -102.918125
9.326                 0.94073699     -103.113341
9.327                0.940593372     -103.309073
9.328                0.940449502     -103.505321
9.329                0.940305384     -103.702087
9.33                 0.940161018     -103.899371
9.331                0.940016407     -104.097174
9.332                0.939871554     -104.295498
9.333                 0.93972646     -104.494344
9.334                0.939581127     -104.693711
9.335                0.939435558     -104.893602
9.336                0.939289756     -105.094017
9.337                0.939143722     -105.294957
9.338                0.938997459     -105.496422
9.339                0.938850969     -105.698415
9.34                 0.938704255     -105.900934
9.341                 0.93855732     -106.103983
9.342                0.938410165     -106.307561
9.343                0.938262794     -106.511669
9.344                0.938115208     -106.716308
9.345                0.937967412     -106.921479
9.346                0.937819407     -107.127182
9.347                0.937671195     -107.333419
9.348                0.937522781     -107.540191
9.349                0.937374167     -107.747497
9.35                 0.937225355      -107.95534
9.351                0.937076348     -108.163719
9.352                 0.93692715     -108.372635
9.353                0.936777763      -108.58209
9.354                0.936628191     -108.792084
9.355                0.936478436     -109.002617
9.356                0.936328501     -109.213691
9.357                 0.93617839     -109.425306
9.358                0.936028105     -109.637463
9.359                0.935877651     -109.850162
9.36                  0.93572703     -110.063405
9.361                0.935576246     -110.277191
9.362                0.935425301     -110.491523
9.363                  0.9352742     -110.706399
9.364                0.935122945     -110.921821
9.365                0.934971541      -111.13779
9.366                 0.93481999     -111.354305
9.367                0.934668297     -111.571369
9.368                0.934516465     -111.788981
9.369                0.934364497     -112.007141
9.37                 0.934212397     -112.225851
9.371                0.934060169     -112.445111
9.372                0.933907817     -112.664922
9.373                0.933755344     -112.885283
9.374                0.933602755     -113.106196
9.375                0.933450054     -113.327662
9.376                0.933297243     -113.549679
9.377                0.933144328      -113.77225
9.378                0.932991312     -113.995375
9.379                0.932838199     -114.219053
9.38                 0.932684995     -114.443285
9.381                0.932531701     -114.668073
9.382                0.932378324     -114.893415
9.383                0.932224867     -115.119313
9.384                0.932071335     -115.345767
9.385                0.931917732     -115.572778
9.386                0.931764062     -115.800345
9.387                 0.93161033     -116.028468
9.388                 0.93145654      -116.25715
9.389                0.931302697     -116.486388
9.39                 0.931148806     -116.716185
9.391                 0.93099487      -116.94654
9.392                0.930840896     -117.177453
9.393                0.930686887     -117.408924
9.394                0.930532849     -117.640955
9.395                0.930378785     -117.873544
9.396                0.930224702     -118.106692
