! TOUCHSTONE file generated by CST DESIGN STUDIO
! Date and time: Tue Feb  4 17:54:01 2025
! Project name: C:\Work\MatlabApps\UnitCellOptimizationMatlab\CST\unitcell.cst
! Tree item: Tasks\Sweep1\SPara1\S-Parameters
! Header version: 2024
! Port assignment regex: !\s*Touchstone port\s*([0-9]+)\s*=\s*(CST MWS port|CST DES external port|CST DES block port)\s*(.+)\s* \(\"(.*)\"\)(\s*mode\s*([0-9]+))?.*
! Touchstone port assignment:
! Touchstone port 1 = CST DES external port 1 ("")
# GHz S MA R 50
9                     0.96295293     -83.5968714
9.001                 0.96285812     -83.7353954
9.002                0.962763061     -83.8742867
9.003                0.962667754     -84.0135466
9.004                0.962572199     -84.1531761
9.005                0.962476394     -84.2931764
9.006                 0.96238034     -84.4335484
9.007                0.962284036     -84.5742934
9.008                0.962187482     -84.7154123
9.009                0.962090677     -84.8569064
9.01                 0.961993621     -84.9987768
9.011                0.961896314     -85.1410245
9.012                0.961798755     -85.2836506
9.013                0.961700943     -85.4266563
9.014                 0.96160288     -85.5700427
9.015                0.961504563     -85.7138108
9.016                0.961405993     -85.8579619
9.017                 0.96130717      -86.002497
9.018                0.961208093     -86.1474172
9.019                0.961108762     -86.2927237
9.02                 0.961009176     -86.4384176
9.021                0.960909336     -86.5844999
9.022                 0.96080924     -86.7309719
9.023                 0.96070889     -86.8778347
9.024                0.960608283     -87.0250893
9.025                0.960507421     -87.1727369
9.026                0.960406303     -87.3207786
9.027                0.960304928     -87.4692156
9.028                0.960203297     -87.6180489
9.029                0.960101409     -87.7672798
9.03                 0.959999264     -87.9169093
9.031                0.959896862     -88.0669386
9.032                0.959794202     -88.2173687
9.033                0.959691285     -88.3682009
9.034                0.959588109     -88.5194363
9.035                0.959484676     -88.6710759
9.036                0.959380985      -88.823121
9.037                0.959277035     -88.9755727
9.038                0.959172826     -89.1284321
9.039                0.959068359     -89.2817003
9.04                 0.958963634     -89.4353784
9.041                0.958858649     -89.5894677
9.042                0.958753405     -89.7439692
9.043                0.958647903     -89.8988841
9.044                0.958542141     -90.0542136
9.045                 0.95843612     -90.2099587
9.046                0.958329839     -90.3661205
9.047                  0.9582233     -90.5227004
9.048                0.958116501     -90.6796992
9.049                0.958009442     -90.8371183
9.05                 0.957902124     -90.9949588
9.051                0.957794547     -91.1532217
9.052                 0.95768671     -91.3119082
9.053                0.957578613     -91.4710195
9.054                0.957470258     -91.6305567
9.055                0.957361643     -91.7905209
9.056                0.957252769     -91.9509133
9.057                0.957143635      -92.111735
9.058                0.957034243     -92.2729871
9.059                0.956924591     -92.4346708
9.06                 0.956814681     -92.5967872
9.061                0.956704511     -92.7593375
9.062                0.956594084     -92.9223227
9.063                0.956483397      -93.085744
9.064                0.956372453     -93.2496025
9.065                 0.95626125     -93.4138994
9.066                0.956149789     -93.5786358
9.067                0.956038071     -93.7438129
9.068                0.955926095     -93.9094316
9.069                0.955813862     -94.0754933
9.07                 0.955701372     -94.2419989
9.071                0.955588625     -94.4089497
9.072                0.955475621     -94.5763467
9.073                0.955362362     -94.7441911
9.074                0.955248847      -94.912484
9.075                0.955135076     -95.0812264
9.076                 0.95502105     -95.2504196
9.077                 0.95490677     -95.4200646
9.078                0.954792235     -95.5901626
9.079                0.954677446     -95.7607146
9.08                 0.954562404     -95.9317218
9.081                0.954447108     -96.1031852
9.082                 0.95433156     -96.2751061
9.083                 0.95421576     -96.4474854
9.084                0.954099708     -96.6203243
9.085                0.953983405     -96.7936238
9.086                0.953866851     -96.9673852
9.087                0.953750047     -97.1416094
9.088                0.953632994     -97.3162975
9.089                0.953515691     -97.4914507
9.09                 0.953398141     -97.6670701
9.091                0.953280343     -97.8431566
9.092                0.953162297     -98.0197115
9.093                0.953044006     -98.1967357
9.094                0.952925468     -98.3742304
9.095                0.952806686     -98.5521966
9.096                0.952687659     -98.7306354
9.097                0.952568389     -98.9095478
9.098                0.952448876     -99.0889349
9.099                0.952329121     -99.2687978
9.1                  0.952209125     -99.4491375
9.101                0.952088888     -99.6299551
9.102                0.951968412     -99.8112517
9.103                0.951847698     -99.9930281
9.104                0.951726746     -100.175286
9.105                0.951605557     -100.358025
9.106                0.951484132     -100.541248
9.107                0.951362472     -100.724954
9.108                0.951240578     -100.909146
9.109                0.951118452     -101.093824
9.11                 0.950996094     -101.278989
9.111                0.950873505     -101.464643
9.112                0.950750686     -101.650785
9.113                0.950627638     -101.837418
9.114                0.950504364     -102.024541
9.115                0.950380863     -102.212157
9.116                0.950257136     -102.400266
9.117                0.950133186     -102.588869
9.118                0.950009013     -102.777968
9.119                0.949884619     -102.967562
9.12                 0.949760005     -103.157653
9.121                0.949635172     -103.348242
9.122                0.949510121     -103.539331
9.123                0.949384854     -103.730919
9.124                0.949259373     -103.923008
9.125                0.949133678     -104.115598
9.126                0.949007771     -104.308691
9.127                0.948881654     -104.502288
9.128                0.948755328      -104.69639
9.129                0.948628794     -104.890997
9.13                 0.948502055      -105.08611
9.131                0.948375112      -105.28173
9.132                0.948247966     -105.477858
9.133                0.948120619     -105.674496
9.134                0.947993072     -105.871643
9.135                0.947865328     -106.069301
9.136                0.947737388     -106.267471
9.137                0.947609254     -106.466153
9.138                0.947480928     -106.665348
9.139                0.947352411     -106.865058
9.14                 0.947223706     -107.065282
9.141                0.947094813     -107.266022
9.142                0.946965736     -107.467279
9.143                0.946836476     -107.669053
9.144                0.946707034     -107.871345
9.145                0.946577414     -108.074156
9.146                0.946447617     -108.277487
9.147                0.946317645     -108.481338
9.148                  0.9461875     -108.685711
9.149                0.946057185     -108.890606
9.15                 0.945926701     -109.096023
9.151                 0.94579605     -109.301964
9.152                0.945665236     -109.508429
9.153                 0.94553426     -109.715419
9.154                0.945403124     -109.922935
9.155                0.945271831     -110.130977
9.156                0.945140383     -110.339546
9.157                0.945008783     -110.548642
9.158                0.944877033     -110.758267
9.159                0.944745135     -110.968421
9.16                 0.944613092     -111.179105
9.161                0.944480907     -111.390319
9.162                0.944348581     -111.602064
9.163                0.944216119      -111.81434
9.164                0.944083521     -112.027148
9.165                0.943950792     -112.240489
9.166                0.943817933     -112.454363
9.167                0.943684947     -112.668771
9.168                0.943551838     -112.883713
9.169                0.943418607      -113.09919
9.17                 0.943285259     -113.315203
9.171                0.943151795     -113.531752
9.172                0.943018219     -113.748837
9.173                0.942884533     -113.966458
9.174                0.942750741     -114.184618
9.175                0.942616846     -114.403315
9.176                 0.94248285      -114.62255
9.177                0.942348757     -114.842324
9.178                 0.94221457     -115.062638
9.179                0.942080292      -115.28349
9.18                 0.941945926     -115.504883
9.181                0.941811476     -115.726816
9.182                0.941676945      -115.94929
9.183                0.941542336     -116.172305
9.184                0.941407652     -116.395862
9.185                0.941272898      -116.61996
9.186                0.941138076       -116.8446
9.187                0.941003189     -117.069782
9.188                0.940868243     -117.295507
9.189                0.940733239     -117.521775
9.19                 0.940598182     -117.748586
9.191                0.940463075      -117.97594
9.192                0.940327921     -118.203838
9.193                0.940192726      -118.43228
9.194                0.940057492     -118.661266
9.195                0.939922223     -118.890795
9.196                0.939786923     -119.120869
9.197                0.939651595     -119.351488
9.198                0.939516245     -119.582651
9.199                0.939380875     -119.814359
9.2                   0.93924549     -120.046611
9.201                0.939110093     -120.279408
9.202                 0.93897469      -120.51275
9.203                0.938839283     -120.746637
9.204                0.938703877     -120.981068
9.205                0.938568477     -121.216045
9.206                0.938433085     -121.451566
9.207                0.938297708     -121.687633
9.208                0.938162348     -121.924243
9.209                0.938027011     -122.161399
9.21                 0.937891701     -122.399099
9.211                0.937756421     -122.637344
9.212                0.937621177     -122.876133
9.213                0.937485973     -123.115466
9.214                0.937350814     -123.355344
9.215                0.937215704     -123.595765
9.216                0.937080648     -123.836729
9.217                 0.93694565     -124.078237
9.218                0.936810715     -124.320288
9.219                0.936675848     -124.562882
9.22                 0.936541053     -124.806019
9.221                0.936406336     -125.049698
9.222                0.936271702     -125.293919
9.223                0.936137154     -125.538681
9.224                0.936002698     -125.783984
9.225                0.935868339     -126.029829
9.226                0.935734083     -126.276213
9.227                0.935599933     -126.523138
9.228                0.935465895     -126.770602
9.229                0.935331975     -127.018605
9.23                 0.935198176     -127.267146
9.231                0.935064505     -127.516225
9.232                0.934930967     -127.765842
9.233                0.934797567     -128.015996
9.234                 0.93466431     -128.266685
9.235                0.934531202     -128.517911
9.236                0.934398247     -128.769671
9.237                0.934265452     -129.021966
9.238                0.934132821     -129.274794
9.239                0.934000361     -129.528155
9.24                 0.933868076     -129.782048
9.241                0.933735973     -130.036473
9.242                0.933604056     -130.291428
9.243                0.933472331     -130.546913
9.244                0.933340805     -130.802928
9.245                0.933209482      -131.05947
9.246                0.933078369     -131.316539
9.247                 0.93294747     -131.574135
9.248                0.932816792     -131.832256
9.249                0.932686341     -132.090901
9.25                 0.932556123      -132.35007
9.251                0.932426143     -132.609762
9.252                0.932296407     -132.869975
9.253                0.932166921     -133.130708
9.254                0.932037691     -133.391961
9.255                0.931908723     -133.653731
9.256                0.931780023     -133.916019
9.257                0.931651597     -134.178823
9.258                0.931523451     -134.442141
9.259                0.931395591     -134.705973
9.26                 0.931268024     -134.970317
9.261                0.931140755     -135.235172
9.262                 0.93101379     -135.500537
9.263                0.930887137      -135.76641
9.264                  0.9307608      -136.03279
9.265                0.930634787     -136.299675
9.266                0.930509103     -136.567065
9.267                0.930383755     -136.834958
9.268                0.930258749     -137.103352
9.269                0.930134091     -137.372246
9.27                 0.930009788     -137.641639
9.271                0.929885846     -137.911528
9.272                0.929762272     -138.181913
9.273                0.929639072     -138.452791
9.274                0.929516252     -138.724161
9.275                0.929393819     -138.996022
9.276                0.929271779     -139.268371
9.277                0.929150139     -139.541208
9.278                0.929028905      -139.81453
9.279                0.928908084     -140.088335
9.28                 0.928787683     -140.362622
9.281                0.928667707      -140.63739
9.282                0.928548164     -140.912635
9.283                0.928429059     -141.188356
9.284                  0.9283104     -141.464552
9.285                0.928192194      -141.74122
9.286                0.928074446     -142.018359
9.287                0.927957164     -142.295966
9.288                0.927840354      -142.57404
9.289                0.927724022     -142.852578
9.29                 0.927608176     -143.131578
9.291                0.927492822     -143.411039
9.292                0.927377966     -143.690957
9.293                0.927263616     -143.971332
9.294                0.927149778      -144.25216
9.295                0.927036458      -144.53344
9.296                0.926923664     -144.815169
9.297                0.926811402     -145.097345
9.298                0.926699678     -145.379966
9.299                  0.9265885      -145.66303
9.3                  0.926477874     -145.946533
9.301                0.926367806     -146.230474
9.302                0.926258304      -146.51485
9.303                0.926149374     -146.799659
9.304                0.926041023     -147.084898
9.305                0.925933257     -147.370565
9.306                0.925826084     -147.656658
9.307                0.925719509     -147.943173
9.308                0.925613539     -148.230108
9.309                0.925508182      -148.51746
9.31                 0.925403443     -148.805228
9.311                0.925299329     -149.093408
9.312                0.925195848     -149.381997
9.313                0.925093004     -149.670992
9.314                0.924990806     -149.960392
9.315                0.924889259     -150.250193
9.316                0.924788371     -150.540392
9.317                0.924688147     -150.830987
9.318                0.924588595     -151.121975
9.319                 0.92448972     -151.413352
9.32                 0.924391529     -151.705116
9.321                0.924294029     -151.997263
9.322                0.924197227     -152.289792
9.323                0.924101127     -152.582699
9.324                0.924005738      -152.87598
9.325                0.923911065     -153.169633
9.326                0.923817114     -153.463655
9.327                0.923723893     -153.758042
9.328                0.923631407     -154.052791
9.329                0.923539662       -154.3479
9.33                 0.923448665     -154.643365
9.331                0.923358422     -154.939183
9.332                0.923268939      -155.23535
9.333                0.923180223     -155.531863
9.334                0.923092279     -155.828719
9.335                0.923005113     -156.125915
9.336                0.922918732     -156.423446
9.337                0.922833142     -156.721311
9.338                0.922748348     -157.019505
9.339                0.922664356     -157.318025
9.34                 0.922581173     -157.616868
9.341                0.922498804      -157.91603
9.342                0.922417255     -158.215507
9.343                0.922336532     -158.515296
9.344                 0.92225664     -158.815393
9.345                0.922177585     -159.115796
9.346                0.922099374     -159.416499
9.347                0.922022011       -159.7175
9.348                0.921945501     -160.018795
9.349                0.921869851     -160.320381
9.35                 0.921795066     -160.622252
9.351                0.921721152     -160.924407
9.352                0.921648113     -161.226841
9.353                0.921575955      -161.52955
9.354                0.921504683      -161.83253
9.355                0.921434302     -162.135778
9.356                0.921364818      -162.43929
9.357                0.921296236     -162.743062
9.358                 0.92122856      -163.04709
9.359                0.921161796      -163.35137
9.36                 0.921095948     -163.655898
9.361                0.921031022     -163.960671
9.362                0.920967022     -164.265684
9.363                0.920903952     -164.570933
9.364                0.920841819     -164.876415
9.365                0.920780625     -165.182125
9.366                0.920720376     -165.488059
9.367                0.920661076     -165.794214
9.368                0.920602729     -166.100584
9.369                 0.92054534     -166.407167
9.37                 0.920488914     -166.713958
9.371                0.920433454     -167.020952
9.372                0.920378964     -167.328146
9.373                0.920325449     -167.635536
9.374                0.920272912     -167.943117
9.375                0.920221358     -168.250885
9.376                 0.92017079     -168.558836
9.377                0.920121212     -168.866966
9.378                0.920072628      -169.17527
9.379                0.920025041     -169.483744
9.38                 0.919978456     -169.792384
9.381                0.919932875     -170.101185
9.382                0.919888301     -170.410144
9.383                0.919844739     -170.719256
9.384                0.919802191     -171.028517
9.385                0.919760661     -171.337922
9.386                0.919720152     -171.647466
9.387                0.919680666     -171.957147
9.388                0.919642207     -172.266958
9.389                0.919604778     -172.576896
9.39                  0.91956838     -172.886957
9.391                0.919533018     -173.197135
9.392                0.919498694     -173.507428
9.393                0.919465409     -173.817829
9.394                0.919433167     -174.128335
9.395                 0.91940197     -174.438941
9.396                 0.91937182     -174.749643
