! TOUCHSTONE file generated by CST DESIGN STUDIO
! Date and time: Tue Feb  4 17:53:59 2025
! Project name: C:\Work\MatlabApps\UnitCellOptimizationMatlab\CST\unitcell.cst
! Tree item: Tasks\Sweep1\SPara1\S-Parameters
! Header version: 2024
! Port assignment regex: !\s*Touchstone port\s*([0-9]+)\s*=\s*(CST MWS port|CST DES external port|CST DES block port)\s*(.+)\s* \(\"(.*)\"\)(\s*mode\s*([0-9]+))?.*
! Touchstone port assignment:
! Touchstone port 1 = CST DES external port 1 ("")
# GHz S MA R 50
9                    0.962026271     -86.2186053
9.001                0.961927709     -86.3640846
9.002                0.961828897     -86.5099525
9.003                0.961729836     -86.6562101
9.004                0.961630525     -86.8028587
9.005                0.961530964     -86.9498993
9.006                0.961431152      -87.097333
9.007                0.961331089      -87.245161
9.008                0.961230775     -87.3933844
9.009                 0.96113021     -87.5420043
9.01                 0.961029393     -87.6910219
9.011                0.960928324     -87.8404382
9.012                0.960827002     -87.9902545
9.013                0.960725428     -88.1404718
9.014                0.960623602     -88.2910914
9.015                0.960521522     -88.4421142
9.016                0.960419189     -88.5935415
9.017                0.960316603     -88.7453743
9.018                0.960213763     -88.8976139
9.019                0.960110669     -89.0502614
9.02                 0.960007321     -89.2033178
9.021                 0.95990372     -89.3567844
9.022                0.959799863     -89.5106623
9.023                0.959695753     -89.6649525
9.024                0.959591387     -89.8196563
9.025                0.959486767     -89.9747748
9.026                0.959381893     -90.1303091
9.027                0.959276763     -90.2862604
9.028                0.959171378     -90.4426298
9.029                0.959065738     -90.5994184
9.03                 0.958959843     -90.7566274
9.031                0.958853692     -90.9142579
9.032                0.958747287     -91.0723111
9.033                0.958640625      -91.230788
9.034                0.958533709     -91.3896899
9.035                0.958426537     -91.5490179
9.036                 0.95831911      -91.708773
9.037                0.958211427     -91.8689566
9.038                0.958103489     -92.0295696
9.039                0.957995296     -92.1906132
9.04                 0.957886848     -92.3520886
9.041                0.957778144     -92.5139968
9.042                0.957669185     -92.6763391
9.043                0.957559972     -92.8391166
9.044                0.957450503     -93.0023304
9.045                 0.95734078     -93.1659816
9.046                0.957230802     -93.3300713
9.047                0.957120569     -93.4946008
9.048                0.957010083     -93.6595711
9.049                0.956899342     -93.8249833
9.05                 0.956788347     -93.9908386
9.051                0.956677099     -94.1571381
9.052                0.956565597      -94.323883
9.053                0.956453842     -94.4910743
9.054                0.956341834     -94.6587132
9.055                0.956229574     -94.8268008
9.056                 0.95611706     -94.9953382
9.057                0.956004295     -95.1643265
9.058                0.955891278      -95.333767
9.059                 0.95577801     -95.5036606
9.06                 0.955664491     -95.6740084
9.061                0.955550721     -95.8448117
9.062                0.955436701     -96.0160715
9.063                0.955322431     -96.1877889
9.064                0.955207911      -96.359965
9.065                0.955093143      -96.532601
9.066                0.954978126     -96.7056979
9.067                0.954862861     -96.8792568
9.068                0.954747348     -97.0532788
9.069                0.954631588     -97.2277651
9.07                 0.954515582     -97.4027166
9.071                 0.95439933     -97.5781346
9.072                0.954282833       -97.75402
9.073                0.954166091      -97.930374
9.074                0.954049105     -98.1071976
9.075                0.953931876      -98.284492
9.076                0.953814403     -98.4622582
9.077                0.953696689     -98.6404972
9.078                0.953578733     -98.8192102
9.079                0.953460536     -98.9983982
9.08                   0.9533421     -99.1780623
9.081                0.953223424     -99.3582034
9.082                 0.95310451     -99.5388228
9.083                0.952985358     -99.7199214
9.084                 0.95286597     -99.9015002
9.085                0.952746345      -100.08356
9.086                0.952626486     -100.266103
9.087                0.952506392     -100.449129
9.088                0.952386065     -100.632639
9.089                0.952265506     -100.816635
9.09                 0.952144715     -101.001117
9.091                0.952023694     -101.186087
9.092                0.951902444     -101.371545
9.093                0.951780966     -101.557493
9.094                 0.95165926     -101.743931
9.095                0.951537328     -101.930861
9.096                0.951415171     -102.118284
9.097                 0.95129279       -102.3062
9.098                0.951170187      -102.49461
9.099                0.951047361     -102.683516
9.1                  0.950924316     -102.872918
9.101                0.950801051     -103.062818
9.102                0.950677569     -103.253216
9.103                 0.95055387     -103.444113
9.104                0.950429955     -103.635511
9.105                0.950305827     -103.827409
9.106                0.950181486      -104.01981
9.107                0.950056934     -104.212715
9.108                0.949932172     -104.406123
9.109                0.949807202     -104.600036
9.11                 0.949682025     -104.794455
9.111                0.949556643      -104.98938
9.112                0.949431057     -105.184814
9.113                0.949305269     -105.380756
9.114                 0.94917928     -105.577207
9.115                0.949053092     -105.774169
9.116                0.948926707     -105.971642
9.117                0.948800126     -106.169626
9.118                0.948673351     -106.368124
9.119                0.948546384     -106.567136
9.12                 0.948419226     -106.766662
9.121                0.948291879     -106.966704
9.122                0.948164346     -107.167262
9.123                0.948036627     -107.368337
9.124                0.947908726      -107.56993
9.125                0.947780643     -107.772041
9.126                0.947652381     -107.974672
9.127                0.947523941     -108.177824
9.128                0.947395326     -108.381496
9.129                0.947266538      -108.58569
9.13                 0.947137579     -108.790407
9.131                 0.94700845     -108.995647
9.132                0.946879155     -109.201412
9.133                0.946749695     -109.407701
9.134                0.946620072     -109.614515
9.135                0.946490289     -109.821856
9.136                0.946360348     -110.029724
9.137                0.946230251     -110.238119
9.138                0.946100001     -110.447042
9.139                0.945969599     -110.656495
9.14                 0.945839049     -110.866477
9.141                0.945708352      -111.07699
9.142                0.945577512     -111.288033
9.143                0.945446531     -111.499608
9.144                 0.94531541     -111.711715
9.145                0.945184154     -111.924355
9.146                0.945052764     -112.137528
9.147                0.944921243     -112.351235
9.148                0.944789594     -112.565476
9.149                 0.94465782     -112.780253
9.15                 0.944525922     -112.995565
9.151                0.944393905     -113.211413
9.152                 0.94426177     -113.427798
9.153                0.944129522     -113.644721
9.154                0.943997161      -113.86218
9.155                0.943864693     -114.080178
9.156                0.943732118     -114.298715
9.157                0.943599442     -114.517791
9.158                0.943466666     -114.737406
9.159                0.943333793     -114.957561
9.16                 0.943200827     -115.178257
9.161                0.943067771     -115.399493
9.162                0.942934628     -115.621271
9.163                0.942801402      -115.84359
9.164                0.942668094     -116.066451
9.165                 0.94253471     -116.289854
9.166                0.942401252     -116.513799
9.167                0.942267724     -116.738288
9.168                0.942134128      -116.96332
9.169                0.942000469     -117.188895
9.17                  0.94186675     -117.415015
9.171                0.941732974     -117.641678
9.172                0.941599145     -117.868885
9.173                0.941465267     -118.096637
9.174                0.941331343     -118.324934
9.175                0.941197378     -118.553775
9.176                0.941063373     -118.783162
9.177                0.940929335     -119.013094
9.178                0.940795265     -119.243571
9.179                0.940661169     -119.474594
9.18                 0.940527049     -119.706162
9.181                 0.94039291     -119.938276
9.182                0.940258756     -120.170936
9.183                0.940124591     -120.404142
9.184                0.939990419     -120.637894
9.185                0.939856244     -120.872191
9.186                0.939722069     -121.107035
9.187                  0.9395879     -121.342425
9.188                 0.93945374      -121.57836
9.189                0.939319594     -121.814841
9.19                 0.939185465     -122.051868
9.191                0.939051359     -122.289441
9.192                0.938917279     -122.527559
9.193                 0.93878323     -122.766223
9.194                0.938649216     -123.005432
9.195                0.938515242     -123.245187
9.196                0.938381312     -123.485486
9.197                0.938247431      -123.72633
9.198                0.938113603     -123.967719
9.199                0.937979834     -124.209652
9.2                  0.937846126     -124.452129
9.201                0.937712486     -124.695149
9.202                0.937578918     -124.938714
9.203                0.937445427     -125.182821
9.204                0.937312018     -125.427472
9.205                0.937178695     -125.672664
9.206                0.937045463     -125.918399
9.207                0.936912327     -126.164676
9.208                0.936779292     -126.411493
9.209                0.936646364     -126.658852
9.21                 0.936513547     -126.906751
9.211                0.936380846     -127.155189
9.212                0.936248266     -127.404167
9.213                0.936115813     -127.653684
9.214                0.935983491     -127.903739
9.215                0.935851306     -128.154331
9.216                0.935719264      -128.40546
9.217                0.935587368     -128.657126
9.218                0.935455626     -128.909328
9.219                0.935324041     -129.162064
9.22                  0.93519262     -129.415335
9.221                0.935061367      -129.66914
9.222                0.934930289     -129.923477
9.223                0.934799391     -130.178347
9.224                0.934668678     -130.433748
9.225                0.934538155     -130.689679
9.226                0.934407829      -130.94614
9.227                0.934277705     -131.203129
9.228                0.934147789     -131.460647
9.229                0.934018086     -131.718692
9.23                 0.933888602     -131.977262
9.231                0.933759343     -132.236358
9.232                0.933630315     -132.495977
9.233                0.933501523      -132.75612
9.234                0.933372973     -133.016784
9.235                0.933244671      -133.27797
9.236                0.933116624     -133.539675
9.237                0.932988836     -133.801899
9.238                0.932861314     -134.064641
9.239                0.932734064     -134.327899
9.24                 0.932607092     -134.591672
9.241                0.932480403     -134.855959
9.242                0.932354005     -135.120759
9.243                0.932227902      -135.38607
9.244                0.932102102     -135.651891
9.245                 0.93197661     -135.918221
9.246                0.931851432     -136.185059
9.247                0.931726575     -136.452402
9.248                0.931602045      -136.72025
9.249                0.931477848     -136.988601
9.25                 0.931353991     -137.257454
9.251                0.931230478     -137.526807
9.252                0.931107318     -137.796659
9.253                0.930984516     -138.067008
9.254                0.930862079     -138.337853
9.255                0.930740012     -138.609191
9.256                0.930618323     -138.881022
9.257                0.930497017     -139.153343
9.258                0.930376102     -139.426153
9.259                0.930255583     -139.699451
9.26                 0.930135467     -139.973234
9.261                 0.93001576     -140.247501
9.262                 0.92989647     -140.522249
9.263                0.929777601     -140.797478
9.264                0.929659162     -141.073185
9.265                0.929541158     -141.349368
9.266                0.929423596     -141.626026
9.267                0.929306482     -141.903156
9.268                0.929189824     -142.180756
9.269                0.929073627     -142.458825
9.27                 0.928957898     -142.737361
9.271                0.928842644     -143.016361
9.272                0.928727871     -143.295823
9.273                0.928613587     -143.575745
9.274                0.928499796     -143.856125
9.275                0.928386507     -144.136961
9.276                0.928273726     -144.418251
9.277                0.928161459     -144.699992
9.278                0.928049712     -144.982183
9.279                0.927938494      -145.26482
9.28                 0.927827809     -145.547902
9.281                0.927717666     -145.831425
9.282                 0.92760807     -146.115389
9.283                0.927499027      -146.39979
9.284                0.927390546     -146.684626
9.285                0.927282632     -146.969895
9.286                0.927175291     -147.255593
9.287                0.927068531     -147.541719
9.288                0.926962358      -147.82827
9.289                0.926856779     -148.115243
9.29                   0.9267518     -148.402636
9.291                0.926647428     -148.690446
9.292                0.926543669      -148.97867
9.293                 0.92644053     -149.267307
9.294                0.926338017     -149.556352
9.295                0.926236138     -149.845803
9.296                0.926134898     -150.135658
9.297                0.926034304     -150.425913
9.298                0.925934362     -150.716567
9.299                0.925835079     -151.007615
9.3                  0.925736462     -151.299055
9.301                0.925638516     -151.590885
9.302                0.925541249       -151.8831
9.303                0.925444667     -152.175699
9.304                0.925348775     -152.468678
9.305                0.925253581     -152.762034
9.306                 0.92515909     -153.055764
9.307                0.925065309     -153.349865
9.308                0.924972245     -153.644334
9.309                0.924879903     -153.939168
9.31                  0.92478829     -154.234364
9.311                0.924697412     -154.529917
9.312                0.924607275     -154.825826
9.313                0.924517885     -155.122087
9.314                0.924429248     -155.418697
9.315                0.924341371     -155.715651
9.316                0.924254259     -156.012948
9.317                0.924167919     -156.310584
9.318                0.924082357     -156.608554
9.319                0.923997577     -156.906857
9.32                 0.923913587     -157.205488
9.321                0.923830392     -157.504443
9.322                0.923747998     -157.803721
9.323                0.923666411     -158.103316
9.324                0.923585636     -158.403226
9.325                0.923505679     -158.703446
9.326                0.923426547     -159.003974
9.327                0.923348243     -159.304806
9.328                0.923270775     -159.605937
9.329                0.923194147     -159.907365
9.33                 0.923118365     -160.209086
9.331                0.923043435     -160.511095
9.332                0.922969362      -160.81339
9.333                 0.92289615     -161.115967
9.334                0.922823806     -161.418821
9.335                0.922752335     -161.721949
9.336                0.922681741     -162.025347
9.337                0.922612031     -162.329012
9.338                0.922543208     -162.632939
9.339                0.922475278     -162.937124
9.34                 0.922408247     -163.241565
9.341                0.922342118     -163.546256
9.342                0.922276897     -163.851193
9.343                0.922212588     -164.156374
9.344                0.922149196     -164.461794
9.345                0.922086726     -164.767448
9.346                0.922025183     -165.073333
9.347                 0.92196457     -165.379445
9.348                0.921904893      -165.68578
9.349                0.921846156     -165.992333
9.35                 0.921788363     -166.299101
9.351                0.921731518     -166.606079
9.352                0.921675626     -166.913263
9.353                0.921620691      -167.22065
9.354                0.921566716     -167.528235
9.355                0.921513707     -167.836013
9.356                0.921461665     -168.143981
9.357                0.921410597     -168.452134
9.358                0.921360505     -168.760469
9.359                0.921311393      -169.06898
9.36                 0.921263265     -169.377664
9.361                0.921216124     -169.686516
9.362                0.921169974     -169.995533
9.363                0.921124818     -170.304709
9.364                0.921080659      -170.61404
9.365                0.921037501     -170.923522
9.366                0.920995348     -171.233152
9.367                0.920954201     -171.542923
9.368                0.920914064     -171.852833
9.369                0.920874941     -172.162876
9.37                 0.920836834     -172.473048
9.371                0.920799745     -172.783345
9.372                0.920763677     -173.093763
9.373                0.920728634     -173.404296
9.374                0.920694617     -173.714941
9.375                 0.92066163     -174.025693
9.376                0.920629674     -174.336547
9.377                0.920598751       -174.6475
9.378                0.920568865     -174.958546
9.379                0.920540016     -175.269682
9.38                 0.920512208     -175.580902
9.381                0.920485442     -175.892202
9.382                 0.92045972     -176.203578
9.383                0.920435044     -176.515025
9.384                0.920411415     -176.826539
9.385                0.920388835     -177.138115
9.386                0.920367306     -177.449748
9.387                0.920346828     -177.761434
9.388                0.920327405     -178.073169
9.389                0.920309036     -178.384948
9.39                 0.920291722     -178.696766
9.391                0.920275466     -179.008619
9.392                0.920260268     -179.320503
9.393                0.920246129     -179.632412
9.394                0.920233049     -179.944342
9.395                 0.92022103      179.743711
9.396                0.920210071      179.431753
