! TOUCHSTONE file generated by CST DESIGN STUDIO
! Date and time: Tue Feb  4 17:54:14 2025
! Project name: C:\Work\MatlabApps\UnitCellOptimizationMatlab\CST\unitcell.cst
! Tree item: Tasks\Sweep1\SPara1\S-Parameters
! Header version: 2024
! Port assignment regex: !\s*Touchstone port\s*([0-9]+)\s*=\s*(CST MWS port|CST DES external port|CST DES block port)\s*(.+)\s* \(\"(.*)\"\)(\s*mode\s*([0-9]+))?.*
! Touchstone port assignment:
! Touchstone port 1 = CST DES external port 1 ("")
# GHz S MA R 50
9                    0.970645633     -63.3076675
9.001                 0.97058767     -63.3976957
9.002                0.970529504     -63.4879402
9.003                0.970471135     -63.5784016
9.004                0.970412562     -63.6690805
9.005                0.970353785     -63.7599779
9.006                0.970294803     -63.8510942
9.007                0.970235614     -63.9424302
9.008                 0.97017622     -64.0339867
9.009                0.970116618     -64.1257643
9.01                 0.970056808     -64.2177637
9.011                 0.96999679     -64.3099857
9.012                0.969936563     -64.4024309
9.013                0.969876126     -64.4951001
9.014                0.969815479      -64.587994
9.015                 0.96975462     -64.6811133
9.016                 0.96969355     -64.7744587
9.017                0.969632267      -64.868031
9.018                0.969570771     -64.9618309
9.019                0.969509061     -65.0558591
9.02                 0.969447136     -65.1501163
9.021                0.969384996     -65.2446034
9.022                 0.96932264     -65.3393209
9.023                0.969260068     -65.4342698
9.024                0.969197278     -65.5294506
9.025                 0.96913427     -65.6248642
9.026                0.969071044     -65.7205112
9.027                0.969007598     -65.8163926
9.028                0.968943932     -65.9125089
9.029                0.968880046      -66.008861
9.03                 0.968815938     -66.1054496
9.031                0.968751608     -66.2022754
9.032                0.968687054     -66.2993393
9.033                0.968622278      -66.396642
9.034                0.968557277     -66.4941843
9.035                0.968492051     -66.5919669
9.036                  0.9684266     -66.6899907
9.037                0.968360922     -66.7882563
9.038                0.968295017     -66.8867646
9.039                0.968228885     -66.9855163
9.04                 0.968162524     -67.0845122
9.041                0.968095934     -67.1837532
9.042                0.968029114       -67.28324
9.043                0.967962063     -67.3829733
9.044                0.967894781     -67.4829541
9.045                0.967827267      -67.583183
9.046                0.967759521     -67.6836609
9.047                0.967691541     -67.7843886
9.048                0.967623327     -67.8853669
9.049                0.967554878     -67.9865966
9.05                 0.967486194     -68.0880785
9.051                0.967417273     -68.1898134
9.052                0.967348115     -68.2918021
9.053                 0.96727872     -68.3940454
9.054                0.967209086     -68.4965443
9.055                0.967139213     -68.5992994
9.056                0.967069101     -68.7023116
9.057                0.966998748     -68.8055817
9.058                0.966928153     -68.9091107
9.059                0.966857317     -69.0128992
9.06                 0.966786238     -69.1169481
9.061                0.966714915     -69.2212583
9.062                0.966643348     -69.3258307
9.063                0.966571537      -69.430666
9.064                 0.96649948      -69.535765
9.065                0.966427177     -69.6411288
9.066                0.966354626      -69.746758
9.067                0.966281828     -69.8526536
9.068                0.966208782     -69.9588164
9.069                0.966135486     -70.0652473
9.07                  0.96606194      -70.171947
9.071                0.965988144     -70.2789166
9.072                0.965914097     -70.3861569
9.073                0.965839797     -70.4936687
9.074                0.965765245     -70.6014528
9.075                0.965690439     -70.7095103
9.076                0.965615379     -70.8178419
9.077                0.965540064     -70.9264486
9.078                0.965464494     -71.0353311
9.079                0.965388667     -71.1444905
9.08                 0.965312583     -71.2539275
9.081                0.965236241     -71.3636432
9.082                0.965159641     -71.4736383
9.083                0.965082781     -71.5839138
9.084                0.965005662     -71.6944706
9.085                0.964928281     -71.8053095
9.086                 0.96485064     -71.9164315
9.087                0.964772736     -72.0278375
9.088                 0.96469457     -72.1395284
9.089                 0.96461614     -72.2515051
9.09                 0.964537445     -72.3637685
9.091                0.964458486     -72.4763195
9.092                0.964379261     -72.5891591
9.093                 0.96429977     -72.7022882
9.094                0.964220011     -72.8157077
9.095                0.964139985     -72.9294186
9.096                 0.96405969     -73.0434217
9.097                0.963979126      -73.157718
9.098                0.963898292     -73.2723084
9.099                0.963817187     -73.3871939
9.1                  0.963735811     -73.5023754
9.101                0.963654163     -73.6178539
9.102                0.963572242     -73.7336303
9.103                0.963490048     -73.8497055
9.104                 0.96340758     -73.9660806
9.105                0.963324836     -74.0827564
9.106                0.963241817      -74.199734
9.107                0.963158522     -74.3170142
9.108                 0.96307495      -74.434598
9.109                0.962991101     -74.5524865
9.11                 0.962906973     -74.6706806
9.111                0.962822566     -74.7891812
9.112                0.962737879     -74.9079893
9.113                0.962652912     -75.0271059
9.114                0.962567663      -75.146532
9.115                0.962482133     -75.2662685
9.116                0.962396321     -75.3863165
9.117                0.962310225     -75.5066769
9.118                0.962223846     -75.6273507
9.119                0.962137182      -75.748339
9.12                 0.962050233     -75.8696426
9.121                0.961962999     -75.9912626
9.122                0.961875477        -76.1132
9.123                0.961787669     -76.2354558
9.124                0.961699573      -76.358031
9.125                0.961611189     -76.4809267
9.126                0.961522515     -76.6041437
9.127                0.961433552     -76.7276831
9.128                0.961344298      -76.851546
9.129                0.961254753     -76.9757334
9.13                 0.961164916     -77.1002462
9.131                0.961074788     -77.2250856
9.132                0.960984366     -77.3502524
9.133                 0.96089365     -77.4757478
9.134                0.960802641     -77.6015728
9.135                0.960711336     -77.7277284
9.136                0.960619736     -77.8542157
9.137                 0.96052784     -77.9810356
9.138                0.960435648     -78.1081892
9.139                0.960343158     -78.2356776
9.14                  0.96025037     -78.3635018
9.141                0.960157283     -78.4916629
9.142                0.960063897     -78.6201618
9.143                0.959970212     -78.7489997
9.144                0.959876226     -78.8781776
9.145                 0.95978194     -79.0076966
9.146                0.959687352     -79.1375576
9.147                0.959592461     -79.2677619
9.148                0.959497269     -79.3983104
9.149                0.959401773     -79.5292042
9.15                 0.959305973     -79.6604443
9.151                0.959209869     -79.7920319
9.152                 0.95911346      -79.923968
9.153                0.959016745     -80.0562537
9.154                0.958919725       -80.18889
9.155                0.958822398     -80.3218781
9.156                0.958724764      -80.455219
9.157                0.958626822     -80.5889137
9.158                0.958528573     -80.7229635
9.159                0.958430015     -80.8573693
9.16                 0.958331147     -80.9921323
9.161                 0.95823197     -81.1272536
9.162                0.958132483     -81.2627341
9.163                0.958032685     -81.3985751
9.164                0.957932577     -81.5347777
9.165                0.957832156     -81.6713428
9.166                0.957731424     -81.8082717
9.167                0.957630379     -81.9455655
9.168                0.957529021     -82.0832251
9.169                0.957427349     -82.2212519
9.17                 0.957325364     -82.3596467
9.171                0.957223064     -82.4984108
9.172                 0.95712045     -82.6375453
9.173                0.957017521     -82.7770513
9.174                0.956914275     -82.9169299
9.175                0.956810714     -83.0571822
9.176                0.956706837     -83.1978094
9.177                0.956602643     -83.3388125
9.178                0.956498131     -83.4801927
9.179                0.956393302     -83.6219511
9.18                 0.956288155     -83.7640889
9.181                 0.95618269     -83.9066071
9.182                0.956076906     -84.0495069
9.183                0.955970803     -84.1927894
9.184                0.955864381     -84.3364558
9.185                0.955757639     -84.4805071
9.186                0.955650577     -84.6249446
9.187                0.955543195     -84.7697694
9.188                0.955435493     -84.9149825
9.189                0.955327469     -85.0605852
9.19                 0.955219125     -85.2065786
9.191                0.955110459     -85.3529637
9.192                0.955001471     -85.4997419
9.193                0.954892162     -85.6469141
9.194                 0.95478253     -85.7944816
9.195                0.954672576     -85.9424456
9.196                0.954562299      -86.090807
9.197                  0.9544517     -86.2395672
9.198                0.954340777     -86.3887272
9.199                0.954229532     -86.5382882
9.2                  0.954117963     -86.6882514
9.201                 0.95400607     -86.8386178
9.202                0.953893854     -86.9893888
9.203                0.953781314     -87.1405653
9.204                 0.95366845     -87.2921487
9.205                0.953555262     -87.4441399
9.206                 0.95344175     -87.5965403
9.207                0.953327914     -87.7493509
9.208                0.953213753     -87.9025729
9.209                0.953099268     -88.0562074
9.21                 0.952984458     -88.2102557
9.211                0.952869324     -88.3647189
9.212                0.952753866     -88.5195981
9.213                0.952638083     -88.6748946
9.214                0.952521975     -88.8306094
9.215                0.952405543     -88.9867437
9.216                0.952288787     -89.1432988
9.217                0.952171706     -89.3002757
9.218                0.952054301     -89.4576756
9.219                0.951936571     -89.6154998
9.22                 0.951818517     -89.7737493
9.221                0.951700139     -89.9324253
9.222                0.951581437     -90.0915289
9.223                0.951462411     -90.2510615
9.224                0.951343062      -90.411024
9.225                0.951223389     -90.5714177
9.226                0.951103392     -90.7322438
9.227                0.950983073     -90.8935034
9.228                 0.95086243     -91.0551976
9.229                0.950741464     -91.2173276
9.23                 0.950620176     -91.3798947
9.231                0.950498566     -91.5428999
9.232                0.950376634     -91.7063444
9.233                 0.95025438     -91.8702294
9.234                0.950131805      -92.034556
9.235                0.950008909     -92.1993254
9.236                0.949885692     -92.3645387
9.237                0.949762155     -92.5301972
9.238                0.949638298      -92.696302
9.239                0.949514121     -92.8628541
9.24                 0.949389625     -93.0298549
9.241                0.949264811     -93.1973054
9.242                0.949139678     -93.3652067
9.243                0.949014228     -93.5335602
9.244                 0.94888846     -93.7023668
9.245                0.948762376     -93.8716277
9.246                0.948635975     -94.0413441
9.247                0.948509259     -94.2115172
9.248                0.948382228      -94.382148
9.249                0.948254882     -94.5532378
9.25                 0.948127223     -94.7247876
9.251                0.947999251     -94.8967986
9.252                0.947870966     -95.0692719
9.253                0.947742369     -95.2422088
9.254                0.947613461     -95.4156102
9.255                0.947484243     -95.5894774
9.256                0.947354715     -95.7638114
9.257                0.947224878     -95.9386135
9.258                0.947094733     -96.1138846
9.259                0.946964282      -96.289626
9.26                 0.946833523     -96.4658388
9.261                0.946702459      -96.642524
9.262                0.946571091     -96.8196829
9.263                0.946439419     -96.9973164
9.264                0.946307444     -97.1754258
9.265                0.946175168     -97.3540121
9.266                 0.94604259     -97.5330764
9.267                0.945909713     -97.7126199
9.268                0.945776537     -97.8926435
9.269                0.945643064     -98.0731485
9.27                 0.945509294     -98.2541359
9.271                0.945375228     -98.4356068
9.272                0.945240868     -98.6175623
9.273                0.945106215     -98.8000034
9.274                 0.94497127     -98.9829313
9.275                0.944836035      -99.166347
9.276                 0.94470051     -99.3502515
9.277                0.944564697      -99.534646
9.278                0.944428596     -99.7195315
9.279                0.944292211      -99.904909
9.28                 0.944155541      -100.09078
9.281                0.944018589     -100.277144
9.282                0.943881355     -100.464004
9.283                0.943743841     -100.651361
9.284                0.943606049     -100.839214
9.285                 0.94346798     -101.027566
9.286                0.943329636     -101.216417
9.287                0.943191018     -101.405769
9.288                0.943052128     -101.595621
9.289                0.942912967     -101.785977
9.29                 0.942773537     -101.976835
9.291                0.942633841     -102.168198
9.292                0.942493879     -102.360066
9.293                0.942353653     -102.552441
9.294                0.942213165     -102.745323
9.295                0.942072417     -102.938713
9.296                0.941931411     -103.132612
9.297                0.941790149     -103.327022
9.298                0.941648632     -103.521943
9.299                0.941506863     -103.717376
9.3                  0.941364843     -103.913322
9.301                0.941222575     -104.109782
9.302                0.941080061     -104.306757
9.303                0.940937302     -104.504248
9.304                0.940794301     -104.702255
9.305                 0.94065106     -104.900781
9.306                0.940507581     -105.099824
9.307                0.940363867     -105.299388
9.308                 0.94021992     -105.499471
9.309                0.940075741     -105.700076
9.31                 0.939931334     -105.901203
9.311                0.939786701     -106.102853
9.312                0.939641843     -106.305027
9.313                0.939496764     -106.507725
9.314                0.939351467     -106.710949
9.315                0.939205953     -106.914699
9.316                0.939060225     -107.118977
9.317                0.938914286     -107.323782
9.318                0.938768138     -107.529116
9.319                0.938621784      -107.73498
9.32                 0.938475227     -107.941374
9.321                 0.93832847     -108.148299
9.322                0.938181515     -108.355756
9.323                0.938034365     -108.563745
9.324                0.937887023     -108.772268
9.325                0.937739492     -108.981325
9.326                0.937591775     -109.190917
9.327                0.937443875     -109.401045
9.328                0.937295794     -109.611708
9.329                0.937147537     -109.822909
9.33                 0.936999106     -110.034647
9.331                0.936850504     -110.246924
9.332                0.936701734     -110.459739
9.333                  0.9365528     -110.673094
9.334                0.936403705      -110.88699
9.335                0.936254453     -111.101426
9.336                0.936105046     -111.316404
9.337                0.935955488     -111.531924
9.338                0.935805782     -111.747986
9.339                0.935655932     -111.964592
9.34                 0.935505942     -112.181742
9.341                0.935355815     -112.399436
9.342                0.935205555     -112.617675
9.343                0.935055165      -112.83646
9.344                0.934904649      -113.05579
9.345                0.934754011     -113.275667
9.346                0.934603254     -113.496091
9.347                0.934452383     -113.717063
9.348                0.934301401     -113.938582
9.349                0.934150312      -114.16065
9.35                  0.93399912     -114.383267
9.351                 0.93384783     -114.606432
9.352                0.933696445     -114.830148
9.353                0.933544969     -115.054413
9.354                0.933393407     -115.279229
9.355                0.933241762     -115.504596
9.356                 0.93309004     -115.730514
9.357                0.932938243     -115.956983
9.358                0.932786377     -116.184005
9.359                0.932634446     -116.411578
9.36                 0.932482454     -116.639703
9.361                0.932330406     -116.868382
9.362                0.932178306     -117.097613
9.363                0.932026159     -117.327397
9.364                 0.93187397     -117.557735
9.365                0.931721742     -117.788626
9.366                0.931569481     -118.020071
9.367                0.931417192      -118.25207
9.368                0.931264879     -118.484623
9.369                0.931112547     -118.717731
9.37                 0.930960201     -118.951392
9.371                0.930807846     -119.185608
9.372                0.930655487     -119.420379
9.373                0.930503129     -119.655705
9.374                0.930350776     -119.891585
9.375                0.930198435     -120.128019
9.376                0.930046109     -120.365009
9.377                0.929893805     -120.602553
9.378                0.929741528     -120.840652
9.379                0.929589282     -121.079306
9.38                 0.929437074     -121.318514
9.381                0.929284909     -121.558276
9.382                0.929132791     -121.798594
9.383                0.928980727     -122.039465
9.384                0.928828721     -122.280891
9.385                0.928676781      -122.52287
9.386                 0.92852491     -122.765404
9.387                0.928373115     -123.008491
9.388                0.928221402     -123.252131
9.389                0.928069776     -123.496325
9.39                 0.927918243     -123.741071
9.391                0.927766809     -123.986371
9.392                0.927615479     -124.232222
9.393                 0.92746426     -124.478625
9.394                0.927313158     -124.725581
9.395                0.927162178     -124.973087
9.396                0.927011327     -125.221144
