! TOUCHSTONE file generated by CST DESIGN STUDIO
! Date and time: Tue Feb  4 17:17:04 2025
! Project name: C:\Work\MatlabApps\UnitCellOptimizationMatlab\CST\unitcell.cst
! Tree item: Tasks\Sweep1\SPara1\S-Parameters
! Header version: 2024
! Port assignment regex: !\s*Touchstone port\s*([0-9]+)\s*=\s*(CST MWS port|CST DES external port|CST DES block port)\s*(.+)\s* \(\"(.*)\"\)(\s*mode\s*([0-9]+))?.*
! Touchstone port assignment:
! Touchstone port 1 = CST DES external port 1 ("")
# GHz S MA R 50
9                    0.967280574     -50.3929565
9.001                 0.96722237      -50.456901
9.002                0.967163992     -50.5209796
9.003                 0.96710544     -50.5851928
9.004                0.967046713     -50.6495408
9.005                0.966987812     -50.7140241
9.006                0.966928734     -50.7786432
9.007                0.966869481     -50.8433984
9.008                 0.96681005     -50.9082902
9.009                0.966750442      -50.973319
9.01                 0.966690655     -51.0384852
9.011                 0.96663069     -51.1037891
9.012                0.966570546     -51.1692313
9.013                0.966510221     -51.2348122
9.014                0.966449716     -51.3005322
9.015                 0.96638903     -51.3663916
9.016                0.966328162      -51.432391
9.017                0.966267112     -51.4985308
9.018                0.966205878     -51.5648114
9.019                0.966144461     -51.6312332
9.02                  0.96608286     -51.6977966
9.021                0.966021074     -51.7645022
9.022                0.965959102     -51.8313502
9.023                0.965896945     -51.8983413
9.024                  0.9658346     -51.9654758
9.025                0.965772068     -52.0327541
9.026                0.965709349     -52.1001767
9.027                 0.96564644      -52.167744
9.028                0.965583342     -52.2354566
9.029                0.965520054     -52.3033148
9.03                 0.965456576      -52.371319
9.031                0.965392907     -52.4394698
9.032                0.965329045     -52.5077676
9.033                0.965264991     -52.5762128
9.034                0.965200744      -52.644806
9.035                0.965136303     -52.7135475
9.036                0.965071668     -52.7824378
9.037                0.965006837     -52.8514774
9.038                0.964941811     -52.9206667
9.039                0.964876588     -52.9900062
9.04                 0.964811168     -53.0594964
9.041                0.964745551     -53.1291378
9.042                0.964679735     -53.1989307
9.043                 0.96461372     -53.2688758
9.044                0.964547505     -53.3389733
9.045                0.964481089      -53.409224
9.046                0.964414472     -53.4796281
9.047                0.964347654     -53.5501862
9.048                0.964280633     -53.6208987
9.049                0.964213409     -53.6917662
9.05                 0.964145981     -53.7627892
9.051                0.964078348      -53.833968
9.052                 0.96401051     -53.9053033
9.053                0.963942466     -53.9767954
9.054                0.963874216     -54.0484449
9.055                0.963805758     -54.1202523
9.056                0.963737092     -54.1922181
9.057                0.963668218     -54.2643427
9.058                0.963599134     -54.3366267
9.059                0.963529839     -54.4090705
9.06                 0.963460334     -54.4816747
9.061                0.963390618     -54.5544397
9.062                0.963320689     -54.6273662
9.063                0.963250547     -54.7004545
9.064                0.963180191     -54.7737051
9.065                0.963109621     -54.8471187
9.066                0.963038836     -54.9206957
9.067                0.962967834     -54.9944366
9.068                0.962896617     -55.0683419
9.069                0.962825181     -55.1424122
9.07                 0.962753528      -55.216648
9.071                0.962681656     -55.2910497
9.072                0.962609564      -55.365618
9.073                0.962537253     -55.4403533
9.074                 0.96246472     -55.5152562
9.075                0.962391965     -55.5903272
9.076                0.962318988     -55.6655669
9.077                0.962245787     -55.7409757
9.078                0.962172362     -55.8165542
9.079                0.962098713     -55.8923029
9.08                 0.962024838     -55.9682224
9.081                0.961950737     -56.0443132
9.082                0.961876409     -56.1205759
9.083                0.961801853      -56.197011
9.084                0.961727068     -56.2736191
9.085                0.961652054     -56.3504006
9.086                 0.96157681     -56.4273562
9.087                0.961501335     -56.5044865
9.088                0.961425629     -56.5817918
9.089                 0.96134969     -56.6592729
9.09                 0.961273518     -56.7369303
9.091                0.961197112     -56.8147645
9.092                0.961120471     -56.8927761
9.093                0.961043594     -56.9709657
9.094                0.960966481     -57.0493338
9.095                0.960889132      -57.127881
9.096                0.960811544     -57.2066079
9.097                0.960733717      -57.285515
9.098                0.960655651      -57.364603
9.099                0.960577345     -57.4438723
9.1                  0.960498797     -57.5233236
9.101                0.960420008     -57.6029575
9.102                0.960340976     -57.6827745
9.103                  0.9602617     -57.7627753
9.104                 0.96018218     -57.8429604
9.105                0.960102415     -57.9233304
9.106                0.960022404     -58.0038858
9.107                0.959942147     -58.0846274
9.108                0.959861641     -58.1655557
9.109                0.959780887     -58.2466713
9.11                 0.959699884     -58.3279747
9.111                0.959618631     -58.4094667
9.112                0.959537127     -58.4911477
9.113                0.959455372     -58.5730184
9.114                0.959373364     -58.6550795
9.115                0.959291102     -58.7373315
9.116                0.959208586      -58.819775
9.117                0.959125815     -58.9024107
9.118                0.959042789     -58.9852392
9.119                0.958959505      -59.068261
9.12                 0.958875964     -59.1514769
9.121                0.958792165     -59.2348875
9.122                0.958708106     -59.3184932
9.123                0.958623787     -59.4022949
9.124                0.958539207     -59.4862932
9.125                0.958454365     -59.5704886
9.126                0.958369261     -59.6548818
9.127                0.958283893     -59.7394734
9.128                0.958198261     -59.8242641
9.129                0.958112363     -59.9092546
9.13                 0.958026199     -59.9944454
9.131                0.957939769     -60.0798372
9.132                 0.95785307     -60.1654308
9.133                0.957766102     -60.2512266
9.134                0.957678865     -60.3372254
9.135                0.957591358     -60.4234278
9.136                0.957503579     -60.5098346
9.137                0.957415528     -60.5964463
9.138                0.957327203     -60.6832636
9.139                0.957238605     -60.7702872
9.14                 0.957149732     -60.8575177
9.141                0.957060583     -60.9449559
9.142                0.956971157     -61.0326024
9.143                0.956881453     -61.1204578
9.144                0.956791472      -61.208523
9.145                 0.95670121     -61.2967984
9.146                0.956610669     -61.3852849
9.147                0.956519846      -61.473983
9.148                0.956428741     -61.5628936
9.149                0.956337354     -61.6520173
9.15                 0.956245682     -61.7413547
9.151                0.956153726     -61.8309066
9.152                0.956061484     -61.9206736
9.153                0.955968955     -62.0106566
9.154                0.955876139     -62.1008561
9.155                0.955783034     -62.1912729
9.156                 0.95568964     -62.2819076
9.157                0.955595955     -62.3727611
9.158                 0.95550198      -62.463834
9.159                0.955407712      -62.555127
9.16                 0.955313152     -62.6466409
9.161                0.955218297     -62.7383763
9.162                0.955123147      -62.830334
9.163                0.955027702     -62.9225147
9.164                 0.95493196     -63.0149191
9.165                 0.95483592     -63.1075481
9.166                0.954739582     -63.2004022
9.167                0.954642944     -63.2934822
9.168                0.954546005      -63.386789
9.169                0.954448766     -63.4803231
9.17                 0.954351223     -63.5740855
9.171                0.954253378     -63.6680767
9.172                0.954155228     -63.7622976
9.173                0.954056773     -63.8567489
9.174                0.953958012     -63.9514313
9.175                0.953858944     -64.0463457
9.176                0.953759568     -64.1414927
9.177                0.953659883     -64.2368732
9.178                0.953559888     -64.3324879
9.179                0.953459582     -64.4283375
9.18                 0.953358964     -64.5244229
9.181                0.953258034     -64.6207448
9.182                0.953156789      -64.717304
9.183                 0.95305523     -64.8141012
9.184                0.952953356     -64.9111373
9.185                0.952851165      -65.008413
9.186                0.952748656     -65.1059291
9.187                0.952645829     -65.2036864
9.188                0.952542682     -65.3016857
9.189                0.952439215     -65.3999278
9.19                 0.952335426     -65.4984135
9.191                0.952231315     -65.5971435
9.192                0.952126881     -65.6961187
9.193                0.952022122     -65.7953399
9.194                0.951917038     -65.8948079
9.195                0.951811628     -65.9945235
9.196                0.951705891     -66.0944875
9.197                0.951599825     -66.1947007
9.198                0.951493431     -66.2951639
9.199                0.951386706     -66.3958781
9.2                   0.95127965     -66.4968439
9.201                0.951172262     -66.5980622
9.202                0.951064541     -66.6995339
9.203                0.950956486     -66.8012597
9.204                0.950848096     -66.9032406
9.205                 0.95073937     -67.0054773
9.206                0.950630307     -67.1079707
9.207                0.950520907     -67.2107216
9.208                0.950411167     -67.3137309
9.209                0.950301088     -67.4169994
9.21                 0.950190668     -67.5205279
9.211                0.950079906     -67.6243174
9.212                0.949968801     -67.7283687
9.213                0.949857352     -67.8326827
9.214                0.949745559     -67.9372601
9.215                 0.94963342     -68.0421019
9.216                0.949520934     -68.1472089
9.217                0.949408101     -68.2525821
9.218                0.949294919     -68.3582222
9.219                0.949181388     -68.4641302
9.22                 0.949067506     -68.5703069
9.221                0.948953272     -68.6767533
9.222                0.948838686     -68.7834701
9.223                0.948723746     -68.8904584
9.224                0.948608452     -68.9977189
9.225                0.948492803     -69.1052526
9.226                0.948376797     -69.2130604
9.227                0.948260434     -69.3211431
9.228                0.948143712     -69.4295017
9.229                0.948026631     -69.5381371
9.23                  0.94790919     -69.6470502
9.231                0.947791388     -69.7562418
9.232                0.947673223      -69.865713
9.233                0.947554695     -69.9754646
9.234                0.947435803     -70.0854976
9.235                0.947316546     -70.1958128
9.236                0.947196923     -70.3064112
9.237                0.947076933     -70.4172937
9.238                0.946956575     -70.5284612
9.239                0.946835847     -70.6399148
9.24                  0.94671475     -70.7516552
9.241                0.946593283     -70.8636836
9.242                0.946471443     -70.9760007
9.243                0.946349231     -71.0886075
9.244                0.946226644     -71.2015051
9.245                0.946103684     -71.3146943
9.246                0.945980347      -71.428176
9.247                0.945856634     -71.5419514
9.248                0.945732544     -71.6560212
9.249                0.945608075     -71.7703865
9.25                 0.945483227     -71.8850483
9.251                0.945357998     -72.0000074
9.252                0.945232388      -72.115265
9.253                0.945106396     -72.2308219
9.254                0.944980021     -72.3466791
9.255                0.944853262     -72.4628376
9.256                0.944726118     -72.5792984
9.257                0.944598588     -72.6960624
9.258                0.944470672     -72.8131308
9.259                0.944342367     -72.9305043
9.26                 0.944213674     -73.0481842
9.261                0.944084592     -73.1661712
9.262                0.943955119     -73.2844665
9.263                0.943825255     -73.4030711
9.264                0.943694998     -73.5219859
9.265                0.943564349     -73.6412119
9.266                0.943433305     -73.7607502
9.267                0.943301867     -73.8806018
9.268                0.943170033     -74.0007677
9.269                0.943037802     -74.1212488
9.27                 0.942905173     -74.2420464
9.271                0.942772147     -74.3631613
9.272                 0.94263872     -74.4845945
9.273                0.942504894     -74.6063472
9.274                0.942370667     -74.7284204
9.275                0.942236038      -74.850815
9.276                0.942101006     -74.9735321
9.277                0.941965571     -75.0965728
9.278                0.941829731     -75.2199382
9.279                0.941693486     -75.3436292
9.28                 0.941556835     -75.4676469
9.281                0.941419777     -75.5919923
9.282                0.941282312     -75.7166666
9.283                0.941144438     -75.8416707
9.284                0.941006155     -75.9670058
9.285                0.940867461     -76.0926729
9.286                0.940728357      -76.218673
9.287                0.940588841     -76.3450073
9.288                0.940448912     -76.4716768
9.289                 0.94030857     -76.5986826
9.29                 0.940167814     -76.7260257
9.291                0.940026644     -76.8537072
9.292                0.939885057     -76.9817283
9.293                0.939743055       -77.11009
9.294                0.939600635     -77.2387934
9.295                0.939457798     -77.3678395
9.296                0.939314542     -77.4972295
9.297                0.939170866     -77.6269645
9.298                0.939026771     -77.7570456
9.299                0.938882255     -77.8874738
9.3                  0.938737318     -78.0182503
9.301                0.938591958     -78.1493762
9.302                0.938446176     -78.2808526
9.303                 0.93829997     -78.4126806
9.304                 0.93815334     -78.5448613
9.305                0.938006286     -78.6773958
9.306                0.937858806     -78.8102852
9.307                0.937710899     -78.9435307
9.308                0.937562566     -79.0771334
9.309                0.937413806     -79.2110945
9.31                 0.937264618     -79.3454149
9.311                0.937115001      -79.480096
9.312                0.936964955     -79.6151387
9.313                0.936814479     -79.7505443
9.314                0.936663573     -79.8863139
9.315                0.936512236     -80.0224486
9.316                0.936360467     -80.1589496
9.317                0.936208266     -80.2958179
9.318                0.936055633     -80.4330549
9.319                0.935902567     -80.5706615
9.32                 0.935749067      -80.708639
9.321                0.935595133     -80.8469885
9.322                0.935440764     -80.9857111
9.323                 0.93528596     -81.1248081
9.324                 0.93513072     -81.2642806
9.325                0.934975045     -81.4041297
9.326                0.934818933     -81.5443566
9.327                0.934662384     -81.6849625
9.328                0.934505397     -81.8259486
9.329                0.934347973      -81.967316
9.33                 0.934190111     -82.1090658
9.331                 0.93403181     -82.2511994
9.332                 0.93387307     -82.3937177
9.333                0.933713891     -82.5366221
9.334                0.933554272     -82.6799137
9.335                0.933394213     -82.8235937
9.336                0.933233714     -82.9676633
9.337                0.933072775     -83.1121236
9.338                0.932911394     -83.2569758
9.339                0.932749572     -83.4022212
9.34                 0.932587309     -83.5478609
9.341                0.932424604     -83.6938962
9.342                0.932261457     -83.8403281
9.343                0.932097868     -83.9871579
9.344                0.931933837     -84.1343869
9.345                0.931769363     -84.2820162
9.346                0.931604447      -84.430047
9.347                0.931439087     -84.5784805
9.348                0.931273285     -84.7273179
9.349                0.931107039     -84.8765604
9.35                 0.930940351     -85.0262093
9.351                0.930773219     -85.1762657
9.352                0.930605643     -85.3267308
9.353                0.930437625     -85.4776059
9.354                0.930269162     -85.6288922
9.355                0.930100257     -85.7805909
9.356                0.929930908     -85.9327032
9.357                0.929761115     -86.0852303
9.358                0.929590879     -86.2381734
9.359                  0.9294202     -86.3915338
9.36                 0.929249078     -86.5453127
9.361                0.929077512     -86.6995112
9.362                0.928905503     -86.8541307
9.363                0.928733052     -87.0091724
9.364                0.928560157     -87.1646373
9.365                0.928386821     -87.3205269
9.366                0.928213041     -87.4768423
9.367                 0.92803882     -87.6335847
9.368                0.927864157     -87.7907554
9.369                0.927689052     -87.9483556
9.37                 0.927513506     -88.1063865
9.371                0.927337519     -88.2648493
9.372                0.927161091     -88.4237454
9.373                0.926984223     -88.5830758
9.374                0.926806915     -88.7428418
9.375                0.926629167     -88.9030448
9.376                0.926450981     -89.0636858
9.377                0.926272355     -89.2247661
9.378                0.926093292      -89.386287
9.379                0.925913791     -89.5482497
9.38                 0.925733852     -89.7106554
9.381                0.925553477     -89.8735054
9.382                0.925372666     -90.0368008
9.383                 0.92519142     -90.2005429
9.384                0.925009738      -90.364733
9.385                0.924827623     -90.5293722
9.386                0.924645074     -90.6944619
9.387                0.924462093     -90.8600031
9.388                0.924278679     -91.0259972
9.389                0.924094834     -91.1924455
9.39                 0.923910559      -91.359349
9.391                0.923725854      -91.526709
9.392                 0.92354072     -91.6945269
9.393                0.923355158     -91.8628037
9.394                0.923169169     -92.0315407
9.395                0.922982755     -92.2007392
9.396                0.922795915     -92.3704004
