! TOUCHSTONE file generated by CST DESIGN STUDIO
! Date and time: Tue Feb  4 17:16:59 2025
! Project name: C:\Work\MatlabApps\UnitCellOptimizationMatlab\CST\unitcell.cst
! Tree item: Tasks\Sweep1\SPara1\S-Parameters
! Header version: 2024
! Port assignment regex: !\s*Touchstone port\s*([0-9]+)\s*=\s*(CST MWS port|CST DES external port|CST DES block port)\s*(.+)\s* \(\"(.*)\"\)(\s*mode\s*([0-9]+))?.*
! Touchstone port assignment:
! Touchstone port 1 = CST DES external port 1 ("")
# GHz S MA R 50
9                     0.96282838     -61.0156473
9.001                 0.96274833     -61.0996511
9.002                0.962668033     -61.1838502
9.003                0.962587489     -61.2682454
9.004                0.962506696     -61.3528373
9.005                0.962425655     -61.4376264
9.006                0.962344364     -61.5226133
9.007                0.962262823     -61.6077988
9.008                 0.96218103     -61.6931834
9.009                0.962098986     -61.7787678
9.01                 0.962016688     -61.8645526
9.011                0.961934137     -61.9505384
9.012                0.961851331     -62.0367259
9.013                 0.96176827     -62.1231157
9.014                0.961684952     -62.2097084
9.015                0.961601378     -62.2965047
9.016                0.961517545     -62.3835053
9.017                0.961433454     -62.4707107
9.018                0.961349103     -62.5581217
9.019                0.961264492     -62.6457388
9.02                  0.96117962     -62.7335628
9.021                0.961094486     -62.8215943
9.022                0.961009089     -62.9098339
9.023                0.960923428     -62.9982823
9.024                0.960837503     -63.0869402
9.025                0.960751312     -63.1758083
9.026                0.960664855     -63.2648871
9.027                0.960578131     -63.3541775
9.028                0.960491139       -63.44368
9.029                0.960403878     -63.5333953
9.03                 0.960316348     -63.6233241
9.031                0.960228547     -63.7134671
9.032                0.960140475     -63.8038249
9.033                 0.96005213     -63.8943983
9.034                0.959963513     -63.9851879
9.035                0.959874621     -64.0761945
9.036                0.959785455     -64.1674186
9.037                0.959696013     -64.2588611
9.038                0.959606295     -64.3505225
9.039                0.959516299     -64.4424037
9.04                 0.959426025     -64.5345052
9.041                0.959335472     -64.6268278
9.042                0.959244639     -64.7193723
9.043                0.959153525     -64.8121392
9.044                0.959062129     -64.9051294
9.045                0.958970451     -64.9983435
9.046                0.958878489     -65.0917823
9.047                0.958786243     -65.1854464
9.048                0.958693712     -65.2793366
9.049                0.958600894     -65.3734536
9.05                  0.95850779     -65.4677981
9.051                0.958414397     -65.5623709
9.052                0.958320716     -65.6571727
9.053                0.958226746     -65.7522041
9.054                0.958132484     -65.8474661
9.055                0.958037932     -65.9429592
9.056                0.957943087     -66.0386842
9.057                0.957847949     -66.1346419
9.058                0.957752516      -66.230833
9.059                0.957656789     -66.3272582
9.06                 0.957560766     -66.4239184
9.061                0.957464446     -66.5208142
9.062                0.957367829     -66.6179464
9.063                0.957270913     -66.7153158
9.064                0.957173697     -66.8129231
9.065                0.957076181      -66.910769
9.066                0.956978364     -67.0088544
9.067                0.956880245     -67.1071801
9.068                0.956781822     -67.2057466
9.069                0.956683096      -67.304555
9.07                 0.956584065     -67.4036058
9.071                0.956484728        -67.5029
9.072                0.956385085     -67.6024382
9.073                0.956285134     -67.7022213
9.074                0.956184874       -67.80225
9.075                0.956084305     -67.9025252
9.076                0.955983426     -68.0030475
9.077                0.955882236     -68.1038179
9.078                0.955780734      -68.204837
9.079                0.955678918     -68.3061058
9.08                 0.955576789     -68.4076249
9.081                0.955474345     -68.5093953
9.082                0.955371585     -68.6114176
9.083                0.955268509     -68.7136927
9.084                0.955165115     -68.8162215
9.085                0.955061402     -68.9190046
9.086                0.954957371      -69.022043
9.087                0.954853019     -69.1253374
9.088                0.954748346     -69.2288888
9.089                0.954643351     -69.3326978
9.09                 0.954538033     -69.4367653
9.091                0.954432391     -69.5410921
9.092                0.954326424     -69.6456792
9.093                0.954220131     -69.7505272
9.094                0.954113512     -69.8556371
9.095                0.954006566     -69.9610096
9.096                0.953899291     -70.0666457
9.097                0.953791686     -70.1725461
9.098                0.953683752     -70.2787117
9.099                0.953575486     -70.3851433
9.1                  0.953466888     -70.4918419
9.101                0.953357957     -70.5988082
9.102                0.953248693     -70.7060431
9.103                0.953139094     -70.8135475
9.104                0.953029158     -70.9213222
9.105                0.952918887     -71.0293681
9.106                0.952808278      -71.137686
9.107                 0.95269733     -71.2462769
9.108                0.952586044     -71.3551415
9.109                0.952474417     -71.4642808
9.11                 0.952362449     -71.5736956
9.111                0.952250139     -71.6833869
9.112                0.952137486     -71.7933555
9.113                0.952024489     -71.9036022
9.114                0.951911148      -72.014128
9.115                0.951797461     -72.1249338
9.116                0.951683428     -72.2360204
9.117                0.951569047     -72.3473887
9.118                0.951454318     -72.4590397
9.119                 0.95133924     -72.5709742
9.12                 0.951223812     -72.6831932
9.121                0.951108033     -72.7956975
9.122                0.950991903     -72.9084881
9.123                0.950875419     -73.0215658
9.124                0.950758582     -73.1349316
9.125                0.950641391     -73.2485864
9.126                0.950523845     -73.3625311
9.127                0.950405942     -73.4767666
9.128                0.950287682     -73.5912939
9.129                0.950169065     -73.7061139
9.13                 0.950050088     -73.8212274
9.131                0.949930752     -73.9366355
9.132                0.949811056      -74.052339
9.133                0.949690998      -74.168339
9.134                0.949570578     -74.2846362
9.135                0.949449795     -74.4012318
9.136                0.949328648     -74.5181266
9.137                0.949207136     -74.6353215
9.138                0.949085259     -74.7528176
9.139                0.948963015     -74.8706157
9.14                 0.948840404     -74.9887169
9.141                0.948717425      -75.107122
9.142                0.948594077     -75.2258321
9.143                0.948470359     -75.3448481
9.144                 0.94834627     -75.4641709
9.145                 0.94822181     -75.5838015
9.146                0.948096978      -75.703741
9.147                0.947971773     -75.8239902
9.148                0.947846194     -75.9445501
9.149                 0.94772024     -76.0654218
9.15                 0.947593911     -76.1866062
9.151                0.947467205     -76.3081042
9.152                0.947340123     -76.4299169
9.153                0.947212662     -76.5520452
9.154                0.947084823     -76.6744902
9.155                0.946956604     -76.7972528
9.156                0.946828005      -76.920334
9.157                0.946699025     -77.0437349
9.158                0.946569664     -77.1674563
9.159                 0.94643992     -77.2914994
9.16                 0.946309792     -77.4158651
9.161                0.946179281     -77.5405544
9.162                0.946048385     -77.6655683
9.163                0.945917103     -77.7909079
9.164                0.945785435     -77.9165741
9.165                 0.94565338      -78.042568
9.166                0.945520937     -78.1688906
9.167                0.945388106     -78.2955429
9.168                0.945254885     -78.4225259
9.169                0.945121275     -78.5498407
9.17                 0.944987274     -78.6774883
9.171                0.944852882     -78.8054696
9.172                0.944718098     -78.9337859
9.173                0.944582921     -79.0624379
9.174                0.944447351     -79.1914269
9.175                0.944311387     -79.3207539
9.176                0.944175029     -79.4504198
9.177                0.944038275     -79.5804258
9.178                0.943901125     -79.7107729
9.179                0.943763578      -79.841462
9.18                 0.943625634     -79.9724944
9.181                0.943487293      -80.103871
9.182                0.943348552     -80.2355928
9.183                0.943209413      -80.367661
9.184                0.943069874     -80.5000766
9.185                0.942929935     -80.6328407
9.186                0.942789595     -80.7659543
9.187                0.942648853     -80.8994184
9.188                0.942507709     -81.0332342
9.189                0.942366163     -81.1674027
9.19                 0.942224214      -81.301925
9.191                 0.94208186     -81.4368022
9.192                0.941939103     -81.5720353
9.193                0.941795941     -81.7076254
9.194                0.941652373     -81.8435736
9.195                  0.9415084     -81.9798809
9.196                0.941364021     -82.1165486
9.197                0.941219234     -82.2535775
9.198                0.941074041     -82.3909689
9.199                 0.94092844     -82.5287238
9.2                   0.94078243     -82.6668433
9.201                0.940636012     -82.8053284
9.202                0.940489185     -82.9441804
9.203                0.940341948     -83.0834002
9.204                0.940194302      -83.222989
9.205                0.940046245     -83.3629479
9.206                0.939897777      -83.503278
9.207                0.939748899     -83.6439803
9.208                0.939599609     -83.7850561
9.209                0.939449907     -83.9265063
9.21                 0.939299793     -84.0683321
9.211                0.939149266     -84.2105346
9.212                0.938998327     -84.3531149
9.213                0.938846974     -84.4960741
9.214                0.938695209     -84.6394134
9.215                0.938543029     -84.7831338
9.216                0.938390436     -84.9272365
9.217                0.938237428     -85.0717225
9.218                0.938084006     -85.2165931
9.219                0.937930169     -85.3618493
9.22                 0.937775917     -85.5074922
9.221                 0.93762125      -85.653523
9.222                0.937466168     -85.7999427
9.223                 0.93731067     -85.9467526
9.224                0.937154757     -86.0939537
9.225                0.936998428     -86.2415472
9.226                0.936841683     -86.3895342
9.227                0.936684522     -86.5379158
9.228                0.936526945     -86.6866931
9.229                0.936368952     -86.8358673
9.23                 0.936210542     -86.9854396
9.231                0.936051716      -87.135411
9.232                0.935892474     -87.2857827
9.233                0.935732816     -87.4365557
9.234                0.935572741     -87.5877314
9.235                 0.93541225     -87.7393107
9.236                0.935251343     -87.8912949
9.237                0.935090019      -88.043685
9.238                0.934928279     -88.1964822
9.239                0.934766123     -88.3496877
9.24                 0.934603552     -88.5033026
9.241                0.934440564     -88.6573279
9.242                0.934277161      -88.811765
9.243                0.934113342     -88.9666148
9.244                0.933949108     -89.1218786
9.245                0.933784458     -89.2775575
9.246                0.933619394     -89.4336526
9.247                0.933453915      -89.590165
9.248                0.933288022      -89.747096
9.249                0.933121714     -89.9044467
9.25                 0.932954993     -90.0622181
9.251                0.932787858     -90.2204115
9.252                 0.93262031      -90.379028
9.253                 0.93245235     -90.5380687
9.254                0.932283976     -90.6975348
9.255                0.932115191     -90.8574274
9.256                0.931945994     -91.0177477
9.257                0.931776387     -91.1784967
9.258                0.931606368     -91.3396757
9.259                0.931435939     -91.5012858
9.26                 0.931265101     -91.6633281
9.261                0.931093854     -91.8258038
9.262                0.930922198     -91.9887139
9.263                0.930750134     -92.1520598
9.264                0.930577663     -92.3158424
9.265                0.930404785     -92.4800629
9.266                0.930231501     -92.6447225
9.267                0.930057812     -92.8098223
9.268                0.929883719     -92.9753634
9.269                0.929709222      -93.141347
9.27                 0.929534321     -93.3077742
9.271                0.929359018     -93.4746461
9.272                0.929183314     -93.6419639
9.273                0.929007209     -93.8097287
9.274                0.928830705     -93.9779416
9.275                0.928653802     -94.1466038
9.276                0.928476501     -94.3157163
9.277                0.928298802     -94.4852804
9.278                0.928120708     -94.6552971
9.279                0.927942219     -94.8257675
9.28                 0.927763337     -94.9966928
9.281                0.927584061     -95.1680741
9.282                0.927404394     -95.3399125
9.283                0.927224336     -95.5122091
9.284                0.927043889     -95.6849651
9.285                0.926863053     -95.8581815
9.286                0.926681831     -96.0318594
9.287                0.926500222         -96.206
9.288                 0.92631823     -96.3806044
9.289                0.926135854     -96.5556736
9.29                 0.925953096     -96.7312088
9.291                0.925769958     -96.9072111
9.292                0.925586442     -97.0836815
9.293                0.925402547     -97.2606211
9.294                0.925218277     -97.4380311
9.295                0.925033631     -97.6159125
9.296                0.924848613     -97.7942664
9.297                0.924663224     -97.9730939
9.298                0.924477465      -98.152396
9.299                0.924291337     -98.3321739
9.3                  0.924104843     -98.5124286
9.301                0.923917985     -98.6931611
9.302                0.923730763     -98.8743726
9.303                 0.92354318      -99.056064
9.304                0.923355238     -99.2382365
9.305                0.923166938     -99.4208911
9.306                0.922978283     -99.6040289
9.307                0.922789274     -99.7876508
9.308                0.922599913      -99.971758
9.309                0.922410203     -100.156351
9.31                 0.922220145     -100.341432
9.311                0.922029742     -100.527001
9.312                0.921838995      -100.71306
9.313                0.921647907     -100.899608
9.314                 0.92145648     -101.086649
9.315                0.921264716     -101.274181
9.316                0.921072617     -101.462207
9.317                0.920880187     -101.650728
9.318                0.920687426     -101.839743
9.319                0.920494339     -102.029255
9.32                 0.920300926     -102.219265
9.321                0.920107191     -102.409773
9.322                0.919913136      -102.60078
9.323                0.919718764     -102.792287
9.324                0.919524077     -102.984296
9.325                0.919329078     -103.176807
9.326                 0.91913377     -103.369821
9.327                0.918938155     -103.563339
9.328                0.918742236     -103.757362
9.329                0.918546017     -103.951891
9.33                 0.918349499     -104.146927
9.331                0.918152686     -104.342471
9.332                0.917955581     -104.538524
9.333                0.917758187     -104.735086
9.334                0.917560507     -104.932158
9.335                0.917362544     -105.129742
9.336                0.917164301     -105.327839
9.337                0.916965781     -105.526448
9.338                0.916766989     -105.725572
9.339                0.916567926      -105.92521
9.34                 0.916368596     -106.125365
9.341                0.916169003     -106.326035
9.342                 0.91596915     -106.527224
9.343                0.915769041      -106.72893
9.344                0.915568679     -106.931156
9.345                0.915368068     -107.133901
9.346                0.915167211     -107.337168
9.347                0.914966113     -107.540955
9.348                0.914764776     -107.745265
9.349                0.914563205     -107.950098
9.35                 0.914361403     -108.155455
9.351                0.914159374     -108.361337
9.352                0.913957123     -108.567744
9.353                0.913754653     -108.774677
9.354                0.913551969     -108.982137
9.355                0.913349073     -109.190124
9.356                0.913145972      -109.39864
9.357                0.912942668     -109.607684
9.358                0.912739166     -109.817258
9.359                0.912535471     -110.027363
9.36                 0.912331586     -110.237999
9.361                0.912127516     -110.449166
9.362                0.911923266     -110.660866
9.363                 0.91171884     -110.873098
9.364                0.911514242     -111.085864
9.365                0.911309478     -111.299165
9.366                0.911104552        -111.513
9.367                0.910899469      -111.72737
9.368                0.910694233     -111.942277
9.369                0.910488849      -112.15772
9.37                 0.910283323       -112.3737
9.371                0.910077659     -112.590218
9.372                0.909871862     -112.807275
9.373                0.909665937     -113.024869
9.374                 0.90945989     -113.243003
9.375                0.909253725     -113.461677
9.376                0.909047449     -113.680891
9.377                0.908841065     -113.900646
9.378                 0.90863458     -114.120942
9.379                0.908427999      -114.34178
9.38                 0.908221327     -114.563159
9.381                 0.90801457     -114.785081
9.382                0.907807734     -115.007546
9.383                0.907600823     -115.230554
9.384                0.907393845     -115.454105
9.385                0.907186804     -115.678201
9.386                0.906979706     -115.902841
9.387                0.906772558     -116.128025
9.388                0.906565365     -116.353755
9.389                0.906358133     -116.580029
9.39                 0.906150868      -116.80685
9.391                0.905943576     -117.034216
9.392                0.905736264     -117.262128
9.393                0.905528938     -117.490586
9.394                0.905321604     -117.719591
9.395                0.905114268     -117.949143
9.396                0.904906936     -118.179242
