! TOUCHSTONE file generated by CST DESIGN STUDIO
! Date and time: Tue Feb  4 17:17:06 2025
! Project name: C:\Work\MatlabApps\UnitCellOptimizationMatlab\CST\unitcell.cst
! Tree item: Tasks\Sweep1\SPara1\S-Parameters
! Header version: 2024
! Port assignment regex: !\s*Touchstone port\s*([0-9]+)\s*=\s*(CST MWS port|CST DES external port|CST DES block port)\s*(.+)\s* \(\"(.*)\"\)(\s*mode\s*([0-9]+))?.*
! Touchstone port assignment:
! Touchstone port 1 = CST DES external port 1 ("")
# GHz S MA R 50
9                    0.968726209     -47.0207433
9.001                0.968674978     -47.0791883
9.002                0.968623595     -47.1377516
9.003                0.968572059     -47.1964334
9.004                0.968520369     -47.2552342
9.005                0.968468526     -47.3141542
9.006                0.968416528     -47.3731938
9.007                0.968364375     -47.4323534
9.008                0.968312065     -47.4916333
9.009                  0.9682596     -47.5510339
9.01                 0.968206978     -47.6105556
9.011                0.968154198     -47.6701986
9.012                 0.96810126     -47.7299635
9.013                0.968048163     -47.7898504
9.014                0.967994907     -47.8498599
9.015                0.967941491     -47.9099922
9.016                0.967887915     -47.9702478
9.017                0.967834177     -48.0306269
9.018                0.967780278     -48.0911301
9.019                0.967726216     -48.1517575
9.02                 0.967671992     -48.2125097
9.021                0.967617604      -48.273387
9.022                0.967563052     -48.3343897
9.023                0.967508335     -48.3955183
9.024                0.967453453      -48.456773
9.025                0.967398405     -48.5181544
9.026                 0.96734319     -48.5796628
9.027                0.967287808     -48.6412985
9.028                0.967232258     -48.7030619
9.029                 0.96717654     -48.7649535
9.03                 0.967120653     -48.8269736
9.031                0.967064596     -48.8891225
9.032                0.967008369     -48.9514008
9.033                0.966951971     -49.0138087
9.034                0.966895401     -49.0763467
9.035                0.966838659     -49.1390152
9.036                0.966781744     -49.2018145
9.037                0.966724656      -49.264745
9.038                0.966667394     -49.3278072
9.039                0.966609956     -49.3910015
9.04                 0.966552344     -49.4543281
9.041                0.966494555     -49.5177877
9.042                 0.96643659     -49.5813804
9.043                0.966378448     -49.6451068
9.044                0.966320127     -49.7089673
9.045                0.966261628     -49.7729622
9.046                 0.96620295      -49.837092
9.047                0.966144091     -49.9013571
9.048                0.966085052     -49.9657579
9.049                0.966025832     -50.0302947
9.05                  0.96596643     -50.0949681
9.051                0.965906846     -50.1597784
9.052                0.965847078      -50.224726
9.053                0.965787127     -50.2898115
9.054                0.965726991     -50.3550351
9.055                0.965666669     -50.4203973
9.056                0.965606162     -50.4858985
9.057                0.965545469     -50.5515392
9.058                0.965484588     -50.6173198
9.059                0.965423519     -50.6832407
9.06                 0.965362262     -50.7493023
9.061                0.965300816     -50.8155051
9.062                0.965239179     -50.8818495
9.063                0.965177353     -50.9483359
9.064                0.965115335     -51.0149648
9.065                0.965053125     -51.0817366
9.066                0.964990722     -51.1486517
9.067                0.964928126     -51.2157106
9.068                0.964865337     -51.2829138
9.069                0.964802352     -51.3502616
9.07                 0.964739173     -51.4177545
9.071                0.964675797      -51.485393
9.072                0.964612225     -51.5531775
9.073                0.964548455     -51.6211084
9.074                0.964484487     -51.6891863
9.075                 0.96442032     -51.7574115
9.076                0.964355954     -51.8257846
9.077                0.964291388     -51.8943059
9.078                0.964226621     -51.9629759
9.079                0.964161652     -52.0317951
9.08                 0.964096481      -52.100764
9.081                0.964031108      -52.169883
9.082                 0.96396553     -52.2391526
9.083                0.963899748     -52.3085732
9.084                0.963833761     -52.3781453
9.085                0.963767568     -52.4478694
9.086                0.963701169      -52.517746
9.087                0.963634563     -52.5877755
9.088                0.963567748     -52.6579584
9.089                0.963500725     -52.7282951
9.09                 0.963433493     -52.7987863
9.091                0.963366051     -52.8694322
9.092                0.963298397     -52.9402335
9.093                0.963230533     -53.0111906
9.094                0.963162456      -53.082304
9.095                0.963094166     -53.1535741
9.096                0.963025663     -53.2250015
9.097                0.962956945     -53.2965867
9.098                0.962888012     -53.3683301
9.099                0.962818864     -53.4402323
9.1                  0.962749498     -53.5122937
9.101                0.962679916     -53.5845148
9.102                0.962610115     -53.6568962
9.103                0.962540096     -53.7294383
9.104                0.962469857     -53.8021417
9.105                0.962399398     -53.8750068
9.106                0.962328719     -53.9480341
9.107                0.962257817     -54.0212243
9.108                0.962186693     -54.0945777
9.109                0.962115346     -54.1680949
9.11                 0.962043775     -54.2417764
9.111                0.961971979     -54.3156227
9.112                0.961899958     -54.3896343
9.113                0.961827711     -54.4638119
9.114                0.961755237     -54.5381558
9.115                0.961682535     -54.6126666
9.116                0.961609605     -54.6873448
9.117                0.961536446      -54.762191
9.118                0.961463057     -54.8372058
9.119                0.961389437     -54.9123895
9.12                 0.961315586     -54.9877428
9.121                0.961241503     -55.0632662
9.122                0.961167187     -55.1389602
9.123                0.961092637     -55.2148254
9.124                0.961017853     -55.2908624
9.125                0.960942834     -55.3670716
9.126                0.960867578     -55.4434536
9.127                0.960792086      -55.520009
9.128                0.960716357     -55.5967382
9.129                0.960640389      -55.673642
9.13                 0.960564182     -55.7507207
9.131                0.960487736     -55.8279751
9.132                0.960411049     -55.9054056
9.133                 0.96033412     -55.9830127
9.134                0.960256949     -56.0607972
9.135                0.960179536     -56.1387594
9.136                0.960101879     -56.2169001
9.137                0.960023977     -56.2952197
9.138                 0.95994583     -56.3737188
9.139                0.959867437     -56.4523981
9.14                 0.959788798      -56.531258
9.141                0.959709911     -56.6102992
9.142                0.959630775     -56.6895222
9.143                 0.95955139     -56.7689277
9.144                0.959471755     -56.8485162
9.145                 0.95939187     -56.9282882
9.146                0.959311733     -57.0082445
9.147                0.959231343     -57.0883855
9.148                0.959150701     -57.1687119
9.149                0.959069804     -57.2492243
9.15                 0.958988653     -57.3299232
9.151                0.958907246     -57.4108093
9.152                0.958825583     -57.4918831
9.153                0.958743662     -57.5731453
9.154                0.958661484     -57.6545965
9.155                0.958579047     -57.7362373
9.156                 0.95849635     -57.8180683
9.157                0.958413393     -57.9000901
9.158                0.958330175     -57.9823033
9.159                0.958246694     -58.0647086
9.16                 0.958162951     -58.1473065
9.161                0.958078944     -58.2300978
9.162                0.957994673     -58.3130829
9.163                0.957910136     -58.3962626
9.164                0.957825333     -58.4796374
9.165                0.957740263     -58.5632081
9.166                0.957654926     -58.6469752
9.167                0.957569319     -58.7309394
9.168                0.957483444     -58.8151012
9.169                0.957397297     -58.8994615
9.17                  0.95731088     -58.9840207
9.171                0.957224191     -59.0687796
9.172                0.957137229     -59.1537388
9.173                0.957049993      -59.238899
9.174                0.956962483     -59.3242607
9.175                0.956874698     -59.4098247
9.176                0.956786636     -59.4955916
9.177                0.956698297     -59.5815621
9.178                 0.95660968     -59.6677369
9.179                0.956520785     -59.7541165
9.18                  0.95643161     -59.8407017
9.181                0.956342154     -59.9274932
9.182                0.956252417     -60.0144916
9.183                0.956162398     -60.1016976
9.184                0.956072096     -60.1891118
9.185                 0.95598151      -60.276735
9.186                 0.95589064     -60.3645679
9.187                0.955799483      -60.452611
9.188                 0.95570804     -60.5408652
9.189                 0.95561631     -60.6293311
9.19                 0.955524291     -60.7180094
9.191                0.955431984     -60.8069008
9.192                0.955339386     -60.8960059
9.193                0.955246498     -60.9853256
9.194                0.955153317     -61.0748605
9.195                0.955059844     -61.1646112
9.196                0.954966078     -61.2545786
9.197                0.954872017     -61.3447633
9.198                0.954777661      -61.435166
9.199                0.954683008     -61.5257875
9.2                  0.954588059     -61.6166284
9.201                0.954492812     -61.7076896
9.202                0.954397265     -61.7989716
9.203                0.954301419     -61.8904753
9.204                0.954205272     -61.9822014
9.205                0.954108824     -62.0741506
9.206                0.954012073     -62.1663236
9.207                0.953915019     -62.2587213
9.208                0.953817661     -62.3513442
9.209                0.953719997     -62.4441932
9.21                 0.953622027      -62.537269
9.211                0.953523751     -62.6305723
9.212                0.953425166      -62.724104
9.213                0.953326273     -62.8178647
9.214                 0.95322707     -62.9118553
9.215                0.953127556     -63.0060764
9.216                 0.95302773     -63.1005289
9.217                0.952927592     -63.1952134
9.218                0.952827141     -63.2901309
9.219                0.952726376     -63.3852819
9.22                 0.952625295     -63.4806674
9.221                0.952523897     -63.5762881
9.222                0.952422183     -63.6721448
9.223                0.952320151     -63.7682381
9.224                  0.9522178     -63.8645691
9.225                0.952115129     -63.9611383
9.226                0.952012137     -64.0579467
9.227                0.951908823     -64.1549949
9.228                0.951805186     -64.2522839
9.229                0.951701226     -64.3498143
9.23                 0.951596941      -64.447587
9.231                0.951492331     -64.5456028
9.232                0.951387394     -64.6438626
9.233                 0.95128213      -64.742367
9.234                0.951176537      -64.841117
9.235                0.951070615     -64.9401133
9.236                0.950964363     -65.0393567
9.237                 0.95085778     -65.1388482
9.238                0.950750864     -65.2385884
9.239                0.950643616     -65.3385782
9.24                 0.950536033     -65.4388185
9.241                0.950428115     -65.5393101
9.242                0.950319862     -65.6400538
9.243                0.950211271     -65.7410505
9.244                0.950102342      -65.842301
9.245                0.949993075     -65.9438061
9.246                0.949883468     -66.0455666
9.247                 0.94977352     -66.1475836
9.248                0.949663231     -66.2498577
9.249                0.949552598     -66.3523898
9.25                 0.949441622     -66.4551809
9.251                0.949330302     -66.5582317
9.252                0.949218636     -66.6615431
9.253                0.949106623      -66.765116
9.254                0.948994263     -66.8689513
9.255                0.948881555     -66.9730498
9.256                0.948768497     -67.0774124
9.257                0.948655089       -67.18204
9.258                0.948541329     -67.2869335
9.259                0.948427218     -67.3920937
9.26                 0.948312752     -67.4975216
9.261                0.948197933     -67.6032179
9.262                0.948082759     -67.7091837
9.263                0.947967228     -67.8154198
9.264                 0.94785134     -67.9219272
9.265                0.947735094     -68.0287066
9.266                0.947618489     -68.1357591
9.267                0.947501524     -68.2430855
9.268                0.947384198     -68.3506867
9.269                 0.94726651     -68.4585637
9.27                 0.947148459     -68.5667173
9.271                0.947030044     -68.6751485
9.272                0.946911265     -68.7838583
9.273                0.946792119     -68.8928475
9.274                0.946672607      -69.002117
9.275                0.946552727     -69.1116679
9.276                0.946432478     -69.2215009
9.277                 0.94631186     -69.3316172
9.278                0.946190871     -69.4420175
9.279                 0.94606951     -69.5527029
9.28                 0.945947777     -69.6636743
9.281                 0.94582567     -69.7749327
9.282                0.945703189     -69.8864789
9.283                0.945580332      -69.998314
9.284                0.945457099      -70.110439
9.285                0.945333489     -70.2228547
9.286                  0.9452095     -70.3355621
9.287                0.945085132     -70.4485623
9.288                0.944960384     -70.5618561
9.289                0.944835255     -70.6754446
9.29                 0.944709744     -70.7893287
9.291                0.944583849     -70.9035094
9.292                0.944457571     -71.0179877
9.293                0.944330907     -71.1327646
9.294                0.944203858     -71.2478411
9.295                0.944076422     -71.3632181
9.296                0.943948598     -71.4788967
9.297                0.943820386     -71.5948778
9.298                0.943691784     -71.7111625
9.299                0.943562791     -71.8277517
9.3                  0.943433407     -71.9446465
9.301                0.943303631     -72.0618479
9.302                0.943173461     -72.1793568
9.303                0.943042897     -72.2971744
9.304                0.942911937     -72.4153015
9.305                0.942780582     -72.5337393
9.306                 0.94264883     -72.6524888
9.307                0.942516679      -72.771551
9.308                 0.94238413     -72.8909269
9.309                0.942251182     -73.0106175
9.31                 0.942117832     -73.1306239
9.311                0.941984081     -73.2509472
9.312                0.941849928     -73.3715884
9.313                0.941715372     -73.4925484
9.314                0.941580411     -73.6138285
9.315                0.941445045     -73.7354295
9.316                0.941309273     -73.8573527
9.317                0.941173095     -73.9795989
9.318                0.941036509     -74.1021694
9.319                0.940899514     -74.2250651
9.32                  0.94076211     -74.3482872
9.321                0.940624296     -74.4718366
9.322                 0.94048607     -74.5957145
9.323                0.940347433     -74.7199219
9.324                0.940208383       -74.84446
9.325                0.940068919     -74.9693298
9.326                0.939929041     -75.0945323
9.327                0.939788747     -75.2200687
9.328                0.939648037     -75.3459401
9.329                0.939506911     -75.4721475
9.33                 0.939365366     -75.5986921
9.331                0.939223404     -75.7255749
9.332                0.939081021      -75.852797
9.333                0.938938219     -75.9803596
9.334                0.938794996     -76.1082638
9.335                0.938651351     -76.2365106
9.336                0.938507284     -76.3651012
9.337                0.938362793     -76.4940367
9.338                0.938217879     -76.6233182
9.339                0.938072539     -76.7529468
9.34                 0.937926775     -76.8829237
9.341                0.937780584       -77.01325
9.342                0.937633966     -77.1439268
9.343                 0.93748692     -77.2749552
9.344                0.937339446     -77.4063364
9.345                0.937191543     -77.5380715
9.346                 0.93704321     -77.6701617
9.347                0.936894447      -77.802608
9.348                0.936745252     -77.9354117
9.349                0.936595626     -78.0685739
9.35                 0.936445567     -78.2020957
9.351                0.936295075     -78.3359783
9.352                0.936144149     -78.4702229
9.353                0.935992788     -78.6048306
9.354                0.935840992     -78.7398025
9.355                0.935688761     -78.8751398
9.356                0.935536094     -79.0108438
9.357                0.935382989     -79.1469155
9.358                0.935229447     -79.2833562
9.359                0.935075467     -79.4201669
9.36                 0.934921048      -79.557349
9.361                0.934766189     -79.6949035
9.362                0.934610891     -79.8328317
9.363                0.934455153     -79.9711346
9.364                0.934298974     -80.1098136
9.365                0.934142353     -80.2488698
9.366                 0.93398529     -80.3883044
9.367                0.933827785     -80.5281186
9.368                0.933669837     -80.6683135
9.369                0.933511446     -80.8088905
9.37                 0.933352611     -80.9498506
9.371                0.933193332     -81.0911951
9.372                0.933033608     -81.2329251
9.373                0.932873438      -81.375042
9.374                0.932712824     -81.5175468
9.375                0.932551763     -81.6604409
9.376                0.932390256     -81.8037254
9.377                0.932228302     -81.9474015
9.378                0.932065901     -82.0914704
9.379                0.931903053     -82.2359335
9.38                 0.931739757     -82.3807918
9.381                0.931576013     -82.5260466
9.382                0.931411821     -82.6716992
9.383                 0.93124718     -82.8177508
9.384                0.931082091     -82.9642025
9.385                0.930916552     -83.1110557
9.386                0.930750563     -83.2583115
9.387                0.930584125     -83.4059712
9.388                0.930417238     -83.5540361
9.389                  0.9302499     -83.7025073
9.39                 0.930082112     -83.8513861
9.391                0.929913874     -84.0006738
9.392                0.929745185     -84.1503716
9.393                0.929576046     -84.3004806
9.394                0.929406456     -84.4510023
9.395                0.929236415     -84.6019378
9.396                0.929065923     -84.7532884
