! TOUCHSTONE file generated by CST DESIGN STUDIO
! Date and time: Tue Feb  4 14:16:09 2025
! Project name: C:\Work\MatlabApps\UnitCellOptimizationMatlab\CST\unitcell.cst
! Tree item: Tasks\Sweep1\SPara1\S-Parameters
! Header version: 2024
! Port assignment regex: !\s*Touchstone port\s*([0-9]+)\s*=\s*(CST MWS port|CST DES external port|CST DES block port)\s*(.+)\s* \(\"(.*)\"\)(\s*mode\s*([0-9]+))?.*
! Touchstone port assignment:
! Touchstone port 1 = CST DES external port 1 ("")
# GHz S MA R 50
9                    0.980074018     -63.7412987
9.001                0.980032198     -63.8313605
9.002                0.979990247      -63.921635
9.003                0.979948165     -64.0121229
9.004                 0.97990595     -64.1028248
9.005                0.979863604     -64.1937414
9.006                0.979821126     -64.2848734
9.007                0.979778514     -64.3762215
9.008                0.979735769     -64.4677863
9.009                 0.97969289     -64.5595685
9.01                 0.979649877     -64.6515689
9.011                 0.97960673      -64.743788
9.012                0.979563447     -64.8362267
9.013                0.979520029     -64.9288855
9.014                0.979476476     -65.0217652
9.015                0.979432786     -65.1148665
9.016                0.979388959       -65.20819
9.017                0.979344996     -65.3017365
9.018                0.979300895     -65.3955067
9.019                0.979256656     -65.4895012
9.02                 0.979212279     -65.5837209
9.021                0.979167763     -65.6781663
9.022                0.979123108     -65.7728383
9.023                0.979078314     -65.8677375
9.024                0.979033379     -65.9628646
9.025                0.978988305     -66.0582204
9.026                0.978943089     -66.1538056
9.027                0.978897733     -66.2496209
9.028                0.978852235     -66.3456671
9.029                0.978806594     -66.4419448
9.03                 0.978760812     -66.5384548
9.031                0.978714886     -66.6351978
9.032                0.978668817     -66.7321746
9.033                0.978622605     -66.8293859
9.034                0.978576248     -66.9268324
9.035                0.978529747      -67.024515
9.036                0.978483101     -67.1224342
9.037                0.978436309      -67.220591
9.038                0.978389372      -67.318986
9.039                0.978342288       -67.41762
9.04                 0.978295058     -67.5164937
9.041                0.978247681     -67.6156079
9.042                0.978200156     -67.7149634
9.043                0.978152483     -67.8145609
9.044                0.978104662     -67.9144012
9.045                0.978056692      -68.014485
9.046                0.978008573     -68.1148132
9.047                0.977960305     -68.2153864
9.048                0.977911886     -68.3162055
9.049                0.977863317     -68.4172713
9.05                 0.977814597     -68.5185845
9.051                0.977765725     -68.6201459
9.052                0.977716702     -68.7219563
9.053                0.977667527     -68.8240164
9.054                0.977618199     -68.9263272
9.055                0.977568718     -69.0288892
9.056                0.977519083     -69.1317035
9.057                0.977469295     -69.2347707
9.058                0.977419352     -69.3380916
9.059                0.977369255     -69.4416671
9.06                 0.977319002     -69.5454979
9.061                0.977268594     -69.6495848
9.062                 0.97721803     -69.7539288
9.063                0.977167309     -69.8585305
9.064                0.977116432     -69.9633908
9.065                0.977065397     -70.0685105
9.066                0.977014205     -70.1738904
9.067                0.976962854     -70.2795314
9.068                0.976911345     -70.3854342
9.069                0.976859676     -70.4915997
9.07                 0.976807849     -70.5980288
9.071                0.976755861     -70.7047222
9.072                0.976703714     -70.8116807
9.073                0.976651405     -70.9189053
9.074                0.976598935     -71.0263968
9.075                0.976546304     -71.1341559
9.076                0.976493511     -71.2421836
9.077                0.976440556     -71.3504806
9.078                0.976387437     -71.4590479
9.079                0.976334156     -71.5678863
9.08                 0.976280711     -71.6769966
9.081                0.976227101     -71.7863797
9.082                0.976173327     -71.8960364
9.083                0.976119389     -72.0059676
9.084                0.976065285     -72.1161742
9.085                0.976011015     -72.2266571
9.086                0.975956579      -72.337417
9.087                0.975901976     -72.4484549
9.088                0.975847207     -72.5597717
9.089                0.975792269     -72.6713681
9.09                 0.975737165     -72.7832452
9.091                0.975681891     -72.8954037
9.092                 0.97562645     -73.0078446
9.093                0.975570839     -73.1205687
9.094                0.975515058      -73.233577
9.095                0.975459108     -73.3468702
9.096                0.975402987     -73.4604494
9.097                0.975346696     -73.5743154
9.098                0.975290234      -73.688469
9.099                  0.9752336     -73.8029113
9.1                  0.975176794      -73.917643
9.101                0.975119815     -74.0326652
9.102                0.975062664     -74.1479787
9.103                 0.97500534     -74.2635844
9.104                0.974947842     -74.3794832
9.105                0.974890171      -74.495676
9.106                0.974832325     -74.6121638
9.107                0.974774304     -74.7289475
9.108                0.974716108      -74.846028
9.109                0.974657736     -74.9634062
9.11                 0.974599189      -75.081083
9.111                0.974540465     -75.1990594
9.112                0.974481564     -75.3173364
9.113                0.974422487     -75.4359147
9.114                0.974363232     -75.5547954
9.115                0.974303799     -75.6739794
9.116                0.974244188     -75.7934677
9.117                0.974184398     -75.9132612
9.118                0.974124429     -76.0333608
9.119                 0.97406428     -76.1537674
9.12                 0.974003952     -76.2744821
9.121                0.973943444     -76.3955058
9.122                0.973882756     -76.5168394
9.123                0.973821886     -76.6384839
9.124                0.973760835     -76.7604402
9.125                0.973699603     -76.8827094
9.126                0.973638188     -77.0052923
9.127                0.973576591     -77.1281899
9.128                0.973514812     -77.2514033
9.129                0.973452849     -77.3749333
9.13                 0.973390703      -77.498781
9.131                0.973328374     -77.6229473
9.132                 0.97326586     -77.7474331
9.133                0.973203161     -77.8722396
9.134                0.973140278     -77.9973676
9.135                 0.97307721     -78.1228181
9.136                0.973013956     -78.2485922
9.137                0.972950517     -78.3746907
9.138                0.972886891     -78.5011148
9.139                0.972823079     -78.6278653
9.14                  0.97275908     -78.7549433
9.141                0.972694893     -78.8823498
9.142                 0.97263052     -79.0100858
9.143                0.972565958     -79.1381522
9.144                0.972501209     -79.2665501
9.145                0.972436271     -79.3952805
9.146                0.972371144     -79.5243444
9.147                0.972305829     -79.6537427
9.148                0.972240324     -79.7834766
9.149                0.972174629      -79.913547
9.15                 0.972108745     -80.0439549
9.151                 0.97204267     -80.1747014
9.152                0.971976405     -80.3057874
9.153                0.971909949      -80.437214
9.154                0.971843302     -80.5689822
9.155                0.971776463      -80.701093
9.156                0.971709433     -80.8335475
9.157                0.971642212     -80.9663467
9.158                0.971574798     -81.0994916
9.159                0.971507191     -81.2329832
9.16                 0.971439392     -81.3668226
9.161                  0.9713714     -81.5010108
9.162                0.971303215     -81.6355489
9.163                0.971234837     -81.7704378
9.164                0.971166264     -81.9056787
9.165                0.971097498     -82.0412725
9.166                0.971028538     -82.1772203
9.167                0.970959384     -82.3135232
9.168                0.970890035     -82.4501822
9.169                0.970820491     -82.5871984
9.17                 0.970750752     -82.7245728
9.171                0.970680819     -82.8623064
9.172                0.970610689     -83.0004003
9.173                0.970540364     -83.1388556
9.174                0.970469844     -83.2776733
9.175                0.970399127     -83.4168544
9.176                0.970328215     -83.5564002
9.177                0.970257105     -83.6963115
9.178                  0.9701858     -83.8365894
9.179                0.970114298     -83.9772351
9.18                 0.970042599     -84.1182496
9.181                0.969970703     -84.2596339
9.182                 0.96989861     -84.4013892
9.183                 0.96982632     -84.5435164
9.184                0.969753833     -84.6860167
9.185                0.969681148     -84.8288912
9.186                0.969608265     -84.9721408
9.187                0.969535185     -85.1157668
9.188                0.969461907     -85.2597701
9.189                0.969388431     -85.4041518
9.19                 0.969314757      -85.548913
9.191                0.969240884     -85.6940548
9.192                0.969166814     -85.8395783
9.193                0.969092545     -85.9854845
9.194                0.969018078     -86.1317746
9.195                0.968943413     -86.2784496
9.196                0.968868549     -86.4255105
9.197                0.968793487     -86.5729586
9.198                0.968718226     -86.7207948
9.199                0.968642767     -86.8690202
9.2                  0.968567109      -87.017636
9.201                0.968491252     -87.1666432
9.202                0.968415197      -87.316043
9.203                0.968338943     -87.4658363
9.204                0.968262491     -87.6160243
9.205                 0.96818584     -87.7666081
9.206                0.968108991     -87.9175887
9.207                0.968031943     -88.0689674
9.208                0.967954696      -88.220745
9.209                0.967877251     -88.3729228
9.21                 0.967799608     -88.5255019
9.211                0.967721766     -88.6784832
9.212                0.967643727      -88.831868
9.213                0.967565489     -88.9856573
9.214                0.967487053     -89.1398522
9.215                0.967408419     -89.2944538
9.216                0.967329587     -89.4494632
9.217                0.967250558     -89.6048815
9.218                0.967171331     -89.7607097
9.219                0.967091906      -89.916949
9.22                 0.967012285     -90.0736005
9.221                0.966932466     -90.2306652
9.222                 0.96685245     -90.3881443
9.223                0.966772238     -90.5460388
9.224                0.966691829     -90.7043499
9.225                0.966611223     -90.8630786
9.226                0.966530422      -91.022226
9.227                0.966449424     -91.1817932
9.228                0.966368231     -91.3417813
9.229                0.966286843     -91.5021913
9.23                 0.966205259     -91.6630245
9.231                 0.96612348     -91.8242818
9.232                0.966041507     -91.9859644
9.233                0.965959339     -92.1480734
9.234                0.965876977     -92.3106097
9.235                0.965794422     -92.4735746
9.236                0.965711673     -92.6369691
9.237                0.965628731     -92.8007942
9.238                0.965545597     -92.9650511
9.239                 0.96546227     -93.1297409
9.24                 0.965378751     -93.2948646
9.241                 0.96529504     -93.4604233
9.242                0.965211139     -93.6264181
9.243                0.965127046       -93.79285
9.244                0.965042763     -93.9597202
9.245                0.964958291     -94.1270296
9.246                0.964873629     -94.2947795
9.247                0.964788777     -94.4629708
9.248                0.964703738     -94.6316047
9.249                 0.96461851     -94.8006821
9.25                 0.964533095     -94.9702042
9.251                0.964447493     -95.1401719
9.252                0.964361704     -95.3105865
9.253                0.964275729     -95.4814489
9.254                 0.96418957     -95.6527602
9.255                0.964103225     -95.8245214
9.256                0.964016696     -95.9967337
9.257                0.963929984     -96.1693979
9.258                0.963843088     -96.3425153
9.259                 0.96375601     -96.5160868
9.26                 0.963668751     -96.6901136
9.261                0.963581311     -96.8645965
9.262                 0.96349369     -97.0395367
9.263                 0.96340589     -97.2149352
9.264                0.963317911      -97.390793
9.265                0.963229753     -97.5671112
9.266                0.963141419     -97.7438907
9.267                0.963052907     -97.9211327
9.268                 0.96296422     -98.0988381
9.269                0.962875357     -98.2770079
9.27                 0.962786321     -98.4556432
9.271                0.962697111     -98.6347449
9.272                0.962607728     -98.8143141
9.273                0.962518174     -98.9943518
9.274                0.962428448      -99.174859
9.275                0.962338553     -99.3558366
9.276                0.962248489     -99.5372857
9.277                0.962158256     -99.7192072
9.278                0.962067857     -99.9016021
9.279                0.961977291     -100.084471
9.28                  0.96188656     -100.267816
9.281                0.961795665     -100.451637
9.282                0.961704607     -100.635936
9.283                0.961613386     -100.820712
9.284                0.961522005     -101.005968
9.285                0.961430463     -101.191704
9.286                0.961338763     -101.377921
9.287                0.961246905      -101.56462
9.288                 0.96115489     -101.751803
9.289                 0.96106272     -101.939469
9.29                 0.960970395      -102.12762
9.291                0.960877918     -102.316257
9.292                0.960785288      -102.50538
9.293                0.960692508     -102.694991
9.294                0.960599579     -102.885091
9.295                0.960506501      -103.07568
9.296                0.960413277     -103.266759
9.297                0.960319907     -103.458329
9.298                0.960226393     -103.650392
9.299                0.960132737     -103.842947
9.3                  0.960038939     -104.035997
9.301                0.959945001      -104.22954
9.302                0.959850924      -104.42358
9.303                0.959756711     -104.618116
9.304                0.959662362     -104.813149
9.305                0.959567878      -105.00868
9.306                0.959473262      -105.20471
9.307                0.959378515     -105.401239
9.308                0.959283639     -105.598269
9.309                0.959188634     -105.795801
9.31                 0.959093504     -105.993834
9.311                0.958998248     -106.192371
9.312                 0.95890287     -106.391411
9.313                 0.95880737     -106.590955
9.314                0.958711751     -106.791005
9.315                0.958616013      -106.99156
9.316                 0.95852016     -107.192623
9.317                0.958424192     -107.394193
9.318                0.958328111     -107.596271
9.319                 0.95823192     -107.798858
9.32                 0.958135619     -108.001954
9.321                0.958039212     -108.205561
9.322                0.957942699     -108.409679
9.323                0.957846084     -108.614309
9.324                0.957749366     -108.819451
9.325                 0.95765255     -109.025106
9.326                0.957555636     -109.231275
9.327                0.957458627     -109.437958
9.328                0.957361524     -109.645156
9.329                 0.95726433      -109.85287
9.33                 0.957167047       -110.0611
9.331                0.957069677     -110.269848
9.332                0.956972222     -110.479112
9.333                0.956874684     -110.688895
9.334                0.956777066     -110.899196
9.335                0.956679369     -111.110017
9.336                0.956581597     -111.321357
9.337                 0.95648375     -111.533218
9.338                0.956385833     -111.745599
9.339                0.956287846     -111.958502
9.34                 0.956189792     -112.171927
9.341                0.956091674     -112.385874
9.342                0.955993493     -112.600344
9.343                0.955895253     -112.815337
9.344                0.955796956     -113.030854
9.345                0.955698605     -113.246896
9.346                0.955600201     -113.463462
9.347                0.955501748     -113.680553
9.348                0.955403248      -113.89817
9.349                0.955304703     -114.116313
9.35                 0.955206117     -114.334982
9.351                0.955107491     -114.554178
9.352                0.955008829     -114.773901
9.353                0.954910133     -114.994151
9.354                0.954811406     -115.214929
9.355                0.954712651     -115.436235
9.356                0.954613871      -115.65807
9.357                0.954515068     -115.880433
9.358                0.954416245     -116.103325
9.359                0.954317405     -116.326747
9.36                 0.954218552     -116.550698
9.361                0.954119687     -116.775178
9.362                0.954020814     -117.000189
9.363                0.953921936     -117.225729
9.364                0.953823055       -117.4518
9.365                0.953724176     -117.678402
9.366                0.953625301     -117.905534
9.367                0.953526433     -118.133197
9.368                0.953427575     -118.361391
9.369                 0.95332873     -118.590116
9.37                 0.953229902     -118.819372
9.371                0.953131094     -119.049159
9.372                0.953032309     -119.279478
9.373                 0.95293355     -119.510327
9.374                0.952834821     -119.741709
9.375                0.952736124     -119.973621
9.376                0.952637464     -120.206065
9.377                0.952538844      -120.43904
9.378                0.952440266     -120.672547
9.379                0.952341736     -120.906584
9.38                 0.952243255     -121.141153
9.381                0.952144827     -121.376253
9.382                0.952046457     -121.611884
9.383                0.951948147     -121.848046
9.384                0.951849901     -122.084739
9.385                0.951751722     -122.321962
9.386                0.951653615     -122.559715
9.387                0.951555584     -122.797999
9.388                 0.95145763     -123.036812
9.389                0.951359759     -123.276155
9.39                 0.951261975     -123.516028
9.391                 0.95116428     -123.756429
9.392                0.951066679      -123.99736
9.393                0.950969175     -124.238819
9.394                0.950871773     -124.480806
9.395                0.950774476     -124.723321
9.396                0.950677288     -124.966363
