! TOUCHSTONE file generated by CST DESIGN STUDIO
! Date and time: Tue Feb  4 14:15:58 2025
! Project name: C:\Work\MatlabApps\UnitCellOptimizationMatlab\CST\unitcell.cst
! Tree item: Tasks\Sweep1\SPara1\S-Parameters
! Header version: 2024
! Port assignment regex: !\s*Touchstone port\s*([0-9]+)\s*=\s*(CST MWS port|CST DES external port|CST DES block port)\s*(.+)\s* \(\"(.*)\"\)(\s*mode\s*([0-9]+))?.*
! Touchstone port assignment:
! Touchstone port 1 = CST DES external port 1 ("")
# GHz S MA R 50
9                    0.977061508     -77.8900064
9.001                0.977003977     -78.0117251
9.002                0.976946271     -78.1337522
9.003                0.976888388     -78.2560886
9.004                0.976830328     -78.3787353
9.005                0.976772091     -78.5016931
9.006                0.976713677      -78.624963
9.007                0.976655085     -78.7485459
9.008                0.976596314     -78.8724428
9.009                0.976537365     -78.9966546
9.01                 0.976478237     -79.1211823
9.011                0.976418929     -79.2460267
9.012                0.976359442     -79.3711889
9.013                0.976299774     -79.4966698
9.014                0.976239926     -79.6224703
9.015                0.976179897     -79.7485914
9.016                0.976119687     -79.8750341
9.017                0.976059295     -80.0017992
9.018                0.975998722     -80.1288878
9.019                0.975937966     -80.2563008
9.02                 0.975877028     -80.3840391
9.021                0.975815906     -80.5121038
9.022                0.975754602     -80.6404958
9.023                0.975693113      -80.769216
9.024                0.975631441     -80.8982655
9.025                0.975569584     -81.0276452
9.026                0.975507543      -81.157356
9.027                0.975445317      -81.287399
9.028                0.975382906     -81.4177751
9.029                0.975320309     -81.5484853
9.03                 0.975257526     -81.6795305
9.031                0.975194557     -81.8109118
9.032                0.975131401     -81.9426302
9.033                0.975068059     -82.0746865
9.034                0.975004529     -82.2070819
9.035                0.974940812     -82.3398172
9.036                0.974876908     -82.4728936
9.037                0.974812815     -82.6063118
9.038                0.974748534     -82.7400731
9.039                0.974684064     -82.8741783
9.04                 0.974619406     -83.0086284
9.041                0.974554558     -83.1434245
9.042                0.974489521     -83.2785675
9.043                0.974424294     -83.4140585
9.044                0.974358877     -83.5498984
9.045                 0.97429327     -83.6860882
9.046                0.974227473      -83.822629
9.047                0.974161484     -83.9595217
9.048                0.974095305     -84.0967674
9.049                0.974028935      -84.234367
9.05                 0.973962373     -84.3723216
9.051                0.973895619     -84.5106321
9.052                0.973828674     -84.6492997
9.053                0.973761536     -84.7883253
9.054                0.973694206     -84.9277098
9.055                0.973626683     -85.0674544
9.056                0.973558968     -85.2075601
9.057                 0.97349106     -85.3480278
9.058                0.973422958     -85.4888586
9.059                0.973354663     -85.6300535
9.06                 0.973286174     -85.7716135
9.061                0.973217492     -85.9135396
9.062                0.973148615      -86.055833
9.063                0.973079545     -86.1984945
9.064                 0.97301028     -86.3415252
9.065                0.972940821     -86.4849261
9.066                0.972871167     -86.6286983
9.067                0.972801318     -86.7728428
9.068                0.972731274     -86.9173606
9.069                0.972661036     -87.0622528
9.07                 0.972590602     -87.2075203
9.071                0.972519973     -87.3531643
9.072                0.972449148     -87.4991856
9.073                0.972378128     -87.6455855
9.074                0.972306912     -87.7923648
9.075                  0.9722355     -87.9395247
9.076                0.972163893     -88.0870661
9.077                 0.97209209     -88.2349901
9.078                 0.97202009     -88.3832978
9.079                0.971947895     -88.5319901
9.08                 0.971875503     -88.6810681
9.081                0.971802915     -88.8305328
9.082                0.971730131     -88.9803854
9.083                0.971657151     -89.1306267
9.084                0.971583974     -89.2812579
9.085                  0.9715106     -89.4322799
9.086                0.971437031     -89.5836939
9.087                0.971363265     -89.7355008
9.088                0.971289302     -89.8877017
9.089                0.971215143     -90.0402976
9.09                 0.971140788     -90.1932896
9.091                0.971066236     -90.3466787
9.092                0.970991488     -90.5004659
9.093                0.970916543     -90.6546523
9.094                0.970841402     -90.8092389
9.095                0.970766065     -90.9642268
9.096                0.970690532     -91.1196169
9.097                0.970614803     -91.2754103
9.098                0.970538877     -91.4316081
9.099                0.970462756     -91.5882113
9.1                  0.970386438     -91.7452209
9.101                0.970309925      -91.902638
9.102                0.970233216     -92.0604635
9.103                0.970156312     -92.2186985
9.104                0.970079212     -92.3773441
9.105                0.970001917     -92.5364013
9.106                0.969924427     -92.6958711
9.107                0.969846742     -92.8557546
9.108                0.969768862     -93.0160527
9.109                0.969690787     -93.1767665
9.11                 0.969612519      -93.337897
9.111                0.969534055     -93.4994453
9.112                0.969455398     -93.6614124
9.113                0.969376548     -93.8237993
9.114                0.969297503     -93.9866069
9.115                0.969218265     -94.1498365
9.116                0.969138835     -94.3134889
9.117                0.969059211     -94.4775652
9.118                0.968979395     -94.6420663
9.119                0.968899387     -94.8069934
9.12                 0.968819187     -94.9723475
9.121                0.968738795     -95.1381294
9.122                0.968658212     -95.3043403
9.123                0.968577438     -95.4709812
9.124                0.968496474     -95.6380531
9.125                0.968415319     -95.8055569
9.126                0.968333974     -95.9734937
9.127                 0.96825244     -96.1418645
9.128                0.968170717     -96.3106702
9.129                0.968088805      -96.479912
9.13                 0.968006705     -96.6495907
9.131                0.967924417     -96.8197074
9.132                0.967841942      -96.990263
9.133                 0.96775928     -97.1612585
9.134                0.967676431      -97.332695
9.135                0.967593397     -97.5045734
9.136                0.967510177     -97.6768947
9.137                0.967426772     -97.8496599
9.138                0.967343183     -98.0228699
9.139                 0.96725941     -98.1965257
9.14                 0.967175453     -98.3706283
9.141                0.967091314     -98.5451787
9.142                0.967006993     -98.7201777
9.143                 0.96692249     -98.8956265
9.144                0.966837807     -99.0715258
9.145                0.966752943     -99.2478768
9.146                0.966667899     -99.4246802
9.147                0.966582676     -99.6019372
9.148                0.966497275     -99.7796486
9.149                0.966411697     -99.9578153
9.15                 0.966325941     -100.136438
9.151                 0.96624001     -100.315519
9.152                0.966153903     -100.495057
9.153                0.966067621     -100.675055
9.154                0.965981165     -100.855512
9.155                0.965894536      -101.03643
9.156                0.965807735     -101.217811
9.157                0.965720762     -101.399654
9.158                0.965633618      -101.58196
9.159                0.965546305     -101.764731
9.16                 0.965458823     -101.947968
9.161                0.965371172     -102.131671
9.162                0.965283355     -102.315841
9.163                0.965195371     -102.500479
9.164                0.965107222     -102.685586
9.165                0.965018908     -102.871163
9.166                0.964930431      -103.05721
9.167                0.964841792      -103.24373
9.168                0.964752991     -103.430721
9.169                 0.96466403     -103.618186
9.17                 0.964574909     -103.806125
9.171                 0.96448563     -103.994538
9.172                0.964396194     -104.183428
9.173                0.964306602     -104.372794
9.174                0.964216855     -104.562637
9.175                0.964126955     -104.752959
9.176                0.964036901      -104.94376
9.177                0.963946696      -105.13504
9.178                0.963856341     -105.326801
9.179                0.963765836     -105.519044
9.18                 0.963675184     -105.711768
9.181                0.963584386     -105.904976
9.182                0.963493442     -106.098667
9.183                0.963402353     -106.292843
9.184                0.963311123     -106.487504
9.185                0.963219751     -106.682651
9.186                0.963128239     -106.878285
9.187                0.963036588     -107.074406
9.188                  0.9629448     -107.271015
9.189                0.962852876     -107.468113
9.19                 0.962760818     -107.665701
9.191                0.962668627     -107.863779
9.192                0.962576305     -108.062348
9.193                0.962483853     -108.261409
9.194                0.962391272     -108.460962
9.195                0.962298565     -108.661008
9.196                0.962205732     -108.861548
9.197                0.962112776     -109.062582
9.198                0.962019698     -109.264111
9.199                0.961926499     -109.466135
9.2                  0.961833182     -109.668656
9.201                0.961739748     -109.871674
9.202                0.961646198     -110.075189
9.203                0.961552535     -110.279202
9.204                0.961458759     -110.483714
9.205                0.961364874     -110.688724
9.206                0.961270881     -110.894235
9.207                0.961176781     -111.100246
9.208                0.961082576     -111.306758
9.209                0.960988269     -111.513771
9.21                 0.960893861     -111.721287
9.211                0.960799353     -111.929304
9.212                0.960704749     -112.137825
9.213                 0.96061005     -112.346849
9.214                0.960515258     -112.556377
9.215                0.960420375      -112.76641
9.216                0.960325403     -112.976947
9.217                0.960230344      -113.18799
9.218                  0.9601352     -113.399539
9.219                0.960039973     -113.611593
9.22                 0.959944666     -113.824155
9.221                 0.95984928     -114.037223
9.222                0.959753819     -114.250799
9.223                0.959658283     -114.464883
9.224                0.959562675     -114.679475
9.225                0.959466998     -114.894575
9.226                0.959371253     -115.110185
9.227                0.959275444     -115.326303
9.228                0.959179572     -115.542931
9.229                0.959083639     -115.760069
9.23                 0.958987649     -115.977717
9.231                0.958891604     -116.195876
9.232                0.958795505     -116.414545
9.233                0.958699356     -116.633726
9.234                0.958603159     -116.853417
9.235                0.958506916      -117.07362
9.236                 0.95841063     -117.294334
9.237                0.958314304     -117.515561
9.238                 0.95821794     -117.737299
9.239                0.958121541      -117.95955
9.24                 0.958025109     -118.182313
9.241                0.957928647     -118.405589
9.242                0.957832158     -118.629377
9.243                0.957735645     -118.853678
9.244                 0.95763911     -119.078492
9.245                0.957542556     -119.303818
9.246                0.957445985     -119.529658
9.247                0.957349402     -119.756011
9.248                0.957252808     -119.982877
9.249                0.957156206     -120.210256
9.25                   0.9570596     -120.438148
9.251                0.956962991     -120.666554
9.252                0.956866385     -120.895472
9.253                0.956769782     -121.124904
9.254                0.956673186     -121.354848
9.255                0.956576601     -121.585306
9.256                0.956480029     -121.816276
9.257                0.956383473     -122.047759
9.258                0.956286937     -122.279755
9.259                0.956190423     -122.512263
9.26                 0.956093935     -122.745284
9.261                0.955997477     -122.978816
9.262                 0.95590105     -123.212861
9.263                0.955804659     -123.447417
9.264                0.955708306     -123.682485
9.265                0.955611996     -123.918064
9.266                0.955515731     -124.154154
9.267                0.955419515     -124.390755
9.268                 0.95532335     -124.627866
9.269                0.955227241     -124.865487
9.27                 0.955131191     -125.103618
9.271                0.955035204     -125.342259
9.272                0.954939282     -125.581408
9.273                0.954843429     -125.821066
9.274                 0.95474765     -126.061233
9.275                0.954651946     -126.301907
9.276                0.954556323     -126.543088
9.277                0.954460783     -126.784776
9.278                 0.95436533     -127.026971
9.279                0.954269968     -127.269671
9.28                 0.954174701     -127.512877
9.281                0.954079531     -127.756587
9.282                0.953984464     -128.000802
9.283                0.953889502      -128.24552
9.284                 0.95379465     -128.490741
9.285                0.953699911     -128.736464
9.286                0.953605288      -128.98269
9.287                0.953510787     -129.229416
9.288                 0.95341641     -129.476642
9.289                0.953322162     -129.724368
9.29                 0.953228046     -129.972593
9.291                0.953134067     -130.221316
9.292                0.953040228     -130.470536
9.293                0.952946533     -130.720253
9.294                0.952852987     -130.970465
9.295                0.952759593     -131.221172
9.296                0.952666355     -131.472374
9.297                0.952573278     -131.724068
9.298                0.952480365     -131.976254
9.299                 0.95238762     -132.228931
9.3                  0.952295048     -132.482099
9.301                0.952202653     -132.735756
9.302                0.952110439     -132.989901
9.303                 0.95201841     -133.244533
9.304                0.951926571     -133.499652
9.305                0.951834925     -133.755256
9.306                0.951743476     -134.011343
9.307                 0.95165223     -134.267914
9.308                0.951561189     -134.524966
9.309                 0.95147036     -134.782498
9.31                 0.951379745      -135.04051
9.311                0.951289349        -135.299
9.312                0.951199176     -135.557967
9.313                0.951109232      -135.81741
9.314                0.951019519     -136.077327
9.315                0.950930044     -136.337717
9.316                0.950840809     -136.598579
9.317                0.950751819     -136.859911
9.318                0.950663079     -137.121712
9.319                0.950574593      -137.38398
9.32                 0.950486366     -137.646715
9.321                0.950398402     -137.909914
9.322                0.950310705     -138.173576
9.323                0.950223281       -138.4377
9.324                0.950136133     -138.702285
9.325                0.950049266     -138.967327
9.326                0.949962685     -139.232827
9.327                0.949876393     -139.498782
9.328                0.949790397     -139.765191
9.329                0.949704699     -140.032052
9.33                 0.949619305     -140.299363
9.331                0.949534219     -140.567123
9.332                0.949449447      -140.83533
9.333                0.949364991     -141.103982
9.334                0.949280858     -141.373078
9.335                0.949197051     -141.642615
9.336                0.949113576     -141.912592
9.337                0.949030436     -142.183007
9.338                0.948947637     -142.453858
9.339                0.948865182     -142.725143
9.34                 0.948783078     -142.996861
9.341                0.948701327     -143.269008
9.342                0.948619936     -143.541584
9.343                0.948538908     -143.814586
9.344                0.948458248     -144.088012
9.345                0.948377961     -144.361861
9.346                0.948298051     -144.636129
9.347                0.948218524     -144.910815
9.348                0.948139383     -145.185918
9.349                0.948060633     -145.461434
9.35                 0.947982279     -145.737361
9.351                0.947904326     -146.013697
9.352                0.947826778     -146.290441
9.353                 0.94774964     -146.567589
9.354                0.947672916      -146.84514
9.355                0.947596611     -147.123091
9.356                 0.94752073     -147.401439
9.357                0.947445277     -147.680183
9.358                0.947370257      -147.95932
9.359                0.947295674     -148.238848
9.36                 0.947221533     -148.518764
9.361                0.947147839     -148.799065
9.362                0.947074596      -149.07975
9.363                0.947001808     -149.360815
9.364                0.946929481     -149.642259
9.365                0.946857619     -149.924078
9.366                0.946786226      -150.20627
9.367                0.946715306     -150.488832
9.368                0.946644865     -150.771762
9.369                0.946574907     -151.055057
9.37                 0.946505436     -151.338714
9.371                0.946436456     -151.622731
9.372                0.946367973     -151.907105
9.373                0.946299991     -152.191833
9.374                0.946232513     -152.476913
9.375                0.946165545      -152.76234
9.376                 0.94609909     -153.048114
9.377                0.946033153      -153.33423
9.378                0.945967739     -153.620687
9.379                0.945902852      -153.90748
9.38                 0.945838496     -154.194607
9.381                0.945774675     -154.482066
9.382                0.945711393     -154.769852
9.383                0.945648656     -155.057964
9.384                0.945586466     -155.346398
9.385                0.945524829     -155.635151
9.386                0.945463748     -155.924219
9.387                0.945403227     -156.213601
9.388                0.945343272     -156.503293
9.389                0.945283884     -156.793291
9.39                  0.94522507     -157.083592
9.391                0.945166832     -157.374194
9.392                0.945109175     -157.665093
9.393                0.945052103     -157.956286
9.394                 0.94499562     -158.247769
9.395                0.944939729      -158.53954
9.396                0.944884434     -158.831595
