! TOUCHSTONE file generated by CST DESIGN STUDIO
! Date and time: Tue Feb  4 14:16:01 2025
! Project name: C:\Work\MatlabApps\UnitCellOptimizationMatlab\CST\unitcell.cst
! Tree item: Tasks\Sweep1\SPara1\S-Parameters
! Header version: 2024
! Port assignment regex: !\s*Touchstone port\s*([0-9]+)\s*=\s*(CST MWS port|CST DES external port|CST DES block port)\s*(.+)\s* \(\"(.*)\"\)(\s*mode\s*([0-9]+))?.*
! Touchstone port assignment:
! Touchstone port 1 = CST DES external port 1 ("")
# GHz S MA R 50
9                    0.977891289     -73.9190125
9.001                0.977838095     -74.0312519
9.002                0.977784735     -74.1437714
9.003                 0.97773121     -74.2565716
9.004                 0.97767752     -74.3696535
9.005                0.977623663     -74.4830179
9.006                 0.97756964     -74.5966657
9.007                 0.97751545     -74.7105978
9.008                0.977461092      -74.824815
9.009                0.977406567     -74.9393182
9.01                 0.977351873     -75.0541083
9.011                0.977297011     -75.1691862
9.012                 0.97724198     -75.2845527
9.013                0.977186779     -75.4002088
9.014                0.977131409     -75.5161552
9.015                0.977075868      -75.632393
9.016                0.977020156      -75.748923
9.017                0.976964274      -75.865746
9.018                 0.97690822     -75.9828631
9.019                0.976851994      -76.100275
9.02                 0.976795596     -76.2179827
9.021                0.976739025      -76.335987
9.022                0.976682281      -76.454289
9.023                0.976625364     -76.5728894
9.024                0.976568273     -76.6917892
9.025                0.976511007     -76.8109893
9.026                0.976453567     -76.9304906
9.027                0.976395952     -77.0502941
9.028                0.976338162     -77.1704006
9.029                0.976280196     -77.2908111
9.03                 0.976222053     -77.4115264
9.031                0.976163734     -77.5325475
9.032                0.976105238     -77.6538754
9.033                0.976046565     -77.7755109
9.034                0.975987714     -77.8974551
9.035                0.975928685     -78.0197087
9.036                0.975869478     -78.1422728
9.037                0.975810091     -78.2651482
9.038                0.975750526      -78.388336
9.039                0.975690781      -78.511837
9.04                 0.975630856     -78.6356523
9.041                 0.97557075     -78.7597827
9.042                0.975510464     -78.8842291
9.043                0.975449997     -79.0089926
9.044                0.975389349     -79.1340741
9.045                0.975328519     -79.2594746
9.046                0.975267507     -79.3851949
9.047                0.975206312     -79.5112361
9.048                0.975144935      -79.637599
9.049                0.975083375     -79.7642848
9.05                 0.975021631     -79.8912942
9.051                0.974959703     -80.0186284
9.052                0.974897591     -80.1462882
9.053                0.974835295     -80.2742746
9.054                0.974772814     -80.4025886
9.055                0.974710148     -80.5312312
9.056                0.974647296     -80.6602032
9.057                0.974584259     -80.7895058
9.058                0.974521035     -80.9191399
9.059                0.974457626     -81.0491064
9.06                 0.974394029     -81.1794064
9.061                0.974330246     -81.3100408
9.062                0.974266275     -81.4410106
9.063                0.974202116     -81.5723167
9.064                 0.97413777     -81.7039603
9.065                0.974073235     -81.8359422
9.066                0.974008512     -81.9682634
9.067                  0.9739436      -82.100925
9.068                0.973878499      -82.233928
9.069                0.973813209     -82.3672732
9.07                 0.973747729     -82.5009618
9.071                0.973682059     -82.6349948
9.072                0.973616199      -82.769373
9.073                0.973550149     -82.9040976
9.074                0.973483908     -83.0391695
9.075                0.973417475     -83.1745897
9.076                0.973350852     -83.3103593
9.077                0.973284037     -83.4464792
9.078                0.973217031     -83.5829505
9.079                0.973149832     -83.7197741
9.08                 0.973082442     -83.8569511
9.081                0.973014859     -83.9944825
9.082                0.972947083     -84.1323693
9.083                0.972879115     -84.2706126
9.084                0.972810954     -84.4092132
9.085                0.972742599     -84.5481724
9.086                0.972674051      -84.687491
9.087                0.972605309       -84.82717
9.088                0.972536373     -84.9672106
9.089                0.972467243     -85.1076138
9.09                 0.972397919     -85.2483805
9.091                0.972328401     -85.3895118
9.092                0.972258688     -85.5310087
9.093                 0.97218878     -85.6728722
9.094                0.972118677     -85.8151035
9.095                0.972048379     -85.9577034
9.096                0.971977886      -86.100673
9.097                0.971907198     -86.2440135
9.098                0.971836314     -86.3877257
9.099                0.971765234     -86.5318107
9.1                  0.971693959     -86.6762696
9.101                0.971622488     -86.8211034
9.102                0.971550821     -86.9663131
9.103                0.971478957     -87.1118998
9.104                0.971406898     -87.2578645
9.105                0.971334642     -87.4042083
9.106                0.971262189     -87.5509321
9.107                0.971189541     -87.6980371
9.108                0.971116695     -87.8455242
9.109                0.971043653     -87.9933945
9.11                 0.970970415      -88.141649
9.111                0.970896979     -88.2902889
9.112                0.970823347     -88.4393151
9.113                0.970749518     -88.5887286
9.114                0.970675492     -88.7385305
9.115                 0.97060127      -88.888722
9.116                 0.97052685     -89.0393039
9.117                0.970452233     -89.1902773
9.118                 0.97037742     -89.3416433
9.119                 0.97030241      -89.493403
9.12                 0.970227202     -89.6455573
9.121                0.970151798     -89.7981074
9.122                0.970076197     -89.9510542
9.123                  0.9700004     -90.1043988
9.124                0.969924405     -90.2581422
9.125                0.969848214     -90.4122856
9.126                0.969771827     -90.5668299
9.127                0.969695242     -90.7217762
9.128                0.969618462     -90.8771255
9.129                0.969541485     -91.0328788
9.13                 0.969464311     -91.1890373
9.131                0.969386942      -91.345602
9.132                0.969309376     -91.5025738
9.133                0.969231615     -91.6599538
9.134                0.969153658     -91.8177432
9.135                0.969075505     -91.9759429
9.136                0.968997157     -92.1345539
9.137                0.968918613     -92.2935773
9.138                0.968839875     -92.4530142
9.139                0.968760941     -92.6128655
9.14                 0.968681813     -92.7731324
9.141                 0.96860249     -92.9338158
9.142                0.968522973     -93.0949168
9.143                0.968443262     -93.2564364
9.144                0.968363357     -93.4183756
9.145                0.968283259     -93.5807356
9.146                0.968202967     -93.7435173
9.147                0.968122482     -93.9067217
9.148                0.968041805     -94.0703498
9.149                0.967960935     -94.2344028
9.15                 0.967879873     -94.3988817
9.151                0.967798619     -94.5637873
9.152                0.967717174     -94.7291209
9.153                0.967635538     -94.8948833
9.154                 0.96755371     -95.0610757
9.155                0.967471693      -95.227699
9.156                0.967389485     -95.3947542
9.157                0.967307088     -95.5622424
9.158                0.967224502     -95.7301646
9.159                0.967141726     -95.8985218
9.16                 0.967058763      -96.067315
9.161                0.966975611     -96.2365452
9.162                0.966892272     -96.4062134
9.163                0.966808746     -96.5763206
9.164                0.966725034     -96.7468678
9.165                0.966641135      -96.917856
9.166                0.966557051     -97.0892863
9.167                0.966472782     -97.2611595
9.168                0.966388328     -97.4334767
9.169                0.966303691     -97.6062389
9.17                  0.96621887      -97.779447
9.171                0.966133867     -97.9531021
9.172                0.966048681     -98.1272051
9.173                0.965963314      -98.301757
9.174                0.965877766     -98.4767588
9.175                0.965792038     -98.6522114
9.176                 0.96570613     -98.8281158
9.177                0.965620043      -99.004473
9.178                0.965533778     -99.1812839
9.179                0.965447336     -99.3585495
9.18                 0.965360716     -99.5362708
9.181                 0.96527392     -99.7144486
9.182                0.965186949     -99.8930839
9.183                0.965099804     -100.072178
9.184                0.965012485     -100.251731
9.185                0.964924992     -100.431745
9.186                0.964837328     -100.612219
9.187                0.964749492     -100.793157
9.188                0.964661485     -100.974557
9.189                0.964573309     -101.156421
9.19                 0.964484964      -101.33875
9.191                0.964396451     -101.521545
9.192                0.964307771     -101.704807
9.193                0.964218926     -101.888537
9.194                0.964129915     -102.072735
9.195                 0.96404074     -102.257402
9.196                0.963951401      -102.44254
9.197                0.963861901     -102.628149
9.198                 0.96377224      -102.81423
9.199                0.963682418     -103.000784
9.2                  0.963592438     -103.187812
9.201                0.963502299     -103.375315
9.202                0.963412004     -103.563293
9.203                0.963321553     -103.751747
9.204                0.963230947     -103.940679
9.205                0.963140188     -104.130089
9.206                0.963049277     -104.319978
9.207                0.962958214     -104.510346
9.208                0.962867002     -104.701195
9.209                0.962775641     -104.892526
9.21                 0.962684133     -105.084338
9.211                0.962592479     -105.276633
9.212                 0.96250068     -105.469413
9.213                0.962408737     -105.662676
9.214                0.962316652     -105.856425
9.215                0.962224426      -106.05066
9.216                0.962132061     -106.245382
9.217                0.962039558     -106.440592
9.218                0.961946919     -106.636289
9.219                0.961854144     -106.832476
9.22                 0.961761235     -107.029153
9.221                0.961668194      -107.22632
9.222                0.961575022     -107.423979
9.223                0.961481721      -107.62213
9.224                0.961388293     -107.820773
9.225                0.961294738      -108.01991
9.226                0.961201059      -108.21954
9.227                0.961107257     -108.419666
9.228                0.961013333     -108.620287
9.229                 0.96091929     -108.821404
9.23                  0.96082513     -109.023017
9.231                0.960730852     -109.225129
9.232                0.960636461     -109.427738
9.233                0.960541956     -109.630846
9.234                0.960447341     -109.834453
9.235                0.960352616      -110.03856
9.236                0.960257784     -110.243167
9.237                0.960162846     -110.448276
9.238                0.960067805     -110.653886
9.239                0.959972662     -110.859998
9.24                 0.959877419     -111.066613
9.241                0.959782078     -111.273732
9.242                0.959686642     -111.481354
9.243                0.959591111     -111.689481
9.244                0.959495488     -111.898113
9.245                0.959399775      -112.10725
9.246                0.959303975     -112.316893
9.247                0.959208088     -112.527042
9.248                0.959112118     -112.737699
9.249                0.959016067     -112.948862
9.25                 0.958919936     -113.160534
9.251                0.958823728     -113.372714
9.252                0.958727444     -113.585402
9.253                0.958631088       -113.7986
9.254                0.958534662     -114.012307
9.255                0.958438167     -114.226524
9.256                0.958341606     -114.441251
9.257                0.958244982     -114.656489
9.258                0.958148296     -114.872238
9.259                0.958051552     -115.088498
9.26                 0.957954751      -115.30527
9.261                0.957857896     -115.522554
9.262                 0.95776099     -115.740351
9.263                0.957664035      -115.95866
9.264                0.957567033     -116.177482
9.265                0.957469987     -116.396817
9.266                  0.9573729     -116.616665
9.267                0.957275774     -116.837028
9.268                0.957178611     -117.057904
9.269                0.957081416     -117.279294
9.27                 0.956984189     -117.501198
9.271                0.956886934     -117.723617
9.272                0.956789654     -117.946551
9.273                0.956692351         -118.17
9.274                0.956595028     -118.393963
9.275                0.956497687     -118.618442
9.276                0.956400333     -118.843436
9.277                0.956302967     -119.068945
9.278                0.956205593     -119.294969
9.279                0.956108213     -119.521509
9.28                  0.95601083     -119.748564
9.281                0.955913448     -119.976135
9.282                0.955816069     -120.204222
9.283                0.955718696     -120.432824
9.284                0.955621332     -120.661941
9.285                0.955523981     -120.891575
9.286                0.955426645     -121.121723
9.287                0.955329328     -121.352387
9.288                0.955232033     -121.583566
9.289                0.955134763     -121.815261
9.29                  0.95503752     -122.047471
9.291                0.954940309     -122.280195
9.292                0.954843133     -122.513435
9.293                0.954745995     -122.747189
9.294                0.954648898     -122.981458
9.295                0.954551845      -123.21624
9.296                 0.95445484     -123.451537
9.297                0.954357887     -123.687348
9.298                0.954260988     -123.923673
9.299                0.954164148      -124.16051
9.3                  0.954067369     -124.397861
9.301                0.953970655     -124.635725
9.302                 0.95387401       -124.8741
9.303                0.953777437     -125.112988
9.304                0.953680939     -125.352388
9.305                0.953584521     -125.592299
9.306                0.953488186      -125.83272
9.307                0.953391937     -126.073652
9.308                0.953295779     -126.315095
9.309                0.953199714     -126.557046
9.31                 0.953103747     -126.799507
9.311                0.953007882     -127.042476
9.312                0.952912121     -127.285954
9.313                 0.95281647     -127.529938
9.314                0.952720931      -127.77443
9.315                0.952625509     -128.019428
9.316                0.952530207     -128.264932
9.317                 0.95243503     -128.510941
9.318                0.952339981     -128.757454
9.319                0.952245063     -129.004471
9.32                 0.952150282     -129.251991
9.321                0.952055641     -129.500014
9.322                0.951961144     -129.748538
9.323                0.951866796     -129.997563
9.324                0.951772599     -130.247089
9.325                0.951678558     -130.497113
9.326                0.951584678     -130.747636
9.327                0.951490962     -130.998657
9.328                0.951397415     -131.250174
9.329                 0.95130404     -131.502188
9.33                 0.951210842     -131.754696
9.331                0.951117825     -132.007699
9.332                0.951024993     -132.261194
9.333                0.950932351     -132.515182
9.334                0.950839902     -132.769661
9.335                0.950747651      -133.02463
9.336                0.950655603     -133.280088
9.337                0.950563761     -133.536034
9.338                 0.95047213     -133.792467
9.339                0.950380714     -134.049385
9.34                 0.950289517     -134.306789
9.341                0.950198545     -134.564675
9.342                0.950107801     -134.823044
9.343                0.950017289     -135.081894
9.344                0.949927015     -135.341224
9.345                0.949836982     -135.601033
9.346                0.949747196     -135.861319
9.347                0.949657659     -136.122081
9.348                0.949568378     -136.383317
9.349                0.949479356     -136.645027
9.35                 0.949390599     -136.907209
9.351                 0.94930211     -137.169861
9.352                0.949213893     -137.432982
9.353                0.949125955     -137.696571
9.354                0.949038299     -137.960626
9.355                0.948950929     -138.225146
9.356                0.948863851     -138.490129
9.357                0.948777068     -138.755573
9.358                0.948690587     -139.021477
9.359                 0.94860441      -139.28784
9.36                 0.948518543      -139.55466
9.361                0.948432991     -139.821934
9.362                0.948347757     -140.089662
9.363                0.948262848     -140.357842
9.364                0.948178266     -140.626471
9.365                0.948094018     -140.895549
9.366                0.948010108     -141.165073
9.367                0.947926539     -141.435042
9.368                0.947843318     -141.705454
9.369                0.947760449     -141.976306
9.37                 0.947677936     -142.247598
9.371                0.947595785     -142.519327
9.372                0.947513999     -142.791491
9.373                0.947432584     -143.064088
9.374                0.947351544     -143.337116
9.375                0.947270884     -143.610574
9.376                0.947190609     -143.884459
9.377                0.947110723     -144.158769
9.378                0.947031231     -144.433502
9.379                0.946952139     -144.708656
9.38                 0.946873449     -144.984229
9.381                0.946795168     -145.260218
9.382                  0.9467173     -145.536622
9.383                 0.94663985     -145.813438
9.384                0.946562822     -146.090664
9.385                0.946486221     -146.368298
9.386                0.946410052     -146.646337
9.387                0.946334319     -146.924779
9.388                0.946259027     -147.203621
9.389                0.946184181     -147.482863
9.39                 0.946109786       -147.7625
9.391                0.946035846      -148.04253
9.392                0.945962365     -148.322952
9.393                0.945889349     -148.603762
9.394                0.945816802     -148.884959
9.395                0.945744729     -149.166539
9.396                0.945673134       -149.4485
