! TOUCHSTONE file generated by CST DESIGN STUDIO
! Date and time: Tue Feb  4 14:16:07 2025
! Project name: C:\Work\MatlabApps\UnitCellOptimizationMatlab\CST\unitcell.cst
! Tree item: Tasks\Sweep1\SPara1\S-Parameters
! Header version: 2024
! Port assignment regex: !\s*Touchstone port\s*([0-9]+)\s*=\s*(CST MWS port|CST DES external port|CST DES block port)\s*(.+)\s* \(\"(.*)\"\)(\s*mode\s*([0-9]+))?.*
! Touchstone port assignment:
! Touchstone port 1 = CST DES external port 1 ("")
# GHz S MA R 50
9                    0.979634148     -65.7724192
9.001                0.979590019     -65.8666222
9.002                0.979545754     -65.9610506
9.003                 0.97950135      -66.055705
9.004                0.979456808     -66.1505863
9.005                0.979412127     -66.2456952
9.006                0.979367307     -66.3410323
9.007                0.979322348     -66.4365984
9.008                0.979277248     -66.5323942
9.009                0.979232008     -66.6284204
9.01                 0.979186627     -66.7246777
9.011                0.979141105     -66.8211669
9.012                0.979095441     -66.9178887
9.013                0.979049635     -67.0148438
9.014                0.979003687      -67.112033
9.015                0.978957595      -67.209457
9.016                 0.97891136     -67.3071165
9.017                0.978864981     -67.4050123
9.018                0.978818459     -67.5031451
9.019                0.978771791     -67.6015157
9.02                 0.978724978     -67.7001248
9.021                 0.97867802     -67.7989731
9.022                0.978630916     -67.8980615
9.023                0.978583666     -67.9973906
9.024                0.978536269     -68.0969613
9.025                0.978488724     -68.1967742
9.026                0.978441032     -68.2968302
9.027                0.978393192     -68.3971301
9.028                0.978345204     -68.4976744
9.029                0.978297066     -68.5984642
9.03                  0.97824878        -68.6995
9.031                0.978200343     -68.8007828
9.032                0.978151756     -68.9023132
9.033                0.978103019     -69.0040921
9.034                0.978054131     -69.1061202
9.035                0.978005091     -69.2083983
9.036                0.977955899     -69.3109272
9.037                0.977906555     -69.4137077
9.038                0.977857058     -69.5167406
9.039                0.977807408     -69.6200266
9.04                 0.977757605     -69.7235666
9.041                0.977707647     -69.8273614
9.042                0.977657535     -69.9314117
9.043                0.977607268     -70.0357184
9.044                0.977556846     -70.1402823
9.045                0.977506268     -70.2451041
9.046                0.977455534     -70.3501848
9.047                0.977404643      -70.455525
9.048                0.977353596     -70.5611256
9.049                0.977302391     -70.6669875
9.05                 0.977251028     -70.7731115
9.051                0.977199506     -70.8794983
9.052                0.977147826     -70.9861488
9.053                0.977095987     -71.0930638
9.054                0.977043988     -71.2002442
9.055                0.976991829     -71.3076907
9.056                 0.97693951     -71.4154043
9.057                 0.97688703     -71.5233858
9.058                0.976834389     -71.6316359
9.059                0.976781586     -71.7401556
9.06                  0.97672862     -71.8489456
9.061                0.976675493     -71.9580069
9.062                0.976622202     -72.0673402
9.063                0.976568748     -72.1769465
9.064                 0.97651513     -72.2868266
9.065                0.976461348     -72.3969812
9.066                0.976407401     -72.5074114
9.067                0.976353289     -72.6181179
9.068                0.976299012     -72.7291017
9.069                0.976244569     -72.8403635
9.07                 0.976189959     -72.9519042
9.071                0.976135183     -73.0637248
9.072                 0.97608024     -73.1758261
9.073                0.976025129     -73.2882089
9.074                 0.97596985     -73.4008742
9.075                0.975914402     -73.5138228
9.076                0.975858786     -73.6270556
9.077                   0.975803     -73.7405735
9.078                0.975747045     -73.8543774
9.079                 0.97569092     -73.9684681
9.08                 0.975634625     -74.0828466
9.081                0.975578158     -74.1975138
9.082                0.975521521     -74.3124705
9.083                0.975464711     -74.4277176
9.084                 0.97540773     -74.5432561
9.085                0.975350576     -74.6590869
9.086                0.975293249     -74.7752107
9.087                0.975235749     -74.8916287
9.088                0.975178075     -75.0083416
9.089                0.975120227     -75.1253505
9.09                 0.975062205     -75.2426561
9.091                0.975004008     -75.3602595
9.092                0.974945635     -75.4781614
9.093                0.974887087      -75.596363
9.094                0.974828363      -75.714865
9.095                0.974769462     -75.8336685
9.096                0.974710385     -75.9527743
9.097                 0.97465113     -76.0721834
9.098                0.974591698     -76.1918967
9.099                0.974532088     -76.3119151
9.1                    0.9744723     -76.4322396
9.101                0.974412332     -76.5528712
9.102                0.974352186     -76.6738107
9.103                 0.97429186     -76.7950591
9.104                0.974231355     -76.9166174
9.105                0.974170669     -77.0384865
9.106                0.974109802     -77.1606674
9.107                0.974048755     -77.2831609
9.108                0.973987526     -77.4059682
9.109                0.973926116     -77.5290901
9.11                 0.973864523     -77.6525275
9.111                0.973802748     -77.7762815
9.112                0.973740791     -77.9003531
9.113                 0.97367865     -78.0247431
9.114                0.973616326     -78.1494526
9.115                0.973553818     -78.2744825
9.116                0.973491126     -78.3998338
9.117                0.973428249     -78.5255075
9.118                0.973365188     -78.6515046
9.119                0.973301941     -78.7778259
9.12                 0.973238509     -78.9044726
9.121                0.973174891     -79.0314456
9.122                0.973111087     -79.1587459
9.123                0.973047097     -79.2863745
9.124                 0.97298292     -79.4143323
9.125                0.972918555     -79.5426204
9.126                0.972854003     -79.6712397
9.127                0.972789264     -79.8001913
9.128                0.972724336     -79.9294762
9.129                 0.97265922     -80.0590952
9.13                 0.972593916     -80.1890496
9.131                0.972528422     -80.3193402
9.132                0.972462739      -80.449968
9.133                0.972396867     -80.5809341
9.134                0.972330805     -80.7122395
9.135                0.972264552     -80.8438852
9.136                0.972198109     -80.9758722
9.137                0.972131476     -81.1082015
9.138                0.972064652     -81.2408742
9.139                0.971997636     -81.3738912
9.14                 0.971930429     -81.5072535
9.141                 0.97186303     -81.6409623
9.142                0.971795439     -81.7750185
9.143                0.971727656     -81.9094232
9.144                0.971659681     -82.0441773
9.145                0.971591512      -82.179282
9.146                0.971523151     -82.3147381
9.147                0.971454596     -82.4505469
9.148                0.971385848     -82.5867092
9.149                0.971316907     -82.7232262
9.15                 0.971247771     -82.8600989
9.151                0.971178442     -82.9973283
9.152                0.971108918     -83.1349155
9.153                0.971039199     -83.2728615
9.154                0.970969286     -83.4111673
9.155                0.970899178      -83.549834
9.156                0.970828875     -83.6888626
9.157                0.970758376     -83.8282543
9.158                0.970687682     -83.9680099
9.159                0.970616792     -84.1081307
9.16                 0.970545707     -84.2486176
9.161                0.970474425     -84.3894717
9.162                0.970402948      -84.530694
9.163                0.970331274     -84.6722857
9.164                0.970259404     -84.8142477
9.165                0.970187337     -84.9565811
9.166                0.970115073      -85.099287
9.167                0.970042613     -85.2423665
9.168                0.969969955     -85.3858205
9.169                0.969897101     -85.5296503
9.17                 0.969824049     -85.6738567
9.171                  0.9697508      -85.818441
9.172                0.969677354     -85.9634041
9.173                 0.96960371     -86.1087472
9.174                0.969529869     -86.2544712
9.175                 0.96945583     -86.4005773
9.176                0.969381594     -86.5470666
9.177                0.969307159     -86.6939401
9.178                0.969232527     -86.8411988
9.179                0.969157697     -86.9888439
9.18                 0.969082669     -87.1368765
9.181                0.969007443     -87.2852975
9.182                 0.96893202     -87.4341081
9.183                0.968856398     -87.5833093
9.184                0.968780578     -87.7329023
9.185                0.968704561     -87.8828881
9.186                0.968628345     -88.0332678
9.187                0.968551932     -88.1840424
9.188                 0.96847532      -88.335213
9.189                0.968398511     -88.4867808
9.19                 0.968321504     -88.6387468
9.191                0.968244299      -88.791112
9.192                0.968166896     -88.9438776
9.193                0.968089296     -89.0970446
9.194                0.968011498     -89.2506141
9.195                0.967933503     -89.4045872
9.196                 0.96785531     -89.5589649
9.197                 0.96777692     -89.7137484
9.198                0.967698333     -89.8689388
9.199                0.967619548      -90.024537
9.2                  0.967540567     -90.1805442
9.201                0.967461389     -90.3369615
9.202                0.967382014       -90.49379
9.203                0.967302443     -90.6510306
9.204                0.967222675     -90.8086846
9.205                0.967142711     -90.9667529
9.206                0.967062552     -91.1252367
9.207                0.966982196      -91.284137
9.208                0.966901646      -91.443455
9.209                0.966820899     -91.6031916
9.21                 0.966739958      -91.763348
9.211                0.966658822     -91.9239252
9.212                0.966577491     -92.0849244
9.213                0.966495966     -92.2463465
9.214                0.966414247     -92.4081927
9.215                0.966332334      -92.570464
9.216                0.966250228     -92.7331616
9.217                0.966167929     -92.8962864
9.218                0.966085437     -93.0598396
9.219                0.966002752     -93.2238221
9.22                 0.965919875     -93.3882352
9.221                0.965836807     -93.5530798
9.222                0.965753547      -93.718357
9.223                0.965670096     -93.8840679
9.224                0.965586455     -94.0502135
9.225                0.965502623     -94.2167949
9.226                0.965418601     -94.3838132
9.227                0.965334391     -94.5512693
9.228                0.965249991     -94.7191645
9.229                0.965165403     -94.8874996
9.23                 0.965080627     -95.0562759
9.231                0.964995664     -95.2254942
9.232                0.964910513     -95.3951558
9.233                0.964825176     -95.5652615
9.234                0.964739654     -95.7358125
9.235                0.964653945     -95.9068098
9.236                0.964568053     -96.0782545
9.237                0.964481975     -96.2501475
9.238                0.964395715     -96.4224899
9.239                0.964309271     -96.5952828
9.24                 0.964222645     -96.7685272
9.241                0.964135837      -96.942224
9.242                0.964048848     -97.1163744
9.243                0.963961678     -97.2909794
9.244                0.963874329     -97.4660399
9.245                  0.9637868      -97.641557
9.246                0.963699093     -97.8175317
9.247                0.963611209      -97.993965
9.248                0.963523147     -98.1708579
9.249                 0.96343491     -98.3482114
9.25                 0.963346497     -98.5260266
9.251                0.963257909     -98.7043043
9.252                0.963169148     -98.8830457
9.253                0.963080213     -99.0622517
9.254                0.962991107     -99.2419233
9.255                0.962901829     -99.4220614
9.256                0.962812381     -99.6026671
9.257                0.962722763     -99.7837413
9.258                0.962632977     -99.9652851
9.259                0.962543023     -100.147299
9.26                 0.962452903     -100.329785
9.261                0.962362616     -100.512743
9.262                0.962272165     -100.696174
9.263                 0.96218155      -100.88008
9.264                0.962090772     -101.064461
9.265                0.961999833     -101.249317
9.266                0.961908733     -101.434652
9.267                0.961817473     -101.620464
9.268                0.961726055     -101.806755
9.269                 0.96163448     -101.993526
9.27                 0.961542748     -102.180778
9.271                0.961450861     -102.368511
9.272                 0.96135882     -102.556727
9.273                0.961266627     -102.745427
9.274                0.961174282     -102.934611
9.275                0.961081786      -103.12428
9.276                0.960989142     -103.314435
9.277                 0.96089635     -103.505078
9.278                0.960803411     -103.696208
9.279                0.960710327     -103.887828
9.28                   0.9606171     -104.079936
9.281                0.960523729     -104.272536
9.282                0.960430218     -104.465626
9.283                0.960336567     -104.659209
9.284                0.960242778     -104.853285
9.285                0.960148852     -105.047855
9.286                 0.96005479     -105.242919
9.287                0.959960595     -105.438479
9.288                0.959866267     -105.634535
9.289                0.959771809     -105.831088
9.29                 0.959677221     -106.028139
9.291                0.959582505     -106.225689
9.292                0.959487663     -106.423738
9.293                0.959392697     -106.622287
9.294                0.959297607     -106.821337
9.295                0.959202397     -107.020889
9.296                0.959107067     -107.220944
9.297                0.959011619     -107.421501
9.298                0.958916055     -107.622562
9.299                0.958820376     -107.824128
9.3                  0.958724586     -108.026199
9.301                0.958628684     -108.228777
9.302                0.958532673     -108.431861
9.303                0.958436556     -108.635452
9.304                0.958340333     -108.839552
9.305                0.958244007      -109.04416
9.306                0.958147579     -109.249277
9.307                0.958051052     -109.454905
9.308                0.957954428     -109.661043
9.309                0.957857708     -109.867693
9.31                 0.957760895     -110.074854
9.311                0.957663991     -110.282528
9.312                0.957566997     -110.490715
9.313                0.957469916     -110.699416
9.314                 0.95737275     -110.908631
9.315                0.957275501     -111.118361
9.316                0.957178171     -111.328606
9.317                0.957080763     -111.539367
9.318                0.956983278     -111.750645
9.319                 0.95688572     -111.962439
9.32                  0.95678809     -112.174751
9.321                 0.95669039     -112.387581
9.322                0.956592623      -112.60093
9.323                0.956494791     -112.814797
9.324                0.956396897     -113.029184
9.325                0.956298943     -113.244091
9.326                0.956200932     -113.459518
9.327                0.956102866     -113.675466
9.328                0.956004747     -113.891935
9.329                0.955906577     -114.108926
9.33                 0.955808361     -114.326438
9.331                0.955710099     -114.544473
9.332                0.955611796      -114.76303
9.333                0.955513452     -114.982111
9.334                0.955415072     -115.201715
9.335                0.955316657     -115.421842
9.336                0.955218211     -115.642494
9.337                0.955119735      -115.86367
9.338                0.955021234      -116.08537
9.339                0.954922709     -116.307595
9.34                 0.954824164     -116.530345
9.341                0.954725601     -116.753621
9.342                0.954627023     -116.977422
9.343                0.954528434     -117.201749
9.344                0.954429835     -117.426602
9.345                 0.95433123     -117.651981
9.346                0.954232623     -117.877886
9.347                0.954134015     -118.104318
9.348                0.954035411     -118.331277
9.349                0.953936813     -118.558762
9.35                 0.953838223     -118.786774
9.351                0.953739647     -119.015312
9.352                0.953641085     -119.244378
9.353                0.953542543     -119.473971
9.354                0.953444022     -119.704091
9.355                0.953345526     -119.934738
9.356                0.953247059     -120.165912
9.357                0.953148624     -120.397613
9.358                0.953050223     -120.629841
9.359                0.952951861     -120.862596
9.36                  0.95285354     -121.095878
9.361                0.952755265     -121.329687
9.362                0.952657038     -121.564022
9.363                0.952558864     -121.798884
9.364                0.952460744     -122.034273
9.365                0.952362684     -122.270188
9.366                0.952264686     -122.506629
9.367                0.952166755     -122.743597
9.368                0.952068893      -122.98109
9.369                0.951971104     -123.219108
9.37                 0.951873393     -123.457652
9.371                0.951775762     -123.696721
9.372                0.951678215     -123.936315
9.373                0.951580756     -124.176433
9.374                 0.95148339     -124.417075
9.375                0.951386118     -124.658241
9.376                0.951288947      -124.89993
9.377                0.951191878     -125.142143
9.378                0.951094917     -125.384878
9.379                0.950998066     -125.628135
9.38                 0.950901331     -125.871914
9.381                0.950804714     -126.116215
9.382                 0.95070822     -126.361036
9.383                0.950611853     -126.606378
9.384                0.950515617     -126.852239
9.385                0.950419515     -127.098619
9.386                0.950323553     -127.345519
9.387                0.950227733     -127.592936
9.388                 0.95013206     -127.840871
9.389                0.950036539     -128.089323
9.39                 0.949941173      -128.33829
9.391                0.949845966     -128.587774
9.392                0.949750924     -128.837772
9.393                0.949656049     -129.088284
9.394                0.949561346      -129.33931
9.395                 0.94946682     -129.590848
9.396                0.949372475     -129.842898
