! TOUCHSTONE file generated by CST DESIGN STUDIO
! Date and time: Tue Feb  4 14:15:59 2025
! Project name: C:\Work\MatlabApps\UnitCellOptimizationMatlab\CST\unitcell.cst
! Tree item: Tasks\Sweep1\SPara1\S-Parameters
! Header version: 2024
! Port assignment regex: !\s*Touchstone port\s*([0-9]+)\s*=\s*(CST MWS port|CST DES external port|CST DES block port)\s*(.+)\s* \(\"(.*)\"\)(\s*mode\s*([0-9]+))?.*
! Touchstone port assignment:
! Touchstone port 1 = CST DES external port 1 ("")
# GHz S MA R 50
9                    0.977470624     -75.9223592
9.001                0.977415226     -76.0393158
9.002                0.977359658     -76.1565666
9.003                0.977303919     -76.2741125
9.004                0.977248008     -76.3919543
9.005                0.977191925     -76.5100931
9.006                 0.97713567     -76.6285296
9.007                0.977079243     -76.7472648
9.008                0.977022642     -76.8662996
9.009                0.976965868      -76.985635
9.01                 0.976908919     -77.1052717
9.011                0.976851797     -77.2252107
9.012                  0.9767945      -77.345453
9.013                0.976737028     -77.4659995
9.014                0.976679381      -77.586851
9.015                0.976621558     -77.7080086
9.016                0.976563558      -77.829473
9.017                0.976505382     -77.9512453
9.018                0.976447029     -78.0733264
9.019                0.976388499     -78.1957171
9.02                 0.976329791     -78.3184185
9.021                0.976270905     -78.4414315
9.022                 0.97621184      -78.564757
9.023                0.976152597     -78.6883959
9.024                0.976093174     -78.8123492
9.025                0.976033572     -78.9366178
9.026                 0.97597379     -79.0612027
9.027                0.975913828     -79.1861047
9.028                0.975853685      -79.311325
9.029                0.975793361     -79.4368643
9.03                 0.975732856     -79.5627237
9.031                0.975672169     -79.6889041
9.032                0.975611299     -79.8154065
9.033                0.975550248     -79.9422318
9.034                0.975489013      -80.069381
9.035                0.975427596      -80.196855
9.036                0.975365995     -80.3246549
9.037                 0.97530421     -80.4527815
9.038                0.975242242     -80.5812358
9.039                0.975180088     -80.7100189
9.04                 0.975117751     -80.8391316
9.041                0.975055227      -80.968575
9.042                0.974992519       -81.09835
9.043                0.974929625     -81.2284575
9.044                0.974866544     -81.3588987
9.045                0.974803278     -81.4896744
9.046                0.974739824     -81.6207857
9.047                0.974676184     -81.7522334
9.048                0.974612356     -81.8840187
9.049                0.974548341     -82.0161425
9.05                 0.974484138     -82.1486057
9.051                0.974419747     -82.2814094
9.052                0.974355167     -82.4145545
9.053                0.974290398     -82.5480421
9.054                0.974225441     -82.6818732
9.055                0.974160294     -82.8160487
9.056                0.974094958     -82.9505696
9.057                0.974029431     -83.0854369
9.058                0.973963715     -83.2206517
9.059                0.973897808     -83.3562149
9.06                 0.973831711     -83.4921275
9.061                0.973765423     -83.6283906
9.062                0.973698943     -83.7650051
9.063                0.973632272     -83.9019721
9.064                 0.97356541     -84.0392925
9.065                0.973498356     -84.1769674
9.066                0.973431109     -84.3149978
9.067                 0.97336367     -84.4533847
9.068                0.973296039     -84.5921291
9.069                0.973228215     -84.7312321
9.07                 0.973160198     -84.8706946
9.071                0.973091988     -85.0105176
9.072                0.973023585     -85.1507022
9.073                0.972954988     -85.2912494
9.074                0.972886197     -85.4321602
9.075                0.972817212     -85.5734357
9.076                0.972748033     -85.7150768
9.077                 0.97267866     -85.8570846
9.078                0.972609093     -85.9994602
9.079                 0.97253933     -86.1422045
9.08                 0.972469373     -86.2853185
9.081                0.972399221     -86.4288033
9.082                0.972328874       -86.57266
9.083                0.972258332     -86.7168895
9.084                0.972187594     -86.8614929
9.085                0.972116661     -87.0064712
9.086                0.972045533     -87.1518254
9.087                0.971974208     -87.2975567
9.088                0.971902688     -87.4436659
9.089                0.971830972     -87.5901542
9.09                  0.97175906     -87.7370226
9.091                0.971686951     -87.8842721
9.092                0.971614647     -88.0319038
9.093                0.971542146     -88.1799186
9.094                0.971469449     -88.3283177
9.095                0.971396555      -88.477102
9.096                0.971323465     -88.6262727
9.097                0.971250178     -88.7758306
9.098                0.971176695      -88.925777
9.099                0.971103016     -89.0761128
9.1                  0.971029139      -89.226839
9.101                0.970955066     -89.3779567
9.102                0.970880797      -89.529467
9.103                0.970806331     -89.6813709
9.104                0.970731668     -89.8336693
9.105                0.970656809     -89.9863634
9.106                0.970581753     -90.1394543
9.107                  0.9705065     -90.2929428
9.108                0.970431051     -90.4468301
9.109                0.970355405     -90.6011173
9.11                 0.970279564     -90.7558053
9.111                0.970203525     -90.9108952
9.112                0.970127291      -91.066388
9.113                 0.97005086     -91.2222848
9.114                0.969974233     -91.3785866
9.115                 0.96989741     -91.5352944
9.116                0.969820392     -91.6924094
9.117                0.969743177     -91.8499324
9.118                0.969665767     -92.0078646
9.119                0.969588161      -92.166207
9.12                  0.96951036     -92.3249607
9.121                0.969432364     -92.4841266
9.122                0.969354173     -92.6437058
9.123                0.969275787     -92.8036993
9.124                0.969197206     -92.9641082
9.125                0.969118431     -93.1249334
9.126                0.969039462     -93.2861762
9.127                0.968960299     -93.4478373
9.128                0.968880941     -93.6099179
9.129                0.968801391     -93.7724191
9.13                 0.968721647     -93.9353418
9.131                 0.96864171      -94.098687
9.132                 0.96856158     -94.2624558
9.133                0.968481258     -94.4266492
9.134                0.968400743     -94.5912683
9.135                0.968320037     -94.7563139
9.136                0.968239139     -94.9217873
9.137                 0.96815805     -95.0876893
9.138                 0.96807677      -95.254021
9.139                0.967995299     -95.4207834
9.14                 0.967913639     -95.5879775
9.141                0.967831788     -95.7556043
9.142                0.967749749     -95.9236649
9.143                 0.96766752     -96.0921602
9.144                0.967585103     -96.2610912
9.145                0.967502497      -96.430459
9.146                0.967419704     -96.6002644
9.147                0.967336724     -96.7705087
9.148                0.967253557     -96.9411926
9.149                0.967170203     -97.1123172
9.15                 0.967086664     -97.2838836
9.151                 0.96700294     -97.4558926
9.152                0.966919031     -97.6283453
9.153                0.966834938     -97.8012427
9.154                0.966750661     -97.9745857
9.155                0.966666201     -98.1483753
9.156                0.966581558     -98.3226125
9.157                0.966496734     -98.4972982
9.158                0.966411728     -98.6724334
9.159                0.966326542     -98.8480191
9.16                 0.966241176     -99.0240562
9.161                 0.96615563     -99.2005458
9.162                0.966069906     -99.3774887
9.163                0.965984003     -99.5548858
9.164                0.965897924     -99.7327382
9.165                0.965811667     -99.9110468
9.166                0.965725235     -100.089813
9.167                0.965638628     -100.269036
9.168                0.965551846     -100.448719
9.169                0.965464891     -100.628862
9.17                 0.965377763     -100.809465
9.171                0.965290463      -100.99053
9.172                0.965202992     -101.172058
9.173                0.965115351      -101.35405
9.174                 0.96502754     -101.536506
9.175                0.964939561     -101.719427
9.176                0.964851414     -101.902815
9.177                  0.9647631      -102.08667
9.178                0.964674621     -102.270993
9.179                0.964585977     -102.455784
9.18                 0.964497169     -102.641046
9.181                0.964408198     -102.826778
9.182                0.964319065     -103.012982
9.183                0.964229771     -103.199658
9.184                0.964140317     -103.386808
9.185                0.964050705     -103.574432
9.186                0.963960935      -103.76253
9.187                0.963871008     -103.951105
9.188                0.963780926     -104.140156
9.189                0.963690689     -104.329684
9.19                   0.9636003     -104.519691
9.191                0.963509758     -104.710177
9.192                0.963419065     -104.901143
9.193                0.963328223      -105.09259
9.194                0.963237232     -105.284518
9.195                0.963146095     -105.476928
9.196                0.963054811     -105.669822
9.197                0.962963383     -105.863199
9.198                0.962871811     -106.057061
9.199                0.962780098     -106.251408
9.2                  0.962688244     -106.446242
9.201                0.962596251     -106.641562
9.202                 0.96250412      -106.83737
9.203                0.962411853     -107.033667
9.204                 0.96231945     -107.230452
9.205                0.962226915     -107.427727
9.206                0.962134247     -107.625493
9.207                0.962041448      -107.82375
9.208                0.961948521     -108.022499
9.209                0.961855466     -108.221741
9.21                 0.961762285     -108.421476
9.211                 0.96166898     -108.621705
9.212                0.961575553     -108.822428
9.213                0.961482004     -109.023647
9.214                0.961388336     -109.225362
9.215                 0.96129455     -109.427573
9.216                0.961200648     -109.630281
9.217                0.961106632     -109.833487
9.218                0.961012503     -110.037192
9.219                0.960918264     -110.241396
9.22                 0.960823915     -110.446099
9.221                0.960729459     -110.651302
9.222                0.960634898     -110.857006
9.223                0.960540234     -111.063212
9.224                0.960445468     -111.269919
9.225                0.960350602     -111.477129
9.226                0.960255638     -111.684841
9.227                0.960160579     -111.893058
9.228                0.960065426     -112.101778
9.229                0.959970181     -112.311002
9.23                 0.959874847     -112.520731
9.231                0.959779424     -112.730966
9.232                0.959683916     -112.941707
9.233                0.959588325     -113.152954
9.234                0.959492652     -113.364708
9.235                  0.9593969     -113.576969
9.236                0.959301071     -113.789737
9.237                0.959205167     -114.003014
9.238                 0.95910919     -114.216799
9.239                0.959013143     -114.431093
9.24                 0.958917028     -114.645896
9.241                0.958820848     -114.861209
9.242                0.958724603     -115.077032
9.243                0.958628298     -115.293365
9.244                0.958531934     -115.510208
9.245                0.958435514     -115.727562
9.246                 0.95833904     -115.945428
9.247                0.958242514     -116.163805
9.248                0.958145939     -116.382693
9.249                0.958049319     -116.602094
9.25                 0.957952654     -116.822007
9.251                0.957855948     -117.042432
9.252                0.957759203      -117.26337
9.253                0.957662422     -117.484821
9.254                0.957565607     -117.706785
9.255                0.957468762     -117.929262
9.256                0.957371889     -118.152252
9.257                 0.95727499     -118.375756
9.258                0.957178069     -118.599774
9.259                0.957081128     -118.824305
9.26                 0.956984169     -119.049351
9.261                0.956887197      -119.27491
9.262                0.956790213     -119.500983
9.263                 0.95669322     -119.727571
9.264                0.956596222     -119.954672
9.265                0.956499221     -120.182288
9.266                0.956402221     -120.410418
9.267                0.956305224     -120.639062
9.268                0.956208233      -120.86822
9.269                0.956111251     -121.097892
9.27                 0.956014282     -121.328078
9.271                0.955917328     -121.558779
9.272                0.955820393     -121.789993
9.273                0.955723479      -122.02172
9.274                 0.95562659     -122.253962
9.275                0.955529729     -122.486717
9.276                  0.9554329     -122.719985
9.277                0.955336105     -122.953766
9.278                0.955239348     -123.188061
9.279                0.955142632     -123.422868
9.28                  0.95504596     -123.658187
9.281                0.954949337     -123.894019
9.282                0.954852764     -124.130363
9.283                0.954756246     -124.367219
9.284                0.954659785     -124.604586
9.285                0.954563387     -124.842464
9.286                0.954467053     -125.080852
9.287                0.954370787     -125.319752
9.288                0.954274594     -125.559161
9.289                0.954178475      -125.79908
9.29                 0.954082436     -126.039508
9.291                 0.95398648     -126.280444
9.292                 0.95389061      -126.52189
9.293                0.953794829     -126.763842
9.294                0.953699143     -127.006303
9.295                0.953603553      -127.24927
9.296                0.953508065     -127.492743
9.297                0.953412681     -127.736722
9.298                0.953317406     -127.981206
9.299                0.953222243     -128.226195
9.3                  0.953127197     -128.471687
9.301                 0.95303227     -128.717683
9.302                0.952937467     -128.964182
9.303                0.952842792     -129.211182
9.304                0.952748249     -129.458684
9.305                0.952653841     -129.706687
9.306                0.952559573     -129.955189
9.307                0.952465448      -130.20419
9.308                0.952371471     -130.453689
9.309                0.952277645     -130.703686
9.31                 0.952183975     -130.954179
9.311                0.952090464     -131.205168
9.312                0.951997117     -131.456652
9.313                0.951903938      -131.70863
9.314                0.951810931     -131.961101
9.315                0.951718101     -132.214064
9.316                 0.95162545     -132.467518
9.317                0.951532984     -132.721462
9.318                0.951440706     -132.975896
9.319                0.951348621     -133.230817
9.32                 0.951256734     -133.486225
9.321                0.951165048      -133.74212
9.322                0.951073567     -133.998499
9.323                0.950982296     -134.255362
9.324                 0.95089124     -134.512708
9.325                0.950800402     -134.770535
9.326                0.950709787     -135.028842
9.327                  0.9506194     -135.287628
9.328                0.950529244     -135.546892
9.329                0.950439324     -135.806633
9.33                 0.950349645     -136.066848
9.331                0.950260211     -136.327538
9.332                0.950171026     -136.588699
9.333                0.950082094     -136.850332
9.334                0.949993421     -137.112435
9.335                0.949905011     -137.375006
9.336                0.949816868     -137.638044
9.337                0.949728997     -137.901548
9.338                0.949641402     -138.165515
9.339                0.949554088     -138.429945
9.34                 0.949467059     -138.694836
9.341                 0.94938032     -138.960186
9.342                0.949293876     -139.225994
9.343                0.949207731     -139.492257
9.344                0.949121889     -139.758976
9.345                0.949036355     -140.026147
9.346                0.948951135     -140.293769
9.347                0.948866231     -140.561841
9.348                 0.94878165      -140.83036
9.349                0.948697396     -141.099326
9.35                 0.948613472     -141.368735
9.351                0.948529885     -141.638587
9.352                0.948446638     -141.908879
9.353                0.948363737      -142.17961
9.354                0.948281185     -142.450777
9.355                0.948198988     -142.722379
9.356                 0.94811715     -142.994414
9.357                0.948035676      -143.26688
9.358                 0.94795457     -143.539775
9.359                0.947873838     -143.813097
9.36                 0.947793483     -144.086843
9.361                0.947713511     -144.361013
9.362                0.947633926     -144.635602
9.363                0.947554733     -144.910611
9.364                0.947475936     -145.186036
9.365                0.947397541     -145.461875
9.366                0.947319552     -145.738126
9.367                0.947241973     -146.014786
9.368                0.947164809     -146.291855
9.369                0.947088065     -146.569328
9.37                 0.947011746     -146.847204
9.371                0.946935855     -147.125482
9.372                0.946860399     -147.404157
9.373                 0.94678538     -147.683228
9.374                0.946710805     -147.962693
9.375                0.946636678     -148.242549
9.376                0.946563003     -148.522793
9.377                0.946489784     -148.803423
9.378                0.946417027     -149.084438
9.379                0.946344736     -149.365833
9.38                 0.946272916     -149.647606
9.381                0.946201571     -149.929756
9.382                0.946130705     -150.212279
9.383                0.946060324     -150.495173
9.384                0.945990432     -150.778435
9.385                0.945921033     -151.062062
9.386                0.945852131     -151.346052
9.387                0.945783732     -151.630402
9.388                 0.94571584     -151.915109
9.389                0.945648458      -152.20017
9.39                 0.945581593     -152.485583
9.391                0.945515247     -152.771345
9.392                0.945449426     -153.057452
9.393                0.945384133     -153.343903
9.394                0.945319374     -153.630694
9.395                0.945255152     -153.917822
9.396                0.945191472     -154.205285
