! TOUCHSTONE file generated by CST DESIGN STUDIO
! Date and time: Tue Feb  4 13:51:26 2025
! Project name: C:\Work\MatlabApps\UnitCellOptimizationMatlab\CST\unitcell.cst
! Tree item: Tasks\Sweep1\SPara1\S-Parameters
! Header version: 2024
! Port assignment regex: !\s*Touchstone port\s*([0-9]+)\s*=\s*(CST MWS port|CST DES external port|CST DES block port)\s*(.+)\s* \(\"(.*)\"\)(\s*mode\s*([0-9]+))?.*
! Touchstone port assignment:
! Touchstone port 1 = CST DES external port 1 ("")
# GHz S MA R 50
9                    0.976516594     -76.0639203
9.001                0.976480115     -76.1852645
9.002                0.976443439     -76.3069281
9.003                0.976406567      -76.428912
9.004                0.976369496     -76.5512172
9.005                0.976332227     -76.6738447
9.006                0.976294758     -76.7967955
9.007                0.976257089     -76.9200707
9.008                0.976219219     -77.0436711
9.009                0.976181146     -77.1675979
9.01                 0.976142871     -77.2918521
9.011                0.976104392     -77.4164347
9.012                0.976065708     -77.5413466
9.013                0.976026819     -77.6665889
9.014                0.975987724     -77.7921627
9.015                0.975948421     -77.9180689
9.016                0.975908911     -78.0443087
9.017                0.975869192     -78.1708829
9.018                0.975829263     -78.2977927
9.019                0.975789124     -78.4250391
9.02                 0.975748774     -78.5526231
9.021                0.975708211     -78.6805458
9.022                0.975667436     -78.8088081
9.023                0.975626446     -78.9374113
9.024                0.975585242     -79.0663562
9.025                0.975543823     -79.1956439
9.026                0.975502187     -79.3252756
9.027                0.975460334     -79.4552522
9.028                0.975418263     -79.5855748
9.029                0.975375973     -79.7162444
9.03                 0.975333464     -79.8472622
9.031                0.975290734     -79.9786291
9.032                0.975247782     -80.1103463
9.033                0.975204609     -80.2424147
9.034                0.975161212     -80.3748356
9.035                0.975117592     -80.5076099
9.036                0.975073746     -80.6407387
9.037                0.975029676     -80.7742231
9.038                0.974985378     -80.9080641
9.039                0.974940854     -81.0422629
9.04                 0.974896102     -81.1768205
9.041                 0.97485112      -81.311738
9.042                0.974805909     -81.4470165
9.043                0.974760468      -81.582657
9.044                0.974714795     -81.7186607
9.045                 0.97466889     -81.8550287
9.046                0.974622752     -81.9917619
9.047                 0.97457638     -82.1288616
9.048                0.974529774     -82.2663289
9.049                0.974482932     -82.4041647
9.05                 0.974435853     -82.5423702
9.051                0.974388538     -82.6809466
9.052                0.974340985     -82.8198948
9.053                0.974293193     -82.9592161
9.054                0.974245161     -83.0989115
9.055                0.974196889     -83.2389821
9.056                0.974148376     -83.3794291
9.057                0.974099621     -83.5202535
9.058                0.974050624     -83.6614564
9.059                0.974001382      -83.803039
9.06                 0.973951897     -83.9450024
9.061                0.973902166     -84.0873477
9.062                0.973852189      -84.230076
9.063                0.973801966     -84.3731884
9.064                0.973751495      -84.516686
9.065                0.973700776       -84.66057
9.066                0.973649807     -84.8048415
9.067                0.973598589     -84.9495017
9.068                0.973547121     -85.0945515
9.069                  0.9734954     -85.2399922
9.07                 0.973443428     -85.3858249
9.071                0.973391203     -85.5320507
9.072                0.973338724     -85.6786708
9.073                0.973285991     -85.8256862
9.074                0.973233002     -85.9730981
9.075                0.973179757     -86.1209077
9.076                0.973126256      -86.269116
9.077                0.973072498     -86.4177243
9.078                0.973018481     -86.5667336
9.079                0.972964205      -86.716145
9.08                  0.97290967     -86.8659598
9.081                0.972854874      -87.016179
9.082                0.972799818     -87.1668038
9.083                0.972744499     -87.3178353
9.084                0.972688918     -87.4692747
9.085                0.972633074      -87.621123
9.086                0.972576966     -87.7733816
9.087                0.972520594     -87.9260514
9.088                0.972463956     -88.0791336
9.089                0.972407052     -88.2326294
9.09                 0.972349882     -88.3865399
9.091                0.972292444     -88.5408663
9.092                0.972234738     -88.6956097
9.093                0.972176764     -88.8507712
9.094                0.972118521      -89.006352
9.095                0.972060007     -89.1623532
9.096                0.972001223      -89.318776
9.097                0.971942168     -89.4756215
9.098                0.971882841     -89.6328908
9.099                0.971823241     -89.7905852
9.1                  0.971763368     -89.9487057
9.101                0.971703222     -90.1072535
9.102                0.971642801     -90.2662297
9.103                0.971582106     -90.4256355
9.104                0.971521135     -90.5854721
9.105                0.971459888     -90.7457404
9.106                0.971398364     -90.9064418
9.107                0.971336563     -91.0675774
9.108                0.971274485     -91.2291482
9.109                0.971212128     -91.3911555
9.11                 0.971149492     -91.5536003
9.111                0.971086577     -91.7164839
9.112                0.971023382     -91.8798073
9.113                0.970959907     -92.0435716
9.114                0.970896151     -92.2077781
9.115                0.970832113     -92.3724279
9.116                0.970767793      -92.537522
9.117                0.970703191     -92.7030617
9.118                0.970638307     -92.8690481
9.119                0.970573139     -93.0354822
9.12                 0.970507687     -93.2023653
9.121                0.970441951     -93.3696984
9.122                 0.97037593     -93.5374827
9.123                0.970309624     -93.7057193
9.124                0.970243033     -93.8744094
9.125                0.970176156      -94.043554
9.126                0.970108993     -94.2131542
9.127                0.970041543     -94.3832113
9.128                0.969973806     -94.5537263
9.129                0.969905782     -94.7247003
9.13                  0.96983747     -94.8961345
9.131                 0.96976887       -95.06803
9.132                0.969699981     -95.2403878
9.133                0.969630804     -95.4132091
9.134                0.969561338     -95.5864949
9.135                0.969491583     -95.7602465
9.136                0.969421539     -95.9344648
9.137                0.969351204     -96.1091511
9.138                0.969280579     -96.2843063
9.139                0.969209665     -96.4599316
9.14                 0.969138459     -96.6360281
9.141                0.969066963     -96.8125969
9.142                0.968995177     -96.9896389
9.143                0.968923099     -97.1671554
9.144                0.968850729     -97.3451475
9.145                0.968778069     -97.5236161
9.146                0.968705117     -97.7025623
9.147                0.968631873     -97.8819873
9.148                0.968558337      -98.061892
9.149                 0.96848451     -98.2422777
9.15                 0.968410391     -98.4231452
9.151                0.968335979     -98.6044957
9.152                0.968261276     -98.7863302
9.153                0.968186281     -98.9686498
9.154                0.968110993     -99.1514554
9.155                0.968035413     -99.3347483
9.156                0.967959542     -99.5185293
9.157                0.967883378     -99.7027995
9.158                0.967806922       -99.88756
9.159                0.967730174     -100.072812
9.16                 0.967653134     -100.258556
9.161                0.967575803     -100.444793
9.162                 0.96749818     -100.631525
9.163                0.967420265     -100.818752
9.164                0.967342059     -101.006475
9.165                0.967263562     -101.194695
9.166                0.967184774     -101.383414
9.167                0.967105695     -101.572632
9.168                0.967026326     -101.762351
9.169                0.966946666      -101.95257
9.17                 0.966866716     -102.143292
9.171                0.966786476     -102.334517
9.172                0.966705947     -102.526246
9.173                0.966625129      -102.71848
9.174                0.966544022      -102.91122
9.175                0.966462626     -103.104467
9.176                0.966380943     -103.298222
9.177                0.966298971     -103.492485
9.178                0.966216713     -103.687259
9.179                0.966134168     -103.882543
9.18                 0.966051336     -104.078338
9.181                0.965968219     -104.274646
9.182                0.965884816     -104.471467
9.183                0.965801129     -104.668803
9.184                0.965717157     -104.866653
9.185                0.965632902     -105.065019
9.186                0.965548364     -105.263903
9.187                0.965463544     -105.463303
9.188                0.965378441     -105.663223
9.189                0.965293058     -105.863661
9.19                 0.965207394      -106.06462
9.191                0.965121451       -106.2661
9.192                0.965035229     -106.468101
9.193                0.964948728     -106.670626
9.194                0.964861951     -106.873673
9.195                0.964774896     -107.077245
9.196                0.964687567     -107.281342
9.197                0.964599962     -107.485964
9.198                0.964512083     -107.691113
9.199                0.964423932     -107.896789
9.2                  0.964335509     -108.102993
9.201                0.964246814     -108.309726
9.202                0.964157849     -108.516988
9.203                0.964068616      -108.72478
9.204                0.963979114     -108.933104
9.205                0.963889346     -109.141958
9.206                0.963799312     -109.351345
9.207                0.963709013     -109.561265
9.208                0.963618451     -109.771719
9.209                0.963527626     -109.982707
9.21                 0.963436541     -110.194229
9.211                0.963345196     -110.406287
9.212                0.963253592     -110.618881
9.213                0.963161731     -110.832012
9.214                0.963069614      -111.04568
9.215                0.962977243     -111.259886
9.216                0.962884619      -111.47463
9.217                0.962791743     -111.689914
9.218                0.962698617     -111.905737
9.219                0.962605242       -112.1221
9.22                  0.96251162     -112.339003
9.221                0.962417752     -112.556448
9.222                0.962323641     -112.774435
9.223                0.962229287     -112.992963
9.224                0.962134692     -113.212034
9.225                0.962039858     -113.431649
9.226                0.961944786     -113.651806
9.227                0.961849479     -113.872508
9.228                0.961753939     -114.093754
9.229                0.961658166     -114.315544
9.23                 0.961562163      -114.53788
9.231                0.961465931     -114.760762
9.232                0.961369473     -114.984189
9.233                0.961272791     -115.208162
9.234                0.961175886     -115.432682
9.235                 0.96107876     -115.657749
9.236                0.960981416     -115.883363
9.237                0.960883856     -116.109525
9.238                0.960786081     -116.336234
9.239                0.960688094     -116.563491
9.24                 0.960589897     -116.791297
9.241                0.960491493      -117.01965
9.242                0.960392883     -117.248553
9.243                0.960294069     -117.478005
9.244                0.960195055     -117.708005
9.245                0.960095842     -117.938555
9.246                0.959996433     -118.169654
9.247                 0.95989683     -118.401303
9.248                0.959797036     -118.633501
9.249                0.959697053     -118.866249
9.25                 0.959596884     -119.099546
9.251                0.959496532     -119.333394
9.252                0.959395998     -119.567791
9.253                0.959295285     -119.802739
9.254                0.959194397     -120.038236
9.255                0.959093336     -120.274283
9.256                0.958992105      -120.51088
9.257                0.958890706     -120.748027
9.258                0.958789142     -120.985723
9.259                0.958687417     -121.223969
9.26                 0.958585532     -121.462765
9.261                0.958483492      -121.70211
9.262                0.958381299     -121.942004
9.263                0.958278955     -122.182448
9.264                0.958176465      -122.42344
9.265                0.958073831     -122.664982
9.266                0.957971057     -122.907071
9.267                0.957868144     -123.149709
9.268                0.957765098     -123.392895
9.269                 0.95766192     -123.636629
9.27                 0.957558614      -123.88091
9.271                0.957455184     -124.125739
9.272                0.957351633     -124.371114
9.273                0.957247964     -124.617035
9.274                0.957144181     -124.863502
9.275                0.957040287     -125.110515
9.276                0.956936286     -125.358073
9.277                 0.95683218     -125.606176
9.278                0.956727975     -125.854823
9.279                0.956623673     -126.104014
9.28                 0.956519278     -126.353748
9.281                0.956414794     -126.604025
9.282                0.956310224     -126.854843
9.283                0.956205573     -127.106203
9.284                0.956100844     -127.358105
9.285                0.955996041     -127.610546
9.286                0.955891167     -127.863527
9.287                0.955786228     -128.117047
9.288                0.955681226     -128.371105
9.289                0.955576166       -128.6257
9.29                 0.955471051     -128.880833
9.291                0.955365887     -129.136501
9.292                0.955260676     -129.392705
9.293                0.955155424     -129.649442
9.294                0.955050134     -129.906714
9.295                 0.95494481     -130.164517
9.296                0.954839457     -130.422853
9.297                 0.95473408     -130.681719
9.298                0.954628682     -130.941116
9.299                0.954523267     -131.201041
9.3                  0.954417841     -131.461494
9.301                0.954312407     -131.722473
9.302                0.954206971     -131.983979
9.303                0.954101536     -132.246009
9.304                0.953996108     -132.508563
9.305                 0.95389069     -132.771639
9.306                0.953785288     -133.035237
9.307                0.953679905     -133.299355
9.308                0.953574548     -133.563992
9.309                 0.95346922     -133.829146
9.31                 0.953363926     -134.094817
9.311                0.953258671     -134.361003
9.312                0.953153461     -134.627703
9.313                0.953048299     -134.894916
9.314                 0.95294319     -135.162639
9.315                 0.95283814     -135.430873
9.316                0.952733153     -135.699615
9.317                0.952628235     -135.968863
9.318                0.952523391     -136.238617
9.319                0.952418625     -136.508875
9.32                 0.952313943     -136.779635
9.321                0.952209349     -137.050896
9.322                0.952104849     -137.322657
9.323                0.952000449     -137.594914
9.324                0.951896152     -137.867668
9.325                0.951791965     -138.140916
9.326                0.951687893     -138.414657
9.327                0.951583941     -138.688889
9.328                0.951480114     -138.963609
9.329                0.951376418     -139.238817
9.33                 0.951272858     -139.514511
9.331                0.951169439     -139.790688
9.332                0.951066167     -140.067347
9.333                0.950963048     -140.344486
9.334                0.950860086     -140.622103
9.335                0.950757288     -140.900196
9.336                0.950654658     -141.178763
9.337                0.950552203     -141.457802
9.338                0.950449927     -141.737311
9.339                0.950347837     -142.017288
9.34                 0.950245938      -142.29773
9.341                0.950144236     -142.578637
9.342                0.950042736     -142.860004
9.343                0.949941444     -143.141832
9.344                0.949840366     -143.424116
9.345                0.949739507     -143.706855
9.346                0.949638873     -143.990047
9.347                0.949538471     -144.273689
9.348                0.949438305     -144.557779
9.349                0.949338381     -144.842315
9.35                 0.949238705     -145.127293
9.351                0.949139284     -145.412713
9.352                0.949040122     -145.698571
9.353                0.948941226     -145.984865
9.354                0.948842601     -146.271592
9.355                0.948744254      -146.55875
9.356                 0.94864619     -146.846337
9.357                0.948548415     -147.134349
9.358                0.948450935     -147.422784
9.359                0.948353756     -147.711639
9.36                 0.948256884     -148.000912
9.361                0.948160324     -148.290601
9.362                0.948064083     -148.580701
9.363                0.947968167     -148.871211
9.364                0.947872581     -149.162128
9.365                0.947777332     -149.453448
9.366                0.947682425      -149.74517
9.367                0.947587866      -150.03729
9.368                0.947493661     -150.329805
9.369                0.947399817     -150.622712
9.37                 0.947306339     -150.916009
9.371                0.947213233     -151.209692
9.372                0.947120505     -151.503758
9.373                0.947028161     -151.798205
9.374                0.946936208     -152.093029
9.375                 0.94684465     -152.388227
9.376                0.946753493     -152.683796
9.377                0.946662745     -152.979733
9.378                0.946572411     -153.276035
9.379                0.946482496     -153.572698
9.38                 0.946393006     -153.869719
9.381                0.946303948     -154.167095
9.382                0.946215328     -154.464823
9.383                 0.94612715     -154.762899
9.384                0.946039422      -155.06132
9.385                0.945952149     -155.360083
9.386                0.945865336     -155.659184
9.387                0.945778991      -155.95862
9.388                0.945693118     -156.258387
9.389                0.945607723     -156.558481
9.39                 0.945522812     -156.858901
9.391                0.945438391     -157.159641
9.392                0.945354466     -157.460698
9.393                0.945271042     -157.762069
9.394                0.945188125     -158.063751
9.395                0.945105721     -158.365738
9.396                0.945023835     -158.668029
