! TOUCHSTONE file generated by CST DESIGN STUDIO
! Date and time: Tue Feb  4 13:51:32 2025
! Project name: C:\Work\MatlabApps\UnitCellOptimizationMatlab\CST\unitcell.cst
! Tree item: Tasks\Sweep1\SPara1\S-Parameters
! Header version: 2024
! Port assignment regex: !\s*Touchstone port\s*([0-9]+)\s*=\s*(CST MWS port|CST DES external port|CST DES block port)\s*(.+)\s* \(\"(.*)\"\)(\s*mode\s*([0-9]+))?.*
! Touchstone port assignment:
! Touchstone port 1 = CST DES external port 1 ("")
# GHz S MA R 50
9                    0.980562991     -67.2272332
9.001                 0.98053372     -67.3278219
9.002                0.980504275     -67.4286629
9.003                0.980474656      -67.529757
9.004                0.980444863     -67.6311051
9.005                0.980414894     -67.7327079
9.006                0.980384748     -67.8345662
9.007                0.980354426     -67.9366809
9.008                0.980323925     -68.0390528
9.009                0.980293247     -68.1416827
9.01                 0.980262389     -68.2445714
9.011                 0.98023135     -68.3477198
9.012                0.980200131     -68.4511286
9.013                0.980168731     -68.5547988
9.014                0.980137148     -68.6587312
9.015                0.980105382     -68.7629265
9.016                0.980073433     -68.8673857
9.017                0.980041299     -68.9721095
9.018                0.980008979     -69.0770988
9.019                0.979976474     -69.1823546
9.02                 0.979943781     -69.2878775
9.021                0.979910901     -69.3936685
9.022                0.979877833     -69.4997284
9.023                0.979844575     -69.6060582
9.024                0.979811128     -69.7126585
9.025                0.979777489     -69.8195304
9.026                 0.97974366     -69.9266746
9.027                0.979709638     -70.0340921
9.028                0.979675423     -70.1417837
9.029                0.979641014     -70.2497502
9.03                 0.979606411     -70.3579927
9.031                0.979571613     -70.4665118
9.032                0.979536618     -70.5753086
9.033                0.979501426     -70.6843839
9.034                0.979466037     -70.7937386
9.035                0.979430449     -70.9033736
9.036                0.979394662     -71.0132898
9.037                0.979358675      -71.123488
9.038                0.979322488     -71.2339692
9.039                0.979286098     -71.3447342
9.04                 0.979249506     -71.4557841
9.041                0.979212711     -71.5671196
9.042                0.979175712     -71.6787416
9.043                0.979138509     -71.7906512
9.044                0.979101099     -71.9028492
9.045                0.979063484     -72.0153365
9.046                0.979025661      -72.128114
9.047                 0.97898763     -72.2411827
9.048                 0.97894939     -72.3545435
9.049                0.978910941     -72.4681973
9.05                 0.978872282     -72.5821451
9.051                0.978833412     -72.6963877
9.052                0.978794329     -72.8109261
9.053                0.978755034     -72.9257613
9.054                0.978715525     -73.0408941
9.055                0.978675802     -73.1563256
9.056                0.978635864     -73.2720566
9.057                 0.97859571     -73.3880882
9.058                0.978555339     -73.5044212
9.059                 0.97851475     -73.6210566
9.06                 0.978473944     -73.7379954
9.061                0.978432918     -73.8552386
9.062                0.978391672      -73.972787
9.063                0.978350205     -74.0906417
9.064                0.978308517     -74.2088036
9.065                0.978266606     -74.3272736
9.066                0.978224473     -74.4460529
9.067                0.978182115     -74.5651422
9.068                0.978139532     -74.6845427
9.069                0.978096724     -74.8042552
9.07                 0.978053689     -74.9242809
9.071                0.978010428     -75.0446205
9.072                0.977966938     -75.1652752
9.073                0.977923219     -75.2862459
9.074                0.977879271     -75.4075336
9.075                0.977835092     -75.5291393
9.076                0.977790682      -75.651064
9.077                 0.97774604     -75.7733087
9.078                0.977701165     -75.8958745
9.079                0.977656056     -76.0187622
9.08                 0.977610713     -76.1419729
9.081                0.977565135     -76.2655076
9.082                0.977519321     -76.3893673
9.083                0.977473269     -76.5135531
9.084                 0.97742698      -76.638066
9.085                0.977380453     -76.7629069
9.086                0.977333686     -76.8880769
9.087                0.977286679      -77.013577
9.088                0.977239431     -77.1394082
9.089                0.977191942     -77.2655716
9.09                  0.97714421     -77.3920682
9.091                0.977096235     -77.5188991
9.092                0.977048015     -77.6460652
9.093                0.976999551     -77.7735676
9.094                0.976950841     -77.9014073
9.095                0.976901885     -78.0295854
9.096                0.976852681     -78.1581029
9.097                 0.97680323     -78.2869609
9.098                0.976753529     -78.4161604
9.099                0.976703579     -78.5457025
9.1                  0.976653378     -78.6755882
9.101                0.976602926     -78.8058186
9.102                0.976552222     -78.9363947
9.103                0.976501266     -79.0673176
9.104                0.976450056     -79.1985884
9.105                0.976398591     -79.3302081
9.106                0.976346872     -79.4621777
9.107                0.976294896     -79.5944985
9.108                0.976242664     -79.7271713
9.109                0.976190174     -79.8601973
9.11                 0.976137427     -79.9935776
9.111                 0.97608442     -80.1273133
9.112                0.976031153     -80.2614054
9.113                0.975977626      -80.395855
9.114                0.975923838     -80.5306631
9.115                0.975869788      -80.665831
9.116                0.975815475     -80.8013596
9.117                0.975760898     -80.9372501
9.118                0.975706057     -81.0735035
9.119                0.975650951     -81.2101209
9.12                  0.97559558     -81.3471034
9.121                0.975539942     -81.4844522
9.122                0.975484036     -81.6221683
9.123                0.975427863     -81.7602529
9.124                0.975371421     -81.8987069
9.125                 0.97531471     -82.0375316
9.126                0.975257728      -82.176728
9.127                0.975200475     -82.3162973
9.128                0.975142951     -82.4562405
9.129                0.975085155     -82.5965588
9.13                 0.975027085     -82.7372532
9.131                0.974968742      -82.878325
9.132                0.974910125     -83.0197751
9.133                0.974851232     -83.1616048
9.134                0.974792063     -83.3038151
9.135                0.974732618     -83.4464072
9.136                0.974672896     -83.5893821
9.137                0.974612896     -83.7327411
9.138                0.974552617     -83.8764852
9.139                0.974492059     -84.0206155
9.14                 0.974431222     -84.1651332
9.141                0.974370103     -84.3100395
9.142                0.974308704     -84.4553354
9.143                0.974247022     -84.6010221
9.144                0.974185058     -84.7471006
9.145                0.974122811     -84.8935723
9.146                 0.97406028     -85.0404381
9.147                0.973997465     -85.1876992
9.148                0.973934364     -85.3353568
9.149                0.973870978      -85.483412
9.15                 0.973807306     -85.6318659
9.151                0.973743346     -85.7807197
9.152                  0.9736791     -85.9299745
9.153                0.973614565     -86.0796314
9.154                0.973549741     -86.2296917
9.155                0.973484628     -86.3801564
9.156                0.973419226     -86.5310267
9.157                0.973353532     -86.6823038
9.158                0.973287548     -86.8339887
9.159                0.973221273     -86.9860827
9.16                 0.973154705     -87.1385869
9.161                0.973087844     -87.2915024
9.162                0.973020691     -87.4448304
9.163                0.972953244      -87.598572
9.164                0.972885502     -87.7527284
9.165                0.972817466     -87.9073008
9.166                0.972749134     -88.0622902
9.167                0.972680507     -88.2176979
9.168                0.972611584      -88.373525
9.169                0.972542364     -88.5297726
9.17                 0.972472846      -88.686442
9.171                0.972403032     -88.8435342
9.172                0.972332918     -89.0010504
9.173                0.972262507     -89.1589918
9.174                0.972191796     -89.3173595
9.175                0.972120786     -89.4761546
9.176                0.972049477     -89.6353784
9.177                0.971977866      -89.795032
9.178                0.971905956     -89.9551165
9.179                0.971833744     -90.1156331
9.18                 0.971761231     -90.2765829
9.181                0.971688416     -90.4379672
9.182                0.971615299      -90.599787
9.183                0.971541879     -90.7620434
9.184                0.971468157     -90.9247378
9.185                0.971394131     -91.0878711
9.186                0.971319802     -91.2514446
9.187                0.971245169     -91.4154593
9.188                0.971170232     -91.5799166
9.189                0.971094991     -91.7448174
9.19                 0.971019445      -91.910163
9.191                0.970943594     -92.0759544
9.192                0.970867438      -92.242193
9.193                0.970790976     -92.4088796
9.194                0.970714209     -92.5760157
9.195                0.970637136     -92.7436021
9.196                0.970559757     -92.9116402
9.197                0.970482072     -93.0801311
9.198                 0.97040408     -93.2490758
9.199                0.970325782     -93.4184756
9.2                  0.970247177     -93.5883315
9.201                0.970168265     -93.7586447
9.202                0.970089046     -93.9294164
9.203                 0.97000952     -94.1006476
9.204                0.969929687     -94.2723394
9.205                0.969849546     -94.4444931
9.206                0.969769099     -94.6171098
9.207                0.969688343     -94.7901905
9.208                0.969607281     -94.9637364
9.209                 0.96952591     -95.1377485
9.21                 0.969444233     -95.3122282
9.211                0.969362248     -95.4871763
9.212                0.969279955     -95.6625941
9.213                0.969197355     -95.8384826
9.214                0.969114448      -96.014843
9.215                0.969031233     -96.1916764
9.216                0.968947711     -96.3689838
9.217                0.968863882     -96.5467664
9.218                0.968779746     -96.7250252
9.219                0.968695303     -96.9037614
9.22                 0.968610554     -97.0829761
9.221                0.968525498     -97.2626702
9.222                0.968440135      -97.442845
9.223                0.968354467     -97.6235015
9.224                0.968268492     -97.8046408
9.225                0.968182212     -97.9862638
9.226                0.968095626     -98.1683718
9.227                0.968008736     -98.3509658
9.228                 0.96792154     -98.5340468
9.229                 0.96783404      -98.717616
9.23                 0.967746236     -98.9016742
9.231                0.967658127     -99.0862227
9.232                0.967569716     -99.2712624
9.233                0.967481001     -99.4567944
9.234                0.967391984     -99.6428197
9.235                0.967302664     -99.8293394
9.236                0.967213043     -100.016354
9.237                 0.96712312     -100.203866
9.238                0.967032896     -100.391875
9.239                0.966942372     -100.580382
9.24                 0.966851549     -100.769389
9.241                0.966760426     -100.958896
9.242                0.966669004     -101.148905
9.243                0.966577285     -101.339416
9.244                0.966485268      -101.53043
9.245                0.966392954     -101.721949
9.246                0.966300345     -101.913974
9.247                 0.96620744     -102.106504
9.248                 0.96611424     -102.299543
9.249                0.966020746     -102.493089
9.25                 0.965926959     -102.687144
9.251                 0.96583288      -102.88171
9.252                0.965738509     -103.076787
9.253                0.965643847     -103.272376
9.254                0.965548896     -103.468478
9.255                0.965453656     -103.665093
9.256                0.965358127     -103.862224
9.257                0.965262311      -104.05987
9.258                 0.96516621     -104.258033
9.259                0.965069822     -104.456713
9.26                 0.964973151     -104.655912
9.261                0.964876197      -104.85563
9.262                 0.96477896     -105.055868
9.263                0.964681443     -105.256628
9.264                0.964583646     -105.457909
9.265                 0.96448557     -105.659712
9.266                0.964387216      -105.86204
9.267                0.964288586     -106.064891
9.268                0.964189681     -106.268268
9.269                0.964090502     -106.472171
9.27                  0.96399105       -106.6766
9.271                0.963891328     -106.881557
9.272                0.963791335     -107.087043
9.273                0.963691074     -107.293058
9.274                0.963590545     -107.499602
9.275                0.963489751     -107.706678
9.276                0.963388693     -107.914284
9.277                0.963287371     -108.122423
9.278                0.963185789     -108.331095
9.279                0.963083947       -108.5403
9.28                 0.962981846      -108.75004
9.281                 0.96287949     -108.960315
9.282                0.962776878     -109.171125
9.283                0.962674013     -109.382472
9.284                0.962570897     -109.594356
9.285                 0.96246753     -109.806777
9.286                0.962363916     -110.019737
9.287                0.962260056     -110.233236
9.288                0.962155951     -110.447275
9.289                0.962051604     -110.661854
9.29                 0.961947016     -110.876973
9.291                 0.96184219     -111.092634
9.292                0.961737127     -111.308837
9.293                0.961631829     -111.525582
9.294                0.961526299     -111.742871
9.295                0.961420538     -111.960703
9.296                0.961314548      -112.17908
9.297                0.961208332     -112.398001
9.298                0.961101892     -112.617467
9.299                 0.96099523     -112.837479
9.3                  0.960888348     -113.058037
9.301                0.960781249     -113.279142
9.302                0.960673934     -113.500794
9.303                0.960566407     -113.722993
9.304                0.960458669      -113.94574
9.305                0.960350723     -114.169035
9.306                0.960242572     -114.392879
9.307                0.960134217     -114.617273
9.308                0.960025662     -114.842215
9.309                0.959916909     -115.067708
9.31                  0.95980796      -115.29375
9.311                0.959698819     -115.520343
9.312                0.959589487     -115.747487
9.313                0.959479968     -115.975182
9.314                0.959370265     -116.203428
9.315                0.959260379     -116.432226
9.316                0.959150315     -116.661576
9.317                0.959040074     -116.891477
9.318                 0.95892966     -117.121931
9.319                0.958819076     -117.352937
9.32                 0.958708324     -117.584496
9.321                0.958597407     -117.816608
9.322                 0.95848633     -118.049272
9.323                0.958375094      -118.28249
9.324                0.958263703     -118.516261
9.325                0.958152159     -118.750585
9.326                0.958040468     -118.985462
9.327                 0.95792863     -119.220893
9.328                 0.95781665     -119.456877
9.329                0.957704532     -119.693415
9.33                 0.957592277     -119.930506
9.331                0.957479891      -120.16815
9.332                0.957367375     -120.406348
9.333                0.957254735     -120.645099
9.334                0.957141972     -120.884403
9.335                0.957029091      -121.12426
9.336                0.956916096     -121.364671
9.337                0.956802989     -121.605634
9.338                0.956689776     -121.847151
9.339                0.956576458     -122.089219
9.34                 0.956463041     -122.331841
9.341                0.956349528     -122.575014
9.342                0.956235922     -122.818739
9.343                0.956122228     -123.063016
9.344                0.956008449     -123.307845
9.345                 0.95589459     -123.553224
9.346                0.955780654     -123.799154
9.347                0.955666646     -124.045635
9.348                0.955552569     -124.292666
9.349                0.955438428     -124.540247
9.35                 0.955324226     -124.788377
9.351                0.955209969     -125.037056
9.352                0.955095659     -125.286283
9.353                0.954981302     -125.536059
9.354                0.954866902     -125.786382
9.355                0.954752463     -126.037252
9.356                0.954637989     -126.288668
9.357                0.954523485     -126.540631
9.358                0.954408956     -126.793138
9.359                0.954294405     -127.046191
9.36                 0.954179837     -127.299787
9.361                0.954065258     -127.553927
9.362                0.953950671      -127.80861
9.363                0.953836081     -128.063835
9.364                0.953721493     -128.319601
9.365                0.953606912     -128.575908
9.366                0.953492342     -128.832754
9.367                0.953377788      -129.09014
9.368                0.953263255     -129.348064
9.369                0.953148747     -129.606525
9.37                 0.953034271     -129.865522
9.371                 0.95291983     -130.125056
9.372                 0.95280543     -130.385124
9.373                0.952691076     -130.645725
9.374                0.952576772      -130.90686
9.375                0.952462524     -131.168526
9.376                0.952348337     -131.430723
9.377                0.952234217      -131.69345
9.378                0.952120167     -131.956705
9.379                0.952006194     -132.220488
9.38                 0.951892303     -132.484797
9.381                0.951778499     -132.749632
9.382                0.951664787      -133.01499
9.383                0.951551173     -133.280872
9.384                0.951437662     -133.547275
9.385                 0.95132426     -133.814198
9.386                0.951210972     -134.081641
9.387                0.951097804     -134.349601
9.388                 0.95098476     -134.618077
9.389                0.950871847     -134.887069
9.39                  0.95075907     -135.156574
9.391                0.950646436     -135.426592
9.392                0.950533948      -135.69712
9.393                0.950421614     -135.968158
9.394                0.950309439     -136.239703
9.395                0.950197428     -136.511755
9.396                0.950085587     -136.784311
