! TOUCHSTONE file generated by CST DESIGN STUDIO
! Date and time: Tue Feb  4 13:51:29 2025
! Project name: C:\Work\MatlabApps\UnitCellOptimizationMatlab\CST\unitcell.cst
! Tree item: Tasks\Sweep1\SPara1\S-Parameters
! Header version: 2024
! Port assignment regex: !\s*Touchstone port\s*([0-9]+)\s*=\s*(CST MWS port|CST DES external port|CST DES block port)\s*(.+)\s* \(\"(.*)\"\)(\s*mode\s*([0-9]+))?.*
! Touchstone port assignment:
! Touchstone port 1 = CST DES external port 1 ("")
# GHz S MA R 50
9                    0.978610213     -71.5665933
9.001                0.978577492     -71.6771033
9.002                0.978544585     -71.7878977
9.003                 0.97851149     -71.8989774
9.004                0.978478208     -72.0103433
9.005                0.978444737     -72.1219963
9.006                0.978411077     -72.2339374
9.007                0.978377226     -72.3461674
9.008                0.978343185     -72.4586872
9.009                0.978308951     -72.5714979
9.01                 0.978274525     -72.6846002
9.011                0.978239906     -72.7979951
9.012                0.978205092     -72.9116836
9.013                0.978170083     -73.0256666
9.014                0.978134878      -73.139945
9.015                0.978099477     -73.2545197
9.016                0.978063878     -73.3693917
9.017                 0.97802808     -73.4845619
9.018                0.977992084     -73.6000312
9.019                0.977955887     -73.7158007
9.02                  0.97791949     -73.8318712
9.021                0.977882891     -73.9482437
9.022                 0.97784609     -74.0649191
9.023                0.977809085     -74.1818984
9.024                0.977771877     -74.2991826
9.025                0.977734463     -74.4167726
9.026                0.977696844     -74.5346694
9.027                0.977659018     -74.6528739
9.028                0.977620985     -74.7713872
9.029                0.977582744     -74.8902101
9.03                 0.977544294     -75.0093436
9.031                0.977505634     -75.1287888
9.032                0.977466763     -75.2485466
9.033                0.977427681     -75.3686179
9.034                0.977388386     -75.4890039
9.035                0.977348878     -75.6097053
9.036                0.977309157     -75.7307233
9.037                 0.97726922     -75.8520588
9.038                0.977229068     -75.9737129
9.039                  0.9771887     -76.0956864
9.04                 0.977148114     -76.2179804
9.041                 0.97710731      -76.340596
9.042                0.977066287      -76.463534
9.043                0.977025044     -76.5867956
9.044                0.976983581     -76.7103816
9.045                0.976941896     -76.8342932
9.046                0.976899989     -76.9585313
9.047                0.976857859      -77.083097
9.048                0.976815505     -77.2079912
9.049                0.976772926      -77.333215
9.05                 0.976730122     -77.4587694
9.051                0.976687091     -77.5846554
9.052                0.976643833     -77.7108741
9.053                0.976600347     -77.8374264
9.054                0.976556632     -77.9643135
9.055                0.976512687     -78.0915363
9.056                0.976468511     -78.2190959
9.057                0.976424105     -78.3469932
9.058                0.976379466     -78.4752295
9.059                0.976334593     -78.6038056
9.06                 0.976289487     -78.7327226
9.061                0.976244147     -78.8619816
9.062                 0.97619857     -78.9915837
9.063                0.976152758     -79.1215298
9.064                0.976106708     -79.2518211
9.065                 0.97606042     -79.3824585
9.066                0.976013893     -79.5134432
9.067                0.975967127     -79.6447762
9.068                 0.97592012     -79.7764585
9.069                0.975872872     -79.9084912
9.07                 0.975825382     -80.0408755
9.071                0.975777649     -80.1736123
9.072                0.975729672     -80.3067027
9.073                0.975681451     -80.4401478
9.074                0.975632984     -80.5739487
9.075                0.975584271     -80.7081064
9.076                0.975535311      -80.842622
9.077                0.975486104     -80.9774967
9.078                0.975436648     -81.1127314
9.079                0.975386942     -81.2483272
9.08                 0.975336986     -81.3842854
9.081                 0.97528678     -81.5206068
9.082                0.975236321     -81.6572927
9.083                 0.97518561     -81.7943441
9.084                0.975134646     -81.9317621
9.085                0.975083427     -82.0695478
9.086                0.975031953     -82.2077023
9.087                0.974980224     -82.3462267
9.088                0.974928238      -82.485122
9.089                0.974875995     -82.6243895
9.09                 0.974823494     -82.7640302
9.091                0.974770734     -82.9040451
9.092                0.974717715     -83.0444355
9.093                0.974664435     -83.1852024
9.094                0.974610894     -83.3263469
9.095                0.974557091     -83.4678701
9.096                0.974503026     -83.6097732
9.097                0.974448697     -83.7520572
9.098                0.974394104     -83.8947233
9.099                0.974339246     -84.0377726
9.1                  0.974284122     -84.1812062
9.101                0.974228732     -84.3250253
9.102                0.974173075     -84.4692309
9.103                 0.97411715     -84.6138241
9.104                0.974060956     -84.7588062
9.105                0.974004493     -84.9041781
9.106                 0.97394776     -85.0499412
9.107                0.973890757     -85.1960963
9.108                0.973833482     -85.3426448
9.109                0.973775934     -85.4895877
9.11                 0.973718114     -85.6369262
9.111                0.973660021     -85.7846613
9.112                0.973601653     -85.9327943
9.113                 0.97354301     -86.0813263
9.114                0.973484091     -86.2302583
9.115                0.973424897     -86.3795915
9.116                0.973365425     -86.5293271
9.117                0.973305675     -86.6794663
9.118                0.973245648       -86.83001
9.119                0.973185341     -86.9809595
9.12                 0.973124755      -87.132316
9.121                0.973063888     -87.2840804
9.122                0.973002741     -87.4362541
9.123                0.972941312     -87.5888382
9.124                0.972879601     -87.7418336
9.125                0.972817608     -87.8952418
9.126                 0.97275533     -88.0490636
9.127                0.972692769     -88.2033004
9.128                0.972629924     -88.3579533
9.129                0.972566793     -88.5130233
9.13                 0.972503376     -88.6685116
9.131                0.972439673     -88.8244195
9.132                0.972375684     -88.9807479
9.133                0.972311406     -89.1374982
9.134                0.972246841     -89.2946713
9.135                0.972181987     -89.4522685
9.136                0.972116844      -89.610291
9.137                0.972051412     -89.7687397
9.138                0.971985689      -89.927616
9.139                0.971919675     -90.0869209
9.14                 0.971853371     -90.2466556
9.141                0.971786774     -90.4068212
9.142                0.971719886     -90.5674188
9.143                0.971652705     -90.7284497
9.144                 0.97158523      -90.889915
9.145                0.971517462     -91.0518157
9.146                0.971449401     -91.2141531
9.147                0.971381044     -91.3769283
9.148                0.971312393     -91.5401424
9.149                0.971243446     -91.7037965
9.15                 0.971174204     -91.8678919
9.151                0.971104665     -92.0324296
9.152                 0.97103483     -92.1974108
9.153                0.970964697     -92.3628366
9.154                0.970894268     -92.5287081
9.155                0.970823541     -92.6950265
9.156                0.970752515      -92.861793
9.157                0.970681192     -93.0290086
9.158                0.970609569     -93.1966744
9.159                0.970537648     -93.3647917
9.16                 0.970465427     -93.5333615
9.161                0.970392907      -93.702385
9.162                0.970320086     -93.8718633
9.163                0.970246966     -94.0417975
9.164                0.970173545     -94.2121887
9.165                0.970099823     -94.3830381
9.166                  0.9700258     -94.5543467
9.167                0.969951477     -94.7261157
9.168                0.969876851     -94.8983463
9.169                0.969801925     -95.0710394
9.17                 0.969726696     -95.2441963
9.171                0.969651166      -95.417818
9.172                0.969575333     -95.5919056
9.173                0.969499198     -95.7664603
9.174                0.969422761     -95.9414831
9.175                0.969346022     -96.1169751
9.176                0.969268979     -96.2929375
9.177                0.969191635     -96.4693713
9.178                0.969113987     -96.6462776
9.179                0.969036037     -96.8236575
9.18                 0.968957784     -97.0015122
9.181                0.968879228     -97.1798425
9.182                0.968800369     -97.3586498
9.183                0.968721207     -97.5379349
9.184                0.968641743      -97.717699
9.185                0.968561976     -97.8979432
9.186                0.968481906     -98.0786685
9.187                0.968401533      -98.259876
9.188                0.968320858     -98.4415668
9.189                0.968239881     -98.6237418
9.19                 0.968158601     -98.8064022
9.191                0.968077019      -98.989549
9.192                0.967995135     -99.1731832
9.193                0.967912949     -99.3573059
9.194                0.967830461      -99.541918
9.195                0.967747672     -99.7270208
9.196                0.967664582      -99.912615
9.197                0.967581191     -100.098702
9.198                0.967497499     -100.285282
9.199                0.967413507     -100.472357
9.2                  0.967329215     -100.659928
9.201                0.967244623     -100.847995
9.202                0.967159731      -101.03656
9.203                0.967074541     -101.225624
9.204                0.966989052     -101.415187
9.205                0.966903264      -101.60525
9.206                0.966817179     -101.795815
9.207                0.966730796     -101.986883
9.208                0.966644117     -102.178454
9.209                0.966557141      -102.37053
9.21                  0.96646987     -102.563111
9.211                0.966382303     -102.756198
9.212                0.966294441     -102.949792
9.213                0.966206285     -103.143895
9.214                0.966117835     -103.338507
9.215                0.966029093     -103.533629
9.216                0.965940058     -103.729261
9.217                0.965850731     -103.925406
9.218                0.965761114     -104.122063
9.219                0.965671206     -104.319234
9.22                 0.965581009      -104.51692
9.221                0.965490523     -104.715121
9.222                0.965399749     -104.913838
9.223                0.965308688     -105.113073
9.224                0.965217341     -105.312825
9.225                0.965125708     -105.513096
9.226                0.965033791     -105.713887
9.227                0.964941591     -105.915199
9.228                0.964849108     -106.117032
9.229                0.964756343     -106.319387
9.23                 0.964663297     -106.522265
9.231                0.964569972     -106.725667
9.232                0.964476368     -106.929593
9.233                0.964382487     -107.134045
9.234                0.964288329     -107.339022
9.235                0.964193896     -107.544527
9.236                0.964099189     -107.750559
9.237                0.964004209      -107.95712
9.238                0.963908957      -108.16421
9.239                0.963813435     -108.371829
9.24                 0.963717644     -108.579979
9.241                0.963621584     -108.788661
9.242                0.963525259     -108.997874
9.243                0.963428668      -109.20762
9.244                0.963331813     -109.417899
9.245                0.963234696     -109.628713
9.246                0.963137317      -109.84006
9.247                 0.96303968     -110.051944
9.248                0.962941784     -110.264363
9.249                0.962843632     -110.477318
9.25                 0.962745226     -110.690811
9.251                0.962646566     -110.904841
9.252                0.962547654      -111.11941
9.253                0.962448493     -111.334518
9.254                0.962349083     -111.550165
9.255                0.962249427     -111.766352
9.256                0.962149526      -111.98308
9.257                0.962049382     -112.200348
9.258                0.961948997     -112.418159
9.259                0.961848373     -112.636511
9.26                 0.961747511     -112.855406
9.261                0.961646414     -113.074844
9.262                0.961545084     -113.294826
9.263                0.961443522     -113.515351
9.264                0.961341731     -113.736421
9.265                0.961239712     -113.958036
9.266                0.961137468     -114.180195
9.267                   0.961035     -114.402901
9.268                0.960932312     -114.626152
9.269                0.960829405      -114.84995
9.27                 0.960726282     -115.074295
9.271                0.960622944     -115.299186
9.272                0.960519394     -115.524625
9.273                0.960415635     -115.750612
9.274                0.960311668     -115.977147
9.275                0.960207496      -116.20423
9.276                0.960103122     -116.431861
9.277                0.959998548     -116.660041
9.278                0.959893777      -116.88877
9.279                0.959788811     -117.118049
9.28                 0.959683653     -117.347876
9.281                0.959578305     -117.578254
9.282                 0.95947277     -117.809181
9.283                 0.95936705     -118.040658
9.284                 0.95926115     -118.272685
9.285                 0.95915507     -118.505262
9.286                0.959048815     -118.738389
9.287                0.958942387     -118.972066
9.288                0.958835788     -119.206294
9.289                0.958729022     -119.441073
9.29                 0.958622092     -119.676402
9.291                0.958515001     -119.912281
9.292                0.958407751     -120.148711
9.293                0.958300347     -120.385691
9.294                 0.95819279     -120.623221
9.295                0.958085085     -120.861302
9.296                0.957977233     -121.099933
9.297                 0.95786924     -121.339114
9.298                0.957761107     -121.578845
9.299                0.957652839     -121.819126
9.3                  0.957544438     -122.059957
9.301                0.957435907     -122.301337
9.302                0.957327252     -122.543267
9.303                0.957218474     -122.785745
9.304                0.957109577     -123.028773
9.305                0.957000565     -123.272349
9.306                0.956891442     -123.516473
9.307                0.956782211     -123.761145
9.308                0.956672875     -124.006365
9.309                0.956563439     -124.252133
9.31                 0.956453906     -124.498447
9.311                 0.95634428     -124.745308
9.312                0.956234565     -124.992715
9.313                0.956124764     -125.240668
9.314                0.956014882     -125.489166
9.315                0.955904923     -125.738209
9.316                 0.95579489     -125.987796
9.317                0.955684787     -126.237927
9.318                0.955574619     -126.488601
9.319                0.955464389     -126.739818
9.32                 0.955354103     -126.991578
9.321                0.955243763     -127.243878
9.322                0.955133374      -127.49672
9.323                0.955022941     -127.750102
9.324                0.954912467     -128.004023
9.325                0.954801957     -128.258483
9.326                0.954691415     -128.513481
9.327                0.954580846     -128.769017
9.328                0.954470255     -129.025089
9.329                0.954359645     -129.281697
9.33                 0.954249021      -129.53884
9.331                0.954138387     -129.796517
9.332                0.954027749     -130.054727
9.333                0.953917111     -130.313469
9.334                0.953806478     -130.572743
9.335                0.953695853     -130.832548
9.336                0.953585243     -131.092882
9.337                0.953474651     -131.353744
9.338                0.953364083     -131.615134
9.339                0.953253543      -131.87705
9.34                 0.953143036     -132.139492
9.341                0.953032568     -132.402458
9.342                0.952922142     -132.665947
9.343                0.952811765     -132.929958
9.344                0.952701441     -133.194489
9.345                0.952591175     -133.459541
9.346                0.952480972      -133.72511
9.347                0.952370837     -133.991197
9.348                0.952260776     -134.257799
9.349                0.952150794     -134.524916
9.35                 0.952040895     -134.792546
9.351                0.951931085     -135.060688
9.352                 0.95182137     -135.329341
9.353                0.951711755     -135.598502
9.354                0.951602244      -135.86817
9.355                0.951492844     -136.138345
9.356                 0.95138356     -136.409024
9.357                0.951274397     -136.680207
9.358                 0.95116536      -136.95189
9.359                0.951056456     -137.224074
9.36                 0.950947689     -137.496755
9.361                0.950839066     -137.769934
9.362                0.950730591     -138.043607
9.363                0.950622271     -138.317773
9.364                0.950514111     -138.592431
9.365                0.950406116     -138.867579
9.366                0.950298293     -139.143214
9.367                0.950190647     -139.419336
9.368                0.950083184     -139.695942
9.369                0.949975909      -139.97303
9.37                 0.949868828     -140.250599
9.371                0.949761947     -140.528646
9.372                0.949655273      -140.80717
9.373                 0.94954881     -141.086169
9.374                0.949442565      -141.36564
9.375                0.949336543     -141.645582
9.376                 0.94923075     -141.925992
9.377                0.949125193     -142.206869
9.378                0.949019877      -142.48821
9.379                0.948914809     -142.770013
9.38                 0.948809993     -143.052276
9.381                0.948705437     -143.334996
9.382                0.948601146     -143.618173
9.383                0.948497126     -143.901802
9.384                0.948393384     -144.185882
9.385                0.948289924      -144.47041
9.386                0.948186754     -144.755385
9.387                 0.94808388     -145.040804
9.388                0.947981307     -145.326663
9.389                0.947879042     -145.612962
9.39                 0.947777091     -145.899697
9.391                 0.94767546     -146.186866
9.392                0.947574154     -146.474467
9.393                0.947473181     -146.762496
9.394                0.947372547     -147.050951
9.395                0.947272256      -147.33983
9.396                0.947172317      -147.62913
