! TOUCHSTONE file generated by CST DESIGN STUDIO
! Date and time: Tue Feb  4 13:51:24 2025
! Project name: C:\Work\MatlabApps\UnitCellOptimizationMatlab\CST\unitcell.cst
! Tree item: Tasks\Sweep1\SPara1\S-Parameters
! Header version: 2024
! Port assignment regex: !\s*Touchstone port\s*([0-9]+)\s*=\s*(CST MWS port|CST DES external port|CST DES block port)\s*(.+)\s* \(\"(.*)\"\)(\s*mode\s*([0-9]+))?.*
! Touchstone port assignment:
! Touchstone port 1 = CST DES external port 1 ("")
# GHz S MA R 50
9                    0.975427908     -78.3530119
9.001                0.975388879     -78.4800379
9.002                0.975349653     -78.6074013
9.003                0.975310232     -78.7351031
9.004                0.975270613     -78.8631445
9.005                0.975230795     -78.9915264
9.006                0.975190779     -79.1202498
9.007                0.975150563      -79.249316
9.008                0.975110146     -79.3787258
9.009                0.975069528     -79.5084804
9.01                 0.975028707     -79.6385807
9.011                0.974987684      -79.769028
9.012                0.974946456     -79.8998232
9.013                0.974905024     -80.0309674
9.014                0.974863386     -80.1624616
9.015                0.974821541      -80.294307
9.016                 0.97477949     -80.4265046
9.017                 0.97473723     -80.5590555
9.018                0.974694761     -80.6919607
9.019                0.974652083     -80.8252213
9.02                 0.974609194     -80.9588385
9.021                0.974566094     -81.0928132
9.022                0.974522782     -81.2271466
9.023                0.974479257     -81.3618398
9.024                0.974435518     -81.4968938
9.025                0.974391564     -81.6323097
9.026                0.974347395     -81.7680887
9.027                 0.97430301     -81.9042317
9.028                0.974258407       -82.04074
9.029                0.974213587     -82.1776146
9.03                 0.974168548     -82.3148565
9.031                 0.97412329      -82.452467
9.032                0.974077811      -82.590447
9.033                0.974032111     -82.7287978
9.034                0.973986189     -82.8675204
9.035                0.973940045     -83.0066159
9.036                0.973893676     -83.1460854
9.037                0.973847084       -83.28593
9.038                0.973800266     -83.4261509
9.039                0.973753223     -83.5667491
9.04                 0.973705953     -83.7077258
9.041                0.973658455     -83.8490821
9.042                0.973610729      -83.990819
9.043                0.973562773     -84.1329378
9.044                0.973514588     -84.2754396
9.045                0.973466172     -84.4183254
9.046                0.973417524     -84.5615964
9.047                0.973368645     -84.7052536
9.048                0.973319532     -84.8492984
9.049                0.973270185     -84.9937317
9.05                 0.973220604     -85.1385546
9.051                0.973170787     -85.2837684
9.052                0.973120734     -85.4293742
9.053                0.973070444      -85.575373
9.054                0.973019917      -85.721766
9.055                0.972969151     -85.8685544
9.056                0.972918146     -86.0157393
9.057                  0.9728669     -86.1633218
9.058                0.972815414      -86.311303
9.059                0.972763687     -86.4596841
9.06                 0.972711717     -86.6084663
9.061                0.972659504     -86.7576507
9.062                0.972607048     -86.9072383
9.063                0.972554347     -87.0572304
9.064                0.972501401     -87.2076281
9.065                0.972448209     -87.3584325
9.066                0.972394771     -87.5096449
9.067                0.972341085     -87.6612662
9.068                0.972287151     -87.8132977
9.069                0.972232968     -87.9657406
9.07                 0.972178535     -88.1185959
9.071                0.972123853     -88.2718648
9.072                0.972068919     -88.4255484
9.073                0.972013734      -88.579648
9.074                0.971958297     -88.7341646
9.075                0.971902607     -88.8890994
9.076                0.971846663     -89.0444535
9.077                0.971790465     -89.2002282
9.078                0.971734012     -89.3564245
9.079                0.971677303     -89.5130435
9.08                 0.971620338     -89.6700865
9.081                0.971563116     -89.8275546
9.082                0.971505637      -89.985449
9.083                0.971447899     -90.1437707
9.084                0.971389903     -90.3025209
9.085                0.971331647     -90.4617008
9.086                0.971273131     -90.6213116
9.087                0.971214354     -90.7813543
9.088                0.971155316     -90.9418301
9.089                0.971096016     -91.1027402
9.09                 0.971036454     -91.2640857
9.091                0.970976628     -91.4258678
9.092                0.970916539     -91.5880876
9.093                0.970856186     -91.7507462
9.094                0.970795568     -91.9138448
9.095                0.970734684     -92.0773846
9.096                0.970673535     -92.2413666
9.097                0.970612119      -92.405792
9.098                0.970550437      -92.570662
9.099                0.970488487     -92.7359777
9.1                  0.970426269     -92.9017402
9.101                0.970363782     -93.0679506
9.102                0.970301027     -93.2346102
9.103                0.970238002       -93.40172
9.104                0.970174707     -93.5692812
9.105                0.970111142     -93.7372949
9.106                0.970047306     -93.9057622
9.107                0.969983198     -94.0746843
9.108                0.969918819     -94.2440623
9.109                0.969854168     -94.4138972
9.11                 0.969789244     -94.5841903
9.111                0.969724047     -94.7549427
9.112                0.969658577     -94.9261554
9.113                0.969592832     -95.0978297
9.114                0.969526814     -95.2699665
9.115                0.969460521     -95.4425671
9.116                0.969393954     -95.6156324
9.117                0.969327111     -95.7891638
9.118                0.969259992     -95.9631621
9.119                0.969192598     -96.1376287
9.12                 0.969124927     -96.3125644
9.121                 0.96905698     -96.4879705
9.122                0.968988756     -96.6638481
9.123                0.968920255     -96.8401982
9.124                0.968851477     -97.0170219
9.125                0.968782421     -97.1943204
9.126                0.968713088     -97.3720946
9.127                0.968643476     -97.5503458
9.128                0.968573586     -97.7290749
9.129                0.968503418      -97.908283
9.13                 0.968432971     -98.0879712
9.131                0.968362245     -98.2681406
9.132                 0.96829124     -98.4487922
9.133                0.968219957     -98.6299272
9.134                0.968148394     -98.8115464
9.135                0.968076551     -98.9936511
9.136                 0.96800443     -99.1762423
9.137                0.967932028     -99.3593209
9.138                0.967859348     -99.5428881
9.139                0.967786387     -99.7269449
9.14                 0.967713147     -99.9114922
9.141                0.967639628     -100.096531
9.142                0.967565828     -100.282063
9.143                0.967491749     -100.468088
9.144                 0.96741739     -100.654608
9.145                0.967342752     -100.841624
9.146                0.967267834     -101.029136
9.147                0.967192637     -101.217147
9.148                 0.96711716     -101.405655
9.149                0.967041404     -101.594664
9.15                 0.966965369     -101.784173
9.151                0.966889055     -101.974184
9.152                0.966812463     -102.164697
9.153                0.966735591     -102.355714
9.154                0.966658441     -102.547236
9.155                0.966581013     -102.739263
9.156                0.966503307     -102.931796
9.157                0.966425324     -103.124837
9.158                0.966347063     -103.318386
9.159                0.966268525     -103.512445
9.16                  0.96618971     -103.707014
9.161                0.966110618     -103.902093
9.162                0.966031251     -104.097685
9.163                0.965951608      -104.29379
9.164                0.965871689     -104.490408
9.165                0.965791496     -104.687541
9.166                0.965711028      -104.88519
9.167                0.965630286     -105.083355
9.168                0.965549271     -105.282037
9.169                0.965467982     -105.481238
9.17                 0.965386422     -105.680957
9.171                0.965304589     -105.881197
9.172                0.965222485     -106.081957
9.173                 0.96514011     -106.283238
9.174                0.965057466     -106.485042
9.175                0.964974551     -106.687369
9.176                0.964891368      -106.89022
9.177                0.964807917     -107.093596
9.178                0.964724198     -107.297498
9.179                0.964640213     -107.501925
9.18                 0.964555962      -107.70688
9.181                0.964471446     -107.912362
9.182                0.964386665     -108.118373
9.183                0.964301622     -108.324914
9.184                0.964216315     -108.531984
9.185                0.964130747     -108.739585
9.186                0.964044918     -108.947718
9.187                0.963958829     -109.156383
9.188                0.963872481      -109.36558
9.189                0.963785876     -109.575311
9.19                 0.963699014     -109.785576
9.191                0.963611895     -109.996377
9.192                0.963524522     -110.207712
9.193                0.963436896     -110.419584
9.194                0.963349017     -110.631992
9.195                0.963260887     -110.844938
9.196                0.963172506     -111.058422
9.197                0.963083877     -111.272444
9.198                0.962994999     -111.487006
9.199                0.962905876     -111.702107
9.2                  0.962816507     -111.917748
9.201                0.962726895      -112.13393
9.202                 0.96263704     -112.350654
9.203                0.962546944     -112.567919
9.204                0.962456608     -112.785727
9.205                0.962366034     -113.004077
9.206                0.962275224     -113.222971
9.207                0.962184178     -113.442408
9.208                0.962092899      -113.66239
9.209                0.962001388     -113.882916
9.21                 0.961909646     -114.103987
9.211                0.961817675     -114.325604
9.212                0.961725477     -114.547767
9.213                0.961633054     -114.770476
9.214                0.961540407     -114.993732
9.215                0.961447538     -115.217534
9.216                0.961354449     -115.441884
9.217                0.961261141     -115.666782
9.218                0.961167617     -115.892227
9.219                0.961073878     -116.118221
9.22                 0.960979927     -116.344763
9.221                0.960885765     -116.571854
9.222                0.960791394     -116.799494
9.223                0.960696816     -117.027684
9.224                0.960602034     -117.256423
9.225                0.960507049     -117.485711
9.226                0.960411864     -117.715549
9.227                 0.96031648     -117.945938
9.228                  0.9602209     -118.176876
9.229                0.960125127     -118.408365
9.23                 0.960029162     -118.640405
9.231                0.959933008     -118.872994
9.232                0.959836666     -119.106135
9.233                 0.95974014     -119.339826
9.234                0.959643432     -119.574068
9.235                0.959546545      -119.80886
9.236                0.959449479     -120.044204
9.237                 0.95935224     -120.280098
9.238                0.959254828     -120.516543
9.239                0.959157246     -120.753538
9.24                 0.959059498     -120.991084
9.241                0.958961585     -121.229181
9.242                 0.95886351     -121.467828
9.243                0.958765277     -121.707025
9.244                0.958666887     -121.946773
9.245                0.958568344     -122.187071
9.246                0.958469651     -122.427918
9.247                 0.95837081     -122.669315
9.248                0.958271824     -122.911262
9.249                0.958172696     -123.153757
9.25                  0.95807343     -123.396802
9.251                0.957974028     -123.640395
9.252                0.957874493     -123.884537
9.253                0.957774829     -124.129227
9.254                0.957675038     -124.374464
9.255                0.957575124     -124.620249
9.256                 0.95747509      -124.86658
9.257                 0.95737494     -125.113458
9.258                0.957274675     -125.360882
9.259                0.957174301     -125.608852
9.26                 0.957073819     -125.857367
9.261                0.956973234     -126.106427
9.262                 0.95687255     -126.356031
9.263                0.956771768     -126.606178
9.264                0.956670894     -126.856869
9.265                 0.95656993     -127.108102
9.266                 0.95646888     -127.359877
9.267                0.956367748     -127.612193
9.268                0.956266538      -127.86505
9.269                0.956165252     -128.118446
9.27                 0.956063895     -128.372382
9.271                0.955962471     -128.626857
9.272                0.955860984     -128.881869
9.273                0.955759436     -129.137418
9.274                0.955657833     -129.393503
9.275                0.955556178     -129.650124
9.276                0.955454474     -129.907279
9.277                0.955352727     -130.164967
9.278                 0.95525094     -130.423189
9.279                0.955149117     -130.681942
9.28                 0.955047262     -130.941226
9.281                 0.95494538      -131.20104
9.282                0.954843474     -131.461383
9.283                0.954741548     -131.722253
9.284                0.954639608     -131.983651
9.285                0.954537657     -132.245574
9.286                  0.9544357     -132.508022
9.287                 0.95433374     -132.770994
9.288                0.954231783     -133.034488
9.289                0.954129832     -133.298503
9.29                 0.954027893     -133.563038
9.291                0.953925969     -133.828092
9.292                0.953824066     -134.093663
9.293                0.953722187      -134.35975
9.294                0.953620338     -134.626353
9.295                0.953518522     -134.893469
9.296                0.953416746     -135.161097
9.297                0.953315012     -135.429236
9.298                0.953213327     -135.697885
9.299                0.953111694     -135.967041
9.3                  0.953010119     -136.236704
9.301                0.952908606     -136.506872
9.302                0.952807161     -136.777543
9.303                0.952705787     -137.048716
9.304                0.952604491     -137.320389
9.305                0.952503276     -137.592562
9.306                0.952402149     -137.865231
9.307                0.952301113     -138.138395
9.308                0.952200175     -138.412054
9.309                0.952099338     -138.686204
9.31                 0.951998608     -138.960844
9.311                0.951897991     -139.235973
9.312                0.951797491     -139.511588
9.313                0.951697113     -139.787688
9.314                0.951596864     -140.064271
9.315                0.951496747     -140.341335
9.316                0.951396768     -140.618878
9.317                0.951296932     -140.896899
9.318                0.951197246     -141.175394
9.319                0.951097713     -141.454362
9.32                  0.95099834     -141.733802
9.321                0.950899131      -142.01371
9.322                0.950800093     -142.294086
9.323                 0.95070123     -142.574926
9.324                0.950602548     -142.856229
9.325                0.950504052     -143.137992
9.326                0.950405748     -143.420214
9.327                0.950307642     -143.702891
9.328                0.950209738     -143.986022
9.329                0.950112043     -144.269605
9.33                 0.950014562     -144.553636
9.331                  0.9499173     -144.838115
9.332                0.949820264     -145.123037
9.333                0.949723458     -145.408402
9.334                0.949626888     -145.694206
9.335                 0.94953056     -145.980447
9.336                 0.94943448     -146.267122
9.337                0.949338653     -146.554229
9.338                0.949243085     -146.841766
9.339                0.949147781     -147.129729
9.34                 0.949052748     -147.418117
9.341                 0.94895799     -147.706926
9.342                0.948863515     -147.996154
9.343                0.948769326     -148.285798
9.344                0.948675431     -148.575855
9.345                0.948581835     -148.866323
9.346                0.948488543     -149.157198
9.347                0.948395561     -149.448479
9.348                0.948302896     -149.740162
9.349                0.948210552     -150.032244
9.35                 0.948118536     -150.324722
9.351                0.948026854     -150.617594
9.352                 0.94793551     -150.910856
9.353                0.947844512     -151.204506
9.354                0.947753864      -151.49854
9.355                0.947663573     -151.792955
9.356                0.947573644     -152.087749
9.357                0.947484084     -152.382918
9.358                0.947394897     -152.678459
9.359                0.947306089     -152.974369
9.36                 0.947217667     -153.270644
9.361                0.947129636     -153.567282
9.362                0.947042002      -153.86428
9.363                0.946954771     -154.161633
9.364                0.946867948     -154.459339
9.365                0.946781539     -154.757394
9.366                0.946695551     -155.055796
9.367                0.946609987      -155.35454
9.368                0.946524855     -155.653623
9.369                 0.94644016     -155.953042
9.37                 0.946355908     -156.252794
9.371                0.946272104     -156.552874
9.372                0.946188754      -156.85328
9.373                0.946105863     -157.154007
9.374                0.946023438     -157.455053
9.375                0.945941484     -157.756414
9.376                0.945860007     -158.058086
9.377                0.945779011     -158.360065
9.378                0.945698503     -158.662348
9.379                0.945618489     -158.964931
9.38                 0.945538973     -159.267811
9.381                0.945459961     -159.570984
9.382                0.945381459     -159.874445
9.383                0.945303472     -160.178192
9.384                0.945226005      -160.48222
9.385                0.945149065     -160.786526
9.386                0.945072655     -161.091106
9.387                0.944996783     -161.395955
9.388                0.944921452     -161.701071
9.389                0.944846669     -162.006449
9.39                 0.944772438     -162.312085
9.391                0.944698766     -162.617975
9.392                0.944625656     -162.924115
9.393                0.944553114     -163.230502
9.394                0.944481146     -163.537132
9.395                0.944409756     -163.843999
9.396                0.944338949     -164.151101
