! TOUCHSTONE file generated by CST DESIGN STUDIO
! Date and time: Tue Feb  4 13:51:23 2025
! Project name: C:\Work\MatlabApps\UnitCellOptimizationMatlab\CST\unitcell.cst
! Tree item: Tasks\Sweep1\SPara1\S-Parameters
! Header version: 2024
! Port assignment regex: !\s*Touchstone port\s*([0-9]+)\s*=\s*(CST MWS port|CST DES external port|CST DES block port)\s*(.+)\s* \(\"(.*)\"\)(\s*mode\s*([0-9]+))?.*
! Touchstone port assignment:
! Touchstone port 1 = CST DES external port 1 ("")
# GHz S MA R 50
9                    0.974320264      -80.654007
9.001                0.974278872     -80.7869054
9.002                0.974237283     -80.9201596
9.003                0.974195497     -81.0537707
9.004                0.974153514     -81.1877398
9.005                0.974111331     -81.3220679
9.006                0.974068949     -81.4567561
9.007                0.974026367     -81.5918056
9.008                0.973983583     -81.7272174
9.009                0.973940598     -81.8629927
9.01                  0.97389741     -81.9991324
9.011                0.973854018     -82.1356378
9.012                0.973810422     -82.2725099
9.013                0.973766621     -82.4097498
9.014                0.973722614     -82.5473587
9.015                  0.9736784     -82.6853376
9.016                0.973633979     -82.8236876
9.017                 0.97358935     -82.9624098
9.018                0.973544511     -83.1015055
9.019                0.973499463     -83.2409756
9.02                 0.973454204     -83.3808212
9.021                0.973408734     -83.5210436
9.022                0.973363052     -83.6616438
9.023                0.973317157      -83.802623
9.024                0.973271048     -83.9439822
9.025                0.973224725     -84.0857226
9.026                0.973178186     -84.2278453
9.027                0.973131432     -84.3703514
9.028                 0.97308446     -84.5132421
9.029                0.973037271     -84.6565184
9.03                 0.972989864     -84.8001816
9.031                0.972942238     -84.9442327
9.032                0.972894392     -85.0886729
9.033                0.972846326     -85.2335034
9.034                0.972798038     -85.3787251
9.035                0.972749528     -85.5243393
9.036                0.972700795     -85.6703472
9.037                0.972651838     -85.8167498
9.038                0.972602657     -85.9635483
9.039                0.972553252     -86.1107438
9.04                  0.97250362     -86.2583375
9.041                0.972453762     -86.4063305
9.042                0.972403676      -86.554724
9.043                0.972353363     -86.7035191
9.044                 0.97230282     -86.8527169
9.045                0.972252048     -87.0023186
9.046                0.972201046     -87.1523254
9.047                0.972149813     -87.3027383
9.048                0.972098349     -87.4535586
9.049                0.972046652     -87.6047874
9.05                 0.971994722     -87.7564257
9.051                0.971942558     -87.9084749
9.052                 0.97189016      -88.060936
9.053                0.971837526     -88.2138102
9.054                0.971784657     -88.3670987
9.055                0.971731551     -88.5208025
9.056                0.971678208     -88.6749228
9.057                0.971624627     -88.8294609
9.058                0.971570807     -88.9844178
9.059                0.971516748     -89.1397946
9.06                 0.971462449     -89.2955927
9.061                 0.97140791      -89.451813
9.062                0.971353129     -89.6084568
9.063                0.971298106     -89.7655252
9.064                0.971242841     -89.9230194
9.065                0.971187333     -90.0809405
9.066                0.971131581     -90.2392897
9.067                0.971075584     -90.3980681
9.068                0.971019342     -90.5572768
9.069                0.970962855     -90.7169171
9.07                 0.970906121     -90.8769901
9.071                 0.97084914      -91.037497
9.072                0.970791912     -91.1984388
9.073                0.970734436     -91.3598167
9.074                0.970676711     -91.5216319
9.075                0.970618736     -91.6838856
9.076                0.970560512     -91.8465789
9.077                0.970502037     -92.0097129
9.078                0.970443312     -92.1732888
9.079                0.970384334     -92.3373077
9.08                 0.970325105     -92.5017708
9.081                0.970265623     -92.6666792
9.082                0.970205888     -92.8320341
9.083                0.970145899     -92.9978366
9.084                0.970085656     -93.1640878
9.085                0.970025158     -93.3307889
9.086                0.969964406     -93.4979411
9.087                0.969903397     -93.6655454
9.088                0.969842132     -93.8336031
9.089                0.969780611     -94.0021152
9.09                 0.969718832     -94.1710828
9.091                0.969656796     -94.3405072
9.092                0.969594502     -94.5103894
9.093                0.969531949     -94.6807305
9.094                0.969469137     -94.8515318
9.095                0.969406066     -95.0227943
9.096                0.969342736     -95.1945191
9.097                0.969279145     -95.3667073
9.098                0.969215293     -95.5393602
9.099                0.969151181     -95.7124787
9.1                  0.969086808     -95.8860641
9.101                0.969022173     -96.0601173
9.102                0.968957275     -96.2346396
9.103                0.968892116      -96.409632
9.104                0.968826694     -96.5850957
9.105                0.968761009     -96.7610317
9.106                 0.96869506     -96.9374411
9.107                0.968628849     -97.1143251
9.108                0.968562373     -97.2916846
9.109                0.968495633     -97.4695209
9.11                 0.968428629      -97.647835
9.111                 0.96836136      -97.826628
9.112                0.968293826     -98.0059009
9.113                0.968226028     -98.1856549
9.114                0.968157964      -98.365891
9.115                0.968089634     -98.5466102
9.116                0.968021039     -98.7278137
9.117                0.967952178     -98.9095025
9.118                0.967883051     -99.0916776
9.119                0.967813658     -99.2743402
9.12                 0.967743999     -99.4574913
9.121                0.967674073     -99.6411318
9.122                0.967603881     -99.8252629
9.123                0.967533423     -100.009886
9.124                0.967462698     -100.195001
9.125                0.967391706      -100.38061
9.126                0.967320448     -100.566713
9.127                0.967248922     -100.753313
9.128                 0.96717713     -100.940409
9.129                0.967105072     -101.128002
9.13                 0.967032747     -101.316095
9.131                0.966960155     -101.504687
9.132                0.966887296      -101.69378
9.133                0.966814171     -101.883374
9.134                 0.96674078     -102.073472
9.135                0.966667122     -102.264072
9.136                0.966593198     -102.455178
9.137                0.966519008     -102.646789
9.138                0.966444552     -102.838906
9.139                0.966369831     -103.031531
9.14                 0.966294844     -103.224665
9.141                0.966219591     -103.418308
9.142                0.966144074     -103.612461
9.143                0.966068292     -103.807125
9.144                0.965992245     -104.002302
9.145                0.965915934     -104.197992
9.146                0.965839359     -104.394195
9.147                 0.96576252     -104.590914
9.148                0.965685418     -104.788148
9.149                0.965608053     -104.985899
9.15                 0.965530426     -105.184167
9.151                0.965452537     -105.382954
9.152                0.965374385      -105.58226
9.153                0.965295973     -105.782086
9.154                  0.9652173     -105.982434
9.155                0.965138367     -106.183303
9.156                0.965059174     -106.384694
9.157                0.964979721     -106.586609
9.158                 0.96490001     -106.789049
9.159                0.964820041     -106.992013
9.16                 0.964739815     -107.195503
9.161                0.964659331      -107.39952
9.162                0.964578592     -107.604064
9.163                0.964497597     -107.809137
9.164                0.964416347     -108.014738
9.165                0.964334843     -108.220869
9.166                0.964253086     -108.427531
9.167                0.964171076     -108.634724
9.168                0.964088814     -108.842448
9.169                0.964006301     -109.050705
9.17                 0.963923538     -109.259496
9.171                0.963840526     -109.468821
9.172                0.963757266      -109.67868
9.173                0.963673758     -109.889074
9.174                0.963590003     -110.100005
9.175                0.963506003     -110.311472
9.176                0.963421758     -110.523477
9.177                 0.96333727     -110.736019
9.178                 0.96325254       -110.9491
9.179                0.963167567      -111.16272
9.18                 0.963082355     -111.376879
9.181                0.962996903      -111.59158
9.182                0.962911214      -111.80682
9.183                0.962825287     -112.022603
9.184                0.962739125     -112.238927
9.185                0.962652728     -112.455794
9.186                0.962566099     -112.673203
9.187                0.962479237     -112.891157
9.188                0.962392145     -113.109654
9.189                0.962304824     -113.328695
9.19                 0.962217275     -113.548282
9.191                0.962129499     -113.768414
9.192                0.962041499     -113.989092
9.193                0.961953275     -114.210316
9.194                 0.96186483     -114.432087
9.195                0.961776164     -114.654405
9.196                0.961687279      -114.87727
9.197                0.961598177     -115.100683
9.198                0.961508859     -115.324644
9.199                0.961419327     -115.549154
9.2                  0.961329583     -115.774212
9.201                0.961239628      -115.99982
9.202                0.961149465     -116.225977
9.203                0.961059095     -116.452684
9.204                0.960968519     -116.679941
9.205                 0.96087774     -116.907748
9.206                0.960786759     -117.136105
9.207                0.960695579     -117.365013
9.208                0.960604202     -117.594472
9.209                0.960512628     -117.824482
9.21                 0.960420861     -118.055043
9.211                0.960328903     -118.286156
9.212                0.960236755      -118.51782
9.213                0.960144419     -118.750035
9.214                0.960051898     -118.982803
9.215                0.959959194     -119.216122
9.216                0.959866309     -119.449993
9.217                0.959773246     -119.684416
9.218                0.959680006      -119.91939
9.219                0.959586592     -120.154917
9.22                 0.959493007     -120.390996
9.221                0.959399252     -120.627626
9.222                 0.95930533     -120.864808
9.223                0.959211244     -121.102542
9.224                0.959116996     -121.340828
9.225                0.959022589     -121.579665
9.226                0.958928024     -121.819054
9.227                0.958833306     -122.058994
9.228                0.958738435     -122.299485
9.229                0.958643416     -122.540527
9.23                 0.958548251      -122.78212
9.231                0.958452942     -123.024264
9.232                0.958357492     -123.266958
9.233                0.958261904     -123.510201
9.234                0.958166181     -123.753995
9.235                0.958070326     -123.998338
9.236                0.957974342      -124.24323
9.237                0.957878231     -124.488671
9.238                0.957781997     -124.734661
9.239                0.957685643     -124.981198
9.24                 0.957589171     -125.228283
9.241                0.957492585     -125.475915
9.242                0.957395888     -125.724094
9.243                0.957299084     -125.972819
9.244                0.957202174      -126.22209
9.245                0.957105164     -126.471906
9.246                0.957008055     -126.722267
9.247                0.956910851     -126.973172
9.248                0.956813556      -127.22462
9.249                0.956716173     -127.476611
9.25                 0.956618705     -127.729145
9.251                0.956521156      -127.98222
9.252                0.956423529     -128.235836
9.253                0.956325828     -128.489992
9.254                0.956228057     -128.744688
9.255                0.956130219     -128.999923
9.256                0.956032317     -129.255695
9.257                0.955934356     -129.512005
9.258                0.955836339     -129.768851
9.259                0.955738269     -130.026232
9.26                 0.955640152     -130.284148
9.261                 0.95554199     -130.542597
9.262                0.955443787      -130.80158
9.263                0.955345547     -131.061094
9.264                0.955247274     -131.321139
9.265                0.955148973     -131.581714
9.266                0.955050647     -131.842817
9.267                  0.9549523     -132.104448
9.268                0.954853936     -132.366606
9.269                0.954755559      -132.62929
9.27                 0.954657174     -132.892497
9.271                0.954558785     -133.156228
9.272                0.954460395     -133.420482
9.273                0.954362009     -133.685255
9.274                0.954263632     -133.950549
9.275                0.954165268     -134.216361
9.276                 0.95406692      -134.48269
9.277                0.953968594     -134.749534
9.278                0.953870294     -135.016893
9.279                0.953772024     -135.284765
9.28                 0.953673789     -135.553148
9.281                0.953575593     -135.822042
9.282                 0.95347744     -136.091444
9.283                0.953379337     -136.361354
9.284                0.953281286     -136.631769
9.285                0.953183292     -136.902688
9.286                0.953085361      -137.17411
9.287                0.952987497     -137.446033
9.288                0.952889704     -137.718456
9.289                0.952791988     -137.991376
9.29                 0.952694353     -138.264792
9.291                0.952596803     -138.538702
9.292                0.952499345     -138.813105
9.293                0.952401982     -139.087998
9.294                 0.95230472     -139.363381
9.295                0.952207564     -139.639251
9.296                0.952110518     -139.915606
9.297                0.952013587     -140.192445
9.298                0.951916776     -140.469765
9.299                0.951820092     -140.747565
9.3                  0.951723537     -141.025842
9.301                0.951627118     -141.304595
9.302                 0.95153084     -141.583822
9.303                0.951434708      -141.86352
9.304                0.951338726     -142.143688
9.305                0.951242901     -142.424323
9.306                0.951147236     -142.705423
9.307                0.951051739     -142.986987
9.308                0.950956413     -143.269011
9.309                0.950861264     -143.551493
9.31                 0.950766297     -143.834433
9.311                0.950671518     -144.117826
9.312                0.950576932     -144.401671
9.313                0.950482544     -144.685965
9.314                0.950388359     -144.970706
9.315                0.950294383     -145.255892
9.316                0.950200622      -145.54152
9.317                 0.95010708     -145.827588
9.318                0.950013764     -146.114093
9.319                0.949920678     -146.401032
9.32                 0.949827828     -146.688404
9.321                0.949735219     -146.976206
9.322                0.949642857     -147.264434
9.323                0.949550748     -147.553086
9.324                0.949458897     -147.842161
9.325                0.949367309     -148.131654
9.326                 0.94927599     -148.421563
9.327                0.949184945     -148.711886
9.328                 0.94909418      -149.00262
9.329                0.949003701     -149.293761
9.33                 0.948913513     -149.585308
9.331                0.948823621     -149.877256
9.332                0.948734032     -150.169604
9.333                 0.94864475     -150.462348
9.334                0.948555782     -150.755486
9.335                0.948467133     -151.049014
9.336                0.948378808     -151.342929
9.337                0.948290813     -151.637229
9.338                0.948203154      -151.93191
9.339                0.948115836     -152.226969
9.34                 0.948028865     -152.522403
9.341                0.947942246     -152.818209
9.342                0.947855986     -153.114384
9.343                0.947770089     -153.410925
9.344                0.947684561     -153.707827
9.345                0.947599408     -154.005089
9.346                0.947514635     -154.302706
9.347                0.947430248     -154.600676
9.348                0.947346252     -154.898995
9.349                0.947262654      -155.19766
9.35                 0.947179458     -155.496667
9.351                 0.94709667     -155.796013
9.352                0.947014295     -156.095694
9.353                 0.94693234     -156.395708
9.354                 0.94685081      -156.69605
9.355                0.946769709     -156.996717
9.356                0.946689044     -157.297705
9.357                 0.94660882     -157.599011
9.358                0.946529043     -157.900632
9.359                0.946449717     -158.202563
9.36                 0.946370849     -158.504801
9.361                0.946292444     -158.807342
9.362                0.946214507     -159.110184
9.363                0.946137043     -159.413321
9.364                0.946060058      -159.71675
9.365                0.945983558     -160.020467
9.366                0.945907547      -160.32447
9.367                0.945832031     -160.628753
9.368                0.945757014     -160.933313
9.369                0.945682503     -161.238146
9.37                 0.945608503     -161.543248
9.371                0.945535018     -161.848616
9.372                0.945462054     -162.154245
9.373                0.945389616     -162.460132
9.374                0.945317709     -162.766272
9.375                0.945246339     -163.072662
9.376                0.945175509     -163.379297
9.377                0.945105226     -163.686173
9.378                0.945035493     -163.993288
9.379                0.944966317     -164.300635
9.38                 0.944897703     -164.608212
9.381                0.944829654     -164.916014
9.382                0.944762175     -165.224037
9.383                0.944695273     -165.532277
9.384                0.944628951      -165.84073
9.385                0.944563214     -166.149391
9.386                0.944498066     -166.458257
9.387                0.944433514     -166.767323
9.388                 0.94436956     -167.076585
9.389                 0.94430621     -167.386039
9.39                 0.944243468      -167.69568
9.391                0.944181339     -168.005504
9.392                0.944119828     -168.315507
9.393                0.944058937     -168.625685
9.394                0.943998673     -168.936033
9.395                0.943939039     -169.246547
9.396                 0.94388004     -169.557223
