! TOUCHSTONE file generated by CST DESIGN STUDIO
! Date and time: Tue Feb  4 16:01:49 2025
! Project name: C:\Work\MatlabApps\UnitCellOptimizationMatlab\CST\unitcell.cst
! Tree item: Tasks\Sweep1\SPara1\S-Parameters
! Header version: 2024
! Port assignment regex: !\s*Touchstone port\s*([0-9]+)\s*=\s*(CST MWS port|CST DES external port|CST DES block port)\s*(.+)\s* \(\"(.*)\"\)(\s*mode\s*([0-9]+))?.*
! Touchstone port assignment:
! Touchstone port 1 = CST DES external port 1 ("")
# GHz S MA R 50
9                    0.979605105     -60.7377051
9.001                0.979565053     -60.8206695
9.002                0.979524879     -60.9038233
9.003                0.979484584     -60.9871671
9.004                0.979444167     -61.0707015
9.005                0.979403627      -61.154427
9.006                0.979362966     -61.2383443
9.007                0.979322181      -61.322454
9.008                0.979281272     -61.4067567
9.009                0.979240241     -61.4912529
9.01                 0.979199084     -61.5759433
9.011                0.979157804     -61.6608285
9.012                0.979116398      -61.745909
9.013                0.979074868     -61.8311855
9.014                0.979033211     -61.9166586
9.015                0.978991429     -62.0023289
9.016                 0.97894952     -62.0881971
9.017                0.978907484     -62.1742636
9.018                0.978865321     -62.2605292
9.019                 0.97882303     -62.3469945
9.02                 0.978780611       -62.43366
9.021                0.978738064     -62.5205265
9.022                0.978695388     -62.6075944
9.023                0.978652583     -62.6948646
9.024                0.978609649     -62.7823376
9.025                0.978566584     -62.8700139
9.026                0.978523389     -62.9578944
9.027                0.978480063     -63.0459795
9.028                0.978436606       -63.13427
9.029                0.978393018     -63.2227664
9.03                 0.978349297     -63.3114695
9.031                0.978305445     -63.4003798
9.032                0.978261459      -63.489498
9.033                 0.97821734     -63.5788248
9.034                0.978173088     -63.6683608
9.035                0.978128701     -63.7581067
9.036                0.978084181     -63.8480631
9.037                0.978039525     -63.9382306
9.038                0.977994734       -64.02861
9.039                0.977949808     -64.1192019
9.04                 0.977904746      -64.210007
9.041                0.977859547     -64.3010258
9.042                0.977814212     -64.3922592
9.043                0.977768739     -64.4837078
9.044                0.977723129     -64.5753721
9.045                 0.97767738      -64.667253
9.046                0.977631494     -64.7593511
9.047                0.977585468     -64.8516671
9.048                0.977539303     -64.9442016
9.049                0.977492999     -65.0369554
9.05                 0.977446554      -65.129929
9.051                0.977399969     -65.2231233
9.052                0.977353243     -65.3165389
9.053                0.977306375     -65.4101765
9.054                0.977259366     -65.5040368
9.055                0.977212215     -65.5981205
9.056                0.977164921     -65.6924282
9.057                0.977117484     -65.7869608
9.058                0.977069904     -65.8817188
9.059                 0.97702218      -65.976703
9.06                 0.976974312     -66.0719142
9.061                0.976926299     -66.1673529
9.062                0.976878141       -66.26302
9.063                0.976829838     -66.3589162
9.064                0.976781388     -66.4550421
9.065                0.976732793     -66.5513985
9.066                 0.97668405     -66.6479861
9.067                0.976635161     -66.7448057
9.068                0.976586124     -66.8418579
9.069                0.976536939     -66.9391435
9.07                 0.976487605     -67.0366632
9.071                0.976438123     -67.1344177
9.072                0.976388492     -67.2324079
9.073                 0.97633871     -67.3306344
9.074                0.976288779      -67.429098
9.075                0.976238697     -67.5277993
9.076                0.976188465     -67.6267393
9.077                0.976138081     -67.7259185
9.078                0.976087545     -67.8253378
9.079                0.976036857     -67.9249979
9.08                 0.975986016     -68.0248995
9.081                0.975935023     -68.1250435
9.082                0.975883875     -68.2254306
9.083                0.975832574     -68.3260615
9.084                0.975781119      -68.426937
9.085                0.975729509     -68.5280579
9.086                0.975677744     -68.6294249
9.087                0.975625823     -68.7310389
9.088                0.975573747     -68.8329005
9.089                0.975521514     -68.9350106
9.09                 0.975469124     -69.0373699
9.091                0.975416577     -69.1399792
9.092                0.975363872     -69.2428394
9.093                0.975311009     -69.3459511
9.094                0.975257988     -69.4493152
9.095                0.975204807     -69.5529325
9.096                0.975151468     -69.6568037
9.097                0.975097968     -69.7609297
9.098                0.975044309     -69.8653112
9.099                0.974990488     -69.9699491
9.1                  0.974936507     -70.0748442
9.101                0.974882364     -70.1799972
9.102                 0.97482806     -70.2854089
9.103                0.974773593     -70.3910802
9.104                0.974718963      -70.497012
9.105                0.974664171     -70.6032049
9.106                0.974609214     -70.7096598
9.107                0.974554094     -70.8163775
9.108                 0.97449881     -70.9233589
9.109                 0.97444336     -71.0306048
9.11                 0.974387746      -71.138116
9.111                0.974331965     -71.2458933
9.112                0.974276019     -71.3539375
9.113                0.974219907     -71.4622496
9.114                0.974163627     -71.5708303
9.115                 0.97410718     -71.6796804
9.116                0.974050566     -71.7888009
9.117                0.973993783     -71.8981925
9.118                0.973936832     -72.0078561
9.119                0.973879712     -72.1177925
9.12                 0.973822423     -72.2280026
9.121                0.973764964     -72.3384873
9.122                0.973707335     -72.4492473
9.123                0.973649535     -72.5602836
9.124                0.973591565      -72.671597
9.125                0.973533423     -72.7831884
9.126                0.973475109     -72.8950586
9.127                0.973416623     -73.0072085
9.128                0.973357965      -73.119639
9.129                0.973299134     -73.2323509
9.13                 0.973240129     -73.3453451
9.131                0.973180951     -73.4586226
9.132                0.973121598      -73.572184
9.133                0.973062071     -73.6860305
9.134                0.973002369     -73.8001627
9.135                0.972942492     -73.9145817
9.136                0.972882439     -74.0292882
9.137                 0.97282221     -74.1442833
9.138                0.972761804     -74.2595677
9.139                0.972701222     -74.3751424
9.14                 0.972640462     -74.4910083
9.141                0.972579525     -74.6071662
9.142                 0.97251841     -74.7236171
9.143                0.972457116     -74.8403619
9.144                0.972395644     -74.9574015
9.145                0.972333992     -75.0747367
9.146                0.972272161     -75.1923686
9.147                 0.97221015     -75.3102979
9.148                0.972147959     -75.4285257
9.149                0.972085587     -75.5470528
9.15                 0.972023034     -75.6658802
9.151                  0.9719603     -75.7850088
9.152                0.971897384     -75.9044395
9.153                0.971834286     -76.0241732
9.154                0.971771005     -76.1442108
9.155                0.971707542     -76.2645534
9.156                0.971643895     -76.3852017
9.157                0.971580065     -76.5061569
9.158                0.971516052     -76.6274197
9.159                0.971451854     -76.7489911
9.16                 0.971387471     -76.8708722
9.161                0.971322904     -76.9930637
9.162                0.971258151     -77.1155667
9.163                0.971193213     -77.2383822
9.164                0.971128089      -77.361511
9.165                0.971062778     -77.4849541
9.166                0.970997281     -77.6087125
9.167                0.970931598     -77.7327871
9.168                0.970865727     -77.8571789
9.169                0.970799668     -77.9818888
9.17                 0.970733422     -78.1069178
9.171                0.970666987      -78.232267
9.172                0.970600364     -78.3579371
9.173                0.970533553     -78.4839293
9.174                0.970466552     -78.6102445
9.175                0.970399362     -78.7368836
9.176                0.970331982     -78.8638476
9.177                0.970264412     -78.9911375
9.178                0.970196652     -79.1187544
9.179                0.970128701     -79.2466991
9.18                 0.970060559     -79.3749726
9.181                0.969992227      -79.503576
9.182                0.969923703     -79.6325102
9.183                0.969854987     -79.7617762
9.184                0.969786079     -79.8913751
9.185                 0.96971698     -80.0213077
9.186                0.969647687     -80.1515751
9.187                0.969578202     -80.2821783
9.188                0.969508524     -80.4131183
9.189                0.969438653     -80.5443961
9.19                 0.969368588     -80.6760126
9.191                 0.96929833      -80.807969
9.192                0.969227877     -80.9402661
9.193                0.969157231     -81.0729051
9.194                 0.96908639     -81.2058869
9.195                0.969015354     -81.3392125
9.196                0.968944124     -81.4728829
9.197                0.968872698     -81.6068992
9.198                0.968801078     -81.7412624
9.199                0.968729261     -81.8759734
9.2                  0.968657249     -82.0110334
9.201                0.968585041     -82.1464432
9.202                0.968512638     -82.2822041
9.203                0.968440037     -82.4183169
9.204                0.968367241     -82.5547827
9.205                0.968294248     -82.6916025
9.206                0.968221058     -82.8287774
9.207                0.968147671     -82.9663084
9.208                0.968074087     -83.1041965
9.209                0.968000306     -83.2424427
9.21                 0.967926327     -83.3810481
9.211                0.967852151     -83.5200138
9.212                0.967777777     -83.6593407
9.213                0.967703205     -83.7990299
9.214                0.967628436     -83.9390824
9.215                0.967553469     -84.0794994
9.216                0.967478303     -84.2202817
9.217                0.967402939     -84.3614305
9.218                0.967327377     -84.5029468
9.219                0.967251616     -84.6448317
9.22                 0.967175657     -84.7870862
9.221                0.967099499     -84.9297113
9.222                0.967023143     -85.0727082
9.223                0.966946588     -85.2160778
9.224                0.966869834     -85.3598212
9.225                0.966792881     -85.5039394
9.226                 0.96671573     -85.6484336
9.227                0.966638379     -85.7933047
9.228                 0.96656083     -85.9385538
9.229                0.966483081     -86.0841821
9.23                 0.966405134     -86.2301904
9.231                0.966326988       -86.37658
9.232                0.966248643     -86.5233518
9.233                0.966170098     -86.6705069
9.234                0.966091355     -86.8180464
9.235                0.966012413     -86.9659713
9.236                0.965933272     -87.1142827
9.237                0.965853933     -87.2629817
9.238                0.965774394     -87.4120693
9.239                0.965694657     -87.5615465
9.24                 0.965614721     -87.7114146
9.241                0.965534586     -87.8616744
9.242                0.965454254     -88.0123271
9.243                0.965373722     -88.1633738
9.244                0.965292993     -88.3148154
9.245                0.965212065     -88.4666531
9.246                0.965130939      -88.618888
9.247                0.965049615     -88.7715211
9.248                0.964968094     -88.9245534
9.249                0.964886375     -89.0779861
9.25                 0.964804458     -89.2318202
9.251                0.964722344     -89.3860567
9.252                0.964640033     -89.5406968
9.253                0.964557525     -89.6957415
9.254                0.964474821     -89.8511919
9.255                 0.96439192      -90.007049
9.256                0.964308822     -90.1633139
9.257                0.964225529     -90.3199876
9.258                0.964142039     -90.4770713
9.259                0.964058354      -90.634566
9.26                 0.963974474     -90.7924728
9.261                0.963890399     -90.9507927
9.262                0.963806129     -91.1095268
9.263                0.963721665     -91.2686762
9.264                0.963637007     -91.4282418
9.265                0.963552154     -91.5882249
9.266                0.963467109     -91.7486264
9.267                 0.96338187     -91.9094474
9.268                0.963296438     -92.0706889
9.269                0.963210814     -92.2323521
9.27                 0.963124998      -92.394438
9.271                0.963038991     -92.5569476
9.272                0.962952792      -92.719882
9.273                0.962866402     -92.8832423
9.274                0.962779822     -93.0470294
9.275                0.962693052     -93.2112445
9.276                0.962606093     -93.3758887
9.277                0.962518945     -93.5409628
9.278                0.962431608     -93.7064681
9.279                0.962344083     -93.8724056
9.28                  0.96225637     -94.0387762
9.281                0.962168471     -94.2055811
9.282                0.962080385     -94.3728213
9.283                0.961992114     -94.5404978
9.284                0.961903656     -94.7086117
9.285                0.961815015      -94.877164
9.286                0.961726189     -95.0461557
9.287                0.961637179     -95.2155879
9.288                0.961547987     -95.3854616
9.289                0.961458612     -95.5557778
9.29                 0.961369056     -95.7265376
9.291                0.961279319      -95.897742
9.292                0.961189401      -96.069392
9.293                0.961099304     -96.2414886
9.294                0.961009028     -96.4140329
9.295                0.960918574     -96.5870258
9.296                0.960827942     -96.7604684
9.297                0.960737134     -96.9343617
9.298                 0.96064615     -97.1087067
9.299                0.960554991     -97.2835043
9.3                  0.960463658     -97.4587557
9.301                0.960372152     -97.6344618
9.302                0.960280472     -97.8106235
9.303                0.960188622      -97.987242
9.304                  0.9600966     -98.1643181
9.305                0.960004408     -98.3418528
9.306                0.959912048     -98.5198472
9.307                0.959819519     -98.6983022
9.308                0.959726823     -98.8772188
9.309                0.959633961      -99.056598
9.31                 0.959540934     -99.2364407
9.311                0.959447743     -99.4167478
9.312                0.959354388     -99.5975205
9.313                0.959260872     -99.7787595
9.314                0.959167194     -99.9604659
9.315                0.959073356     -100.142641
9.316                 0.95897936     -100.325285
9.317                0.958885205     -100.508399
9.318                0.958790894     -100.691984
9.319                0.958696428     -100.876041
9.32                 0.958601807     -101.060571
9.321                0.958507033     -101.245576
9.322                0.958412107     -101.431055
9.323                0.958317031     -101.617009
9.324                0.958221805     -101.803441
9.325                0.958126431     -101.990349
9.326                 0.95803091     -102.177737
9.327                0.957935243     -102.365603
9.328                0.957839432      -102.55395
9.329                0.957743479     -102.742778
9.33                 0.957647384     -102.932088
9.331                0.957551149      -103.12188
9.332                0.957454775     -103.312156
9.333                0.957358264     -103.502917
9.334                0.957261617     -103.694163
9.335                0.957164835     -103.885896
9.336                0.957067921     -104.078115
9.337                0.956970876     -104.270822
9.338                0.956873701     -104.464018
9.339                0.956776398     -104.657704
9.34                 0.956678968      -104.85188
9.341                0.956581414     -105.046547
9.342                0.956483736     -105.241705
9.343                0.956385936     -105.437357
9.344                0.956288017     -105.633502
9.345                0.956189979     -105.830142
9.346                0.956091825     -106.027276
9.347                0.955993556     -106.224906
9.348                0.955895174     -106.423033
9.349                0.955796681     -106.621657
9.35                 0.955698078     -106.820779
9.351                0.955599368       -107.0204
9.352                0.955500553      -107.22052
9.353                0.955401633     -107.421141
9.354                0.955302612     -107.622262
9.355                0.955203491     -107.823885
9.356                0.955104272      -108.02601
9.357                0.955004957     -108.228639
9.358                0.954905549      -108.43177
9.359                0.954806048     -108.635406
9.36                 0.954706458     -108.839547
9.361                 0.95460678     -109.044194
9.362                0.954507017     -109.249347
9.363                 0.95440717     -109.455006
9.364                0.954307242     -109.661173
9.365                0.954207235     -109.867849
9.366                0.954107151     -110.075032
9.367                0.954006993     -110.282725
9.368                0.953906762     -110.490928
9.369                0.953806461     -110.699641
9.37                 0.953706093     -110.908865
9.371                 0.95360566       -111.1186
9.372                0.953505163     -111.328847
9.373                0.953404607     -111.539607
9.374                0.953303992      -111.75088
9.375                0.953203321     -111.962666
9.376                0.953102598     -112.174966
9.377                0.953001824     -112.387781
9.378                0.952901002      -112.60111
9.379                0.952800134     -112.814955
9.38                 0.952699224     -113.029316
9.381                0.952598273     -113.244192
9.382                0.952497285     -113.459586
9.383                0.952396262     -113.675496
9.384                0.952295207     -113.891924
9.385                0.952194122      -114.10887
9.386                 0.95209301     -114.326334
9.387                0.951991875     -114.544316
9.388                0.951890718     -114.762817
9.389                0.951789544     -114.981838
9.39                 0.951688354     -115.201378
9.391                0.951587151     -115.421437
9.392                0.951485939     -115.642017
9.393                0.951384721     -115.863117
9.394                0.951283498     -116.084737
9.395                0.951182275     -116.306879
9.396                0.951081055     -116.529541
