! TOUCHSTONE file generated by CST DESIGN STUDIO
! Date and time: Tue Feb  4 16:01:38 2025
! Project name: C:\Work\MatlabApps\UnitCellOptimizationMatlab\CST\unitcell.cst
! Tree item: Tasks\Sweep1\SPara1\S-Parameters
! Header version: 2024
! Port assignment regex: !\s*Touchstone port\s*([0-9]+)\s*=\s*(CST MWS port|CST DES external port|CST DES block port)\s*(.+)\s* \(\"(.*)\"\)(\s*mode\s*([0-9]+))?.*
! Touchstone port assignment:
! Touchstone port 1 = CST DES external port 1 ("")
# GHz S MA R 50
9                    0.978206905     -74.7719826
9.001                0.978154285     -74.8845932
9.002                0.978101507     -74.9974812
9.003                 0.97804857     -75.1106471
9.004                0.977995473      -75.224092
9.005                0.977942217     -75.3378166
9.006                0.977888802     -75.4518217
9.007                0.977835226     -75.5661083
9.008                 0.97778149     -75.6806771
9.009                0.977727592     -75.7955291
9.01                 0.977673534     -75.9106649
9.011                0.977619313     -76.0260856
9.012                0.977564931      -76.141792
9.013                0.977510386     -76.2577848
9.014                0.977455678      -76.374065
9.015                0.977400808     -76.4906335
9.016                0.977345774      -76.607491
9.017                0.977290575     -76.7246385
9.018                0.977235213     -76.8420768
9.019                0.977179686     -76.9598067
9.02                 0.977123994     -77.0778292
9.021                0.977068137     -77.1961451
9.022                0.977012115     -77.3147554
9.023                0.976955926     -77.4336607
9.024                0.976899571     -77.5528622
9.025                0.976843049     -77.6723605
9.026                0.976786361     -77.7921566
9.027                0.976729505     -77.9122515
9.028                0.976672481     -78.0326458
9.029                0.976615289     -78.1533407
9.03                 0.976557929     -78.2743368
9.031                  0.9765004     -78.3956353
9.032                0.976442702     -78.5172368
9.033                0.976384834     -78.6391423
9.034                0.976326797     -78.7613528
9.035                 0.97626859     -78.8838691
9.036                0.976210213      -79.006692
9.037                0.976151665     -79.1298226
9.038                0.976092945     -79.2532617
9.039                0.976034055     -79.3770102
9.04                 0.975974993     -79.5010691
9.041                0.975915759     -79.6254391
9.042                0.975856352     -79.7501214
9.043                0.975796773     -79.8751166
9.044                0.975737021     -80.0004259
9.045                0.975677096       -80.12605
9.046                0.975616998     -80.2519899
9.047                0.975556725     -80.3782466
9.048                0.975496279     -80.5048209
9.049                0.975435658     -80.6317137
9.05                 0.975374862     -80.7589261
9.051                0.975313892     -80.8864588
9.052                0.975252746     -81.0143129
9.053                0.975191425     -81.1424893
9.054                0.975129928     -81.2709889
9.055                0.975068255     -81.3998126
9.056                0.975006405     -81.5289614
9.057                0.974944379     -81.6584362
9.058                0.974882176     -81.7882379
9.059                0.974819796     -81.9183675
9.06                 0.974757238     -82.0488259
9.061                0.974694503     -82.1796141
9.062                 0.97463159      -82.310733
9.063                0.974568498     -82.4421836
9.064                0.974505228     -82.5739667
9.065                 0.97444178     -82.7060834
9.066                0.974378152     -82.8385346
9.067                0.974314346     -82.9713212
9.068                 0.97425036     -83.1044443
9.069                0.974186194     -83.2379046
9.07                 0.974121849     -83.3717033
9.071                0.974057323     -83.5058413
9.072                0.973992618     -83.6403194
9.073                0.973927732     -83.7751388
9.074                0.973862665     -83.9103002
9.075                0.973797417     -84.0458048
9.076                0.973731988     -84.1816534
9.077                0.973666378     -84.3178471
9.078                0.973600587     -84.4543867
9.079                0.973534614     -84.5912733
9.08                 0.973468459     -84.7285078
9.081                0.973402122     -84.8660913
9.082                0.973335603     -85.0040245
9.083                0.973268901     -85.1423086
9.084                0.973202017     -85.2809445
9.085                0.973134951     -85.4199332
9.086                0.973067701     -85.5592756
9.087                0.973000269     -85.6989727
9.088                0.972932653     -85.8390256
9.089                0.972864855     -85.9794351
9.09                 0.972796873     -86.1202022
9.091                0.972728707      -86.261328
9.092                0.972660358     -86.4028134
9.093                0.972591825     -86.5446593
9.094                0.972523109     -86.6868669
9.095                0.972454208      -86.829437
9.096                0.972385123     -86.9723706
9.097                0.972315855     -87.1156687
9.098                0.972246402     -87.2593323
9.099                0.972176765     -87.4033624
9.1                  0.972106943     -87.5477599
9.101                0.972036937     -87.6925259
9.102                0.971966747     -87.8376613
9.103                0.971896372     -87.9831672
9.104                0.971825812     -88.1290444
9.105                0.971755068     -88.2752941
9.106                 0.97168414     -88.4219171
9.107                0.971613026     -88.5689145
9.108                0.971541728     -88.7162872
9.109                0.971470245     -88.8640363
9.11                 0.971398578     -89.0121627
9.111                0.971326725     -89.1606674
9.112                0.971254689     -89.3095514
9.113                0.971182467     -89.4588157
9.114                0.971110061     -89.6084613
9.115                 0.97103747     -89.7584892
9.116                0.970964694     -89.9089003
9.117                0.970891734     -90.0596957
9.118                 0.97081859     -90.2108763
9.119                0.970745261     -90.3624432
9.12                 0.970671748     -90.5143972
9.121                 0.97059805     -90.6667395
9.122                0.970524168      -90.819471
9.123                0.970450102     -90.9725926
9.124                0.970375852     -91.1261055
9.125                0.970301419     -91.2800104
9.126                0.970226801     -91.4343085
9.127                   0.970152     -91.5890008
9.128                0.970077015     -91.7440881
9.129                0.970001847     -91.8995716
9.13                 0.969926496     -92.0554522
9.131                0.969850961     -92.2117308
9.132                0.969775244     -92.3684084
9.133                0.969699344     -92.5254861
9.134                0.969623262     -92.6829649
9.135                0.969546997     -92.8408456
9.136                 0.96947055     -92.9991293
9.137                0.969393921      -93.157817
9.138                0.969317111     -93.3169096
9.139                0.969240119     -93.4764081
9.14                 0.969162946     -93.6363135
9.141                0.969085593     -93.7966267
9.142                0.969008058     -93.9573489
9.143                0.968930343     -94.1184808
9.144                0.968852449     -94.2800235
9.145                0.968774374     -94.4419779
9.146                 0.96869612     -94.6043451
9.147                0.968617687      -94.767126
9.148                0.968539075     -94.9303215
9.149                0.968460285     -95.0939327
9.15                 0.968381316     -95.2579604
9.151                 0.96830217     -95.4224057
9.152                0.968222847     -95.5872694
9.153                0.968143346     -95.7525527
9.154                0.968063669     -95.9182563
9.155                0.967983816     -96.0843813
9.156                0.967903787     -96.2509287
9.157                0.967823583     -96.4178993
9.158                0.967743204     -96.5852941
9.159                0.967662651      -96.753114
9.16                 0.967581924     -96.9213601
9.161                0.967501023     -97.0900332
9.162                 0.96741995     -97.2591343
9.163                0.967338704     -97.4286643
9.164                0.967257287     -97.5986242
9.165                0.967175698     -97.7690148
9.166                0.967093938     -97.9398372
9.167                0.967012008     -98.1110922
9.168                0.966929908     -98.2827807
9.169                 0.96684764     -98.4549037
9.17                 0.966765203     -98.6274621
9.171                0.966682598     -98.8004568
9.172                0.966599826     -98.9738887
9.173                0.966516887     -99.1477587
9.174                0.966433783     -99.3220678
9.175                0.966350513     -99.4968168
9.176                0.966267079     -99.6720066
9.177                0.966183481     -99.8476381
9.178                 0.96609972     -100.023712
9.179                0.966015796      -100.20023
9.18                 0.965931711     -100.377192
9.181                0.965847465     -100.554599
9.182                0.965763059     -100.732452
9.183                0.965678494     -100.910753
9.184                 0.96559377     -101.089501
9.185                0.965508889     -101.268698
9.186                0.965423851     -101.448344
9.187                0.965338657     -101.628441
9.188                0.965253307      -101.80899
9.189                0.965167804      -101.98999
9.19                 0.965082147     -102.171443
9.191                0.964996338      -102.35335
9.192                0.964910377     -102.535712
9.193                0.964824266      -102.71853
9.194                0.964738006     -102.901803
9.195                0.964651597     -103.085534
9.196                 0.96456504     -103.269722
9.197                0.964478337      -103.45437
9.198                0.964391489     -103.639477
9.199                0.964304496     -103.825044
9.2                  0.964217359     -104.011072
9.201                0.964130081     -104.197562
9.202                0.964042661     -104.384515
9.203                0.963955101     -104.571932
9.204                0.963867402     -104.759812
9.205                0.963779566     -104.948158
9.206                0.963691593     -105.136969
9.207                0.963603485     -105.326247
9.208                0.963515243     -105.515992
9.209                0.963426867     -105.706205
9.21                  0.96333836     -105.896886
9.211                0.963249723     -106.088037
9.212                0.963160957     -106.279658
9.213                0.963072063     -106.471751
9.214                0.962983042     -106.664314
9.215                0.962893896      -106.85735
9.216                0.962804627     -107.050859
9.217                0.962715235     -107.244841
9.218                0.962625723     -107.439298
9.219                0.962536091      -107.63423
9.22                 0.962446341     -107.829637
9.221                0.962356474     -108.025521
9.222                0.962266492     -108.221881
9.223                0.962176397     -108.418719
9.224                0.962086189     -108.616036
9.225                0.961995871     -108.813831
9.226                0.961905444     -109.012105
9.227                 0.96181491      -109.21086
9.228                 0.96172427     -109.410095
9.229                0.961633526     -109.609811
9.23                  0.96154268      -109.81001
9.231                0.961451733      -110.01069
9.232                0.961360686     -110.211854
9.233                0.961269542     -110.413501
9.234                0.961178303     -110.615632
9.235                 0.96108697     -110.818247
9.236                0.960995545     -111.021348
9.237                0.960904029     -111.224934
9.238                0.960812425     -111.429007
9.239                0.960720735     -111.633566
9.24                 0.960628959     -111.838612
9.241                0.960537101     -112.044146
9.242                0.960445162     -112.250167
9.243                0.960353144     -112.456677
9.244                0.960261049     -112.663677
9.245                0.960168879     -112.871165
9.246                0.960076636     -113.079143
9.247                0.959984322     -113.287612
9.248                0.959891939     -113.496571
9.249                0.959799489     -113.706021
9.25                 0.959706974     -113.915963
9.251                0.959614396     -114.126396
9.252                0.959521758     -114.337322
9.253                0.959429062      -114.54874
9.254                0.959336309     -114.760651
9.255                0.959243503     -114.973055
9.256                0.959150645     -115.185952
9.257                0.959057737     -115.399343
9.258                0.958964782     -115.613229
9.259                0.958871782     -115.827608
9.26                  0.95877874     -116.042482
9.261                0.958685657     -116.257851
9.262                0.958592537     -116.473715
9.263                0.958499381     -116.690075
9.264                0.958406192      -116.90693
9.265                0.958312973      -117.12428
9.266                0.958219726     -117.342127
9.267                0.958126453      -117.56047
9.268                0.958033157     -117.779308
9.269                 0.95793984     -117.998644
9.27                 0.957846505     -118.218476
9.271                0.957753156     -118.438804
9.272                0.957659793     -118.659629
9.273                 0.95756642     -118.880952
9.274                 0.95747304     -119.102771
9.275                0.957379655     -119.325087
9.276                0.957286268       -119.5479
9.277                0.957192882      -119.77121
9.278                0.957099499     -119.995017
9.279                0.957006122     -120.219322
9.28                 0.956912755     -120.444123
9.281                0.956819399     -120.669422
9.282                0.956726058     -120.895218
9.283                0.956632735      -121.12151
9.284                0.956539432       -121.3483
9.285                0.956446153     -121.575586
9.286                  0.9563529      -121.80337
9.287                0.956259676     -122.031649
9.288                0.956166485     -122.260426
9.289                0.956073329     -122.489698
9.29                 0.955980212     -122.719467
9.291                0.955887136     -122.949732
9.292                0.955794105     -123.180492
9.293                0.955701121     -123.411748
9.294                0.955608188       -123.6435
9.295                 0.95551531     -123.875746
9.296                0.955422489     -124.108488
9.297                0.955329728     -124.341723
9.298                 0.95523703     -124.575454
9.299                  0.9551444     -124.809678
9.3                   0.95505184     -125.044395
9.301                0.954959353     -125.279606
9.302                0.954866944      -125.51531
9.303                0.954774614     -125.751506
9.304                0.954682368     -125.988194
9.305                0.954590209     -126.225374
9.306                 0.95449814     -126.463045
9.307                0.954406165     -126.701206
9.308                0.954314288     -126.939858
9.309                0.954222511        -127.179
9.31                 0.954130838     -127.418631
9.311                0.954039274      -127.65875
9.312                 0.95394782     -127.899358
9.313                0.953856482     -128.140453
9.314                0.953765262     -128.382036
9.315                0.953674164     -128.624104
9.316                0.953583192     -128.866658
9.317                0.953492349     -129.109697
9.318                0.953401639     -129.353221
9.319                0.953311066     -129.597228
9.32                 0.953220634     -129.841718
9.321                0.953130346     -130.086691
9.322                0.953040206     -130.332145
9.323                0.952950217     -130.578079
9.324                0.952860384     -130.824494
9.325                0.952770711     -131.071387
9.326                  0.9526812     -131.318759
9.327                0.952591857     -131.566608
9.328                0.952502684     -131.814933
9.329                0.952413687     -132.063735
9.33                 0.952324868      -132.31301
9.331                0.952236231      -132.56276
9.332                0.952147781     -132.812982
9.333                0.952059522     -133.063676
9.334                0.951971457     -133.314841
9.335                0.951883591     -133.566476
9.336                0.951795927     -133.818579
9.337                0.951708469      -134.07115
9.338                0.951621222     -134.324187
9.339                 0.95153419      -134.57769
9.34                 0.951447376     -134.831657
9.341                0.951360785     -135.086087
9.342                0.951274421     -135.340978
9.343                0.951188288     -135.596331
9.344                 0.95110239     -135.852143
9.345                0.951016731     -136.108413
9.346                0.950931315     -136.365141
9.347                0.950846147     -136.622323
9.348                0.950761231     -136.879961
9.349                 0.95067657     -137.138051
9.35                  0.95059217     -137.396592
9.351                0.950508034     -137.655584
9.352                0.950424166     -137.915025
9.353                0.950340571     -138.174913
9.354                0.950257253     -138.435247
9.355                0.950174216     -138.696026
9.356                0.950091465     -138.957247
9.357                0.950009003      -139.21891
9.358                0.949926836     -139.481012
9.359                0.949844967     -139.743553
9.36                   0.9497634     -140.006531
9.361                 0.94968214     -140.269943
9.362                0.949601192     -140.533789
9.363                0.949520559     -140.798067
9.364                0.949440246     -141.062774
9.365                0.949360257      -141.32791
9.366                0.949280596     -141.593473
9.367                0.949201269      -141.85946
9.368                0.949122278     -142.125871
9.369                0.949043629     -142.392702
9.37                 0.948965326     -142.659953
9.371                0.948887374     -142.927622
9.372                0.948809775     -143.195706
9.373                0.948732536     -143.464204
9.374                 0.94865566     -143.733113
9.375                0.948579151     -144.002433
9.376                0.948503014      -144.27216
9.377                0.948427254     -144.542293
9.378                0.948351874      -144.81283
9.379                 0.94827688     -145.083769
9.38                 0.948202274     -145.355107
9.381                0.948128063     -145.626843
9.382                0.948054249     -145.898975
9.383                0.947980838     -146.171499
9.384                0.947907833     -146.444415
9.385                 0.94783524      -146.71772
9.386                0.947763062     -146.991412
9.387                0.947691303     -147.265488
9.388                0.947619969     -147.539946
9.389                0.947549062     -147.814784
9.39                 0.947478589         -148.09
9.391                0.947408552     -148.365591
9.392                0.947338956     -148.641555
9.393                0.947269806     -148.917889
9.394                0.947201106     -149.194592
9.395                0.947132859      -149.47166
9.396                 0.94706507     -149.749092
