! TOUCHSTONE file generated by CST DESIGN STUDIO
! Date and time: Tue Feb  4 16:01:35 2025
! Project name: C:\Work\MatlabApps\UnitCellOptimizationMatlab\CST\unitcell.cst
! Tree item: Tasks\Sweep1\SPara1\S-Parameters
! Header version: 2024
! Port assignment regex: !\s*Touchstone port\s*([0-9]+)\s*=\s*(CST MWS port|CST DES external port|CST DES block port)\s*(.+)\s* \(\"(.*)\"\)(\s*mode\s*([0-9]+))?.*
! Touchstone port assignment:
! Touchstone port 1 = CST DES external port 1 ("")
# GHz S MA R 50
9                    0.977901302     -78.3181377
9.001                0.977845783     -78.4391761
9.002                0.977790099     -78.5605166
9.003                0.977734251     -78.6821602
9.004                0.977678239     -78.8041075
9.005                0.977622062     -78.9263597
9.006                 0.97756572     -79.0489175
9.007                0.977509212     -79.1717819
9.008                0.977452539     -79.2949537
9.009                  0.9773957     -79.4184338
9.01                 0.977338694     -79.5422233
9.011                0.977281521     -79.6663229
9.012                0.977224182     -79.7907335
9.013                0.977166674     -79.9154561
9.014                   0.977109     -80.0404916
9.015                0.977051157     -80.1658409
9.016                0.976993145     -80.2915049
9.017                0.976934965     -80.4174845
9.018                0.976876616     -80.5437806
9.019                0.976818098     -80.6703942
9.02                 0.976759411     -80.7973261
9.021                0.976700553     -80.9245774
9.022                0.976641525     -81.0521488
9.023                0.976582327     -81.1800414
9.024                0.976522958      -81.308256
9.025                0.976463417     -81.4367936
9.026                0.976403706     -81.5656551
9.027                0.976343823     -81.6948415
9.028                0.976283768     -81.8243536
9.029                 0.97622354     -81.9541924
9.03                 0.976163141     -82.0843589
9.031                0.976102568      -82.214854
9.032                0.976041823     -82.3456785
9.033                0.975980904     -82.4768336
9.034                0.975919811       -82.60832
9.035                0.975858545     -82.7401387
9.036                0.975797105     -82.8722908
9.037                0.975735491      -83.004777
9.038                0.975673702     -83.1375984
9.039                0.975611738      -83.270756
9.04                 0.975549599     -83.4042506
9.041                0.975487285     -83.5380832
9.042                0.975424795     -83.6722548
9.043                0.975362129     -83.8067663
9.044                0.975299288     -83.9416187
9.045                 0.97523627     -84.0768129
9.046                0.975173076     -84.2123499
9.047                0.975109706     -84.3482307
9.048                0.975046158     -84.4844562
9.049                0.974982434     -84.6210273
9.05                 0.974918532      -84.757945
9.051                0.974854453     -84.8952103
9.052                0.974790196     -85.0328242
9.053                0.974725761     -85.1707876
9.054                0.974661149     -85.3091015
9.055                0.974596358     -85.4477668
9.056                0.974531389     -85.5867846
9.057                0.974466241     -85.7261557
9.058                0.974400915     -85.8658811
9.059                0.974335409     -86.0059619
9.06                 0.974269725      -86.146399
9.061                0.974203862     -86.2871933
9.062                0.974137819     -86.4283459
9.063                0.974071597     -86.5698577
9.064                0.974005195     -86.7117297
9.065                0.973938614     -86.8539628
9.066                0.973871852     -86.9965581
9.067                0.973804911     -87.1395165
9.068                 0.97373779      -87.282839
9.069                0.973670489     -87.4265265
9.07                 0.973603007     -87.5705801
9.071                0.973535345     -87.7150007
9.072                0.973467502     -87.8597893
9.073                0.973399479     -88.0049469
9.074                0.973331276     -88.1504744
9.075                0.973262892     -88.2963729
9.076                0.973194327     -88.4426433
9.077                0.973125581     -88.5892867
9.078                0.973056654     -88.7363039
9.079                0.972987547      -88.883696
9.08                 0.972918258     -89.0314639
9.081                0.972848789     -89.1796086
9.082                0.972779138     -89.3281312
9.083                0.972709307     -89.4770326
9.084                0.972639295     -89.6263138
9.085                0.972569101     -89.7759757
9.086                0.972498727     -89.9260194
9.087                0.972428171     -90.0764458
9.088                0.972357435     -90.2272559
9.089                0.972286517     -90.3784507
9.09                 0.972215419     -90.5300312
9.091                 0.97214414     -90.6819983
9.092                0.972072679     -90.8343531
9.093                0.972001038     -90.9870965
9.094                0.971929217     -91.1402295
9.095                0.971857215     -91.2937531
9.096                0.971785032     -91.4476683
9.097                0.971712668      -91.601976
9.098                0.971640124     -91.7566773
9.099                  0.9715674     -91.9117731
9.1                  0.971494496     -92.0672643
9.101                0.971421412      -92.223152
9.102                0.971348148     -92.3794372
9.103                0.971274704     -92.5361207
9.104                 0.97120108     -92.6932037
9.105                0.971127277      -92.850687
9.106                0.971053294     -93.0085717
9.107                0.970979133     -93.1668587
9.108                0.970904792      -93.325549
9.109                0.970830272     -93.4846436
9.11                 0.970755575     -93.6441433
9.111                0.970680698     -93.8040493
9.112                0.970605644     -93.9643625
9.113                0.970530411     -94.1250838
9.114                0.970455001     -94.2862142
9.115                0.970379414     -94.4477546
9.116                0.970303649     -94.6097061
9.117                0.970227708     -94.7720696
9.118                 0.97015159      -94.934846
9.119                0.970075295     -95.0980363
9.12                 0.969998825     -95.2616415
9.121                0.969922179     -95.4256626
9.122                0.969845357     -95.5901003
9.123                0.969768361     -95.7549559
9.124                 0.96969119     -95.9202301
9.125                0.969613844     -96.0859239
9.126                0.969536325     -96.2520383
9.127                0.969458631     -96.4185741
9.128                0.969380765     -96.5855325
9.129                0.969302726     -96.7529142
9.13                 0.969224515     -96.9207203
9.131                0.969146131     -97.0889516
9.132                0.969067577     -97.2576092
9.133                0.968988851     -97.4266938
9.134                0.968909954     -97.5962065
9.135                0.968830888     -97.7661482
9.136                0.968751652     -97.9365198
9.137                0.968672246     -98.1073222
9.138                0.968592672     -98.2785563
9.139                 0.96851293     -98.4502231
9.14                 0.968433021     -98.6223235
9.141                0.968352944     -98.7948583
9.142                0.968272701     -98.9678285
9.143                0.968192292      -99.141235
9.144                0.968111718     -99.3150787
9.145                0.968030979     -99.4893604
9.146                0.967950077     -99.6640811
9.147                 0.96786901     -99.8392417
9.148                0.967787781     -100.014843
9.149                 0.96770639     -100.190886
9.15                 0.967624838     -100.367371
9.151                0.967543125       -100.5443
9.152                0.967461251     -100.721673
9.153                0.967379219     -100.899491
9.154                0.967297028     -101.077755
9.155                0.967214679     -101.256466
9.156                0.967132173     -101.435625
9.157                 0.96704951     -101.615232
9.158                0.966966693     -101.795288
9.159                 0.96688372     -101.975795
9.16                 0.966800594     -102.156753
9.161                0.966717314     -102.338163
9.162                0.966633883     -102.520025
9.163                  0.9665503     -102.702341
9.164                0.966466567     -102.885111
9.165                0.966382684     -103.068337
9.166                0.966298653     -103.252018
9.167                0.966214474     -103.436156
9.168                0.966130148     -103.620752
9.169                0.966045676     -103.805806
9.17                  0.96596106     -103.991319
9.171                  0.9658763     -104.177293
9.172                0.965791397     -104.363726
9.173                0.965706353     -104.550622
9.174                0.965621168     -104.737979
9.175                0.965535843       -104.9258
9.176                 0.96545038     -105.114085
9.177                 0.96536478     -105.302833
9.178                0.965279043     -105.492048
9.179                0.965193171     -105.681728
9.18                 0.965107165     -105.871875
9.181                0.965021027     -106.062489
9.182                0.964934756     -106.253571
9.183                0.964848356     -106.445123
9.184                0.964761826     -106.637143
9.185                0.964675168     -106.829634
9.186                0.964588384     -107.022596
9.187                0.964501475      -107.21603
9.188                0.964414441     -107.409936
9.189                0.964327285     -107.604315
9.19                 0.964240007     -107.799167
9.191                0.964152609     -107.994494
9.192                0.964065093     -108.190295
9.193                0.963977459     -108.386573
9.194                 0.96388971     -108.583326
9.195                0.963801846     -108.780556
9.196                 0.96371387     -108.978263
9.197                0.963625782     -109.176449
9.198                0.963537584     -109.375113
9.199                0.963449278     -109.574256
9.2                  0.963360865     -109.773879
9.201                0.963272346     -109.973983
9.202                0.963183724     -110.174567
9.203                   0.963095     -110.375633
9.204                0.963006176      -110.57718
9.205                0.962917252     -110.779211
9.206                0.962828232     -110.981724
9.207                0.962739116     -111.184721
9.208                0.962649906     -111.388202
9.209                0.962560604     -111.592167
9.21                 0.962471212     -111.796618
9.211                0.962381732     -112.001554
9.212                0.962292164     -112.206976
9.213                0.962202512     -112.412884
9.214                0.962112777      -112.61928
9.215                 0.96202296     -112.826163
9.216                0.961933065     -113.033533
9.217                0.961843092     -113.241392
9.218                0.961753043     -113.449739
9.219                0.961662921     -113.658575
9.22                 0.961572727     -113.867901
9.221                0.961482464     -114.077716
9.222                0.961392133     -114.288022
9.223                0.961301737     -114.498818
9.224                0.961211277     -114.710105
9.225                0.961120755     -114.921883
9.226                0.961030175     -115.134152
9.227                0.960939537     -115.346913
9.228                0.960848844     -115.560166
9.229                0.960758099     -115.773911
9.23                 0.960667303     -115.988149
9.231                0.960576458      -116.20288
9.232                0.960485567     -116.418104
9.233                0.960394632     -116.633821
9.234                0.960303656     -116.850032
9.235                 0.96021264     -117.066736
9.236                0.960121588     -117.283934
9.237                  0.9600305     -117.501627
9.238                0.959939381     -117.719814
9.239                0.959848231     -117.938495
9.24                 0.959757055      -118.15767
9.241                0.959665853     -118.377341
9.242                0.959574628     -118.597506
9.243                0.959483384     -118.818166
9.244                0.959392122     -119.039321
9.245                0.959300846     -119.260971
9.246                0.959209556     -119.483116
9.247                0.959118257     -119.705757
9.248                0.959026951     -119.928892
9.249                0.958935641     -120.152523
9.25                 0.958844328     -120.376649
9.251                0.958753016      -120.60127
9.252                0.958661708     -120.826386
9.253                0.958570406     -121.051997
9.254                0.958479113     -121.278103
9.255                0.958387832     -121.504704
9.256                0.958296566       -121.7318
9.257                0.958205316     -121.959391
9.258                0.958114087     -122.187476
9.259                0.958022881     -122.416056
9.26                 0.957931702      -122.64513
9.261                0.957840551     -122.874698
9.262                0.957749432      -123.10476
9.263                0.957658347     -123.335316
9.264                0.957567301     -123.566366
9.265                0.957476295     -123.797908
9.266                0.957385334     -124.029944
9.267                0.957294419     -124.262472
9.268                0.957203554     -124.495493
9.269                0.957112742     -124.729006
9.27                 0.957021987     -124.963011
9.271                0.956931291     -125.197507
9.272                0.956840657     -125.432494
9.273                0.956750089     -125.667972
9.274                 0.95665959     -125.903941
9.275                0.956569163     -126.140399
9.276                0.956478812     -126.377347
9.277                0.956388539     -126.614783
9.278                0.956298348     -126.852709
9.279                0.956208243     -127.091122
9.28                 0.956118226     -127.330023
9.281                0.956028301     -127.569411
9.282                0.955938472     -127.809285
9.283                0.955848741     -128.049645
9.284                0.955759113     -128.290491
9.285                0.955669591     -128.531821
9.286                0.955580177     -128.773636
9.287                0.955490877     -129.015933
9.288                0.955401692     -129.258714
9.289                0.955312627     -129.501977
9.29                 0.955223686     -129.745721
9.291                0.955134871     -129.989946
9.292                0.955046187     -130.234651
9.293                0.954957637     -130.479835
9.294                0.954869224     -130.725497
9.295                0.954780953     -130.971637
9.296                0.954692826     -131.218254
9.297                0.954604849     -131.465346
9.298                0.954517024     -131.712914
9.299                0.954429354     -131.960956
9.3                  0.954341845     -132.209471
9.301                0.954254499     -132.458459
9.302                0.954167321     -132.707918
9.303                0.954080314     -132.957847
9.304                0.953993481     -133.208246
9.305                0.953906828     -133.459113
9.306                0.953820357     -133.710448
9.307                0.953734073     -133.962249
9.308                0.953647979     -134.214515
9.309                0.953562079     -134.467245
9.31                 0.953476378     -134.720439
9.311                0.953390878     -134.974094
9.312                0.953305585      -135.22821
9.313                0.953220501     -135.482785
9.314                0.953135632     -135.737819
9.315                 0.95305098      -135.99331
9.316                0.952966551     -136.249257
9.317                0.952882347     -136.505658
9.318                0.952798373     -136.762512
9.319                0.952714633     -137.019819
9.32                 0.952631132     -137.277576
9.321                0.952547872     -137.535782
9.322                0.952464858     -137.794436
9.323                0.952382095     -138.053537
9.324                0.952299586     -138.313082
9.325                0.952217335     -138.573071
9.326                0.952135347     -138.833502
9.327                0.952053625     -139.094374
9.328                0.951972174     -139.355684
9.329                0.951890998     -139.617432
9.33                 0.951810101     -139.879616
9.331                0.951729488     -140.142234
9.332                0.951649161     -140.405285
9.333                0.951569126     -140.668767
9.334                0.951489387     -140.932678
9.335                0.951409948     -141.197016
9.336                0.951330812     -141.461781
9.337                0.951251985      -141.72697
9.338                 0.95117347     -141.992581
9.339                0.951095272     -142.258613
9.34                 0.951017395     -142.525063
9.341                0.950939842     -142.791931
9.342                0.950862619     -143.059213
9.343                 0.95078573     -143.326909
9.344                0.950709178     -143.595016
9.345                0.950632968     -143.863533
9.346                0.950557104     -144.132457
9.347                 0.95048159     -144.401787
9.348                0.950406431      -144.67152
9.349                0.950331631     -144.941654
9.35                 0.950257194     -145.212188
9.351                0.950183124     -145.483119
9.352                0.950109425     -145.754445
9.353                0.950036102     -146.026165
9.354                0.949963158     -146.298275
9.355                0.949890599     -146.570774
9.356                0.949818428      -146.84366
9.357                 0.94974665      -147.11693
9.358                0.949675268     -147.390582
9.359                0.949604287     -147.664614
9.36                 0.949533711     -147.939024
9.361                0.949463544     -148.213809
9.362                 0.94939379     -148.488967
9.363                0.949324454     -148.764496
9.364                 0.94925554     -149.040392
9.365                0.949187052     -149.316655
9.366                0.949118993     -149.593281
9.367                0.949051369     -149.870268
9.368                0.948984182     -150.147613
9.369                0.948917438     -150.425315
9.37                 0.948851141     -150.703369
9.371                0.948785294     -150.981775
9.372                0.948719901     -151.260529
9.373                0.948654967     -151.539629
9.374                0.948590496     -151.819072
9.375                0.948526491     -152.098855
9.376                0.948462957     -152.378977
9.377                0.948399898     -152.659433
9.378                0.948337317     -152.940222
9.379                0.948275219     -153.221341
9.38                 0.948213607     -153.502786
9.381                0.948152486     -153.784556
9.382                0.948091859     -154.066648
9.383                0.948031731     -154.349058
9.384                0.947972105     -154.631784
9.385                0.947912984     -154.914823
9.386                0.947854374     -155.198171
9.387                0.947796277     -155.481828
9.388                0.947738698     -155.765788
9.389                 0.94768164      -156.05005
9.39                 0.947625107      -156.33461
9.391                0.947569102     -156.619465
9.392                 0.94751363     -156.904613
9.393                0.947458694      -157.19005
9.394                0.947404297     -157.475774
9.395                0.947350444      -157.76178
9.396                0.947297138     -158.048067
