! TOUCHSTONE file generated by CST DESIGN STUDIO
! Date and time: Tue Feb  4 16:01:36 2025
! Project name: C:\Work\MatlabApps\UnitCellOptimizationMatlab\CST\unitcell.cst
! Tree item: Tasks\Sweep1\SPara1\S-Parameters
! Header version: 2024
! Port assignment regex: !\s*Touchstone port\s*([0-9]+)\s*=\s*(CST MWS port|CST DES external port|CST DES block port)\s*(.+)\s* \(\"(.*)\"\)(\s*mode\s*([0-9]+))?.*
! Touchstone port assignment:
! Touchstone port 1 = CST DES external port 1 ("")
# GHz S MA R 50
9                    0.978047537     -76.5906977
9.001                0.977993538     -76.7076055
9.002                0.977939377     -76.8248031
9.003                0.977885052     -76.9422914
9.004                0.977830563     -77.0600711
9.005                0.977775911     -77.1781431
9.006                0.977721094     -77.2965084
9.007                0.977666113     -77.4151678
9.008                0.977610967     -77.5341221
9.009                0.977555655     -77.6533723
9.01                 0.977500178     -77.7729192
9.011                0.977444535     -77.8927637
9.012                0.977388726     -78.0129067
9.013                 0.97733275      -78.133349
9.014                0.977276607     -78.2540916
9.015                0.977220297     -78.3751353
9.016                0.977163819      -78.496481
9.017                0.977107173     -78.6181296
9.018                0.977050359      -78.740082
9.019                0.976993376     -78.8623391
9.02                 0.976936224     -78.9849017
9.021                0.976878903     -79.1077709
9.022                0.976821412     -79.2309474
9.023                0.976763751     -79.3544323
9.024                0.976705921     -79.4782263
9.025                0.976647919     -79.6023304
9.026                0.976589747     -79.7267455
9.027                0.976531403     -79.8514725
9.028                0.976472888     -79.9765123
9.029                0.976414201     -80.1018658
9.03                 0.976355343      -80.227534
9.031                0.976296311     -80.3535177
9.032                0.976237107     -80.4798179
9.033                 0.97617773     -80.6064355
9.034                 0.97611818     -80.7333713
9.035                0.976058456     -80.8606265
9.036                0.975998559     -80.9882017
9.037                0.975938487     -81.1160981
9.038                 0.97587824     -81.2443164
9.039                0.975817819     -81.3728577
9.04                 0.975757223     -81.5017229
9.041                0.975696452     -81.6309128
9.042                0.975635506     -81.7604285
9.043                0.975574383     -81.8902708
9.044                0.975513084     -82.0204408
9.045                 0.97545161     -82.1509392
9.046                0.975389958     -82.2817672
9.047                 0.97532813     -82.4129255
9.048                0.975266124     -82.5444153
9.049                0.975203942     -82.6762373
9.05                 0.975141581     -82.8083926
9.051                0.975079043      -82.940882
9.052                0.975016327     -83.0737066
9.053                0.974953433     -83.2068673
9.054                 0.97489036     -83.3403651
9.055                0.974827108     -83.4742008
9.056                0.974763678     -83.6083755
9.057                0.974700068     -83.7428901
9.058                0.974636279     -83.8777455
9.059                0.974572311     -84.0129427
9.06                 0.974508162     -84.1484828
9.061                0.974443834     -84.2843665
9.062                0.974379325     -84.4205949
9.063                0.974314636      -84.557169
9.064                0.974249767     -84.6940898
9.065                0.974184716      -84.831358
9.066                0.974119485     -84.9689749
9.067                0.974054073     -85.1069412
9.068                0.973988479     -85.2452581
9.069                0.973922704     -85.3839263
9.07                 0.973856748      -85.522947
9.071                0.973790609     -85.6623211
9.072                0.973724289     -85.8020496
9.073                0.973657787     -85.9421333
9.074                0.973591102     -86.0825734
9.075                0.973524236     -86.2233708
9.076                0.973457186     -86.3645264
9.077                0.973389955     -86.5060412
9.078                 0.97332254     -86.6479162
9.079                0.973254943     -86.7901524
9.08                 0.973187163     -86.9327508
9.081                  0.9731192     -87.0757123
9.082                0.973051054      -87.219038
9.083                0.972982724     -87.3627287
9.084                0.972914212     -87.5067855
9.085                0.972845516     -87.6512093
9.086                0.972776636     -87.7960012
9.087                0.972707574     -87.9411621
9.088                0.972638327     -88.0866931
9.089                0.972568897      -88.232595
9.09                 0.972499284     -88.3788688
9.091                0.972429486     -88.5255157
9.092                0.972359505     -88.6725364
9.093                 0.97228934     -88.8199321
9.094                0.972218992     -88.9677037
9.095                 0.97214846     -89.1158521
9.096                0.972077744     -89.2643785
9.097                0.972006844     -89.4132837
9.098                 0.97193576     -89.5625687
9.099                0.971864493     -89.7122346
9.1                  0.971793042     -89.8622823
9.101                0.971721407     -90.0127128
9.102                0.971649589     -90.1635271
9.103                0.971577586     -90.3147261
9.104                0.971505401     -90.4663109
9.105                0.971433032     -90.6182825
9.106                0.971360479     -90.7706418
9.107                0.971287743     -90.9233897
9.108                0.971214824     -91.0765274
9.109                0.971141722     -91.2300558
9.11                 0.971068436     -91.3839758
9.111                0.970994968     -91.5382884
9.112                0.970921316     -91.6929947
9.113                0.970847482     -91.8480956
9.114                0.970773466     -92.0035921
9.115                0.970699267     -92.1594851
9.116                0.970624885     -92.3157757
9.117                0.970550322     -92.4724648
9.118                0.970475576     -92.6295535
9.119                0.970400649     -92.7870426
9.12                  0.97032554     -92.9449332
9.121                 0.97025025     -93.1032262
9.122                0.970174779     -93.2619226
9.123                0.970099126     -93.4210234
9.124                0.970023293     -93.5805296
9.125                0.969947279     -93.7404421
9.126                0.969871085      -93.900762
9.127                0.969794711     -94.0614901
9.128                0.969718158     -94.2226274
9.129                0.969641424     -94.3841749
9.13                 0.969564512     -94.5461337
9.131                0.969487421     -94.7085045
9.132                0.969410151     -94.8712885
9.133                0.969332703     -95.0344865
9.134                0.969255077     -95.1980996
9.135                0.969177273     -95.3621286
9.136                0.969099293     -95.5265746
9.137                0.969021135     -95.6914384
9.138                0.968942801     -95.8567212
9.139                0.968864291     -96.0224237
9.14                 0.968785605     -96.1885469
9.141                0.968706743     -96.3550918
9.142                0.968627707     -96.5220594
9.143                0.968548496     -96.6894506
9.144                0.968469112     -96.8572662
9.145                0.968389554     -97.0255074
9.146                0.968309822     -97.1941749
9.147                0.968229919     -97.3632697
9.148                0.968149843     -97.5327928
9.149                0.968069595     -97.7027451
9.15                 0.967989176     -97.8731275
9.151                0.967908587     -98.0439409
9.152                0.967827828     -98.2151863
9.153                0.967746899     -98.3868645
9.154                0.967665802     -98.5589765
9.155                0.967584536     -98.7315232
9.156                0.967503103     -98.9045055
9.157                0.967421502     -99.0779244
9.158                0.967339735     -99.2517806
9.159                0.967257802     -99.4260752
9.16                 0.967175704     -99.6008089
9.161                0.967093442     -99.7759828
9.162                0.967011015     -99.9515976
9.163                0.966928426     -100.127654
9.164                0.966845674     -100.304154
9.165                 0.96676276     -100.481097
9.166                0.966679686     -100.658484
9.167                0.966596451     -100.836317
9.168                0.966513057     -101.014597
9.169                0.966429504     -101.193323
9.17                 0.966345794     -101.372497
9.171                0.966261926      -101.55212
9.172                0.966177902     -101.732193
9.173                0.966093723     -101.912716
9.174                0.966009389     -102.093691
9.175                0.965924902     -102.275117
9.176                0.965840262     -102.456997
9.177                 0.96575547     -102.639331
9.178                0.965670527     -102.822119
9.179                0.965585434     -103.005363
9.18                 0.965500193     -103.189063
9.181                0.965414803      -103.37322
9.182                0.965329266     -103.557835
9.183                0.965243583     -103.742909
9.184                0.965157756     -103.928442
9.185                0.965071784     -104.114435
9.186                0.964985669      -104.30089
9.187                0.964899413     -104.487806
9.188                0.964813016     -104.675185
9.189                0.964726479     -104.863027
9.19                 0.964639804     -105.051334
9.191                0.964552991     -105.240105
9.192                0.964466043     -105.429342
9.193                0.964378959     -105.619045
9.194                0.964291742     -105.809215
9.195                0.964204392     -105.999853
9.196                 0.96411691      -106.19096
9.197                0.964029299     -106.382535
9.198                0.963941559     -106.574581
9.199                0.963853691     -106.767097
9.2                  0.963765697     -106.960085
9.201                0.963677579     -107.153545
9.202                0.963589337     -107.347477
9.203                0.963500972     -107.541883
9.204                0.963412487     -107.736762
9.205                0.963323883     -107.932117
9.206                0.963235161     -108.127947
9.207                0.963146323     -108.324252
9.208                0.963057369     -108.521034
9.209                0.962968302     -108.718294
9.21                 0.962879123     -108.916031
9.211                0.962789834     -109.114247
9.212                0.962700436     -109.312942
9.213                 0.96261093     -109.512116
9.214                0.962521319     -109.711771
9.215                0.962431604     -109.911906
9.216                0.962341786     -110.112523
9.217                0.962251867     -110.313621
9.218                 0.96216185     -110.515202
9.219                0.962071735     -110.717267
9.22                 0.961981524     -110.919814
9.221                0.961891219     -111.122846
9.222                0.961800822     -111.326362
9.223                0.961710335     -111.530363
9.224                0.961619759      -111.73485
9.225                0.961529096     -111.939823
9.226                0.961438348     -112.145282
9.227                0.961347517     -112.351229
9.228                0.961256606     -112.557662
9.229                0.961165614     -112.764584
9.23                 0.961074546     -112.971994
9.231                0.960983402     -113.179892
9.232                0.960892185      -113.38828
9.233                0.960800896     -113.597157
9.234                0.960709538     -113.806524
9.235                0.960618112     -114.016381
9.236                0.960526622     -114.226729
9.237                0.960435068     -114.437568
9.238                0.960343453     -114.648899
9.239                 0.96025178     -114.860721
9.24                  0.96016005     -115.073035
9.241                0.960068265     -115.285841
9.242                0.959976427      -115.49914
9.243                 0.95988454     -115.712932
9.244                0.959792605     -115.927216
9.245                0.959700624     -116.141995
9.246                  0.9596086     -116.357267
9.247                0.959516536     -116.573033
9.248                0.959424432     -116.789293
9.249                0.959332292     -117.006047
9.25                 0.959240119     -117.223296
9.251                0.959147914     -117.441039
9.252                 0.95905568     -117.659278
9.253                 0.95896342     -117.878011
9.254                0.958871136      -118.09724
9.255                 0.95877883     -118.316964
9.256                0.958686505     -118.537183
9.257                0.958594164     -118.757898
9.258                0.958501809     -118.979109
9.259                0.958409443     -119.200815
9.26                 0.958317068     -119.423017
9.261                0.958224688     -119.645715
9.262                0.958132304     -119.868908
9.263                 0.95803992     -120.092598
9.264                0.957947538     -120.316783
9.265                 0.95785516     -120.541464
9.266                0.957762791     -120.766641
9.267                0.957670432     -120.992313
9.268                0.957578086     -121.218482
9.269                0.957485757     -121.445146
9.27                 0.957393447     -121.672305
9.271                0.957301158      -121.89996
9.272                0.957208895      -122.12811
9.273                0.957116659     -122.356755
9.274                0.957024454     -122.585896
9.275                0.956932283     -122.815531
9.276                0.956840148     -123.045661
9.277                0.956748054     -123.276285
9.278                0.956656002     -123.507404
9.279                0.956563996     -123.739016
9.28                 0.956472039     -123.971122
9.281                0.956380135     -124.203722
9.282                0.956288285     -124.436815
9.283                0.956196495     -124.670401
9.284                0.956104765     -124.904479
9.285                0.956013101     -125.139049
9.286                0.955921505     -125.374112
9.287                 0.95582998     -125.609665
9.288                 0.95573853      -125.84571
9.289                0.955647158     -126.082246
9.29                 0.955555867     -126.319272
9.291                0.955464661     -126.556787
9.292                0.955373543     -126.794792
9.293                0.955282517     -127.033286
9.294                0.955191585     -127.272268
9.295                0.955100751     -127.511738
9.296                 0.95501002     -127.751695
9.297                0.954919393     -127.992139
9.298                0.954828875     -128.233069
9.299                 0.95473847     -128.474484
9.3                   0.95464818     -128.716384
9.301                 0.95455801     -128.958769
9.302                0.954467962     -129.201637
9.303                0.954378042     -129.444988
9.304                0.954288251     -129.688822
9.305                0.954198594     -129.933137
9.306                0.954109075     -130.177932
9.307                0.954019697     -130.423208
9.308                0.953930464     -130.668963
9.309                0.953841379     -130.915196
9.31                 0.953752447     -131.161907
9.311                 0.95366367     -131.409095
9.312                0.953575054     -131.656759
9.313                0.953486602     -131.904897
9.314                0.953398317      -132.15351
9.315                0.953310203     -132.402596
9.316                0.953222264     -132.652154
9.317                0.953134505     -132.902184
9.318                0.953046928     -133.152684
9.319                0.952959539     -133.403653
9.32                  0.95287234      -133.65509
9.321                0.952785335     -133.906995
9.322                 0.95269853     -134.159365
9.323                0.952611927     -134.412201
9.324                 0.95252553     -134.665501
9.325                0.952439345     -134.919263
9.326                0.952353373     -135.173487
9.327                0.952267621     -135.428171
9.328                0.952182091     -135.683315
9.329                0.952096788     -135.938916
9.33                 0.952011715     -136.194975
9.331                0.951926878     -136.451488
9.332                0.951842279     -136.708456
9.333                0.951757924     -136.965877
9.334                0.951673815     -137.223749
9.335                0.951589958     -137.482071
9.336                0.951506357     -137.740843
9.337                0.951423015     -138.000061
9.338                0.951339936     -138.259725
9.339                0.951257126     -138.519834
9.34                 0.951174588     -138.780385
9.341                0.951092326     -139.041378
9.342                0.951010344     -139.302811
9.343                0.950928648     -139.564683
9.344                 0.95084724     -139.826991
9.345                0.950766125     -140.089734
9.346                0.950685308     -140.352911
9.347                0.950604792      -140.61652
9.348                0.950524582     -140.880559
9.349                0.950444682     -141.145026
9.35                 0.950365096      -141.40992
9.351                 0.95028583      -141.67524
9.352                0.950206886     -141.940983
9.353                0.950128269     -142.207147
9.354                0.950049983     -142.473731
9.355                0.949972033     -142.740733
9.356                0.949894424     -143.008151
9.357                0.949817158     -143.275983
9.358                0.949740241     -143.544228
9.359                0.949663677     -143.812883
9.36                  0.94958747     -144.081946
9.361                0.949511624     -144.351415
9.362                0.949436144     -144.621289
9.363                0.949361034     -144.891565
9.364                0.949286298     -145.162242
9.365                 0.94921194     -145.433317
9.366                0.949137966     -145.704788
9.367                0.949064378     -145.976653
9.368                0.948991182      -146.24891
9.369                0.948918382     -146.521556
9.37                 0.948845981     -146.794591
9.371                0.948773984      -147.06801
9.372                0.948702396     -147.341813
9.373                0.948631221     -147.615996
9.374                0.948560462     -147.890558
9.375                0.948490124     -148.165496
9.376                0.948420212     -148.440808
9.377                 0.94835073     -148.716491
9.378                0.948281681     -148.992544
9.379                 0.94821307     -149.268963
9.38                 0.948144901     -149.545747
9.381                0.948077179     -149.822892
9.382                0.948009907     -150.100397
9.383                 0.94794309     -150.378259
9.384                0.947876731     -150.656475
9.385                0.947810836     -150.935043
9.386                0.947745408      -151.21396
9.387                 0.94768045     -151.493224
9.388                0.947615968     -151.772832
9.389                0.947551966     -152.052781
9.39                 0.947488447     -152.333069
9.391                0.947425415     -152.613694
9.392                0.947362875     -152.894651
9.393                 0.94730083     -153.175939
9.394                0.947239285     -153.457555
9.395                0.947178243     -153.739497
9.396                0.947117708      -154.02176
