! TOUCHSTONE file generated by CST DESIGN STUDIO
! Date and time: Tue Feb  4 16:01:44 2025
! Project name: C:\Work\MatlabApps\UnitCellOptimizationMatlab\CST\unitcell.cst
! Tree item: Tasks\Sweep1\SPara1\S-Parameters
! Header version: 2024
! Port assignment regex: !\s*Touchstone port\s*([0-9]+)\s*=\s*(CST MWS port|CST DES external port|CST DES block port)\s*(.+)\s* \(\"(.*)\"\)(\s*mode\s*([0-9]+))?.*
! Touchstone port assignment:
! Touchstone port 1 = CST DES external port 1 ("")
# GHz S MA R 50
9                    0.978953311     -66.9337868
9.001                 0.97890745     -67.0290362
9.002                 0.97886145     -67.1245116
9.003                 0.97881531     -67.2202135
9.004                0.978769031     -67.3161427
9.005                0.978722612     -67.4122998
9.006                0.978676052     -67.5086857
9.007                0.978629351     -67.6053009
9.008                0.978582509     -67.7021462
9.009                0.978535525     -67.7992224
9.01                   0.9784884       -67.89653
9.011                0.978441131     -67.9940699
9.012                 0.97839372     -68.0918428
9.013                0.978346165     -68.1898493
9.014                0.978298467     -68.2880902
9.015                0.978250625     -68.3865662
9.016                0.978202638      -68.485278
9.017                0.978154506     -68.5842265
9.018                0.978106229     -68.6834122
9.019                0.978057806      -68.782836
9.02                 0.978009237     -68.8824985
9.021                0.977960522     -68.9824005
9.022                0.977911659     -69.0825428
9.023                 0.97786265      -69.182926
9.024                0.977813492      -69.283551
9.025                0.977764186     -69.3844185
9.026                0.977714732     -69.4855292
9.027                0.977665129     -69.5868838
9.028                0.977615376     -69.6884832
9.029                0.977565474      -69.790328
9.03                 0.977515422     -69.8924191
9.031                0.977465219     -69.9947572
9.032                0.977414864     -70.0973431
9.033                0.977364359     -70.2001774
9.034                0.977313702     -70.3032611
9.035                0.977262892     -70.4065948
9.036                 0.97721193     -70.5101793
9.037                0.977160815     -70.6140154
9.038                0.977109547     -70.7181039
9.039                0.977058124     -70.8224456
9.04                 0.977006548     -70.9270411
9.041                0.976954817     -71.0318914
9.042                0.976902931     -71.1369972
9.043                0.976850889     -71.2423592
9.044                0.976798692     -71.3479784
9.045                0.976746338     -71.4538553
9.046                0.976693828      -71.559991
9.047                 0.97664116     -71.6663861
9.048                0.976588336     -71.7730414
9.049                0.976535353     -71.8799577
9.05                 0.976482212     -71.9871359
9.051                0.976428913     -72.0945768
9.052                0.976375454     -72.2022811
9.053                0.976321837     -72.3102497
9.054                0.976268059     -72.4184833
9.055                0.976214121     -72.5269829
9.056                0.976160022     -72.6357491
9.057                0.976105763     -72.7447829
9.058                0.976051342      -72.854085
9.059                0.975996759     -72.9636562
9.06                 0.975942014     -73.0734975
9.061                0.975887107     -73.1836095
9.062                0.975832036     -73.2939932
9.063                0.975776802     -73.4046494
9.064                0.975721405     -73.5155789
9.065                0.975665843     -73.6267825
9.066                0.975610116     -73.7382611
9.067                0.975554225     -73.8500155
9.068                0.975498169     -73.9620466
9.069                0.975441946     -74.0743551
9.07                 0.975385558      -74.186942
9.071                0.975329003     -74.2998081
9.072                0.975272281     -74.4129543
9.073                0.975215392     -74.5263814
9.074                0.975158336     -74.6400902
9.075                0.975101111     -74.7540816
9.076                0.975043718     -74.8683565
9.077                0.974986157     -74.9829157
9.078                0.974928426     -75.0977602
9.079                0.974870526     -75.2128907
9.08                 0.974812456     -75.3283081
9.081                0.974754215     -75.4440133
9.082                0.974695804     -75.5600072
9.083                0.974637222     -75.6762907
9.084                0.974578469     -75.7928645
9.085                0.974519544     -75.9097297
9.086                0.974460447     -76.0268871
9.087                0.974401178     -76.1443375
9.088                0.974341735     -76.2620819
9.089                 0.97428212     -76.3801211
9.09                 0.974222331     -76.4984561
9.091                0.974162368     -76.6170877
9.092                0.974102231     -76.7360168
9.093                 0.97404192     -76.8552443
9.094                0.973981433     -76.9747711
9.095                0.973920772     -77.0945981
9.096                0.973859934     -77.2147263
9.097                0.973798921     -77.3351564
9.098                0.973737732     -77.4558895
9.099                0.973676365     -77.5769264
9.1                  0.973614822      -77.698268
9.101                0.973553102     -77.8199153
9.102                0.973491204     -77.9418692
9.103                0.973429128     -78.0641305
9.104                0.973366873     -78.1867003
9.105                0.973304441     -78.3095794
9.106                0.973241829     -78.4327687
9.107                0.973179038     -78.5562691
9.108                0.973116067     -78.6800817
9.109                0.973052916     -78.8042073
9.11                 0.972989586     -78.9286468
9.111                0.972926074     -79.0534012
9.112                0.972862382     -79.1784715
9.113                0.972798509     -79.3038584
9.114                0.972734455     -79.4295631
9.115                0.972670218     -79.5555864
9.116                  0.9726058     -79.6819293
9.117                0.972541199     -79.8085927
9.118                0.972476416     -79.9355775
9.119                 0.97241145     -80.0628847
9.12                 0.972346301     -80.1905153
9.121                0.972280968     -80.3184702
9.122                0.972215452     -80.4467504
9.123                0.972149752     -80.5753567
9.124                0.972083867     -80.7042903
9.125                0.972017798     -80.8335519
9.126                0.971951544     -80.9631426
9.127                0.971885105     -81.0930634
9.128                0.971818481     -81.2233152
9.129                0.971751671     -81.3538989
9.13                 0.971684676     -81.4848156
9.131                0.971617494     -81.6160662
9.132                0.971550126     -81.7476516
9.133                0.971482572     -81.8795729
9.134                0.971414831      -82.011831
9.135                0.971346903     -82.1444269
9.136                0.971278788     -82.2773615
9.137                0.971210486     -82.4106359
9.138                0.971141995      -82.544251
9.139                0.971073317     -82.6782078
9.14                 0.971004451     -82.8125073
9.141                0.970935397     -82.9471504
9.142                0.970866155     -83.0821382
9.143                0.970796723     -83.2174717
9.144                0.970727103     -83.3531517
9.145                0.970657294     -83.4891793
9.146                0.970587296     -83.6255556
9.147                0.970517109     -83.7622814
9.148                0.970446732     -83.8993578
9.149                0.970376165     -84.0367858
9.15                 0.970305409     -84.1745663
9.151                0.970234463     -84.3127005
9.152                0.970163326     -84.4511891
9.153                   0.970092     -84.5900334
9.154                0.970020483     -84.7292342
9.155                0.969948775     -84.8687925
9.156                0.969876877     -85.0087094
9.157                0.969804788     -85.1489859
9.158                0.969732508      -85.289623
9.159                0.969660038     -85.4306216
9.16                 0.969587376     -85.5719828
9.161                0.969514523     -85.7137076
9.162                0.969441479      -85.855797
9.163                0.969368244      -85.998252
9.164                0.969294817     -86.1410736
9.165                0.969221199     -86.2842628
9.166                0.969147389     -86.4278206
9.167                0.969073388     -86.5717482
9.168                0.968999195     -86.7160463
9.169                 0.96892481     -86.8607162
9.17                 0.968850234     -87.0057587
9.171                0.968775466     -87.1511749
9.172                0.968700506     -87.2969659
9.173                0.968625355     -87.4431326
9.174                0.968550012      -87.589676
9.175                0.968474477     -87.7365972
9.176                 0.96839875     -87.8838972
9.177                0.968322832      -88.031577
9.178                0.968246722     -88.1796376
9.179                 0.96817042     -88.3280801
9.18                 0.968093927     -88.4769054
9.181                0.968017242     -88.6261146
9.182                0.967940365     -88.7757087
9.183                0.967863298     -88.9256888
9.184                0.967786038     -89.0760558
9.185                0.967708588     -89.2268107
9.186                0.967630946     -89.3779546
9.187                0.967553113     -89.5294885
9.188                0.967475089     -89.6814135
9.189                0.967396875     -89.8337305
9.19                 0.967318469     -89.9864405
9.191                0.967239873     -90.1395447
9.192                0.967161087     -90.2930439
9.193                 0.96708211     -90.4469393
9.194                0.967002943     -90.6012319
9.195                0.966923586     -90.7559226
9.196                0.966844039     -90.9110125
9.197                0.966764302     -91.0665025
9.198                0.966684377     -91.2223939
9.199                0.966604262     -91.3786874
9.2                  0.966523957     -91.5353842
9.201                0.966443465     -91.6924853
9.202                0.966362783     -91.8499917
9.203                0.966281914     -92.0079045
9.204                0.966200856     -92.1662245
9.205                0.966119611     -92.3249529
9.206                0.966038178     -92.4840906
9.207                0.965956558     -92.6436387
9.208                0.965874751     -92.8035982
9.209                0.965792758       -92.96397
9.21                 0.965710578     -93.1247553
9.211                0.965628213      -93.285955
9.212                0.965545662     -93.4475701
9.213                0.965462926     -93.6096016
9.214                0.965380005     -93.7720505
9.215                0.965296899     -93.9349179
9.216                 0.96521361     -94.0982047
9.217                0.965130137      -94.261912
9.218                0.965046481     -94.4260406
9.219                0.964962642     -94.5905918
9.22                 0.964878621     -94.7555663
9.221                0.964794418     -94.9209653
9.222                0.964710034     -95.0867897
9.223                0.964625468     -95.2530405
9.224                0.964540723     -95.4197187
9.225                0.964455797     -95.5868253
9.226                0.964370692     -95.7543613
9.227                0.964285408     -95.9223277
9.228                0.964199946     -96.0907254
9.229                0.964114306     -96.2595554
9.23                 0.964028489     -96.4288187
9.231                0.963942496     -96.5985162
9.232                0.963856327     -96.7686491
9.233                0.963769982     -96.9392181
9.234                0.963683462     -97.1102243
9.235                0.963596769     -97.2816687
9.236                0.963509902     -97.4535522
9.237                0.963422862     -97.6258757
9.238                0.963335651     -97.7986403
9.239                0.963248268     -97.9718469
9.24                 0.963160714     -98.1454964
9.241                0.963072991     -98.3195897
9.242                0.962985098     -98.4941279
9.243                0.962897037     -98.6691119
9.244                0.962808809     -98.8445426
9.245                0.962720414     -99.0204209
9.246                0.962631852     -99.1967478
9.247                0.962543126     -99.3735242
9.248                0.962454236     -99.5507511
9.249                0.962365182     -99.7284292
9.25                 0.962275965     -99.9065597
9.251                0.962186587     -100.085143
9.252                0.962097048     -100.264181
9.253                0.962007349     -100.443674
9.254                0.961917492     -100.623622
9.255                0.961827477     -100.804028
9.256                0.961737304     -100.984891
9.257                0.961646976     -101.166212
9.258                0.961556493     -101.347994
9.259                0.961465856     -101.530235
9.26                 0.961375066     -101.712938
9.261                0.961284125     -101.896103
9.262                0.961193032      -102.07973
9.263                0.961101791     -102.263822
9.264                0.961010401     -102.448378
9.265                0.960918863       -102.6334
9.266                 0.96082718     -102.818888
9.267                0.960735351     -103.004843
9.268                0.960643379     -103.191266
9.269                0.960551264     -103.378159
9.27                 0.960459008     -103.565521
9.271                0.960366612     -103.753353
9.272                0.960274077     -103.941657
9.273                0.960181405     -104.130433
9.274                0.960088596     -104.319682
9.275                0.959995653     -104.509404
9.276                0.959902576     -104.699601
9.277                0.959809367     -104.890274
9.278                0.959716028     -105.081422
9.279                0.959622559     -105.273047
9.28                 0.959528963      -105.46515
9.281                 0.95943524     -105.657732
9.282                0.959341392     -105.850792
9.283                 0.95924742     -106.044332
9.284                0.959153327     -106.238353
9.285                0.959059114     -106.432855
9.286                0.958964782      -106.62784
9.287                0.958870332     -106.823307
9.288                0.958775767     -107.019257
9.289                0.958681088     -107.215692
9.29                 0.958586297     -107.412611
9.291                0.958491395     -107.610016
9.292                0.958396384     -107.807908
9.293                0.958301266     -108.006286
9.294                0.958206042     -108.205151
9.295                0.958110715     -108.404505
9.296                0.958015286     -108.604348
9.297                0.957919757      -108.80468
9.298                0.957824129     -109.005503
9.299                0.957728405     -109.206816
9.3                  0.957632586      -109.40862
9.301                0.957536675     -109.610916
9.302                0.957440673     -109.813705
9.303                0.957344582     -110.016987
9.304                0.957248404     -110.220763
9.305                0.957152142     -110.425033
9.306                0.957055796     -110.629797
9.307                 0.95695937     -110.835057
9.308                0.956862865     -111.040813
9.309                0.956766284     -111.247065
9.31                 0.956669628     -111.453814
9.311                0.956572899     -111.661061
9.312                  0.9564761     -111.868805
9.313                0.956379234     -112.077048
9.314                0.956282301      -112.28579
9.315                0.956185305     -112.495031
9.316                0.956088248     -112.704771
9.317                0.955991131     -112.915012
9.318                0.955893958     -113.125754
9.319                 0.95579673     -113.336997
9.32                  0.95569945     -113.548741
9.321                0.955602121     -113.760987
9.322                0.955504744     -113.973735
9.323                0.955407323     -114.186985
9.324                0.955309859     -114.400739
9.325                0.955212355     -114.614996
9.326                0.955114814     -114.829757
9.327                0.955017238     -115.045021
9.328                 0.95491963      -115.26079
9.329                0.954821992     -115.477064
9.33                 0.954724327     -115.693842
9.331                0.954626638     -115.911126
9.332                0.954528926     -116.128915
9.333                0.954431196     -116.347209
9.334                 0.95433345     -116.566009
9.335                0.954235689     -116.785316
9.336                0.954137918     -117.005128
9.337                0.954040139     -117.225448
9.338                0.953942355     -117.446274
9.339                0.953844568     -117.667606
9.34                 0.953746781     -117.889446
9.341                0.953648999     -118.111793
9.342                0.953551222     -118.334647
9.343                0.953453454     -118.558008
9.344                0.953355699     -118.781877
9.345                0.953257959     -119.006253
9.346                0.953160237     -119.231137
9.347                0.953062537     -119.456528
9.348                0.952964861     -119.682427
9.349                0.952867212     -119.908834
9.35                 0.952769594     -120.135748
9.351                0.952672009      -120.36317
9.352                0.952574462       -120.5911
9.353                0.952476955     -120.819537
9.354                0.952379491     -121.048481
9.355                0.952282074     -121.277933
9.356                0.952184707     -121.507893
9.357                0.952087392     -121.738359
9.358                0.951990135     -121.969333
9.359                0.951892937     -122.200814
9.36                 0.951795803     -122.432801
9.361                0.951698736     -122.665295
9.362                0.951601738     -122.898296
9.363                0.951504815     -123.131802
9.364                0.951407968     -123.365815
9.365                0.951311202     -123.600333
9.366                 0.95121452     -123.835357
9.367                0.951117926     -124.070885
9.368                0.951021424     -124.306919
9.369                0.950925016     -124.543457
9.37                 0.950828706       -124.7805
9.371                0.950732499     -125.018046
9.372                0.950636398     -125.256095
9.373                0.950540407     -125.494648
9.374                0.950444529     -125.733703
9.375                0.950348768     -125.973261
9.376                0.950253128      -126.21332
9.377                0.950157612     -126.453881
9.378                0.950062225     -126.694942
9.379                0.949966971     -126.936504
9.38                 0.949871852     -127.178565
9.381                0.949776874     -127.421126
9.382                 0.94968204     -127.664185
9.383                0.949587354     -127.907742
9.384                 0.94949282     -128.151797
9.385                0.949398442     -128.396348
9.386                0.949304223     -128.641396
9.387                0.949210169     -128.886939
9.388                0.949116283     -129.132976
9.389                0.949022569     -129.379508
9.39                 0.948929031     -129.626534
9.391                0.948835673     -129.874051
9.392                  0.9487425     -130.122061
9.393                0.948649516     -130.370561
9.394                0.948556724     -130.619552
9.395                0.948464129     -130.869032
9.396                0.948371735     -131.119001
