! TOUCHSTONE file generated by CST DESIGN STUDIO
! Date and time: Tue Feb  4 16:01:39 2025
! Project name: C:\Work\MatlabApps\UnitCellOptimizationMatlab\CST\unitcell.cst
! Tree item: Tasks\Sweep1\SPara1\S-Parameters
! Header version: 2024
! Port assignment regex: !\s*Touchstone port\s*([0-9]+)\s*=\s*(CST MWS port|CST DES external port|CST DES block port)\s*(.+)\s* \(\"(.*)\"\)(\s*mode\s*([0-9]+))?.*
! Touchstone port assignment:
! Touchstone port 1 = CST DES external port 1 ("")
# GHz S MA R 50
9                    0.978378078     -72.8836179
9.001                0.978327034     -72.9918736
9.002                0.978275836     -73.1003936
9.003                0.978224482     -73.2091789
9.004                0.978172974     -73.3182302
9.005                0.978121311     -73.4275483
9.006                0.978069491      -73.537134
9.007                0.978017515     -73.6469881
9.008                0.977965383     -73.7571115
9.009                0.977913093     -73.8675049
9.01                 0.977860646     -73.9781692
9.011                0.977808041     -74.0891052
9.012                0.977755278     -74.2003137
9.013                0.977702356     -74.3117956
9.014                0.977649276     -74.4235516
9.015                0.977596036     -74.5355826
9.016                0.977542636     -74.6478894
9.017                0.977489077     -74.7604729
9.018                0.977435356     -74.8733339
9.019                0.977381475     -74.9864732
9.02                 0.977327433     -75.0998917
9.021                0.977273229     -75.2135901
9.022                0.977218863     -75.3275694
9.023                0.977164335     -75.4418305
9.024                0.977109645      -75.556374
9.025                0.977054791     -75.6712009
9.026                0.976999773     -75.7863121
9.027                0.976944592     -75.9017084
9.028                0.976889247     -76.0173906
9.029                0.976833737     -76.1333596
9.03                 0.976778062     -76.2496163
9.031                0.976722222     -76.3661615
9.032                0.976666217     -76.4829961
9.033                0.976610045      -76.600121
9.034                0.976553707      -76.717537
9.035                0.976497202     -76.8352449
9.036                0.976440531     -76.9532458
9.037                0.976383692     -77.0715403
9.038                0.976326685     -77.1901295
9.039                 0.97626951     -77.3090142
9.04                 0.976212166     -77.4281952
9.041                0.976154654     -77.5476735
9.042                0.976096973     -77.6674499
9.043                0.976039122     -77.7875253
9.044                0.975981102     -77.9079007
9.045                0.975922911     -78.0285768
9.046                 0.97586455     -78.1495547
9.047                0.975806017     -78.2708351
9.048                0.975747314     -78.3924189
9.049                 0.97568844     -78.5143072
9.05                 0.975629393     -78.6365007
9.051                0.975570174     -78.7590004
9.052                0.975510783     -78.8818072
9.053                0.975451219      -79.004922
9.054                0.975391482     -79.1283456
9.055                0.975331572      -79.252079
9.056                0.975271488     -79.3761232
9.057                0.975211229     -79.5004789
9.058                0.975150797     -79.6251472
9.059                0.975090189     -79.7501289
9.06                 0.975029407      -79.875425
9.061                 0.97496845     -80.0010364
9.062                0.974907317      -80.126964
9.063                0.974846008     -80.2532087
9.064                0.974784522     -80.3797714
9.065                0.974722861     -80.5066531
9.066                0.974661023     -80.6338548
9.067                0.974599007     -80.7613772
9.068                0.974536815     -80.8892215
9.069                0.974474444     -81.0173884
9.07                 0.974411896     -81.1458789
9.071                 0.97434917     -81.2746941
9.072                0.974286265     -81.4038347
9.073                0.974223182     -81.5333018
9.074                 0.97415992     -81.6630962
9.075                0.974096478      -81.793219
9.076                0.974032857     -81.9236711
9.077                0.973969057     -82.0544534
9.078                0.973905076     -82.1855668
9.079                0.973840915     -82.3170124
9.08                 0.973776574      -82.448791
9.081                0.973712052     -82.5809036
9.082                 0.97364735     -82.7133513
9.083                0.973582466     -82.8461348
9.084                  0.9735174     -82.9792552
9.085                0.973452154     -83.1127135
9.086                0.973386725     -83.2465105
9.087                0.973321114     -83.3806473
9.088                0.973255321     -83.5151248
9.089                0.973189346      -83.649944
9.09                 0.973123188     -83.7851059
9.091                0.973056847     -83.9206113
9.092                0.972990323     -84.0564614
9.093                0.972923616     -84.1926569
9.094                0.972856726      -84.329199
9.095                0.972789652     -84.4660886
9.096                0.972722394     -84.6033266
9.097                0.972654952     -84.7409141
9.098                0.972587326     -84.8788519
9.099                0.972519516     -85.0171412
9.1                  0.972451522     -85.1557827
9.101                0.972383343     -85.2947776
9.102                0.972314979     -85.4341269
9.103                0.972246431     -85.5738314
9.104                0.972177697     -85.7138921
9.105                0.972108779     -85.8543101
9.106                0.972039675     -85.9950864
9.107                0.971970386     -86.1362218
9.108                0.971900912     -86.2777175
9.109                0.971831252     -86.4195743
9.11                 0.971761406     -86.5617932
9.111                0.971691374     -86.7043754
9.112                0.971621157     -86.8473216
9.113                0.971550754      -86.990633
9.114                0.971480165     -87.1343105
9.115                 0.97140939     -87.2783551
9.116                0.971338428     -87.4227677
9.117                0.971267281     -87.5675495
9.118                0.971195947     -87.7127013
9.119                0.971124427     -87.8582242
9.12                 0.971052721     -88.0041191
9.121                0.970980829      -88.150387
9.122                 0.97090875      -88.297029
9.123                0.970836484      -88.444046
9.124                0.970764033     -88.5914391
9.125                0.970691395     -88.7392091
9.126                 0.97061857     -88.8873571
9.127                 0.97054556     -89.0358842
9.128                0.970472363     -89.1847912
9.129                0.970398979     -89.3340792
9.13                 0.970325409     -89.4837492
9.131                0.970251653     -89.6338022
9.132                0.970177711     -89.7842391
9.133                0.970103583      -89.935061
9.134                0.970029269     -90.0862689
9.135                0.969954768     -90.2378637
9.136                0.969880082     -90.3898464
9.137                 0.96980521     -90.5422181
9.138                0.969730152     -90.6949797
9.139                0.969654909     -90.8481322
9.14                  0.96957948     -91.0016767
9.141                0.969503866      -91.155614
9.142                0.969428067     -91.3099453
9.143                0.969352082     -91.4646715
9.144                0.969275912     -91.6197935
9.145                0.969199558     -91.7753124
9.146                0.969123019     -91.9312292
9.147                0.969046296     -92.0875449
9.148                0.968969388     -92.2442604
9.149                0.968892297     -92.4013767
9.15                 0.968815021     -92.5588949
9.151                0.968737562     -92.7168158
9.152                 0.96865992     -92.8751406
9.153                0.968582094     -93.0338701
9.154                0.968504085     -93.1930054
9.155                0.968425894     -93.3525475
9.156                 0.96834752     -93.5124972
9.157                0.968268965     -93.6728557
9.158                0.968190227     -93.8336239
9.159                0.968111308     -93.9948028
9.16                 0.968032207     -94.1563933
9.161                0.967952926     -94.3183964
9.162                0.967873464     -94.4808131
9.163                0.967793822     -94.6436444
9.164                   0.967714     -94.8068912
9.165                0.967633999     -94.9705546
9.166                0.967553818     -95.1346354
9.167                0.967473459     -95.2991347
9.168                0.967392921     -95.4640533
9.169                0.967312205     -95.6293924
9.17                 0.967231312     -95.7951528
9.171                0.967150242     -95.9613355
9.172                0.967068995     -96.1279414
9.173                0.966987572     -96.2949716
9.174                0.966905973     -96.4624269
9.175                0.966824199     -96.6303084
9.176                 0.96674225     -96.7986169
9.177                0.966660127     -96.9673534
9.178                0.966577831     -97.1365188
9.179                0.966495361     -97.3061142
9.18                 0.966412719     -97.4761404
9.181                0.966329904     -97.6465984
9.182                0.966246918      -97.817489
9.183                0.966163761     -97.9888133
9.184                0.966080434     -98.1605722
9.185                0.965996937     -98.3327666
9.186                0.965913272     -98.5053974
9.187                0.965829437     -98.6784655
9.188                0.965745435     -98.8519718
9.189                0.965661266     -99.0259174
9.19                 0.965576931      -99.200303
9.191                 0.96549243     -99.3751296
9.192                0.965407764      -99.550398
9.193                0.965322934     -99.7261093
9.194                 0.96523794     -99.9022642
9.195                0.965152783     -100.078864
9.196                0.965067465     -100.255909
9.197                0.964981985       -100.4334
9.198                0.964896345     -100.611339
9.199                0.964810546     -100.789725
9.2                  0.964724588     -100.968561
9.201                0.964638472     -101.147846
9.202                0.964552199     -101.327583
9.203                 0.96446577      -101.50777
9.204                0.964379185     -101.688411
9.205                0.964292447     -101.869504
9.206                0.964205555     -102.051052
9.207                0.964118511     -102.233054
9.208                0.964031315     -102.415513
9.209                0.963943969     -102.598428
9.21                 0.963856474     -102.781801
9.211                 0.96376883     -102.965631
9.212                0.963681038     -103.149921
9.213                0.963593101     -103.334671
9.214                0.963505018     -103.519882
9.215                0.963416791     -103.705554
9.216                0.963328421     -103.891689
9.217                0.963239909     -104.078287
9.218                0.963151256     -104.265348
9.219                0.963062464     -104.452874
9.22                 0.962973533     -104.640866
9.221                0.962884465     -104.829324
9.222                0.962795261     -105.018249
9.223                0.962705923     -105.207642
9.224                 0.96261645     -105.397504
9.225                0.962526846     -105.587834
9.226                 0.96243711     -105.778635
9.227                0.962347245     -105.969906
9.228                0.962257251     -106.161649
9.229                0.962167131     -106.353864
9.23                 0.962076885     -106.546552
9.231                0.961986515     -106.739713
9.232                0.961896021     -106.933349
9.233                0.961805407     -107.127459
9.234                0.961714673     -107.322046
9.235                 0.96162382     -107.517108
9.236                 0.96153285     -107.712648
9.237                0.961441765     -107.908665
9.238                0.961350565     -108.105161
9.239                0.961259254     -108.302135
9.24                 0.961167831     -108.499589
9.241                  0.9610763     -108.697524
9.242                0.960984661     -108.895939
9.243                0.960892915     -109.094836
9.244                0.960801066     -109.294214
9.245                0.960709114     -109.494076
9.246                0.960617061      -109.69442
9.247                0.960524909     -109.895249
9.248                0.960432659     -110.096561
9.249                0.960340314     -110.298359
9.25                 0.960247875     -110.500642
9.251                0.960155344     -110.703412
9.252                0.960062722     -110.906667
9.253                0.959970012      -111.11041
9.254                0.959877216     -111.314641
9.255                0.959784334     -111.519359
9.256                0.959691371     -111.724567
9.257                0.959598326     -111.930263
9.258                0.959505203     -112.136449
9.259                0.959412002     -112.343125
9.26                 0.959318727     -112.550291
9.261                 0.95922538     -112.757948
9.262                0.959131961     -112.966097
9.263                0.959038474     -113.174737
9.264                0.958944921      -113.38387
9.265                0.958851302     -113.593495
9.266                0.958757622     -113.803613
9.267                0.958663882     -114.014225
9.268                0.958570084      -114.22533
9.269                 0.95847623      -114.43693
9.27                 0.958382323     -114.649023
9.271                0.958288364     -114.861612
9.272                0.958194357     -115.074695
9.273                0.958100303     -115.288274
9.274                0.958006205     -115.502349
9.275                0.957912065     -115.716919
9.276                0.957817886     -115.931986
9.277                 0.95772367      -116.14755
9.278                0.957629419      -116.36361
9.279                0.957535136     -116.580167
9.28                 0.957440824     -116.797221
9.281                0.957346484     -117.014772
9.282                 0.95725212     -117.232821
9.283                0.957157733     -117.451368
9.284                0.957063328     -117.670413
9.285                0.956968905     -117.889956
9.286                0.956874468     -118.109997
9.287                 0.95678002     -118.330537
9.288                0.956685562     -118.551575
9.289                0.956591099     -118.773112
9.29                 0.956496632     -118.995147
9.291                0.956402164     -119.217681
9.292                0.956307699     -119.440714
9.293                0.956213238     -119.664246
9.294                0.956118785     -119.888276
9.295                0.956024342     -120.112805
9.296                0.955929913     -120.337834
9.297                0.955835501     -120.563361
9.298                0.955741107     -120.789386
9.299                0.955646736     -121.015911
9.3                   0.95555239     -121.242934
9.301                0.955458072     -121.470456
9.302                0.955363785     -121.698477
9.303                0.955269533     -121.926996
9.304                0.955175318     -122.156013
9.305                0.955081143     -122.385528
9.306                0.954987012     -122.615541
9.307                0.954892927     -122.846052
9.308                0.954798893     -123.077061
9.309                0.954704911     -123.308567
9.31                 0.954610986      -123.54057
9.311                 0.95451712      -123.77307
9.312                0.954423316     -124.006067
9.313                0.954329579      -124.23956
9.314                0.954235911     -124.473549
9.315                0.954142316     -124.708034
9.316                0.954048797     -124.943014
9.317                0.953955357     -125.178489
9.318                   0.953862     -125.414459
9.319                0.953768729     -125.650924
9.32                 0.953675548     -125.887882
9.321                 0.95358246     -126.125334
9.322                0.953489468     -126.363279
9.323                0.953396577     -126.601716
9.324                0.953303789     -126.840646
9.325                0.953211109     -127.080067
9.326                0.953118539     -127.319979
9.327                0.953026084     -127.560382
9.328                0.952933747     -127.801275
9.329                0.952841532     -128.042657
9.33                 0.952749442     -128.284528
9.331                0.952657481     -128.526887
9.332                0.952565653     -128.769734
9.333                0.952473961     -129.013068
9.334                 0.95238241     -129.256888
9.335                0.952291002     -129.501193
9.336                0.952199743     -129.745984
9.337                0.952108635     -129.991259
9.338                0.952017682     -130.237016
9.339                0.951926889     -130.483257
9.34                 0.951836259     -130.729979
9.341                0.951745796     -130.977183
9.342                0.951655505     -131.224866
9.343                0.951565388     -131.473029
9.344                 0.95147545      -131.72167
9.345                0.951385694     -131.970788
9.346                0.951296126     -132.220384
9.347                0.951206749     -132.470454
9.348                0.951117566        -132.721
9.349                0.951028582     -132.972019
9.35                 0.950939801     -133.223511
9.351                0.950851227     -133.475474
9.352                0.950762865     -133.727908
9.353                0.950674717     -133.980812
9.354                0.950586789     -134.234184
9.355                0.950499084     -134.488023
9.356                0.950411607     -134.742328
9.357                0.950324361     -134.997099
9.358                0.950237352     -135.252333
9.359                0.950150583      -135.50803
9.36                 0.950064058     -135.764188
9.361                0.949977781     -136.020806
9.362                0.949891758     -136.277884
9.363                0.949805991     -136.535418
9.364                0.949720486     -136.793409
9.365                0.949635246     -137.051855
9.366                0.949550276     -137.310754
9.367                 0.94946558     -137.570106
9.368                0.949381163     -137.829908
9.369                0.949297028     -138.090159
9.37                  0.94921318     -138.350858
9.371                0.949129624     -138.612004
9.372                0.949046364     -138.873594
9.373                0.948963404     -139.135627
9.374                0.948880748     -139.398103
9.375                0.948798401     -139.661018
9.376                0.948716367     -139.924372
9.377                 0.94863465     -140.188163
9.378                0.948553256     -140.452389
9.379                0.948472188     -140.717048
9.38                 0.948391451      -140.98214
9.381                0.948311049     -141.247662
9.382                0.948230986     -141.513612
9.383                0.948151267     -141.779988
9.384                0.948071897      -142.04679
9.385                 0.94799288     -142.314015
9.386                0.947914219     -142.581661
9.387                0.947835921     -142.849726
9.388                0.947757988     -143.118208
9.389                0.947680426     -143.387106
9.39                 0.947603239     -143.656418
9.391                0.947526431     -143.926141
9.392                0.947450007     -144.196274
9.393                0.947373972     -144.466815
9.394                0.947298329     -144.737761
9.395                0.947223082     -145.009111
9.396                0.947148238     -145.280862
