! TOUCHSTONE file generated by CST DESIGN STUDIO
! Date and time: Tue Feb  4 13:38:51 2025
! Project name: C:\Work\MatlabApps\UnitCellOptimizationMatlab\CST\unitcell.cst
! Tree item: Tasks\Sweep1\SPara1\S-Parameters
! Header version: 2024
! Port assignment regex: !\s*Touchstone port\s*([0-9]+)\s*=\s*(CST MWS port|CST DES external port|CST DES block port)\s*(.+)\s* \(\"(.*)\"\)(\s*mode\s*([0-9]+))?.*
! Touchstone port assignment:
! Touchstone port 1 = CST DES external port 1 ("")
# GHz S MA R 50
9                    0.977568588     -78.0354345
9.001                0.977512245     -78.1565903
9.002                0.977455732     -78.2780502
9.003                0.977399048     -78.3998151
9.004                0.977342193     -78.5218859
9.005                0.977285167     -78.6442635
9.006                0.977227969     -78.7669488
9.007                  0.9771706     -78.8899428
9.008                0.977113058     -79.0132463
9.009                0.977055343     -79.1368602
9.01                 0.976997455     -79.2607856
9.011                0.976939394     -79.3850232
9.012                0.976881159      -79.509574
9.013                 0.97682275      -79.634439
9.014                0.976764167      -79.759619
9.015                0.976705409     -79.8851151
9.016                0.976646476      -80.010928
9.017                0.976587367     -80.1370588
9.018                0.976528083     -80.2635084
9.019                0.976468623     -80.3902777
9.02                 0.976408987     -80.5173677
9.021                0.976349174     -80.6447792
9.022                0.976289184     -80.7725133
9.023                0.976229017     -80.9005708
9.024                0.976168672     -81.0289528
9.025                 0.97610815     -81.1576601
9.026                0.976047449     -81.2866937
9.027                 0.97598657     -81.4160546
9.028                0.975925512     -81.5457437
9.029                0.975864275      -81.675762
9.03                 0.975802859     -81.8061103
9.031                0.975741263     -81.9367897
9.032                0.975679488     -82.0678011
9.033                0.975617532     -82.1991455
9.034                0.975555396     -82.3308239
9.035                0.975493079     -82.4628371
9.036                0.975430581     -82.5951862
9.037                0.975367901     -82.7278721
9.038                0.975305041     -82.8608958
9.039                0.975241998     -82.9942583
9.04                 0.975178774     -83.1279604
9.041                0.975115367     -83.2620033
9.042                0.975051778     -83.3963878
9.043                0.974988006      -83.531115
9.044                0.974924051     -83.6661858
9.045                0.974859912     -83.8016011
9.046                0.974795591      -83.937362
9.047                0.974731085     -84.0734695
9.048                0.974666396     -84.2099244
9.049                0.974601523     -84.3467279
9.05                 0.974536465     -84.4838808
9.051                0.974471223     -84.6213842
9.052                0.974405796     -84.7592391
9.053                0.974340184     -84.8974463
9.054                0.974274386      -85.036007
9.055                0.974208404     -85.1749221
9.056                0.974142236     -85.3141926
9.057                0.974075882     -85.4538194
9.058                0.974009343     -85.5938036
9.059                0.973942617     -85.7341462
9.06                 0.973875705     -85.8748481
9.061                0.973808607     -86.0159104
9.062                0.973741322     -86.1573341
9.063                0.973673851       -86.29912
9.064                0.973606193     -86.4412693
9.065                0.973538347     -86.5837829
9.066                0.973470315     -86.7266619
9.067                0.973402096     -86.8699071
9.068                0.973333689     -87.0135197
9.069                0.973265094     -87.1575006
9.07                 0.973196313     -87.3018509
9.071                0.973127343     -87.4465714
9.072                0.973058186     -87.5916633
9.073                 0.97298884     -87.7371275
9.074                0.972919307      -87.882965
9.075                0.972849586     -88.0291769
9.076                0.972779677     -88.1757641
9.077                0.972709579     -88.3227277
9.078                0.972639293     -88.4700686
9.079                0.972568819     -88.6177879
9.08                 0.972498157     -88.7658865
9.081                0.972427306     -88.9143655
9.082                0.972356267     -89.0632258
9.083                0.972285039     -89.2124685
9.084                0.972213623     -89.3620946
9.085                0.972142019     -89.5121051
9.086                0.972070226      -89.662501
9.087                0.971998244     -89.8132833
9.088                0.971926074      -89.964453
9.089                0.971853716     -90.1160112
9.09                 0.971781169     -90.2679587
9.091                0.971708434     -90.4202967
9.092                 0.97163551     -90.5730261
9.093                0.971562399     -90.7261479
9.094                0.971489099     -90.8796632
9.095                 0.97141561      -91.033573
9.096                0.971341934     -91.1878782
9.097                 0.97126807     -91.3425799
9.098                0.971194017      -91.497679
9.099                0.971119777     -91.6531767
9.1                  0.971045349     -91.8090738
9.101                0.970970734     -91.9653714
9.102                0.970895931     -92.1220704
9.103                0.970820941      -92.279172
9.104                0.970745763      -92.436677
9.105                0.970670399     -92.5945866
9.106                0.970594847     -92.7529016
9.107                0.970519109     -92.9116231
9.108                0.970443184     -93.0707521
9.109                0.970367073     -93.2302896
9.11                 0.970290776     -93.3902366
9.111                0.970214293      -93.550594
9.112                0.970137624     -93.7113629
9.113                 0.97006077     -93.8725443
9.114                 0.96998373     -94.0341392
9.115                0.969906506     -94.1961484
9.116                0.969829096     -94.3585731
9.117                0.969751503     -94.5214143
9.118                0.969673725     -94.6846728
9.119                0.969595763     -94.8483498
9.12                 0.969517617     -95.0124461
9.121                0.969439289     -95.1769628
9.122                0.969360777     -95.3419008
9.123                0.969282083     -95.5072612
9.124                0.969203206     -95.6730448
9.125                0.969124148     -95.8392527
9.126                0.969044908     -96.0058859
9.127                0.968965487     -96.1729452
9.128                0.968885885     -96.3404318
9.129                0.968806103     -96.5083465
9.13                 0.968726141     -96.6766903
9.131                0.968645999     -96.8454642
9.132                0.968565679     -97.0146691
9.133                 0.96848518      -97.184306
9.134                0.968404502     -97.3543759
9.135                0.968323647     -97.5248797
9.136                0.968242615     -97.6958183
9.137                0.968161407     -97.8671928
9.138                0.968080022      -98.039004
9.139                0.967998462     -98.2112528
9.14                 0.967916726     -98.3839403
9.141                0.967834816     -98.5570674
9.142                0.967752733     -98.7306349
9.143                0.967670475     -98.9046439
9.144                0.967588046     -99.0790952
9.145                0.967505444     -99.2539899
9.146                0.967422671     -99.4293287
9.147                0.967339726     -99.6051126
9.148                0.967256612     -99.7813425
9.149                0.967173329     -99.9580194
9.15                 0.967089876     -100.135144
9.151                0.967006255     -100.312718
9.152                0.966922467     -100.490741
9.153                0.966838513     -100.669214
9.154                0.966754392      -100.84814
9.155                0.966670107     -101.027517
9.156                0.966585657     -101.207348
9.157                0.966501043     -101.387632
9.158                0.966416267     -101.568372
9.159                0.966331329     -101.749567
9.16                  0.96624623      -101.93122
9.161                0.966160971     -102.113329
9.162                0.966075552     -102.295897
9.163                0.965989975     -102.478925
9.164                 0.96590424     -102.662412
9.165                0.965818349     -102.846361
9.166                0.965732302     -103.030771
9.167                  0.9656461     -103.215644
9.168                0.965559745      -103.40098
9.169                0.965473237      -103.58678
9.17                 0.965386577     -103.773046
9.171                0.965299766     -103.959778
9.172                0.965212806     -104.146976
9.173                0.965125698     -104.334641
9.174                0.965038441     -104.522775
9.175                0.964951039     -104.711378
9.176                0.964863491     -104.900451
9.177                0.964775799     -105.089995
9.178                0.964687963      -105.28001
9.179                0.964599986     -105.470497
9.18                 0.964511869     -105.661457
9.181                0.964423612      -105.85289
9.182                0.964335217     -106.044798
9.183                0.964246685     -106.237181
9.184                0.964158017      -106.43004
9.185                0.964069214     -106.623376
9.186                0.963980279     -106.817189
9.187                0.963891212      -107.01148
9.188                0.963802014      -107.20625
9.189                0.963712688     -107.401499
9.19                 0.963623234     -107.597228
9.191                0.963533653     -107.793438
9.192                0.963443948      -107.99013
9.193                0.963354119     -108.187303
9.194                0.963264168     -108.384959
9.195                0.963174097     -108.583099
9.196                0.963083907     -108.781723
9.197                  0.9629936     -108.980831
9.198                0.962903176     -109.180425
9.199                0.962812639     -109.380505
9.2                  0.962721988     -109.581071
9.201                0.962631227     -109.782125
9.202                0.962540356     -109.983666
9.203                0.962449378     -110.185695
9.204                0.962358293     -110.388213
9.205                0.962267104     -110.591221
9.206                0.962175812     -110.794719
9.207                0.962084419     -110.998707
9.208                0.961992927     -111.203186
9.209                0.961901338     -111.408157
9.21                 0.961809653      -111.61362
9.211                0.961717874     -111.819576
9.212                0.961626003     -112.026024
9.213                0.961534042     -112.232966
9.214                0.961441994     -112.440403
9.215                0.961349859     -112.648333
9.216                0.961257639     -112.856759
9.217                0.961165338      -113.06568
9.218                0.961072956     -113.275097
9.219                0.960980496      -113.48501
9.22                 0.960887959      -113.69542
9.221                0.960795349     -113.906327
9.222                0.960702666     -114.117731
9.223                0.960609913     -114.329633
9.224                0.960517093     -114.542033
9.225                0.960424206     -114.754932
9.226                0.960331256      -114.96833
9.227                0.960238245     -115.182227
9.228                0.960145175     -115.396623
9.229                0.960052048     -115.611519
9.23                 0.959958866     -115.826915
9.231                0.959865632     -116.042812
9.232                0.959772348     -116.259209
9.233                0.959679016     -116.476107
9.234                 0.95958564     -116.693507
9.235                 0.95949222     -116.911407
9.236                 0.95939876      -117.12981
9.237                0.959305262     -117.348714
9.238                0.959211728     -117.568119
9.239                0.959118161     -117.788028
9.24                 0.959024564     -118.008438
9.241                0.958930939     -118.229351
9.242                0.958837288     -118.450766
9.243                0.958743615     -118.672684
9.244                0.958649921     -118.895105
9.245                 0.95855621     -119.118029
9.246                0.958462484     -119.341455
9.247                0.958368745     -119.565385
9.248                0.958274998     -119.789817
9.249                0.958181243     -120.014753
9.25                 0.958087484     -120.240192
9.251                0.957993724     -120.466134
9.252                0.957899966     -120.692579
9.253                0.957806212     -120.919527
9.254                0.957712466     -121.146978
9.255                0.957618729     -121.374932
9.256                0.957525006     -121.603389
9.257                0.957431299     -121.832348
9.258                 0.95733761      -122.06181
9.259                0.957243944     -122.291775
9.26                 0.957150303     -122.522242
9.261                0.957056689     -122.753211
9.262                0.956963107     -122.984682
9.263                0.956869559     -123.216656
9.264                0.956776048      -123.44913
9.265                0.956682577     -123.682106
9.266                 0.95658915     -123.915583
9.267                0.956495769     -124.149562
9.268                0.956402439      -124.38404
9.269                0.956309161     -124.619019
9.27                  0.95621594     -124.854498
9.271                0.956122779     -125.090477
9.272                 0.95602968     -125.326954
9.273                0.955936648     -125.563931
9.274                0.955843685     -125.801406
9.275                0.955750795      -126.03938
9.276                0.955657982     -126.277851
9.277                0.955565248     -126.516819
9.278                0.955472598     -126.756284
9.279                0.955380034     -126.996245
9.28                  0.95528756     -127.236703
9.281                 0.95519518     -127.477655
9.282                0.955102897     -127.719102
9.283                0.955010715     -127.961043
9.284                0.954918637     -128.203478
9.285                0.954826667     -128.446406
9.286                0.954734808     -128.689826
9.287                0.954643064     -128.933738
9.288                 0.95455144     -129.178141
9.289                0.954459937     -129.423034
9.29                 0.954368561     -129.668417
9.291                0.954277315     -129.914288
9.292                0.954186202     -130.160648
9.293                0.954095227     -130.407496
9.294                0.954004393      -130.65483
9.295                0.953913704      -130.90265
9.296                0.953823163     -131.150955
9.297                0.953732775     -131.399744
9.298                0.953642544     -131.649016
9.299                0.953552473     -131.898771
9.3                  0.953462566     -132.149007
9.301                0.953372828     -132.399723
9.302                0.953283261      -132.65092
9.303                0.953193871     -132.902595
9.304                0.953104661     -133.154747
9.305                0.953015634     -133.407376
9.306                0.952926796     -133.660481
9.307                 0.95283815      -133.91406
9.308                  0.9527497     -134.168112
9.309                 0.95266145     -134.422637
9.31                 0.952573404     -134.677633
9.311                0.952485566     -134.933099
9.312                0.952397941     -135.189033
9.313                0.952310533     -135.445435
9.314                0.952223345     -135.702304
9.315                0.952136382     -135.959638
9.316                0.952049648     -136.217435
9.317                0.951963147     -136.475695
9.318                0.951876883     -136.734416
9.319                0.951790861     -136.993598
9.32                 0.951705085     -137.253237
9.321                0.951619559     -137.513334
9.322                0.951534287     -137.773886
9.323                0.951449273     -138.034893
9.324                0.951364523     -138.296353
9.325                0.951280039     -138.558264
9.326                0.951195827     -138.820624
9.327                 0.95111189     -139.083433
9.328                0.951028233     -139.346689
9.329                 0.95094486      -139.61039
9.33                 0.950861776     -139.874535
9.331                0.950778985     -140.139121
9.332                0.950696491     -140.404148
9.333                0.950614299     -140.669613
9.334                0.950532412     -140.935515
9.335                0.950450836     -141.201852
9.336                0.950369575     -141.468623
9.337                0.950288632     -141.735825
9.338                0.950208013     -142.003458
9.339                0.950127722     -142.271518
9.34                 0.950047763     -142.540004
9.341                 0.94996814     -142.808915
9.342                0.949888858     -143.078248
9.343                0.949809922     -143.348002
9.344                0.949731336     -143.618174
9.345                0.949653103     -143.888763
9.346                0.949575229     -144.159766
9.347                0.949497719     -144.431182
9.348                0.949420575     -144.703009
9.349                0.949343803     -144.975244
9.35                 0.949267408     -145.247885
9.351                0.949191393     -145.520931
9.352                0.949115763     -145.794378
9.353                0.949040522     -146.068226
9.354                0.948965675     -146.342471
9.355                0.948891226     -146.617112
9.356                 0.94881718     -146.892147
9.357                 0.94874354     -147.167572
9.358                0.948670312     -147.443386
9.359                  0.9485975     -147.719587
9.36                 0.948525107     -147.996171
9.361                0.948453139     -148.273137
9.362                  0.9483816     -148.550483
9.363                0.948310493     -148.828206
9.364                0.948239824     -149.106303
9.365                0.948169597     -149.384772
9.366                0.948099816     -149.663611
9.367                0.948030485     -149.942817
9.368                0.947961609     -150.222387
9.369                0.947893191      -150.50232
9.37                 0.947825237     -150.782612
9.371                 0.94775775      -151.06326
9.372                0.947690735     -151.344263
9.373                0.947624196     -151.625618
9.374                0.947558137     -151.907321
9.375                0.947492562      -152.18937
9.376                0.947427475     -152.471763
9.377                0.947362882     -152.754497
9.378                0.947298785     -153.037568
9.379                0.947235189     -153.320975
9.38                 0.947172098     -153.604714
9.381                0.947109516     -153.888783
9.382                0.947047447     -154.173178
9.383                0.946985896     -154.457897
9.384                0.946924866     -154.742937
9.385                0.946864361     -155.028295
9.386                0.946804385     -155.313968
9.387                0.946744943     -155.599953
9.388                0.946686038     -155.886247
9.389                0.946627674     -156.172848
9.39                 0.946569854     -156.459751
9.391                0.946512584     -156.746954
9.392                0.946455867     -157.034454
9.393                0.946399706     -157.322248
9.394                0.946344105     -157.610332
9.395                0.946289069     -157.898704
9.396                  0.9462346     -158.187361
