! TOUCHSTONE file generated by CST DESIGN STUDIO
! Date and time: Tue Feb  4 13:38:59 2025
! Project name: C:\Work\MatlabApps\UnitCellOptimizationMatlab\CST\unitcell.cst
! Tree item: Tasks\Sweep1\SPara1\S-Parameters
! Header version: 2024
! Port assignment regex: !\s*Touchstone port\s*([0-9]+)\s*=\s*(CST MWS port|CST DES external port|CST DES block port)\s*(.+)\s* \(\"(.*)\"\)(\s*mode\s*([0-9]+))?.*
! Touchstone port assignment:
! Touchstone port 1 = CST DES external port 1 ("")
# GHz S MA R 50
9                    0.979005429     -68.3041537
9.001                0.978958421     -68.4029518
9.002                0.978911268     -68.5019876
9.003                0.978863971     -68.6012618
9.004                 0.97881653     -68.7007751
9.005                0.978768943     -68.8005284
9.006                0.978721211     -68.9005222
9.007                0.978673333     -69.0007575
9.008                0.978625308     -69.1012349
9.009                0.978577137     -69.2019551
9.01                 0.978528819      -69.302919
9.011                0.978480353     -69.4041273
9.012                0.978431739     -69.5055807
9.013                0.978382977     -69.6072801
9.014                0.978334066     -69.7092261
9.015                0.978285006     -69.8114195
9.016                0.978235797     -69.9138611
9.017                0.978186437     -70.0165517
9.018                0.978136927     -70.1194921
9.019                0.978087266     -70.2226829
9.02                 0.978037454     -70.3261251
9.021                 0.97798749     -70.4298193
9.022                0.977937374     -70.5337664
9.023                0.977887106     -70.6379671
9.024                0.977836685     -70.7424222
9.025                 0.97778611     -70.8471325
9.026                0.977735382     -70.9520988
9.027                  0.9776845     -71.0573219
9.028                0.977633463     -71.1628026
9.029                0.977582272     -71.2685417
9.03                 0.977530925     -71.3745399
9.031                0.977479422     -71.4807982
9.032                0.977427763     -71.5873172
9.033                0.977375948     -71.6940978
9.034                0.977323976     -71.8011408
9.035                0.977271846      -71.908447
9.036                0.977219559     -72.0160172
9.037                0.977167113     -72.1238522
9.038                0.977114509      -72.231953
9.039                0.977061746     -72.3403201
9.04                 0.977008823     -72.4489546
9.041                0.976955741     -72.5578572
9.042                0.976902499     -72.6670287
9.043                0.976849096       -72.77647
9.044                0.976795532     -72.8861819
9.045                0.976741806     -72.9961653
9.046                0.976687919     -73.1064209
9.047                 0.97663387     -73.2169496
9.048                0.976579658     -73.3277523
9.049                0.976525283     -73.4388298
9.05                 0.976470744     -73.5501829
9.051                0.976416042     -73.6618125
9.052                0.976361176     -73.7737194
9.053                0.976306145     -73.8859045
9.054                0.976250949     -73.9983687
9.055                0.976195588     -74.1111127
9.056                0.976140061     -74.2241375
9.057                0.976084368     -74.3374439
9.058                0.976028508     -74.4510328
9.059                0.975972482      -74.564905
9.06                 0.975916288     -74.6790615
9.061                0.975859926      -74.793503
9.062                0.975803396     -74.9082304
9.063                0.975746698     -75.0232447
9.064                0.975689831     -75.1385467
9.065                0.975632795     -75.2541372
9.066                0.975575589     -75.3700173
9.067                0.975518214     -75.4861876
9.068                0.975460667     -75.6026492
9.069                 0.97540295     -75.7194029
9.07                 0.975345062     -75.8364496
9.071                0.975287003     -75.9537902
9.072                0.975228772     -76.0714255
9.073                0.975170368     -76.1893566
9.074                0.975111792     -76.3075842
9.075                0.975053042     -76.4261094
9.076                 0.97499412     -76.5449329
9.077                0.974935024     -76.6640557
9.078                0.974875753     -76.7834786
9.079                0.974816309     -76.9032027
9.08                 0.974756689     -77.0232288
9.081                0.974696895     -77.1435578
9.082                0.974636924     -77.2641907
9.083                0.974576778     -77.3851283
9.084                0.974516456     -77.5063717
9.085                0.974455958     -77.6279216
9.086                0.974395282      -77.749779
9.087                0.974334429     -77.8719449
9.088                0.974273399     -77.9944201
9.089                0.974212191     -78.1172057
9.09                 0.974150804     -78.2403025
9.091                0.974089239     -78.3637114
9.092                0.974027495     -78.4874335
9.093                0.973965572     -78.6114696
9.094                0.973903469     -78.7358208
9.095                0.973841186     -78.8604878
9.096                0.973778723     -78.9854717
9.097                0.973716079     -79.1107734
9.098                0.973653255     -79.2363939
9.099                0.973590249     -79.3623341
9.1                  0.973527062     -79.4885949
9.101                0.973463694     -79.6151774
9.102                0.973400143     -79.7420825
9.103                0.973336409      -79.869311
9.104                0.973272493     -79.9968641
9.105                0.973208394     -80.1247426
9.106                0.973144112     -80.2529475
9.107                0.973079646     -80.3814799
9.108                0.973014996     -80.5103405
9.109                0.972950163     -80.6395305
9.11                 0.972885144     -80.7690507
9.111                0.972819941     -80.8989022
9.112                0.972754553     -81.0290859
9.113                 0.97268898     -81.1596029
9.114                0.972623221      -81.290454
9.115                0.972557277     -81.4216402
9.116                0.972491146     -81.5531626
9.117                0.972424829     -81.6850222
9.118                0.972358326     -81.8172198
9.119                0.972291636     -81.9497565
9.12                 0.972224759     -82.0826333
9.121                0.972157694     -82.2158512
9.122                0.972090442     -82.3494111
9.123                0.972023003      -82.483314
9.124                0.971955375     -82.6175611
9.125                0.971887559     -82.7521531
9.126                0.971819555     -82.8870912
9.127                0.971751363     -83.0223763
9.128                0.971682981     -83.1580094
9.129                 0.97161441     -83.2939916
9.13                 0.971545651     -83.4303238
9.131                0.971476701      -83.567007
9.132                0.971407563     -83.7040423
9.133                0.971338234     -83.8414306
9.134                0.971268716     -83.9791729
9.135                0.971199007     -84.1172704
9.136                0.971129108     -84.2557239
9.137                0.971059019     -84.3945345
9.138                0.970988739     -84.5337032
9.139                0.970918268      -84.673231
9.14                 0.970847606     -84.8131189
9.141                0.970776753      -84.953368
9.142                0.970705709     -85.0939792
9.143                0.970634474     -85.2349536
9.144                0.970563047     -85.3762922
9.145                0.970491429      -85.517996
9.146                0.970419619     -85.6600661
9.147                0.970347617     -85.8025034
9.148                0.970275423      -85.945309
9.149                0.970203038      -86.088484
9.15                  0.97013046     -86.2320292
9.151                 0.97005769     -86.3759459
9.152                0.969984728     -86.5202349
9.153                0.969911574     -86.6648973
9.154                0.969838227     -86.8099342
9.155                0.969764688     -86.9553465
9.156                0.969690956     -87.1011354
9.157                0.969617032     -87.2473018
9.158                0.969542915     -87.3938467
9.159                0.969468606     -87.5407713
9.16                 0.969394104     -87.6880765
9.161                 0.96931941     -87.8357634
9.162                0.969244523     -87.9838329
9.163                0.969169443     -88.1322862
9.164                0.969094171     -88.2811243
9.165                0.969018706     -88.4303481
9.166                0.968943049     -88.5799588
9.167                0.968867199     -88.7299574
9.168                0.968791157     -88.8803449
9.169                0.968714923     -89.0311223
9.17                 0.968638496     -89.1822907
9.171                0.968561876     -89.3338512
9.172                0.968485065     -89.4858047
9.173                0.968408061     -89.6381522
9.174                0.968330866     -89.7908949
9.175                0.968253478     -89.9440338
9.176                0.968175899     -90.0975699
9.177                0.968098128     -90.2515042
9.178                0.968020165     -90.4058378
9.179                0.967942011     -90.5605717
9.18                 0.967863665      -90.715707
9.181                0.967785129     -90.8712446
9.182                0.967706401     -91.0271856
9.183                0.967627483     -91.1835311
9.184                0.967548374     -91.3402821
9.185                0.967469075     -91.4974396
9.186                0.967389585     -91.6550047
9.187                0.967309906     -91.8129784
9.188                0.967230036     -91.9713617
9.189                0.967149977     -92.1301556
9.19                 0.967069729     -92.2893612
9.191                0.966989292     -92.4489795
9.192                0.966908666     -92.6090116
9.193                0.966827852     -92.7694585
9.194                0.966746849     -92.9303211
9.195                0.966665659     -93.0916006
9.196                 0.96658428     -93.2532979
9.197                0.966502715     -93.4154142
9.198                0.966420963     -93.5779503
9.199                0.966339024     -93.7409073
9.2                  0.966256899     -93.9042863
9.201                0.966174588     -94.0680882
9.202                0.966092091     -94.2323141
9.203                 0.96600941     -94.3969651
9.204                0.965926543      -94.562042
9.205                0.965843493     -94.7275459
9.206                0.965760258     -94.8934779
9.207                0.965676841      -95.059839
9.208                 0.96559324     -95.2266301
9.209                0.965509457     -95.3938523
9.21                 0.965425492     -95.5615065
9.211                0.965341345     -95.7295938
9.212                0.965257017     -95.8981152
9.213                0.965172509     -96.0670717
9.214                0.965087821     -96.2364642
9.215                0.965002954     -96.4062938
9.216                0.964917907     -96.5765614
9.217                0.964832683     -96.7472681
9.218                0.964747281     -96.9184148
9.219                0.964661701     -97.0900025
9.22                 0.964575946     -97.2620323
9.221                0.964490014      -97.434505
9.222                0.964403907     -97.6074217
9.223                0.964317626     -97.7807833
9.224                0.964231171     -97.9545908
9.225                0.964144543     -98.1288451
9.226                0.964057742     -98.3035473
9.227                 0.96397077     -98.4786983
9.228                0.963883627     -98.6542991
9.229                0.963796313     -98.8303505
9.23                  0.96370883     -99.0068536
9.231                0.963621178     -99.1838094
9.232                0.963533359     -99.3612186
9.233                0.963445372     -99.5390824
9.234                0.963357219     -99.7174017
9.235                0.963268901     -99.8961772
9.236                0.963180419      -100.07541
9.237                0.963091772     -100.255101
9.238                0.963002963     -100.435252
9.239                0.962913992     -100.615862
9.24                  0.96282486     -100.796933
9.241                0.962735569     -100.978466
9.242                0.962646118     -101.160462
9.243                0.962556509     -101.342922
9.244                0.962466744     -101.525846
9.245                0.962376822     -101.709236
9.246                0.962286745     -101.893092
9.247                0.962196515     -102.077416
9.248                0.962106132     -102.262207
9.249                0.962015597     -102.447468
9.25                 0.961924911     -102.633198
9.251                0.961834076     -102.819399
9.252                0.961743093     -103.006072
9.253                0.961651962     -103.193217
9.254                0.961560686     -103.380836
9.255                0.961469264     -103.568929
9.256                  0.9613777     -103.757496
9.257                0.961285993      -103.94654
9.258                0.961194145      -104.13606
9.259                0.961102157     -104.326057
9.26                  0.96101003     -104.516533
9.261                0.960917767     -104.707487
9.262                0.960825368     -104.898922
9.263                0.960732834     -105.090837
9.264                0.960640168     -105.283234
9.265                 0.96054737     -105.476113
9.266                0.960454441     -105.669474
9.267                0.960361384      -105.86332
9.268                  0.9602682      -106.05765
9.269                 0.96017489     -106.252465
9.27                 0.960081455     -106.447767
9.271                0.959987898     -106.643555
9.272                0.959894219      -106.83983
9.273                0.959800421     -107.036594
9.274                0.959706505     -107.233846
9.275                0.959612473     -107.431588
9.276                0.959518326     -107.629821
9.277                0.959424065     -107.828544
9.278                0.959329694     -108.027759
9.279                0.959235212     -108.227467
9.28                 0.959140623     -108.427667
9.281                0.959045927     -108.628361
9.282                0.958951127      -108.82955
9.283                0.958856225     -109.031233
9.284                0.958761221     -109.233412
9.285                0.958666119     -109.436087
9.286                0.958570919     -109.639259
9.287                0.958475624     -109.842928
9.288                0.958380236     -110.047096
9.289                0.958284757     -110.251762
9.29                 0.958189188     -110.456927
9.291                0.958093532     -110.662592
9.292                 0.95799779     -110.868757
9.293                0.957901965     -111.075423
9.294                0.957806058     -111.282591
9.295                0.957710073      -111.49026
9.296                 0.95761401     -111.698432
9.297                0.957517872     -111.907106
9.298                0.957421662     -112.116284
9.299                0.957325381     -112.325966
9.3                  0.957229031     -112.536153
9.301                0.957132615     -112.746844
9.302                0.957036136      -112.95804
9.303                0.956939594     -113.169742
9.304                0.956842993     -113.381951
9.305                0.956746335     -113.594666
9.306                0.956649623     -113.807887
9.307                0.956552858     -114.021617
9.308                0.956456043     -114.235853
9.309                0.956359181     -114.450598
9.31                 0.956262274     -114.665852
9.311                0.956165324     -114.881614
9.312                0.956068335     -115.097886
9.313                0.955971307     -115.314666
9.314                0.955874245     -115.531957
9.315                0.955777151     -115.749758
9.316                0.955680027     -115.968069
9.317                0.955582876      -116.18689
9.318                  0.9554857     -116.406223
9.319                0.955388503     -116.626066
9.32                 0.955291286     -116.846421
9.321                0.955194054     -117.067287
9.322                0.955096807     -117.288665
9.323                0.954999551     -117.510555
9.324                0.954902286     -117.732957
9.325                0.954805016     -117.955871
9.326                0.954707744     -118.179298
9.327                0.954610473     -118.403237
9.328                0.954513206     -118.627689
9.329                0.954415945     -118.852653
9.33                 0.954318694      -119.07813
9.331                0.954221455      -119.30412
9.332                0.954124232     -119.530623
9.333                0.954027028     -119.757639
9.334                0.953929845     -119.985168
9.335                0.953832688     -120.213209
9.336                0.953735558     -120.441764
9.337                0.953638459     -120.670831
9.338                0.953541395     -120.900412
9.339                0.953444369     -121.130505
9.34                 0.953347383     -121.361111
9.341                0.953250442     -121.592229
9.342                0.953153547      -121.82386
9.343                0.953056704     -122.056004
9.344                0.952959914     -122.288659
9.345                0.952863182     -122.521827
9.346                0.952766511     -122.755506
9.347                0.952669904     -122.989698
9.348                0.952573365     -123.224401
9.349                0.952476897     -123.459614
9.35                 0.952380503     -123.695339
9.351                0.952284188     -123.931575
9.352                0.952187954     -124.168321
9.353                0.952091805     -124.405577
9.354                0.951995746     -124.643343
9.355                0.951899779     -124.881619
9.356                0.951803908     -125.120404
9.357                0.951708137     -125.359697
9.358                0.951612469     -125.599498
9.359                0.951516909     -125.839808
9.36                  0.95142146     -126.080625
9.361                0.951326125     -126.321949
9.362                0.951230909     -126.563779
9.363                0.951135815     -126.806115
9.364                0.951040848     -127.048957
9.365                 0.95094601     -127.292304
9.366                0.950851307     -127.536155
9.367                0.950756741      -127.78051
9.368                0.950662317     -128.025368
9.369                0.950568039     -128.270729
9.37                 0.950473911     -128.516592
9.371                0.950379936     -128.762956
9.372                0.950286119      -129.00982
9.373                0.950192464     -129.257185
9.374                0.950098975     -129.505049
9.375                0.950005655     -129.753411
9.376                 0.94991251      -130.00227
9.377                0.949819543     -130.251627
9.378                0.949726758     -130.501479
9.379                 0.94963416     -130.751827
9.38                 0.949541752     -131.002669
9.381                0.949449539     -131.254005
9.382                0.949357526     -131.505833
9.383                0.949265715     -131.758153
9.384                0.949174113     -132.010964
9.385                0.949082722     -132.264264
9.386                0.948991547     -132.518053
9.387                0.948900593      -132.77233
9.388                0.948809864     -133.027093
9.389                0.948719364     -133.282343
9.39                 0.948629098     -133.538076
9.391                0.948539069     -133.794293
9.392                0.948449283     -134.050993
9.393                0.948359744     -134.308173
9.394                0.948270456     -134.565834
9.395                0.948181424     -134.823973
9.396                0.948092652      -135.08259
