! TOUCHSTONE file generated by CST DESIGN STUDIO
! Date and time: Tue Feb  4 13:38:56 2025
! Project name: C:\Work\MatlabApps\UnitCellOptimizationMatlab\CST\unitcell.cst
! Tree item: Tasks\Sweep1\SPara1\S-Parameters
! Header version: 2024
! Port assignment regex: !\s*Touchstone port\s*([0-9]+)\s*=\s*(CST MWS port|CST DES external port|CST DES block port)\s*(.+)\s* \(\"(.*)\"\)(\s*mode\s*([0-9]+))?.*
! Touchstone port assignment:
! Touchstone port 1 = CST DES external port 1 ("")
# GHz S MA R 50
9                    0.978398463     -72.3124776
9.001                0.978347419     -72.4201306
9.002                 0.97829622     -72.5280479
9.003                0.978244866     -72.6362302
9.004                0.978193356     -72.7446784
9.005                 0.97814169     -72.8533933
9.006                0.978089867     -72.9623757
9.007                0.978037888     -73.0716264
9.008                0.977985751     -73.1811462
9.009                0.977933456     -73.2909361
9.01                 0.977881003     -73.4009967
9.011                0.977828391     -73.5113289
9.012                 0.97777562     -73.6219336
9.013                 0.97772269     -73.7328115
9.014                  0.9776696     -73.8439636
9.015                 0.97761635     -73.9553906
9.016                 0.97756294     -74.0670935
9.017                0.977509368     -74.1790729
9.018                0.977455635     -74.2913299
9.019                 0.97740174     -74.4038651
9.02                 0.977347683     -74.5166795
9.021                0.977293464      -74.629774
9.022                0.977239081     -74.7431493
9.023                0.977184535     -74.8568063
9.024                0.977129826      -74.970746
9.025                0.977074952      -75.084969
9.026                0.977019914     -75.1994764
9.027                0.976964711      -75.314269
9.028                0.976909342     -75.4293475
9.029                0.976853808      -75.544713
9.03                 0.976798108     -75.6603662
9.031                0.976742242     -75.7763081
9.032                0.976686208     -75.8925395
9.033                0.976630008     -76.0090613
9.034                 0.97657364     -76.1258743
9.035                0.976517104     -76.2429795
9.036                0.976460399     -76.3603777
9.037                0.976403526     -76.4780699
9.038                0.976346484     -76.5960568
9.039                0.976289272     -76.7143394
9.04                 0.976231891     -76.8329186
9.041                0.976174339     -76.9517953
9.042                0.976116617     -77.0709704
9.043                0.976058724     -77.1904447
9.044                 0.97600066     -77.3102192
9.045                0.975942424     -77.4302947
9.046                0.975884016     -77.5506722
9.047                0.975825436     -77.6713526
9.048                0.975766683     -77.7923368
9.049                0.975707757     -77.9136256
9.05                 0.975648657     -78.0352201
9.051                0.975589384     -78.1571211
9.052                0.975529937     -78.2793295
9.053                0.975470315     -78.4018463
9.054                0.975410518     -78.5246723
9.055                0.975350547     -78.6478085
9.056                  0.9752904     -78.7712558
9.057                0.975230077     -78.8950152
9.058                0.975169578     -79.0190875
9.059                0.975108902     -79.1434738
9.06                  0.97504805     -79.2681748
9.061                 0.97498702     -79.3931916
9.062                0.974925813     -79.5185251
9.063                0.974864428     -79.6441762
9.064                0.974802866     -79.7701459
9.065                0.974741124     -79.8964351
9.066                0.974679204     -80.0230448
9.067                0.974617105     -80.1499759
9.068                0.974554827     -80.2772292
9.069                0.974492369     -80.4048059
9.07                 0.974429731     -80.5327068
9.071                0.974366913     -80.6609329
9.072                0.974303914     -80.7894852
9.073                0.974240735     -80.9183645
9.074                0.974177374     -81.0475719
9.075                0.974113832     -81.1771083
9.076                0.974050108     -81.3069747
9.077                0.973986203      -81.437172
9.078                0.973922115     -81.5677012
9.079                0.973857844     -81.6985633
9.08                 0.973793391     -81.8297592
9.081                0.973728755     -81.9612899
9.082                0.973663935     -82.0931563
9.083                0.973598932     -82.2253595
9.084                0.973533745     -82.3579004
9.085                0.973468373       -82.49078
9.086                0.973402818     -82.6239993
9.087                0.973337078     -82.7575591
9.088                0.973271153     -82.8914606
9.089                0.973205043     -83.0257047
9.09                 0.973138748     -83.1602924
9.091                0.973072267     -83.2952246
9.092                0.973005601     -83.4305024
9.093                0.972938749     -83.5661268
9.094                 0.97287171     -83.7020986
9.095                0.972804485     -83.8384189
9.096                0.972737074     -83.9750888
9.097                0.972669476     -84.1121091
9.098                0.972601691      -84.249481
9.099                0.972533718     -84.3872053
9.1                  0.972465559      -84.525283
9.101                0.972397212     -84.6637153
9.102                0.972328677      -84.802503
9.103                0.972259954     -84.9416471
9.104                0.972191044     -85.0811488
9.105                0.972121945     -85.2210089
9.106                0.972052658     -85.3612285
9.107                0.971983182     -85.5018085
9.108                0.971913518       -85.64275
9.109                0.971843665      -85.784054
9.11                 0.971773623     -85.9257215
9.111                0.971703392     -86.0677535
9.112                0.971632972      -86.210151
9.113                0.971562362      -86.352915
9.114                0.971491564     -86.4960465
9.115                0.971420576     -86.6395465
9.116                0.971349398     -86.7834161
9.117                0.971278031     -86.9276562
9.118                0.971206474     -87.0722679
9.119                0.971134727     -87.2172522
9.12                  0.97106279     -87.3626101
9.121                0.970990663     -87.5083426
9.122                0.970918346     -87.6544507
9.123                 0.97084584     -87.8009354
9.124                0.970773143     -87.9477978
9.125                0.970700256     -88.0950389
9.126                0.970627179     -88.2426596
9.127                0.970553912     -88.3906611
9.128                0.970480454     -88.5390443
9.129                0.970406806     -88.6878102
9.13                 0.970332968     -88.8369599
9.131                 0.97025894     -88.9864944
9.132                0.970184722     -89.1364147
9.133                0.970110314     -89.2867218
9.134                0.970035715     -89.4374167
9.135                0.969960927     -89.5885005
9.136                0.969885948     -89.7399742
9.137                0.969810779     -89.8918387
9.138                0.969735421     -90.0440952
9.139                0.969659872     -90.1967446
9.14                 0.969584134      -90.349788
9.141                0.969508206     -90.5032264
9.142                0.969432089     -90.6570608
9.143                0.969355782     -90.8112921
9.144                0.969279285     -90.9659215
9.145                  0.9692026       -91.12095
9.146                0.969125725     -91.2763785
9.147                0.969048662     -91.4322082
9.148                0.968971409     -91.5884399
9.149                0.968893968     -91.7450748
9.15                 0.968816338     -91.9021138
9.151                 0.96873852     -92.0595579
9.152                0.968660514     -92.2174082
9.153                 0.96858232     -92.3756657
9.154                0.968503939     -92.5343314
9.155                 0.96842537     -92.6934063
9.156                0.968346613     -92.8528915
9.157                 0.96826767     -93.0127878
9.158                0.968188539     -93.1730965
9.159                0.968109223     -93.3338183
9.16                  0.96802972     -93.4949544
9.161                0.967950031     -93.6565058
9.162                0.967870156     -93.8184735
9.163                0.967790096     -93.9808585
9.164                0.967709851     -94.1436617
9.165                0.967629421     -94.3068842
9.166                0.967548807      -94.470527
9.167                0.967468009      -94.634591
9.168                0.967387027     -94.7990774
9.169                0.967305862      -94.963987
9.17                 0.967224514     -95.1293209
9.171                0.967142983     -95.2950801
9.172                0.967061271     -95.4612655
9.173                0.966979376     -95.6278781
9.174                  0.9668973      -95.794919
9.175                0.966815044     -95.9623891
9.176                0.966732607     -96.1302894
9.177                 0.96664999     -96.2986208
9.178                0.966567194     -96.4673845
9.179                0.966484219     -96.6365812
9.18                 0.966401066     -96.8062121
9.181                0.966317734      -96.976278
9.182                0.966234225       -97.14678
9.183                 0.96615054      -97.317719
9.184                0.966066678     -97.4890959
9.185                0.965982641     -97.6609118
9.186                0.965898428     -97.8331676
9.187                0.965814042     -98.0058643
9.188                0.965729481     -98.1790028
9.189                0.965644747      -98.352584
9.19                  0.96555984     -98.5266089
9.191                0.965474762     -98.7010785
9.192                0.965389512     -98.8759937
9.193                0.965304092     -99.0513554
9.194                0.965218502     -99.2271645
9.195                0.965132743     -99.4034221
9.196                0.965046816     -99.5801289
9.197                0.964960721      -99.757286
9.198                0.964874459     -99.9348943
9.199                0.964788031     -100.112955
9.2                  0.964701438     -100.291468
9.201                0.964614681     -100.470435
9.202                0.964527759     -100.649857
9.203                0.964440675     -100.829735
9.204                 0.96435343      -101.01007
9.205                0.964266023     -101.190861
9.206                0.964178456     -101.372112
9.207                 0.96409073     -101.553821
9.208                0.964002845     -101.735991
9.209                0.963914804     -101.918622
9.21                 0.963826606     -102.101714
9.211                0.963738252      -102.28527
9.212                0.963649744     -102.469289
9.213                0.963561083     -102.653772
9.214                 0.96347227     -102.838721
9.215                0.963383305     -103.024136
9.216                 0.96329419     -103.210018
9.217                0.963204926     -103.396367
9.218                0.963115514     -103.583186
9.219                0.963025955     -103.770474
9.22                 0.962936251     -103.958232
9.221                0.962846402     -104.146461
9.222                0.962756409     -104.335163
9.223                0.962666274     -104.524337
9.224                0.962575999     -104.713984
9.225                0.962485583     -104.904106
9.226                 0.96239503     -105.094703
9.227                0.962304339     -105.285776
9.228                0.962213512     -105.477326
9.229                 0.96212255     -105.669353
9.23                 0.962031456     -105.861858
9.231                0.961940229     -106.054842
9.232                0.961848872     -106.248305
9.233                0.961757386     -106.442249
9.234                0.961665773     -106.636675
9.235                0.961574033     -106.831581
9.236                0.961482168     -107.026971
9.237                 0.96139018     -107.222844
9.238                 0.96129807     -107.419201
9.239                 0.96120584     -107.616042
9.24                 0.961113491     -107.813369
9.241                0.961021025     -108.011181
9.242                0.960928444     -108.209481
9.243                0.960835749     -108.408267
9.244                0.960742941     -108.607542
9.245                0.960650022     -108.807305
9.246                0.960556995     -109.007558
9.247                 0.96046386     -109.208301
9.248                 0.96037062     -109.409534
9.249                0.960277276     -109.611258
9.25                  0.96018383     -109.813473
9.251                0.960090283     -110.016181
9.252                0.959996638     -110.219382
9.253                0.959902897     -110.423077
9.254                 0.95980906     -110.627265
9.255                0.959715131     -110.831948
9.256                0.959621111     -111.037126
9.257                0.959527001       -111.2428
9.258                0.959432805      -111.44897
9.259                0.959338523     -111.655637
9.26                 0.959244158     -111.862801
9.261                0.959149712     -112.070462
9.262                0.959055187     -112.278622
9.263                0.958960584      -112.48728
9.264                0.958865907     -112.696437
9.265                0.958771157     -112.906094
9.266                0.958676336     -113.116251
9.267                0.958581447     -113.326908
9.268                0.958486491     -113.538066
9.269                0.958391471     -113.749726
9.27                 0.958296389     -113.961887
9.271                0.958201247      -114.17455
9.272                0.958106048     -114.387715
9.273                0.958010794     -114.601383
9.274                0.957915487     -114.815554
9.275                 0.95782013     -115.030229
9.276                0.957724725     -115.245407
9.277                0.957629274      -115.46109
9.278                 0.95753378     -115.677276
9.279                0.957438245     -115.893968
9.28                 0.957342672     -116.111164
9.281                0.957247063     -116.328865
9.282                0.957151421     -116.547072
9.283                0.957055749     -116.765785
9.284                0.956960048     -116.985003
9.285                0.956864322     -117.204728
9.286                0.956768573     -117.424958
9.287                0.956672804     -117.645695
9.288                0.956577017     -117.866939
9.289                0.956481215     -118.088689
9.29                 0.956385402     -118.310947
9.291                0.956289579     -118.533711
9.292                 0.95619375     -118.756983
9.293                0.956097917     -118.980761
9.294                0.956002083     -119.205047
9.295                0.955906251      -119.42984
9.296                0.955810424     -119.655141
9.297                0.955714604     -119.880949
9.298                0.955618796     -120.107265
9.299                0.955523001     -120.334088
9.3                  0.955427223     -120.561418
9.301                0.955331464     -120.789256
9.302                0.955235729     -121.017601
9.303                0.955140019     -121.246453
9.304                0.955044338     -121.475813
9.305                0.954948689      -121.70568
9.306                0.954853075     -121.936053
9.307                0.954757499     -122.166934
9.308                0.954661965     -122.398321
9.309                0.954566476     -122.630215
9.31                 0.954471034     -122.862615
9.311                0.954375644     -123.095522
9.312                0.954280308     -123.328934
9.313                 0.95418503     -123.562852
9.314                0.954089814     -123.797276
9.315                0.953994661     -124.032205
9.316                0.953899577     -124.267639
9.317                0.953804564     -124.503577
9.318                0.953709626      -124.74002
9.319                0.953614766     -124.976967
9.32                 0.953519987     -125.214418
9.321                0.953425294     -125.452371
9.322                 0.95333069     -125.690828
9.323                0.953236178     -125.929787
9.324                0.953141762     -126.169248
9.325                0.953047445     -126.409211
9.326                0.952953232     -126.649674
9.327                0.952859125     -126.890638
9.328                0.952765128     -127.132103
9.329                0.952671246     -127.374067
9.33                 0.952577482      -127.61653
9.331                0.952483839     -127.859491
9.332                0.952390322      -128.10295
9.333                0.952296934     -128.346907
9.334                0.952203679      -128.59136
9.335                0.952110561     -128.836309
9.336                0.952017583     -129.081753
9.337                 0.95192475     -129.327692
9.338                0.951832065     -129.574125
9.339                0.951739533     -129.821051
9.34                 0.951647157      -130.06847
9.341                0.951554941      -130.31638
9.342                0.951462889      -130.56478
9.343                0.951371006     -130.813671
9.344                0.951279295     -131.063051
9.345                 0.95118776      -131.31292
9.346                0.951096406     -131.563276
9.347                0.951005236     -131.814118
9.348                0.950914255     -132.065446
9.349                0.950823466     -132.317259
9.35                 0.950732874     -132.569555
9.351                0.950642483     -132.822334
9.352                0.950552297     -133.075594
9.353                 0.95046232     -133.329336
9.354                0.950372557     -133.583557
9.355                0.950283012     -133.838256
9.356                0.950193688     -134.093433
9.357                0.950104591     -134.349086
9.358                0.950015724     -134.605214
9.359                0.949927092     -134.861816
9.36                 0.949838699      -135.11889
9.361                0.949750549     -135.376437
9.362                0.949662647     -135.634453
9.363                0.949574998     -135.892939
9.364                0.949487604     -136.151892
9.365                0.949400472     -136.411311
9.366                0.949313604     -136.671196
9.367                0.949227006     -136.931544
9.368                0.949140683     -137.192355
9.369                0.949054637     -137.453627
9.37                 0.948968874     -137.715357
9.371                0.948883399     -137.977546
9.372                0.948798215     -138.240192
9.373                0.948713328     -138.503292
9.374                0.948628741     -138.766846
9.375                 0.94854446     -139.030852
9.376                0.948460488     -139.295308
9.377                 0.94837683     -139.560213
9.378                0.948293491     -139.825565
9.379                0.948210475     -140.091363
9.38                 0.948127786     -140.357604
9.381                 0.94804543     -140.624287
9.382                0.947963411     -140.891411
9.383                0.947881733     -141.158973
9.384                0.947800401     -141.426973
9.385                0.947719419     -141.695407
9.386                0.947638792     -141.964274
9.387                0.947558525     -142.233572
9.388                0.947478622     -142.503301
9.389                0.947399087     -142.773456
9.39                 0.947319926     -143.044037
9.391                0.947241142     -143.315042
9.392                0.947162741     -143.586469
9.393                0.947084727     -143.858315
9.394                0.947007104     -144.130579
9.395                0.946929877     -144.403259
9.396                0.946853051     -144.676352
