! TOUCHSTONE file generated by CST DESIGN STUDIO
! Date and time: Tue Feb  4 13:38:54 2025
! Project name: C:\Work\MatlabApps\UnitCellOptimizationMatlab\CST\unitcell.cst
! Tree item: Tasks\Sweep1\SPara1\S-Parameters
! Header version: 2024
! Port assignment regex: !\s*Touchstone port\s*([0-9]+)\s*=\s*(CST MWS port|CST DES external port|CST DES block port)\s*(.+)\s* \(\"(.*)\"\)(\s*mode\s*([0-9]+))?.*
! Touchstone port assignment:
! Touchstone port 1 = CST DES external port 1 ("")
# GHz S MA R 50
9                    0.978109251     -74.2711516
9.001                0.978056321     -74.3833359
9.002                0.978003231     -74.4957978
9.003                 0.97794998     -74.6085382
9.004                0.977896568      -74.721558
9.005                0.977842994     -74.8348578
9.006                0.977789258     -74.9484387
9.007                 0.97773536     -75.0623015
9.008                0.977681299      -75.176447
9.009                0.977627075      -75.290876
9.01                 0.977572687     -75.4055895
9.011                0.977518135     -75.5205882
9.012                0.977463419     -75.6358732
9.013                0.977408538     -75.7514451
9.014                0.977353492      -75.867305
9.015                 0.97729828     -75.9834536
9.016                0.977242903     -76.0998918
9.017                0.977187359     -76.2166206
9.018                0.977131649     -76.3336407
9.019                0.977075772     -76.4509531
9.02                 0.977019727     -76.5685587
9.021                0.976963515     -76.6864582
9.022                0.976907134     -76.8046527
9.023                0.976850585      -76.923143
9.024                0.976793868     -77.0419299
9.025                 0.97673698     -77.1610144
9.026                0.976679924     -77.2803974
9.027                0.976622697     -77.4000798
9.028                  0.9765653     -77.5200624
9.029                0.976507732     -77.6403462
9.03                 0.976449994      -77.760932
9.031                0.976392084     -77.8818208
9.032                0.976334002     -78.0030134
9.033                0.976275748     -78.1245109
9.034                0.976217321      -78.246314
9.035                0.976158722     -78.3684237
9.036                 0.97609995     -78.4908409
9.037                0.976041004     -78.6135665
9.038                0.975981884     -78.7366015
9.039                 0.97592259     -78.8599467
9.04                 0.975863122     -78.9836032
9.041                0.975803478     -79.1075717
9.042                 0.97574366     -79.2318532
9.043                0.975683666     -79.3564487
9.044                0.975623496      -79.481359
9.045                 0.97556315     -79.6065852
9.046                0.975502628     -79.7321281
9.047                0.975441928     -79.8579887
9.048                0.975381052     -79.9841679
9.049                0.975319998     -80.1106667
9.05                 0.975258766     -80.2374859
9.051                0.975197356     -80.3646265
9.052                0.975135768     -80.4920896
9.053                0.975074001     -80.6198759
9.054                0.975012055     -80.7479865
9.055                 0.97494993     -80.8764224
9.056                0.974887625     -81.0051843
9.057                 0.97482514     -81.1342734
9.058                0.974762475     -81.2636906
9.059                 0.97469963     -81.3934368
9.06                 0.974636604     -81.5235129
9.061                0.974573397       -81.65392
9.062                0.974510008      -81.784659
9.063                0.974446438     -81.9157309
9.064                0.974382686     -82.0471365
9.065                0.974318752      -82.178877
9.066                0.974254636     -82.3109532
9.067                0.974190337     -82.4433661
9.068                0.974125855     -82.5761167
9.069                 0.97406119      -82.709206
9.07                 0.973996341     -82.8426349
9.071                0.973931309     -82.9764044
9.072                0.973866093     -83.1105154
9.073                0.973800693     -83.2449691
9.074                0.973735109     -83.3797662
9.075                 0.97366934     -83.5149079
9.076                0.973603386     -83.6503951
9.077                0.973537247     -83.7862288
9.078                0.973470923     -83.9224099
9.079                0.973404413     -84.0589395
9.08                 0.973337718     -84.1958185
9.081                0.973270837     -84.3330479
9.082                 0.97320377     -84.4706287
9.083                0.973136516     -84.6085619
9.084                0.973069076     -84.7468485
9.085                 0.97300145     -84.8854895
9.086                0.972933637     -85.0244859
9.087                0.972865636     -85.1638386
9.088                0.972797449     -85.3035487
9.089                0.972729075     -85.4436172
9.09                 0.972660512      -85.584045
9.091                0.972591763     -85.7248332
9.092                0.972522825     -85.8659827
9.093                  0.9724537     -86.0074946
9.094                0.972384387     -86.1493698
9.095                0.972314885     -86.2916094
9.096                0.972245196     -86.4342144
9.097                0.972175317     -86.5771857
9.098                0.972105251     -86.7205244
9.099                0.972034996     -86.8642315
9.1                  0.971964552     -87.0083079
9.101                0.971893919     -87.1527548
9.102                0.971823097      -87.297573
9.103                0.971752087     -87.4427637
9.104                0.971680887     -87.5883278
9.105                0.971609498     -87.7342663
9.106                 0.97153792     -87.8805802
9.107                0.971466153     -88.0272706
9.108                0.971394197     -88.1743384
9.109                0.971322051     -88.3217847
9.11                 0.971249716     -88.4696105
9.111                0.971177192     -88.6178167
9.112                0.971104478     -88.7664045
9.113                0.971031575     -88.9153748
9.114                0.970958482     -89.0647286
9.115                  0.9708852      -89.214467
9.116                0.970811728     -89.3645909
9.117                0.970738067     -89.5151014
9.118                0.970664217     -89.6659995
9.119                0.970590178     -89.8172862
9.12                 0.970515949     -89.9689625
9.121                0.970441531     -90.1210294
9.122                0.970366924     -90.2734879
9.123                0.970292127     -90.4263391
9.124                0.970217142      -90.579584
9.125                0.970141968     -90.7332236
9.126                0.970066604     -90.8872588
9.127                0.969991052     -91.0416908
9.128                0.969915312     -91.1965204
9.129                0.969839383     -91.3517489
9.13                 0.969763265      -91.507377
9.131                0.969686959     -91.6634059
9.132                0.969610465     -91.8198366
9.133                0.969533783       -91.97667
9.134                0.969456913     -92.1339072
9.135                0.969379856     -92.2915492
9.136                0.969302611     -92.4495971
9.137                0.969225179     -92.6080517
9.138                 0.96914756     -92.7669141
9.139                0.969069754     -92.9261854
9.14                 0.968991761     -93.0858665
9.141                0.968913582     -93.2459584
9.142                0.968835216     -93.4064622
9.143                0.968756665     -93.5673787
9.144                0.968677928     -93.7287092
9.145                0.968599006     -93.8904544
9.146                0.968519898     -94.0526155
9.147                0.968440606     -94.2151934
9.148                0.968361129     -94.3781892
9.149                0.968281469     -94.5416037
9.15                 0.968201624     -94.7054381
9.151                0.968121596     -94.8696933
9.152                0.968041384     -95.0343703
9.153                 0.96796099       -95.19947
9.154                0.967880413     -95.3649936
9.155                0.967799655     -95.5309418
9.156                0.967718715     -95.6973158
9.157                0.967637593     -95.8641166
9.158                0.967556291      -96.031345
9.159                0.967474808     -96.1990021
9.16                 0.967393145     -96.3670888
9.161                0.967311303     -96.5356062
9.162                0.967229282     -96.7045551
9.163                0.967147083     -96.8739366
9.164                0.967064705     -97.0437516
9.165                 0.96698215     -97.2140012
9.166                0.966899418     -97.3846861
9.167                0.966816509     -97.5558075
9.168                0.966733425     -97.7273662
9.169                0.966650165     -97.8993632
9.17                 0.966566731     -98.0717995
9.171                0.966483122      -98.244676
9.172                 0.96639934     -98.4179937
9.173                0.966315385     -98.5917534
9.174                0.966231258     -98.7659562
9.175                0.966146959     -98.9406029
9.176                0.966062489     -99.1156946
9.177                0.965977849     -99.2912321
9.178                0.965893039     -99.4672163
9.179                 0.96580806     -99.6436482
9.18                 0.965722913     -99.8205287
9.181                0.965637599     -99.9978587
9.182                0.965552118     -100.175639
9.183                0.965466471     -100.353871
9.184                0.965380659     -100.532555
9.185                0.965294682     -100.711692
9.186                0.965208543     -100.891283
9.187                 0.96512224     -101.071329
9.188                0.965035776     -101.251831
9.189                 0.96494915     -101.432789
9.19                 0.964862365     -101.614206
9.191                 0.96477542      -101.79608
9.192                0.964688317     -101.978414
9.193                0.964601057     -102.161208
9.194                0.964513641     -102.344463
9.195                0.964426069      -102.52818
9.196                0.964338342     -102.712359
9.197                0.964250463     -102.897002
9.198                 0.96416243      -103.08211
9.199                0.964074247     -103.267683
9.2                  0.963985913     -103.453722
9.201                 0.96389743     -103.640228
9.202                0.963808798     -103.827201
9.203                 0.96372002     -104.014643
9.204                0.963631095     -104.202555
9.205                0.963542026     -104.390936
9.206                0.963452813     -104.579789
9.207                0.963363458     -104.769113
9.208                0.963273962     -104.958909
9.209                0.963184325     -105.149179
9.21                  0.96309455     -105.339923
9.211                0.963004637     -105.531142
9.212                0.962914588     -105.722837
9.213                0.962824404     -105.915007
9.214                0.962734086     -106.107655
9.215                0.962643637     -106.300781
9.216                0.962553056     -106.494385
9.217                0.962462345     -106.688469
9.218                0.962371507     -106.883032
9.219                0.962280541     -107.078076
9.22                 0.962189451     -107.273601
9.221                0.962098236     -107.469609
9.222                0.962006899     -107.666099
9.223                0.961915441     -107.863073
9.224                0.961823864     -108.060531
9.225                0.961732169     -108.258474
9.226                0.961640358     -108.456902
9.227                0.961548432     -108.655816
9.228                0.961456393     -108.855217
9.229                0.961364243     -109.055105
9.23                 0.961271983     -109.255481
9.231                0.961179614     -109.456346
9.232                 0.96108714       -109.6577
9.233                 0.96099456     -109.859544
9.234                0.960901878     -110.061878
9.235                0.960809094     -110.264703
9.236                0.960716211      -110.46802
9.237                 0.96062323     -110.671829
9.238                0.960530154      -110.87613
9.239                0.960436983     -111.080925
9.24                 0.960343721     -111.286213
9.241                0.960250368     -111.491995
9.242                0.960156927     -111.698272
9.243                  0.9600634     -111.905045
9.244                0.959969788     -112.112313
9.245                0.959876094     -112.320077
9.246                 0.95978232     -112.528338
9.247                0.959688467     -112.737096
9.248                0.959594538     -112.946352
9.249                0.959500534     -113.156105
9.25                 0.959406459     -113.366357
9.251                0.959312314     -113.577108
9.252                0.959218101     -113.788358
9.253                0.959123822     -114.000108
9.254                 0.95902948     -114.212358
9.255                0.958935076     -114.425108
9.256                0.958840614     -114.638359
9.257                0.958746095     -114.852111
9.258                0.958651522     -115.066365
9.259                0.958556896      -115.28112
9.26                 0.958462221     -115.496377
9.261                0.958367498     -115.712136
9.262                0.958272731     -115.928399
9.263                0.958177921     -116.145164
9.264                0.958083071     -116.362432
9.265                0.957988183     -116.580204
9.266                 0.95789326     -116.798479
9.267                0.957798305     -117.017258
9.268                0.957703319     -117.236541
9.269                0.957608306     -117.456329
9.27                 0.957513268     -117.676621
9.271                0.957418208     -117.897417
9.272                0.957323128     -118.118718
9.273                0.957228032     -118.340524
9.274                0.957132921     -118.562835
9.275                0.957037798     -118.785652
9.276                0.956942667     -119.008973
9.277                0.956847529     -119.232799
9.278                0.956752389     -119.457131
9.279                0.956657248     -119.681969
9.28                 0.956562109     -119.907311
9.281                0.956466976      -120.13316
9.282                0.956371851     -120.359513
9.283                0.956276737     -120.586372
9.284                0.956181637     -120.813737
9.285                0.956086554     -121.041606
9.286                0.955991491     -121.269981
9.287                0.955896451     -121.498862
9.288                0.955801437     -121.728247
9.289                0.955706453     -121.958137
9.29                   0.9556115     -122.188532
9.291                0.955516583     -122.419432
9.292                0.955421705     -122.650837
9.293                0.955326868     -122.882746
9.294                0.955232076     -123.115159
9.295                0.955137333     -123.348076
9.296                 0.95504264     -123.581497
9.297                0.954948002     -123.815421
9.298                0.954853423     -124.049849
9.299                0.954758904     -124.284779
9.3                   0.95466445     -124.520212
9.301                0.954570064     -124.756148
9.302                0.954475749     -124.992586
9.303                0.954381509     -125.229525
9.304                0.954287347     -125.466966
9.305                0.954193267     -125.704907
9.306                0.954099272     -125.943349
9.307                0.954005365     -126.182291
9.308                0.953911551     -126.421733
9.309                0.953817832     -126.661674
9.31                 0.953724213     -126.902113
9.311                0.953630697     -127.143051
9.312                0.953537287     -127.384486
9.313                0.953443987     -127.626419
9.314                0.953350801     -127.868848
9.315                0.953257733     -128.111773
9.316                0.953164786     -128.355193
9.317                0.953071963     -128.599108
9.318                 0.95297927     -128.843517
9.319                0.952886709      -129.08842
9.32                 0.952794285     -129.333815
9.321                   0.952702     -129.579702
9.322                 0.95260986     -129.826081
9.323                0.952517867      -130.07295
9.324                0.952426026     -130.320309
9.325                0.952334341     -130.568157
9.326                0.952242815     -130.816493
9.327                0.952151453     -131.065316
9.328                0.952060258     -131.314626
9.329                0.951969235     -131.564422
9.33                 0.951878387     -131.814702
9.331                0.951787719     -132.065466
9.332                0.951697234     -132.316713
9.333                0.951606936     -132.568442
9.334                0.951516831     -132.820652
9.335                0.951426921     -133.073342
9.336                0.951337211     -133.326511
9.337                0.951247705     -133.580158
9.338                0.951158407     -133.834281
9.339                0.951069321      -134.08888
9.34                 0.950980452     -134.343954
9.341                0.950891804     -134.599501
9.342                 0.95080338      -134.85552
9.343                0.950715185      -135.11201
9.344                0.950627224      -135.36897
9.345                0.950539501     -135.626399
9.346                0.950452019     -135.884295
9.347                0.950364784     -136.142658
9.348                0.950277799     -136.401485
9.349                0.950191068     -136.660775
9.35                 0.950104597     -136.920528
9.351                 0.95001839     -137.180741
9.352                 0.94993245     -137.441414
9.353                0.949846782     -137.702545
9.354                0.949761391     -137.964132
9.355                 0.94967628     -138.226174
9.356                0.949591455     -138.488669
9.357                 0.94950692     -138.751617
9.358                0.949422679     -139.015015
9.359                0.949338736     -139.278862
9.36                 0.949255096     -139.543156
9.361                0.949171764     -139.807896
9.362                0.949088743      -140.07308
9.363                0.949006039     -140.338706
9.364                0.948923656     -140.604773
9.365                0.948841597     -140.871279
9.366                0.948759869     -141.138223
9.367                0.948678474     -141.405601
9.368                0.948597419     -141.673414
9.369                0.948516706     -141.941658
9.37                 0.948436341     -142.210332
9.371                0.948356329     -142.479435
9.372                0.948276673     -142.748964
9.373                0.948197378     -143.018917
9.374                0.948118448     -143.289293
9.375                0.948039889     -143.560089
9.376                0.947961705     -143.831304
9.377                  0.9478839     -144.102935
9.378                0.947806478     -144.374981
9.379                0.947729445     -144.647439
9.38                 0.947652804     -144.920307
9.381                 0.94757656     -145.193584
9.382                0.947500718     -145.467267
9.383                0.947425283     -145.741354
9.384                0.947350258     -146.015842
9.385                0.947275648     -146.290731
9.386                0.947201458     -146.566016
9.387                0.947127692     -146.841697
9.388                0.947054354      -147.11777
9.389                 0.94698145     -147.394234
9.39                 0.946908983     -147.671086
9.391                0.946836958     -147.948324
9.392                 0.94676538     -148.225945
9.393                0.946694253     -148.503947
9.394                 0.94662358     -148.782328
9.395                0.946553368     -149.061086
9.396                 0.94648362     -149.340216
