! TOUCHSTONE file generated by CST DESIGN STUDIO
! Date and time: Tue Feb  4 13:41:00 2025
! Project name: C:\Work\MatlabApps\UnitCellOptimizationMatlab\CST\unitcell.cst
! Tree item: Tasks\Sweep1\SPara1\S-Parameters
! Header version: 2024
! Port assignment regex: !\s*Touchstone port\s*([0-9]+)\s*=\s*(CST MWS port|CST DES external port|CST DES block port)\s*(.+)\s* \(\"(.*)\"\)(\s*mode\s*([0-9]+))?.*
! Touchstone port assignment:
! Touchstone port 1 = CST DES external port 1 ("")
# GHz S MA R 50
9                     0.89509052     -93.1631926
9.001                0.894782465     -93.3463881
9.002                0.894473319      -93.530145
9.003                0.894163083      -93.714465
9.004                0.893851755     -93.8993498
9.005                0.893539335     -94.0848012
9.006                0.893225822     -94.2708208
9.007                0.892911218     -94.4574102
9.008                 0.89259552     -94.6445713
9.009                0.892278731     -94.8323057
9.01                 0.891960848      -95.020615
9.011                0.891641872     -95.2095011
9.012                0.891321804     -95.3989655
9.013                0.891000644       -95.58901
9.014                0.890678391     -95.7796362
9.015                0.890355047     -95.9708459
9.016                 0.89003061     -96.1626407
9.017                0.889705083     -96.3550224
9.018                0.889378465     -96.5479925
9.019                0.889050756     -96.7415528
9.02                 0.888721959      -96.935705
9.021                0.888392072     -97.1304506
9.022                0.888061098     -97.3257915
9.023                0.887729037     -97.5217293
9.024                0.887395889     -97.7182656
9.025                0.887061657     -97.9154021
9.026                 0.88672634     -98.1131405
9.027                0.886389941     -98.3114824
9.028                 0.88605246     -98.5104294
9.029                0.885713899     -98.7099834
9.03                 0.885374259     -98.9101458
9.031                0.885033542     -99.1109183
9.032                 0.88469175     -99.3123026
9.033                0.884348884     -99.5143003
9.034                0.884004945      -99.716913
9.035                0.883659936     -99.9201424
9.036                0.883313859      -100.12399
9.037                0.882966716     -100.328458
9.038                0.882618509     -100.533547
9.039                 0.88226924     -100.739259
9.04                 0.881918911     -100.945596
9.041                0.881567525     -101.152559
9.042                0.881215085     -101.360151
9.043                0.880861592     -101.568372
9.044                0.880507051     -101.777223
9.045                0.880151463     -101.986708
9.046                0.879794831     -102.196827
9.047                0.879437159     -102.407581
9.048                 0.87907845     -102.618973
9.049                0.878718706     -102.831004
9.05                 0.878357932     -103.043676
9.051                 0.87799613     -103.256989
9.052                0.877633305     -103.470946
9.053                0.877269459     -103.685548
9.054                0.876904597     -103.900797
9.055                0.876538723     -104.116693
9.056                 0.87617184      -104.33324
9.057                0.875803952     -104.550437
9.058                0.875435065     -104.768287
9.059                0.875065181     -104.986791
9.06                 0.874694306      -105.20595
9.061                0.874322444     -105.425766
9.062                  0.8739496     -105.646241
9.063                0.873575779     -105.867375
9.064                0.873200985     -106.089171
9.065                0.872825224     -106.311629
9.066                  0.8724485     -106.534752
9.067                 0.87207082      -106.75854
9.068                0.871692188     -106.982995
9.069                 0.87131261     -107.208118
9.07                 0.870932092      -107.43391
9.071                0.870550639     -107.660374
9.072                0.870168258     -107.887509
9.073                0.869784955     -108.115319
9.074                0.869400735     -108.343803
9.075                0.869015605     -108.572964
9.076                0.868629572     -108.802802
9.077                0.868242642     -109.033319
9.078                0.867854822     -109.264516
9.079                0.867466119     -109.496394
9.08                 0.867076539     -109.728955
9.081                0.866686091       -109.9622
9.082                 0.86629478     -110.196129
9.083                0.865902615     -110.430745
9.084                0.865509604     -110.666048
9.085                0.865115754      -110.90204
9.086                0.864721072     -111.138721
9.087                0.864325568     -111.376094
9.088                0.863929248     -111.614158
9.089                0.863532122     -111.852915
9.09                 0.863134198     -112.092367
9.091                0.862735484     -112.332513
9.092                 0.86233599     -112.573356
9.093                0.861935723     -112.814897
9.094                0.861534694     -113.057135
9.095                0.861132912     -113.300073
9.096                0.860730385     -113.543711
9.097                0.860327124     -113.788051
9.098                0.859923137     -114.033093
9.099                0.859518436     -114.278838
9.1                   0.85911303     -114.525287
9.101                0.858706929     -114.772441
9.102                0.858300143     -115.020301
9.103                0.857892683     -115.268867
9.104                 0.85748456     -115.518141
9.105                0.857075784     -115.768124
9.106                0.856666367     -116.018815
9.107                 0.85625632     -116.270217
9.108                0.855845653     -116.522329
9.109                0.855434379     -116.775152
9.11                 0.855022508     -117.028688
9.111                0.854610054     -117.282936
9.112                0.854197027     -117.537898
9.113                0.853783441     -117.793574
9.114                0.853369306     -118.049964
9.115                0.852954637      -118.30707
9.116                0.852539445     -118.564891
9.117                0.852123743     -118.823429
9.118                0.851707545     -119.082684
9.119                0.851290863     -119.342656
9.12                  0.85087371     -119.603346
9.121                0.850456101     -119.864754
9.122                 0.85003805     -120.126881
9.123                0.849619569     -120.389726
9.124                0.849200673     -120.653292
9.125                0.848781376     -120.917577
9.126                0.848361692     -121.182581
9.127                0.847941637     -121.448307
9.128                0.847521225     -121.714752
9.129                 0.84710047     -121.981919
9.13                 0.846679388     -122.249806
9.131                0.846257994     -122.518415
9.132                0.845836304     -122.787745
9.133                0.845414333     -123.057796
9.134                0.844992097     -123.328569
9.135                0.844569612     -123.600063
9.136                0.844146894     -123.872278
9.137                0.843723959     -124.145215
9.138                0.843300825     -124.418873
9.139                0.842877507     -124.693253
9.14                 0.842454022     -124.968353
9.141                0.842030388     -125.244175
9.142                0.841606621     -125.520718
9.143                0.841182739     -125.797981
9.144                 0.84075876     -126.075964
9.145                0.840334702     -126.354668
9.146                0.839910581     -126.634091
9.147                0.839486417     -126.914233
9.148                0.839062227     -127.195095
9.149                 0.83863803     -127.476675
9.15                 0.838213845     -127.758973
9.151                 0.83778969     -128.041989
9.152                0.837365584     -128.325722
9.153                0.836941546     -128.610171
9.154                0.836517596     -128.895336
9.155                0.836093753     -129.181216
9.156                0.835670036     -129.467811
9.157                0.835246466      -129.75512
9.158                0.834823062     -130.043141
9.159                0.834399845     -130.331875
9.16                 0.833976834      -130.62132
9.161                 0.83355405     -130.911476
9.162                0.833131513     -131.202341
9.163                0.832709245     -131.493915
9.164                0.832287267     -131.786196
9.165                0.831865598     -132.079184
9.166                0.831444261     -132.372877
9.167                0.831023277     -132.667275
9.168                0.830602668     -132.962376
9.169                0.830182454     -133.258178
9.17                 0.829762659     -133.554682
9.171                0.829343303     -133.851884
9.172                0.828924409     -134.149785
9.173                   0.828506     -134.448382
9.174                0.828088097     -134.747674
9.175                0.827670723      -135.04766
9.176                0.827253902     -135.348339
9.177                0.826837655     -135.649707
9.178                0.826422005     -135.951765
9.179                0.826006977      -136.25451
9.18                 0.825592592     -136.557941
9.181                0.825178875     -136.862056
9.182                0.824765849     -137.166852
9.183                0.824353537     -137.472329
9.184                0.823941963     -137.778484
9.185                0.823531151     -138.085316
9.186                0.823121125     -138.392822
9.187                0.822711909        -138.701
9.188                0.822303527     -139.009849
9.189                0.821896004     -139.319366
9.19                 0.821489364     -139.629548
9.191                0.821083631     -139.940395
9.192                0.820678831     -140.251903
9.193                0.820274987      -140.56407
9.194                0.819872124     -140.876894
9.195                0.819470269     -141.190372
9.196                0.819069444     -141.504502
9.197                0.818669677     -141.819281
9.198                0.818270991     -142.134707
9.199                0.817873412     -142.450777
9.2                  0.817476965     -142.767488
9.201                0.817081676     -143.084838
9.202                 0.81668757     -143.402825
9.203                0.816294673     -143.721444
9.204                 0.81590301     -144.040693
9.205                0.815512607      -144.36057
9.206                 0.81512349     -144.681071
9.207                0.814735684     -145.002193
9.208                0.814349216     -145.323933
9.209                0.813964111     -145.646288
9.21                 0.813580395     -145.969256
9.211                0.813198094     -146.292831
9.212                0.812817234     -146.617012
9.213                 0.81243784     -146.941795
9.214                 0.81205994     -147.267176
9.215                 0.81168356     -147.593153
9.216                0.811308724     -147.919721
9.217                 0.81093546     -148.246876
9.218                0.810563793     -148.574617
9.219                 0.81019375     -148.902938
9.22                 0.809825356     -149.231836
9.221                0.809458639     -149.561307
9.222                0.809093623     -149.891347
9.223                0.808730335     -150.221953
9.224                0.808368802     -150.553121
9.225                0.808009049     -150.884846
9.226                0.807651102     -151.217124
9.227                0.807294987     -151.549953
9.228                0.806940731     -151.883326
9.229                0.806588359     -152.217241
9.23                 0.806237897     -152.551692
9.231                0.805889371     -152.886676
9.232                0.805542808     -153.222188
9.233                0.805198231     -153.558224
9.234                0.804855669      -153.89478
9.235                0.804515145      -154.23185
9.236                0.804176686     -154.569431
9.237                0.803840317     -154.907517
9.238                0.803506063     -155.246104
9.239                0.803173951     -155.585188
9.24                 0.802844004     -155.924763
9.241                0.802516249     -156.264825
9.242                 0.80219071     -156.605369
9.243                0.801867413      -156.94639
9.244                0.801546382     -157.287883
9.245                0.801227641     -157.629843
9.246                0.800911217     -157.972265
9.247                0.800597132     -158.315144
9.248                0.800285412     -158.658474
9.249                0.799976081     -159.002251
9.25                 0.799669162     -159.346469
9.251                0.799364681     -159.691123
9.252                 0.79906266     -160.036208
9.253                0.798763124     -160.381718
9.254                0.798466095     -160.727647
9.255                0.798171598     -161.073991
9.256                0.797879656     -161.420743
9.257                0.797590291     -161.767899
9.258                0.797303526     -162.115452
9.259                0.797019385     -162.463397
9.26                 0.796737889     -162.811728
9.261                0.796459061     -163.160439
9.262                0.796182923     -163.509525
9.263                0.795909497     -163.858979
9.264                0.795638805     -164.208797
9.265                0.795370868     -164.558971
9.266                0.795105708     -164.909496
9.267                0.794843346     -165.260366
9.268                0.794583802     -165.611575
9.269                0.794327097     -165.963117
9.27                 0.794073252     -166.314985
9.271                0.793822286     -166.667174
9.272                0.793574221     -167.019677
9.273                0.793329074     -167.372487
9.274                0.793086867       -167.7256
9.275                0.792847618     -168.079008
9.276                0.792611346     -168.432705
9.277                 0.79237807     -168.786685
9.278                0.792147808     -169.140941
9.279                0.791920579     -169.495467
9.28                   0.7916964     -169.850256
9.281                0.791475289     -170.205301
9.282                0.791257263     -170.560597
9.283                0.791042339     -170.916137
9.284                0.790830535     -171.271914
9.285                0.790621866     -171.627921
9.286                0.790416349     -171.984151
9.287                   0.790214     -172.340599
9.288                0.790014834     -172.697257
9.289                0.789818866     -173.054118
9.29                 0.789626112     -173.411176
9.291                0.789436587     -173.768425
9.292                0.789250304     -174.125856
9.293                0.789067278     -174.483463
9.294                0.788887522      -174.84124
9.295                0.788711049     -175.199179
9.296                0.788537874     -175.557274
9.297                0.788368008     -175.915518
9.298                0.788201464     -176.273903
9.299                0.788038255     -176.632423
9.3                  0.787878391      -176.99107
9.301                0.787721884     -177.349838
9.302                0.787568745      -177.70872
9.303                0.787418986     -178.067709
9.304                0.787272616     -178.426797
9.305                0.787129645     -178.785977
9.306                0.786990083     -179.145243
9.307                 0.78685394     -179.504587
9.308                0.786721224     -179.864003
9.309                0.786591944      179.776517
9.31                 0.786466108      179.416981
9.311                0.786343724      179.057395
9.312                  0.7862248      178.697765
9.313                0.786109342      178.338101
9.314                0.785997358      177.978408
9.315                0.785888854      177.618693
9.316                0.785783836      177.258965
9.317                 0.78568231      176.899229
9.318                0.785584281      176.539494
9.319                0.785489754      176.179767
9.32                 0.785398734      175.820053
9.321                0.785311225      175.460362
9.322                 0.78522723      175.100699
9.323                0.785146754      174.741072
9.324                0.785069799      174.381489
9.325                0.784996368      174.021956
9.326                0.784926464       173.66248
9.327                0.784860088      173.303069
9.328                0.784797242       172.94373
9.329                0.784737928       172.58447
9.33                 0.784682146      172.225295
9.331                0.784629897      171.866214
9.332                 0.78458118      171.507233
9.333                0.784535997      171.148359
9.334                0.784494345        170.7896
9.335                0.784456225      170.430962
9.336                0.784421634      170.072452
9.337                0.784390572      169.714078
9.338                0.784363035      169.355846
9.339                0.784339022      168.997764
9.34                 0.784318531      168.639839
9.341                0.784301556      168.282076
9.342                0.784288096      167.924484
9.343                0.784278146       167.56707
9.344                0.784271703      167.209839
9.345                 0.78426876        166.8528
9.346                0.784269315      166.495958
9.347                 0.78427336      166.139321
9.348                0.784280891      165.782896
9.349                0.784291902      165.426689
9.35                 0.784306386      165.070707
9.351                0.784324336      164.714957
9.352                0.784345747      164.359445
9.353                0.784370609      164.004179
9.354                0.784398916      163.649164
9.355                0.784430659      163.294408
9.356                0.784465831      162.939916
9.357                0.784504421      162.585697
9.358                0.784546423      162.231755
9.359                0.784591825      161.878098
9.36                 0.784640619      161.524732
9.361                0.784692794      161.171663
9.362                 0.78474834      160.818898
9.363                0.784807246      160.466444
9.364                0.784869502      160.114305
9.365                0.784935097       159.76249
9.366                0.785004018      159.411003
9.367                0.785076254      159.059852
9.368                0.785151793      158.709042
9.369                0.785230623       158.35858
9.37                  0.78531273      158.008471
9.371                0.785398102      157.658722
9.372                0.785486725      157.309338
9.373                0.785578587      156.960326
9.374                0.785673672      156.611691
9.375                0.785771968       156.26344
9.376                0.785873459      155.915578
9.377                0.785978131      155.568111
9.378                0.786085969      155.221045
9.379                0.786196958      154.874385
9.38                 0.786311083      154.528137
9.381                0.786428328      154.182307
9.382                0.786548677        153.8369
9.383                0.786672114      153.491922
9.384                0.786798623      153.147378
9.385                0.786928186      152.803273
9.386                0.787060788      152.459614
9.387                0.787196411      152.116405
9.388                0.787335039      151.773652
9.389                0.787476652       151.43136
9.39                 0.787621235      151.089534
9.391                0.787768768      150.748179
9.392                0.787919235        150.4073
9.393                0.788072616      150.066902
9.394                0.788228893      149.726991
9.395                0.788388048      149.387571
9.396                0.788550061      149.048647
