! TOUCHSTONE file generated by CST DESIGN STUDIO
! Date and time: Tue Feb  4 13:40:59 2025
! Project name: C:\Work\MatlabApps\UnitCellOptimizationMatlab\CST\unitcell.cst
! Tree item: Tasks\Sweep1\SPara1\S-Parameters
! Header version: 2024
! Port assignment regex: !\s*Touchstone port\s*([0-9]+)\s*=\s*(CST MWS port|CST DES external port|CST DES block port)\s*(.+)\s* \(\"(.*)\"\)(\s*mode\s*([0-9]+))?.*
! Touchstone port assignment:
! Touchstone port 1 = CST DES external port 1 ("")
# GHz S MA R 50
9                    0.880837442     -102.179847
9.001                 0.88049608     -102.392519
9.002                0.880153704     -102.605847
9.003                0.879810319     -102.819832
9.004                0.879465927     -103.034476
9.005                0.879120532     -103.249779
9.006                0.878774136     -103.465745
9.007                0.878426743     -103.682374
9.008                0.878078356     -103.899669
9.009                 0.87772898      -104.11763
9.01                 0.877378617     -104.336259
9.011                0.877027272     -104.555558
9.012                0.876674949     -104.775529
9.013                0.876321651     -104.996172
9.014                0.875967383      -105.21749
9.015                0.875612149     -105.439484
9.016                0.875255953     -105.662156
9.017                0.874898801     -105.885506
9.018                0.874540696     -106.109538
9.019                0.874181643     -106.334251
9.02                 0.873821648     -106.559648
9.021                0.873460715      -106.78573
9.022                0.873098849     -107.012499
9.023                0.872736056     -107.239956
9.024                0.872372341     -107.468102
9.025                0.872007709     -107.696939
9.026                0.871642166     -107.926468
9.027                0.871275719     -108.156691
9.028                0.870908372     -108.387609
9.029                0.870540132     -108.619223
9.03                 0.870171006     -108.851535
9.031                0.869800998     -109.084547
9.032                0.869430116     -109.318258
9.033                0.869058367     -109.552672
9.034                0.868685757     -109.787789
9.035                0.868312292      -110.02361
9.036                0.867937981     -110.260138
9.037                0.867562829     -110.497372
9.038                0.867186845     -110.735314
9.039                0.866810035     -110.973966
9.04                 0.866432408     -111.213328
9.041                0.866053971     -111.453403
9.042                0.865674732      -111.69419
9.043                0.865294698     -111.935692
9.044                0.864913879     -112.177909
9.045                0.864532282     -112.420843
9.046                0.864149916     -112.664494
9.047                0.863766789     -112.908864
9.048                 0.86338291     -113.153955
9.049                0.862998289     -113.399765
9.05                 0.862612933     -113.646298
9.051                0.862226853     -113.893554
9.052                0.861840058     -114.141534
9.053                0.861452557     -114.390239
9.054                 0.86106436      -114.63967
9.055                0.860675478     -114.889827
9.056                0.860285919     -115.140713
9.057                0.859895694     -115.392327
9.058                0.859504814     -115.644671
9.059                0.859113288     -115.897745
9.06                 0.858721129      -116.15155
9.061                0.858328345     -116.406088
9.062                 0.85793495     -116.661358
9.063                0.857540953     -116.917362
9.064                0.857146366       -117.1741
9.065                0.856751201     -117.431574
9.066                0.856355469     -117.689783
9.067                0.855959182     -117.948729
9.068                0.855562353     -118.208412
9.069                0.855164992     -118.468832
9.07                 0.854767114     -118.729991
9.071                0.854368729     -118.991889
9.072                0.853969852     -119.254526
9.073                0.853570494     -119.517903
9.074                 0.85317067     -119.782021
9.075                0.852770391     -120.046879
9.076                0.852369672     -120.312479
9.077                0.851968527     -120.578821
9.078                0.851566968     -120.845904
9.079                 0.85116501      -121.11373
9.08                 0.850762667     -121.382299
9.081                0.850359953     -121.651611
9.082                0.849956883     -121.921666
9.083                0.849553471     -122.192465
9.084                0.849149733     -122.464007
9.085                0.848745682     -122.736293
9.086                0.848341335     -123.009324
9.087                0.847936707     -123.283098
9.088                0.847531813     -123.557616
9.089                0.847126669     -123.832879
9.09                 0.846721291     -124.108886
9.091                0.846315695     -124.385637
9.092                0.845909897     -124.663133
9.093                0.845503913     -124.941372
9.094                0.845097761     -125.220355
9.095                0.844691457     -125.500082
9.096                0.844285018     -125.780552
9.097                 0.84387846     -126.061766
9.098                0.843471803     -126.343722
9.099                0.843065062     -126.626422
9.1                  0.842658256     -126.909863
9.101                0.842251402     -127.194046
9.102                0.841844519     -127.478971
9.103                0.841437624     -127.764637
9.104                0.841030736     -128.051044
9.105                0.840623874      -128.33819
9.106                0.840217056     -128.626076
9.107                0.839810301     -128.914701
9.108                0.839403629     -129.204064
9.109                0.838997058     -129.494164
9.11                 0.838590607        -129.785
9.111                0.838184298     -130.076573
9.112                0.837778148     -130.368881
9.113                0.837372178     -130.661923
9.114                0.836966409     -130.955698
9.115                 0.83656086     -131.250206
9.116                0.836155551     -131.545444
9.117                0.835750504     -131.841414
9.118                0.835345739     -132.138112
9.119                0.834941277     -132.435538
9.12                 0.834537138     -132.733692
9.121                0.834133345     -133.032571
9.122                0.833729919     -133.332174
9.123                 0.83332688     -133.632501
9.124                0.832924252     -133.933549
9.125                0.832522054     -134.235318
9.126                 0.83212031     -134.537806
9.127                0.831719042     -134.841011
9.128                0.831318272     -135.144932
9.129                0.830918021     -135.449567
9.13                 0.830518314     -135.754915
9.131                0.830119172     -136.060974
9.132                0.829720618     -136.367742
9.133                0.829322675     -136.675218
9.134                0.828925367     -136.983399
9.135                0.828528716     -137.292284
9.136                0.828132746     -137.601871
9.137                0.827737481     -137.912158
9.138                0.827342943     -138.223143
9.139                0.826949157     -138.534823
9.14                 0.826556147     -138.847197
9.141                0.826163936     -139.160263
9.142                0.825772549     -139.474017
9.143                0.825382009     -139.788459
9.144                0.824992341     -140.103585
9.145                 0.82460357     -140.419394
9.146                 0.82421572     -140.735882
9.147                0.823828815     -141.053047
9.148                0.823442881     -141.370888
9.149                0.823057941       -141.6894
9.15                 0.822674021     -142.008582
9.151                0.822291147     -142.328431
9.152                0.821909342     -142.648943
9.153                0.821528632     -142.970117
9.154                0.821149043     -143.291949
9.155                0.820770599     -143.614437
9.156                0.820393326     -143.937577
9.157                0.820017249     -144.261367
9.158                0.819642395     -144.585803
9.159                0.819268787     -144.910882
9.16                 0.818896453     -145.236601
9.161                0.818525418     -145.562957
9.162                0.818155707     -145.889946
9.163                0.817787346     -146.217565
9.164                0.817420361     -146.545811
9.165                0.817054778     -146.874681
9.166                0.816690623      -147.20417
9.167                0.816327921     -147.534275
9.168                0.815966699     -147.864993
9.169                0.815606982     -148.196319
9.17                 0.815248797      -148.52825
9.171                 0.81489217     -148.860783
9.172                0.814537126     -149.193913
9.173                0.814183691     -149.527637
9.174                0.813831892      -149.86195
9.175                0.813481754     -150.196848
9.176                0.813133304     -150.532328
9.177                0.812786567     -150.868385
9.178                0.812441569     -151.205015
9.179                0.812098337     -151.542214
9.18                 0.811756897     -151.879978
9.181                0.811417273     -152.218302
9.182                0.811079492     -152.557181
9.183                 0.81074358     -152.896612
9.184                0.810409563     -153.236589
9.185                0.810077466     -153.577109
9.186                0.809747315     -153.918166
9.187                0.809419135     -154.259756
9.188                0.809092953     -154.601874
9.189                0.808768793     -154.944515
9.19                  0.80844668     -155.287675
9.191                0.808126642     -155.631348
9.192                0.807808701      -155.97553
9.193                0.807492885     -156.320216
9.194                0.807179216       -156.6654
9.195                0.806867722     -157.011077
9.196                0.806558426     -157.357242
9.197                0.806251353     -157.703891
9.198                0.805946529     -158.051017
9.199                0.805643976     -158.398616
9.2                  0.805343721     -158.746682
9.201                0.805045786     -159.095209
9.202                0.804750197     -159.444192
9.203                0.804456976     -159.793626
9.204                0.804166149     -160.143505
9.205                0.803877738     -160.493823
9.206                0.803591768     -160.844575
9.207                0.803308262     -161.195755
9.208                0.803027242     -161.547357
9.209                0.802748732     -161.899375
9.21                 0.802472755     -162.251804
9.211                0.802199334     -162.604637
9.212                0.801928491     -162.957869
9.213                0.801660248     -163.311493
9.214                0.801394628     -163.665504
9.215                0.801131653     -164.019895
9.216                0.800871344     -164.374661
9.217                0.800613723     -164.729794
9.218                0.800358811      -165.08529
9.219                0.800106629     -165.441141
9.22                 0.799857199     -165.797341
9.221                 0.79961054     -166.153884
9.222                0.799366674     -166.510763
9.223                0.799125621     -166.867972
9.224                  0.7988874     -167.225505
9.225                0.798652031     -167.583355
9.226                0.798419535     -167.941515
9.227                0.798189929     -168.299979
9.228                0.797963234     -168.658741
9.229                0.797739467     -169.017792
9.23                 0.797518647     -169.377128
9.231                0.797300793      -169.73674
9.232                0.797085922     -170.096623
9.233                0.796874052     -170.456769
9.234                  0.7966652     -170.817172
9.235                0.796459384     -171.177825
9.236                 0.79625662      -171.53872
9.237                0.796056925     -171.899851
9.238                0.795860314     -172.261211
9.239                0.795666804     -172.622793
9.24                 0.795476411      -172.98459
9.241                0.795289149     -173.346595
9.242                0.795105033       -173.7088
9.243                0.794924079     -174.071199
9.244                  0.7947463     -174.433784
9.245                0.794571711     -174.796549
9.246                0.794400326     -175.159486
9.247                0.794232156     -175.522588
9.248                0.794067217     -175.885847
9.249                 0.79390552     -176.249257
9.25                 0.793747078      -176.61281
9.251                0.793591902     -176.976499
9.252                0.793440005     -177.340316
9.253                0.793291397     -177.704255
9.254                0.793146091     -178.068308
9.255                0.793004096     -178.432467
9.256                0.792865422     -178.796726
9.257                0.792730081     -179.161076
9.258                 0.79259808     -179.525511
9.259                0.792469431     -179.890022
9.26                  0.79234414      179.745396
9.261                0.792222217      179.380753
9.262                0.792103671      179.016055
9.263                0.791988508      178.651309
9.264                0.791876737      178.286524
9.265                0.791768363      177.921706
9.266                0.791663395      177.556863
9.267                0.791561838      177.192003
9.268                0.791463698      176.827133
9.269                0.791368981       176.46226
9.27                 0.791277693      176.097393
9.271                0.791189836      175.732537
9.272                0.791105418      175.367702
9.273                 0.79102444      175.002894
9.274                0.790946908      174.638121
9.275                0.790872824       174.27339
9.276                0.790802191      173.908709
9.277                0.790735012      173.544085
9.278                0.790671289      173.179525
9.279                0.790611024      172.815038
9.28                 0.790554219      172.450631
9.281                0.790500874       172.08631
9.282                0.790450989      171.722083
9.283                0.790404567      171.357959
9.284                0.790361605      170.993943
9.285                0.790322105      170.630044
9.286                0.790286065      170.266269
9.287                0.790253483      169.902625
9.288                0.790224359       169.53912
9.289                 0.79019869       169.17576
9.29                 0.790176475      168.812554
9.291                 0.79015771      168.449508
9.292                0.790142392       168.08663
9.293                0.790130518      167.723927
9.294                0.790122085      167.361406
9.295                0.790117088      166.999074
9.296                0.790115523      166.636939
9.297                0.790117384      166.275007
9.298                0.790122667      165.913286
9.299                0.790131366      165.551783
9.3                  0.790143475      165.190505
9.301                0.790158989      164.829459
9.302                0.790177899      164.468652
9.303                  0.7902002      164.108091
9.304                0.790225884      163.747782
9.305                0.790254943      163.387734
9.306                 0.79028737      163.027952
9.307                0.790323156      162.668444
9.308                0.790362293      162.309216
9.309                0.790404771      161.950276
9.31                 0.790450581      161.591629
9.311                0.790499713      161.233284
9.312                0.790552159      160.875245
9.313                0.790607906      160.517521
9.314                0.790666946      160.160117
9.315                0.790729266       159.80304
9.316                0.790794856      159.446297
9.317                0.790863704      159.089894
9.318                0.790935798      158.733838
9.319                0.791011127      158.378135
9.32                 0.791089677      158.022792
9.321                0.791171436      157.667814
9.322                0.791256392      157.313209
9.323                 0.79134453      156.958981
9.324                0.791435838      156.605139
9.325                0.791530301      156.251686
9.326                0.791627905      155.898631
9.327                0.791728636      155.545979
9.328                 0.79183248      155.193735
9.329                0.791939421      154.841906
9.33                 0.792049444      154.490498
9.331                0.792162535      154.139517
9.332                0.792278676      153.788968
9.333                0.792397853      153.438857
9.334                0.792520049       153.08919
9.335                0.792645247      152.739973
9.336                0.792773432      152.391211
9.337                0.792904586       152.04291
9.338                0.793038693      151.695076
9.339                0.793175735      151.347713
9.34                 0.793315694      151.000828
9.341                0.793458553      150.654425
9.342                0.793604294       150.30851
9.343                0.793752898      149.963088
9.344                0.793904349      149.618165
9.345                0.794058626      149.273745
9.346                0.794215712      148.929834
9.347                0.794375587      148.586437
9.348                0.794538233      148.243559
9.349                 0.79470363      147.901204
9.35                 0.794871758      147.559378
9.351                  0.7950426      147.218086
9.352                0.795216133      146.877331
9.353                 0.79539234       146.53712
9.354                0.795571199      146.197456
9.355                0.795752691      145.858344
9.356                0.795936795      145.519789
9.357                 0.79612349      145.181796
9.358                0.796312758      144.844368
9.359                0.796504575       144.50751
9.36                 0.796698922      144.171227
9.361                0.796895778      143.835522
9.362                0.797095122        143.5004
9.363                0.797296932      143.165865
9.364                0.797501188      142.831922
9.365                0.797707867      142.498573
9.366                0.797916949      142.165824
9.367                0.798128411      141.833678
9.368                0.798342232      141.502139
9.369                0.798558391      141.171211
9.37                 0.798776866      140.840898
9.371                0.798997634      140.511203
9.372                0.799220673      140.182129
9.373                0.799445962      139.853681
9.374                0.799673479      139.525863
9.375                0.799903201      139.198677
9.376                0.800135106      138.872126
9.377                0.800369172      138.546215
9.378                0.800605377      138.220947
9.379                0.800843698      137.896325
9.38                 0.801084112      137.572351
9.381                0.801326598       137.24903
9.382                0.801571132      136.926364
9.383                0.801817693      136.604357
9.384                0.802066257      136.283011
9.385                0.802316803      135.962328
9.386                0.802569308      135.642313
9.387                0.802823748      135.322968
9.388                0.803080103      135.004295
9.389                0.803338348      134.686298
9.39                 0.803598462      134.368978
9.391                0.803860421      134.052339
9.392                0.804124204      133.736383
9.393                0.804389787      133.421113
9.394                0.804657149       133.10653
9.395                0.804926266      132.792638
9.396                0.805197116      132.479438
