! TOUCHSTONE file generated by CST DESIGN STUDIO
! Date and time: Tue Feb  4 13:32:28 2025
! Project name: C:\Work\MatlabApps\UnitCellOptimizationMatlab\CST\unitcell.cst
! Tree item: Tasks\Sweep1\SPara1\S-Parameters
! Header version: 2024
! Port assignment regex: !\s*Touchstone port\s*([0-9]+)\s*=\s*(CST MWS port|CST DES external port|CST DES block port)\s*(.+)\s* \(\"(.*)\"\)(\s*mode\s*([0-9]+))?.*
! Touchstone port assignment:
! Touchstone port 1 = CST DES external port 1 ("")
# GHz S MA R 50
9                    0.966206692     -80.3559792
9.001                0.966118415      -80.484785
9.002                0.966029869     -80.6139226
9.003                0.965941053      -80.743393
9.004                0.965851968      -80.873197
9.005                0.965762613     -81.0033358
9.006                0.965672986     -81.1338103
9.007                0.965583089     -81.2646214
9.008                0.965492919     -81.3957703
9.009                0.965402477     -81.5272579
9.01                 0.965311762     -81.6590852
9.011                0.965220774     -81.7912532
9.012                0.965129513     -81.9237629
9.013                0.965037977     -82.0566153
9.014                0.964946166     -82.1898115
9.015                 0.96485408     -82.3233524
9.016                0.964761719     -82.4572391
9.017                0.964669082     -82.5914725
9.018                0.964576168     -82.7260537
9.019                0.964482978     -82.8609838
9.02                  0.96438951     -82.9962637
9.021                0.964295765     -83.1318944
9.022                0.964201741     -83.2678769
9.023                0.964107439     -83.4042124
9.024                0.964012858     -83.5409018
9.025                0.963917998     -83.6779462
9.026                0.963822858     -83.8153465
9.027                0.963727437     -83.9531038
9.028                0.963631737     -84.0912192
9.029                0.963535755     -84.2296936
9.03                 0.963439493     -84.3685282
9.031                0.963342949     -84.5077238
9.032                0.963246123     -84.6472817
9.033                0.963149014     -84.7872028
9.034                0.963051623     -84.9274881
9.035                 0.96295395     -85.0681388
9.036                0.962855993     -85.2091557
9.037                0.962757752     -85.3505401
9.038                0.962659227     -85.4922929
9.039                0.962560419     -85.6344152
9.04                 0.962461326      -85.776908
9.041                0.962361948     -85.9197723
9.042                0.962262285     -86.0630093
9.043                0.962162337       -86.20662
9.044                0.962062103     -86.3506054
9.045                0.961961584     -86.4949665
9.046                0.961860778     -86.6397045
9.047                0.961759687     -86.7848204
9.048                0.961658308     -86.9303152
9.049                0.961556643       -87.07619
9.05                 0.961454692     -87.2224458
9.051                0.961352453     -87.3690838
9.052                0.961249926     -87.5161049
9.053                0.961147112     -87.6635102
9.054                0.961044011     -87.8113009
9.055                0.960940621     -87.9594779
9.056                0.960836944     -88.1080423
9.057                0.960732979     -88.2569951
9.058                0.960628725     -88.4063375
9.059                0.960524183     -88.5560705
9.06                 0.960419352     -88.7061951
9.061                0.960314233     -88.8567125
9.062                0.960208825     -89.0076237
9.063                0.960103128     -89.1589297
9.064                0.959997143     -89.3106316
9.065                0.959890868     -89.4627305
9.066                0.959784305     -89.6152274
9.067                0.959677452     -89.7681235
9.068                0.959570311     -89.9214197
9.069                0.959462881     -90.0751171
9.07                 0.959355161     -90.2292169
9.071                0.959247153     -90.3837201
9.072                0.959138855     -90.5386277
9.073                0.959030269     -90.6939407
9.074                0.958921393     -90.8496604
9.075                0.958812229     -91.0057877
9.076                0.958702776     -91.1623237
9.077                0.958593034     -91.3192695
9.078                0.958483004      -91.476626
9.079                0.958372685     -91.6343945
9.08                 0.958262077      -91.792576
9.081                0.958151182     -91.9511714
9.082                0.958039998      -92.110182
9.083                0.957928527     -92.2696087
9.084                0.957816767     -92.4294526
9.085                 0.95770472     -92.5897148
9.086                0.957592386     -92.7503963
9.087                0.957479765     -92.9114981
9.088                0.957366856     -93.0730215
9.089                0.957253661     -93.2349673
9.09                  0.95714018     -93.3973367
9.091                0.957026413     -93.5601307
9.092                0.956912359     -93.7233504
9.093                0.956798021     -93.8869968
9.094                0.956683397      -94.051071
9.095                0.956568488      -94.215574
9.096                0.956453295     -94.3805069
9.097                0.956337818     -94.5458708
9.098                0.956222057     -94.7116666
9.099                0.956106012     -94.8778954
9.1                  0.955989685     -95.0445583
9.101                0.955873076     -95.2116563
9.102                0.955756184     -95.3791904
9.103                0.955639011     -95.5471617
9.104                0.955521557     -95.7155713
9.105                0.955403823     -95.8844201
9.106                0.955285808     -96.0537092
9.107                0.955167514     -96.2234396
9.108                0.955048942     -96.3936124
9.109                0.954930091     -96.5642285
9.11                 0.954810962     -96.7352891
9.111                0.954691556     -96.9067951
9.112                0.954571874     -97.0787475
9.113                0.954451917     -97.2511474
9.114                0.954331684     -97.4239958
9.115                0.954211177     -97.5972937
9.116                0.954090396     -97.7710421
9.117                0.953969342     -97.9452419
9.118                0.953848016     -98.1198943
9.119                0.953726419     -98.2950003
9.12                 0.953604551     -98.4705607
9.121                0.953482414     -98.6465766
9.122                0.953360008     -98.8230491
9.123                0.953237333      -98.999979
9.124                0.953114392     -99.1773674
9.125                0.952991184     -99.3552153
9.126                0.952867711     -99.5335236
9.127                0.952743974     -99.7122933
9.128                0.952619973     -99.8915254
9.129                 0.95249571     -100.071221
9.13                 0.952371186     -100.251381
9.131                0.952246401     -100.432006
9.132                0.952121357     -100.613097
9.133                0.951996055     -100.794655
9.134                0.951870495     -100.976682
9.135                 0.95174468     -101.159178
9.136                0.951618611     -101.342143
9.137                0.951492287      -101.52558
9.138                0.951365711     -101.709489
9.139                0.951238884      -101.89387
9.14                 0.951111808     -102.078725
9.141                0.950984482     -102.264055
9.142                 0.95085691      -102.44986
9.143                0.950729091     -102.636142
9.144                0.950601028     -102.822901
9.145                0.950472722     -103.010138
9.146                0.950344174     -103.197855
9.147                0.950215385     -103.386051
9.148                0.950086358     -103.574729
9.149                0.949957094     -103.763888
9.15                 0.949827593      -103.95353
9.151                0.949697858     -104.143656
9.152                0.949567891     -104.334265
9.153                0.949437692      -104.52536
9.154                0.949307264     -104.716942
9.155                0.949176608      -104.90901
9.156                0.949045725     -105.101565
9.157                0.948914619      -105.29461
9.158                0.948783289     -105.488144
9.159                0.948651739     -105.682167
9.16                 0.948519969     -105.876682
9.161                0.948387983     -106.071689
9.162                 0.94825578     -106.267188
9.163                0.948123365     -106.463181
9.164                0.947990737     -106.659668
9.165                  0.9478579      -106.85665
9.166                0.947724855     -107.054127
9.167                0.947591605     -107.252101
9.168                 0.94745815     -107.450572
9.169                0.947324494     -107.649541
9.17                 0.947190639     -107.849009
9.171                0.947056586     -108.048976
9.172                0.946922339     -108.249443
9.173                0.946787898     -108.450411
9.174                0.946653266      -108.65188
9.175                0.946518446     -108.853852
9.176                 0.94638344     -109.056327
9.177                0.946248249     -109.259305
9.178                0.946112878     -109.462787
9.179                0.945977327     -109.666774
9.18                 0.945841599     -109.871266
9.181                0.945705697     -110.076265
9.182                0.945569624      -110.28177
9.183                0.945433381     -110.487783
9.184                0.945296971     -110.694304
9.185                0.945160398     -110.901333
9.186                0.945023663     -111.108871
9.187                0.944886769      -111.31692
9.188                0.944749719     -111.525478
9.189                0.944612515     -111.734547
9.19                 0.944475161     -111.944128
9.191                 0.94433766     -112.154221
9.192                0.944200013     -112.364826
9.193                0.944062224     -112.575944
9.194                0.943924296     -112.787575
9.195                0.943786232     -112.999721
9.196                0.943648034     -113.212381
9.197                0.943509706     -113.425555
9.198                0.943371251     -113.639245
9.199                0.943232672     -113.853451
9.2                  0.943093972     -114.068173
9.201                0.942955154     -114.283412
9.202                0.942816221     -114.499168
9.203                0.942677177     -114.715441
9.204                0.942538024     -114.932232
9.205                0.942398767     -115.149541
9.206                0.942259408     -115.367369
9.207                0.942119952     -115.585715
9.208                  0.9419804     -115.804581
9.209                0.941840757     -116.023966
9.21                 0.941701026     -116.243872
9.211                0.941561212     -116.464297
9.212                0.941421316     -116.685243
9.213                0.941281343     -116.906709
9.214                0.941141297     -117.128696
9.215                0.941001181     -117.351204
9.216                0.940860999     -117.574234
9.217                0.940720755     -117.797785
9.218                0.940580452     -118.021858
9.219                0.940440094     -118.246453
9.22                 0.940299686      -118.47157
9.221                0.940159231      -118.69721
9.222                0.940018733     -118.923371
9.223                0.939878196     -119.150055
9.224                0.939737623     -119.377262
9.225                 0.93959702     -119.604991
9.226                0.939456391     -119.833243
9.227                0.939315738     -120.062018
9.228                0.939175067     -120.291316
9.229                0.939034382     -120.521136
9.23                 0.938893686     -120.751479
9.231                0.938752985     -120.982345
9.232                0.938612283     -121.213734
9.233                0.938471583     -121.445646
9.234                0.938330891      -121.67808
9.235                0.938190211     -121.911037
9.236                0.938049547     -122.144516
9.237                0.937908904     -122.378518
9.238                0.937768286     -122.613042
9.239                0.937627698     -122.848088
9.24                 0.937487144     -123.083656
9.241                 0.93734663     -123.319745
9.242                 0.93720616     -123.556356
9.243                0.937065739     -123.793489
9.244                0.936925371     -124.031142
9.245                0.936785061     -124.269316
9.246                0.936644815     -124.508011
9.247                0.936504637     -124.747226
9.248                0.936364531     -124.986961
9.249                0.936224504     -125.227215
9.25                  0.93608456     -125.467989
9.251                0.935944703     -125.709281
9.252                 0.93580494     -125.951092
9.253                0.935665275     -126.193421
9.254                0.935525713     -126.436267
9.255                 0.93538626      -126.67963
9.256                0.935246921      -126.92351
9.257                0.935107701     -127.167906
9.258                0.934968605     -127.412818
9.259                0.934829639     -127.658245
9.26                 0.934690808     -127.904186
9.261                0.934552117     -128.150641
9.262                0.934413573     -128.397609
9.263                0.934275179      -128.64509
9.264                0.934136943     -128.893083
9.265                0.933998869     -129.141588
9.266                0.933860963     -129.390603
9.267                 0.93372323     -129.640128
9.268                0.933585677     -129.890162
9.269                0.933448309     -130.140705
9.27                 0.933311131     -130.391755
9.271                 0.93317415     -130.643312
9.272                0.933037371     -130.895375
9.273                  0.9329008     -131.147944
9.274                0.932764442     -131.401017
9.275                0.932628304     -131.654593
9.276                0.932492392     -131.908672
9.277                0.932356711     -132.163252
9.278                0.932221267     -132.418333
9.279                0.932086067     -132.673914
9.28                 0.931951116     -132.929993
9.281                0.931816421      -133.18657
9.282                0.931681987     -133.443643
9.283                 0.93154782     -133.701212
9.284                0.931413928     -133.959275
9.285                0.931280315     -134.217831
9.286                0.931146988      -134.47688
9.287                0.931013954     -134.736419
9.288                0.930881218     -134.996448
9.289                0.930748786     -135.256965
9.29                 0.930616666      -135.51797
9.291                0.930484862     -135.779461
9.292                0.930353383     -136.041436
9.293                0.930222233     -136.303895
9.294                 0.93009142     -136.566835
9.295                0.929960949     -136.830256
9.296                0.929830828     -137.094156
9.297                0.929701062     -137.358534
9.298                0.929571658     -137.623389
9.299                0.929442622     -137.888718
9.3                  0.929313962      -138.15452
9.301                0.929185683     -138.420794
9.302                0.929057792     -138.687539
9.303                0.928930295     -138.954752
9.304                0.928803199     -139.222432
9.305                0.928676512     -139.490578
9.306                0.928550238     -139.759187
9.307                0.928424385     -140.028258
9.308                 0.92829896      -140.29779
9.309                0.928173969      -140.56778
9.31                 0.928049418     -140.838228
9.311                0.927925315      -141.10913
9.312                0.927801666     -141.380485
9.313                0.927678478     -141.652292
9.314                0.927555757     -141.924549
9.315                 0.92743351     -142.197253
9.316                0.927311744     -142.470403
9.317                0.927190466     -142.743997
9.318                0.927069682     -143.018032
9.319                0.926949399     -143.292508
9.32                 0.926829623     -143.567421
9.321                0.926710362      -143.84277
9.322                0.926591622     -144.118552
9.323                 0.92647341     -144.394766
9.324                0.926355733      -144.67141
9.325                0.926238597      -144.94848
9.326                0.926122009     -145.225976
9.327                0.926005977     -145.503895
9.328                0.925890505     -145.782234
9.329                0.925775602     -146.060992
9.33                 0.925661274     -146.340166
9.331                0.925547528     -146.619753
9.332                0.925434371     -146.899752
9.333                0.925321808      -147.18016
9.334                0.925209848     -147.460974
9.335                0.925098496     -147.742193
9.336                 0.92498776     -148.023813
9.337                0.924877646     -148.305833
9.338                 0.92476816      -148.58825
9.339                 0.92465931      -148.87106
9.34                 0.924551102     -149.154263
9.341                0.924443542     -149.437854
9.342                0.924336638     -149.721832
9.343                0.924230396     -150.006194
9.344                0.924124823     -150.290937
9.345                0.924019924     -150.576059
9.346                0.923915707     -150.861556
9.347                0.923812179     -151.147426
9.348                0.923709345     -151.433667
9.349                0.923607212     -151.720275
9.35                 0.923505788     -152.007248
9.351                0.923405077     -152.294583
9.352                0.923305087     -152.582276
9.353                0.923205824     -152.870326
9.354                0.923107295     -153.158729
9.355                0.923009505     -153.447482
9.356                0.922912461     -153.736583
9.357                 0.92281617     -154.026027
9.358                0.922720638     -154.315813
9.359                0.922625871     -154.605937
9.36                 0.922531875     -154.896396
9.361                0.922438656     -155.187188
9.362                0.922346221     -155.478308
9.363                0.922254575     -155.769754
9.364                0.922163725     -156.061522
9.365                0.922073677     -156.353611
9.366                0.921984437     -156.646015
9.367                0.921896011     -156.938732
9.368                0.921808404     -157.231759
9.369                0.921721623     -157.525093
9.37                 0.921635673     -157.818729
9.371                0.921550561     -158.112666
9.372                0.921466292     -158.406899
9.373                0.921382871     -158.701425
9.374                0.921300305     -158.996241
9.375                0.921218599     -159.291343
9.376                0.921137759     -159.586728
9.377                 0.92105779     -159.882392
9.378                0.920978698     -160.178333
9.379                0.920900488     -160.474546
9.38                 0.920823166     -160.771027
9.381                0.920746736     -161.067774
9.382                0.920671205     -161.364783
9.383                0.920596577      -161.66205
9.384                0.920522858     -161.959572
9.385                0.920450053     -162.257345
9.386                0.920378166     -162.555365
9.387                0.920307204     -162.853628
9.388                 0.92023717     -163.152132
9.389                 0.92016807     -163.450872
9.39                 0.920099908     -163.749845
9.391                 0.92003269     -164.049046
9.392                 0.91996642     -164.348472
9.393                0.919901103      -164.64812
9.394                0.919836743     -164.947986
9.395                0.919773345     -165.248065
9.396                0.919710914     -165.548353
