! TOUCHSTONE file generated by CST DESIGN STUDIO
! Date and time: Tue Feb  4 13:32:27 2025
! Project name: C:\Work\MatlabApps\UnitCellOptimizationMatlab\CST\unitcell.cst
! Tree item: Tasks\Sweep1\SPara1\S-Parameters
! Header version: 2024
! Port assignment regex: !\s*Touchstone port\s*([0-9]+)\s*=\s*(CST MWS port|CST DES external port|CST DES block port)\s*(.+)\s* \(\"(.*)\"\)(\s*mode\s*([0-9]+))?.*
! Touchstone port assignment:
! Touchstone port 1 = CST DES external port 1 ("")
# GHz S MA R 50
9                     0.96581109     -82.8320148
9.001                 0.96572015     -82.9671799
9.002                0.965628937     -83.1026958
9.003                0.965537451     -83.2385635
9.004                0.965445693     -83.3747839
9.005                0.965353661     -83.5113582
9.006                0.965261355     -83.6482874
9.007                0.965168775     -83.7855724
9.008                0.965075921     -83.9232143
9.009                0.964982791     -84.0612142
9.01                 0.964889386     -84.1995731
9.011                0.964795705      -84.338292
9.012                0.964701748     -84.4773719
9.013                0.964607514      -84.616814
9.014                0.964513003     -84.7566192
9.015                0.964418215     -84.8967885
9.016                 0.96432315      -85.037323
9.017                0.964227806     -85.1782238
9.018                0.964132184      -85.319492
9.019                0.964036284     -85.4611284
9.02                 0.963940104     -85.6031342
9.021                0.963843646     -85.7455105
9.022                0.963746907     -85.8882583
9.023                0.963649889     -86.0313786
9.024                0.963552591     -86.1748725
9.025                0.963455012      -86.318741
9.026                0.963357153     -86.4629852
9.027                0.963259013     -86.6076062
9.028                0.963160591      -86.752605
9.029                0.963061888     -86.8979826
9.03                 0.962962903     -87.0437402
9.031                0.962863636     -87.1898787
9.032                0.962764087     -87.3363993
9.033                0.962664256     -87.4833029
9.034                0.962564142     -87.6305907
9.035                0.962463745     -87.7782637
9.036                0.962363065      -87.926323
9.037                0.962262102     -88.0747696
9.038                0.962160856     -88.2236046
9.039                0.962059326     -88.3728291
9.04                 0.961957513     -88.5224441
9.041                0.961855416     -88.6724507
9.042                0.961753034     -88.8228499
9.043                0.961650369     -88.9736428
9.044                 0.96154742     -89.1248306
9.045                0.961444186     -89.2764141
9.046                0.961340669     -89.4283946
9.047                0.961236866     -89.5807731
9.048                0.961132779     -89.7335506
9.049                0.961028408     -89.8867282
9.05                 0.960923752      -90.040307
9.051                0.960818812      -90.194288
9.052                0.960713586     -90.3486724
9.053                0.960608077     -90.5034611
9.054                0.960502282     -90.6586553
9.055                0.960396203      -90.814256
9.056                0.960289839     -90.9702643
9.057                0.960183191     -91.1266812
9.058                0.960076258     -91.2835078
9.059                0.959969041     -91.4407452
9.06                 0.959861539     -91.5983944
9.061                0.959753753     -91.7564565
9.062                0.959645682     -91.9149327
9.063                0.959537328     -92.0738238
9.064                 0.95942869      -92.233131
9.065                0.959319768     -92.3928554
9.066                0.959210562      -92.552998
9.067                0.959101072     -92.7135599
9.068                  0.9589913     -92.8745422
9.069                0.958881244     -93.0359458
9.07                 0.958770905     -93.1977719
9.071                0.958660283     -93.3600216
9.072                 0.95854938     -93.5226958
9.073                0.958438193     -93.6857956
9.074                0.958326725     -93.8493222
9.075                0.958214975     -94.0132764
9.076                0.958102944     -94.1776595
9.077                0.957990632     -94.3424724
9.078                0.957878039     -94.5077162
9.079                0.957765166     -94.6733919
9.08                 0.957652013     -94.8395007
9.081                 0.95753858     -95.0060435
9.082                0.957424868     -95.1730213
9.083                0.957310877     -95.3404353
9.084                0.957196607     -95.5082864
9.085                 0.95708206     -95.6765758
9.086                0.956967235     -95.8453043
9.087                0.956852133     -96.0144732
9.088                0.956736755     -96.1840833
9.089                  0.9566211     -96.3541358
9.09                  0.95650517     -96.5246317
9.091                0.956388965     -96.6955719
9.092                0.956272486     -96.8669576
9.093                0.956155733     -97.0387897
9.094                0.956038707     -97.2110692
9.095                0.955921409     -97.3837973
9.096                0.955803838     -97.5569748
9.097                0.955685996     -97.7306028
9.098                0.955567884     -97.9046823
9.099                0.955449502     -98.0792144
9.1                  0.955330851     -98.2541999
9.101                0.955211931       -98.42964
9.102                0.955092744     -98.6055356
9.103                 0.95497329     -98.7818877
9.104                 0.95485357     -98.9586973
9.105                0.954733584     -99.1359654
9.106                0.954613335     -99.3136929
9.107                0.954492821     -99.4918809
9.108                0.954372046     -99.6705304
9.109                0.954251008     -99.8496422
9.11                  0.95412971     -100.029217
9.111                0.954008152     -100.209257
9.112                0.953886335     -100.389762
9.113                 0.95376426     -100.570733
9.114                0.953641928     -100.752171
9.115                0.953519341     -100.934078
9.116                0.953396499     -101.116453
9.117                0.953273403     -101.299299
9.118                0.953150055     -101.482616
9.119                0.953026456     -101.666404
9.12                 0.952902606     -101.850666
9.121                0.952778507     -102.035401
9.122                0.952654161     -102.220611
9.123                0.952529568     -102.406296
9.124                0.952404729     -102.592458
9.125                0.952279647     -102.779098
9.126                0.952154322     -102.966216
9.127                0.952028755     -103.153813
9.128                0.951902949      -103.34189
9.129                0.951776903     -103.530448
9.13                 0.951650621     -103.719488
9.131                0.951524103      -103.90901
9.132                 0.95139735     -104.099016
9.133                0.951270365     -104.289507
9.134                0.951143148     -104.480483
9.135                0.951015702     -104.671945
9.136                0.950888028     -104.863894
9.137                0.950760126     -105.056331
9.138                   0.950632     -105.249257
9.139                0.950503651     -105.442672
9.14                  0.95037508     -105.636577
9.141                0.950246289     -105.830974
9.142                 0.95011728     -106.025862
9.143                0.949988055     -106.221243
9.144                0.949858615     -106.417117
9.145                0.949728962     -106.613486
9.146                0.949599098      -106.81035
9.147                0.949469026      -107.00771
9.148                0.949338746     -107.205566
9.149                0.949208261     -107.403919
9.15                 0.949077573     -107.602771
9.151                0.948946684     -107.802121
9.152                0.948815596     -108.001971
9.153                 0.94868431     -108.202321
9.154                 0.94855283     -108.403172
9.155                0.948421157     -108.604524
9.156                0.948289293     -108.806379
9.157                0.948157241     -109.008737
9.158                0.948025003     -109.211598
9.159                 0.94789258     -109.414964
9.16                 0.947759976     -109.618835
9.161                0.947627193     -109.823212
9.162                0.947494232     -110.028094
9.163                0.947361097     -110.233484
9.164                 0.94722779     -110.439381
9.165                0.947094313     -110.645787
9.166                0.946960668     -110.852701
9.167                0.946826859     -111.060124
9.168                0.946692888     -111.268058
9.169                0.946558757     -111.476501
9.17                 0.946424469     -111.685456
9.171                0.946290027     -111.894923
9.172                0.946155433     -112.104901
9.173                0.946020691     -112.315392
9.174                0.945885802     -112.526397
9.175                 0.94575077     -112.737915
9.176                0.945615597     -112.949947
9.177                0.945480286     -113.162493
9.178                0.945344841     -113.375555
9.179                0.945209264     -113.589133
9.18                 0.945073558     -113.803226
9.181                0.944937727     -114.017836
9.182                0.944801772     -114.232963
9.183                0.944665698     -114.448607
9.184                0.944529507     -114.664769
9.185                0.944393202     -114.881448
9.186                0.944256787     -115.098646
9.187                0.944120265     -115.316363
9.188                 0.94398364     -115.534599
9.189                0.943846913     -115.753355
9.19                  0.94371009      -115.97263
9.191                0.943573172     -116.192426
9.192                0.943436164     -116.412742
9.193                 0.94329907     -116.633578
9.194                0.943161891     -116.854936
9.195                0.943024633     -117.076814
9.196                0.942887298     -117.299214
9.197                 0.94274989     -117.522136
9.198                0.942612413     -117.745579
9.199                 0.94247487     -117.969545
9.2                  0.942337266     -118.194033
9.201                0.942199603     -118.419043
9.202                0.942061886     -118.644576
9.203                0.941924118     -118.870631
9.204                0.941786304     -119.097209
9.205                0.941648447     -119.324311
9.206                 0.94151055     -119.551935
9.207                0.941372619     -119.780082
9.208                0.941234657     -120.008752
9.209                0.941096668     -120.237945
9.21                 0.940958656     -120.467662
9.211                0.940820626     -120.697902
9.212                0.940682581     -120.928665
9.213                0.940544525     -121.159951
9.214                0.940406463      -121.39176
9.215                  0.9402684     -121.624092
9.216                0.940130339     -121.856948
9.217                0.939992284     -122.090326
9.218                0.939854241     -122.324227
9.219                0.939716213      -122.55865
9.22                 0.939578205     -122.793596
9.221                0.939440222     -123.029064
9.222                0.939302268     -123.265055
9.223                0.939164347     -123.501567
9.224                0.939026465     -123.738601
9.225                0.938888625     -123.976156
9.226                0.938750833     -124.214233
9.227                0.938613093     -124.452831
9.228                 0.93847541     -124.691949
9.229                0.938337789     -124.931588
9.23                 0.938200234     -125.171746
9.231                0.938062751     -125.412425
9.232                0.937925344     -125.653622
9.233                0.937788018     -125.895339
9.234                0.937650778     -126.137573
9.235                 0.93751363     -126.380326
9.236                0.937376578     -126.623597
9.237                0.937239628     -126.867384
9.238                0.937102783     -127.111688
9.239                0.936966051     -127.356508
9.24                 0.936829435     -127.601844
9.241                0.936692941     -127.847695
9.242                0.936556575      -128.09406
9.243                0.936420341     -128.340939
9.244                0.936284245     -128.588331
9.245                0.936148292     -128.836236
9.246                0.936012488     -129.084653
9.247                0.935876838      -129.33358
9.248                0.935741347     -129.583019
9.249                0.935606021     -129.832967
9.25                 0.935470866     -130.083424
9.251                0.935335887     -130.334389
9.252                 0.93520109     -130.585862
9.253                0.935066479     -130.837841
9.254                0.934932062     -131.090327
9.255                0.934797843     -131.343317
9.256                0.934663828     -131.596811
9.257                0.934530024     -131.850808
9.258                0.934396435     -132.105308
9.259                0.934263068     -132.360309
9.26                 0.934129928      -132.61581
9.261                0.933997022      -132.87181
9.262                0.933864355     -133.128308
9.263                0.933731932     -133.385304
9.264                0.933599761     -133.642796
9.265                0.933467847     -133.900782
9.266                0.933336196     -134.159263
9.267                0.933204814     -134.418236
9.268                0.933073706     -134.677701
9.269                 0.93294288     -134.937656
9.27                 0.932812342     -135.198101
9.271                0.932682096     -135.459033
9.272                 0.93255215     -135.720452
9.273                 0.93242251     -135.982356
9.274                0.932293182     -136.244745
9.275                0.932164171     -136.507616
9.276                0.932035485     -136.770968
9.277                 0.93190713       -137.0348
9.278                0.931779111      -137.29911
9.279                0.931651436     -137.563898
9.28                  0.93152411     -137.829161
9.281                 0.93139714     -138.094898
9.282                0.931270532     -138.361108
9.283                0.931144292     -138.627789
9.284                0.931018428     -138.894939
9.285                0.930892945     -139.162557
9.286                 0.93076785     -139.430641
9.287                0.930643149      -139.69919
9.288                0.930518848     -139.968202
9.289                0.930394955     -140.237674
9.29                 0.930271476     -140.507607
9.291                0.930148416     -140.777997
9.292                0.930025784     -141.048842
9.293                0.929903584     -141.320142
9.294                0.929781825     -141.591894
9.295                0.929660511     -141.864097
9.296                0.929539651     -142.136748
9.297                0.929419249     -142.409845
9.298                0.929299314     -142.683387
9.299                0.929179851     -142.957372
9.3                  0.929060868     -143.231798
9.301                 0.92894237     -143.506662
9.302                0.928824364     -143.781962
9.303                0.928706858     -144.057698
9.304                0.928589856     -144.333866
9.305                0.928473367     -144.610464
9.306                0.928357397      -144.88749
9.307                0.928241952     -145.164942
9.308                0.928127039     -145.442818
9.309                0.928012665     -145.721115
9.31                 0.927898836     -145.999832
9.311                0.927785558     -146.278966
9.312                0.927672839     -146.558514
9.313                0.927560685     -146.838475
9.314                0.927449103     -147.118846
9.315                0.927338099     -147.399624
9.316                0.927227679     -147.680808
9.317                0.927117851     -147.962394
9.318                0.927008621      -148.24438
9.319                0.926899995     -148.526764
9.32                  0.92679198     -148.809544
9.321                0.926684583     -149.092716
9.322                 0.92657781     -149.376278
9.323                0.926471668     -149.660228
9.324                0.926366162     -149.944562
9.325                  0.9262613     -150.229279
9.326                0.926157089     -150.514375
9.327                0.926053534     -150.799848
9.328                0.925950642     -151.085695
9.329                0.925848419     -151.371913
9.33                 0.925746872       -151.6585
9.331                0.925646007     -151.945453
9.332                0.925545831     -152.232768
9.333                0.925446349     -152.520444
9.334                0.925347569     -152.808476
9.335                0.925249497     -153.096863
9.336                0.925152138     -153.385601
9.337                0.925055499     -153.674688
9.338                0.924959586     -153.964119
9.339                0.924864406     -154.253894
9.34                 0.924769965     -154.544007
9.341                0.924676268     -154.834456
9.342                0.924583322     -155.125239
9.343                0.924491133     -155.416352
9.344                0.924399706     -155.707792
9.345                0.924309049     -155.999555
9.346                0.924219167     -156.291639
9.347                0.924130065      -156.58404
9.348                0.924041751     -156.876756
9.349                0.923954229     -157.169782
9.35                 0.923867505     -157.463116
9.351                0.923781586     -157.756754
9.352                0.923696476     -158.050693
9.353                0.923612183      -158.34493
9.354                 0.92352871     -158.639461
9.355                0.923446065     -158.934282
9.356                0.923364252     -159.229392
9.357                0.923283278     -159.524785
9.358                0.923203147     -159.820459
9.359                0.923123865      -160.11641
9.36                 0.923045437     -160.412634
9.361                0.922967869     -160.709129
9.362                0.922891167      -161.00589
9.363                0.922815334     -161.302914
9.364                0.922740377     -161.600198
9.365                0.922666301     -161.897737
9.366                0.922593111     -162.195529
9.367                0.922520812     -162.493569
9.368                0.922449408     -162.791854
9.369                0.922378905      -163.09038
9.37                 0.922309308     -163.389143
9.371                0.922240621     -163.688141
9.372                0.922172849     -163.987368
9.373                0.922105997     -164.286822
9.374                 0.92204007     -164.586498
9.375                0.921975072     -164.886392
9.376                0.921911007     -165.186502
9.377                0.921847881     -165.486823
9.378                0.921785697     -165.787351
9.379                 0.92172446     -166.088082
9.38                 0.921664174     -166.389013
9.381                0.921604843      -166.69014
9.382                0.921546472     -166.991458
9.383                0.921489064     -167.292964
9.384                0.921432624     -167.594654
9.385                0.921377155     -167.896524
9.386                0.921322662     -168.198569
9.387                0.921269147     -168.500787
9.388                0.921216616     -168.803172
9.389                0.921165071     -169.105721
9.39                 0.921114515     -169.408431
9.391                0.921064954     -169.711296
9.392                0.921016389     -170.014313
9.393                0.920968825     -170.317477
9.394                0.920922265     -170.620786
9.395                0.920876711     -170.924233
9.396                0.920832168     -171.227817
