! TOUCHSTONE file generated by CST DESIGN STUDIO
! Date and time: Tue Feb  4 13:32:36 2025
! Project name: C:\Work\MatlabApps\UnitCellOptimizationMatlab\CST\unitcell.cst
! Tree item: Tasks\Sweep1\SPara1\S-Parameters
! Header version: 2024
! Port assignment regex: !\s*Touchstone port\s*([0-9]+)\s*=\s*(CST MWS port|CST DES external port|CST DES block port)\s*(.+)\s* \(\"(.*)\"\)(\s*mode\s*([0-9]+))?.*
! Touchstone port assignment:
! Touchstone port 1 = CST DES external port 1 ("")
# GHz S MA R 50
9                    0.968835651     -66.2174851
9.001                0.968764759     -66.3126537
9.002                0.968693655     -66.4080515
9.003                0.968622338     -66.5036794
9.004                0.968550808     -66.5995379
9.005                0.968479063     -66.6956279
9.006                0.968407104       -66.79195
9.007                0.968334929      -66.888505
9.008                0.968262539     -66.9852936
9.009                0.968189932     -67.0823167
9.01                 0.968117108     -67.1795748
9.011                0.968044066     -67.2770688
9.012                0.967970806     -67.3747994
9.013                0.967897327     -67.4727674
9.014                0.967823628     -67.5709735
9.015                 0.96774971     -67.6694184
9.016                 0.96767557      -67.768103
9.017                0.967601209      -67.867028
9.018                0.967526627     -67.9661941
9.019                0.967451822     -68.0656021
9.02                 0.967376793     -68.1652529
9.021                0.967301542      -68.265147
9.022                0.967226065     -68.3652854
9.023                0.967150364     -68.4656688
9.024                0.967074437      -68.566298
9.025                0.966998285     -68.6671737
9.026                0.966921905     -68.7682968
9.027                0.966845298      -68.869668
9.028                0.966768463     -68.9712881
9.029                  0.9666914      -69.073158
9.03                 0.966614108     -69.1752783
9.031                0.966536586     -69.2776499
9.032                0.966458834     -69.3802736
9.033                0.966380851     -69.4831502
9.034                0.966302637     -69.5862805
9.035                 0.96622419     -69.6896654
9.036                0.966145511     -69.7933055
9.037                0.966066599     -69.8972017
9.038                0.965987453     -70.0013549
9.039                0.965908073     -70.1057659
9.04                 0.965828458     -70.2104354
9.041                0.965748607     -70.3153643
9.042                 0.96566852     -70.4205534
9.043                0.965588197     -70.5260036
9.044                0.965507636     -70.6317157
9.045                0.965426838     -70.7376904
9.046                0.965345801     -70.8439288
9.047                0.965264526     -70.9504315
9.048                 0.96518301     -71.0571994
9.049                0.965101255     -71.1642334
9.05                  0.96501926     -71.2715343
9.051                0.964937023      -71.379103
9.052                0.964854544     -71.4869403
9.053                0.964771823     -71.5950471
9.054                0.964688859     -71.7034241
9.055                0.964605652     -71.8120724
9.056                0.964522201     -71.9209928
9.057                0.964438505      -72.030186
9.058                0.964354564      -72.139653
9.059                0.964270378     -72.2493947
9.06                 0.964185945     -72.3594119
9.061                0.964101266     -72.4697056
9.062                 0.96401634     -72.5802765
9.063                0.963931166     -72.6911256
9.064                0.963845743     -72.8022537
9.065                0.963760072     -72.9136618
9.066                0.963674151     -73.0253507
9.067                0.963587981     -73.1373213
9.068                 0.96350156     -73.2495746
9.069                0.963414888     -73.3621114
9.07                 0.963327965     -73.4749326
9.071                 0.96324079     -73.5880392
9.072                0.963153362      -73.701432
9.073                0.963065681      -73.815112
9.074                0.962977746       -73.92908
9.075                0.962889558      -74.043337
9.076                0.962801115      -74.157884
9.077                0.962712417     -74.2727218
9.078                0.962623463     -74.3878513
9.079                0.962534253     -74.5032735
9.08                 0.962444786     -74.6189894
9.081                0.962355062     -74.7349998
9.082                0.962265081     -74.8513058
9.083                0.962174841     -74.9679082
9.084                0.962084343     -75.0848079
9.085                0.961993585     -75.2020061
9.086                0.961902568     -75.3195035
9.087                 0.96181129     -75.4373011
9.088                0.961719752        -75.5554
9.089                0.961627952     -75.6738011
9.09                 0.961535891     -75.7925053
9.091                0.961443567     -75.9115136
9.092                 0.96135098      -76.030827
9.093                 0.96125813     -76.1504465
9.094                0.961165016      -76.270373
9.095                0.961071638     -76.3906075
9.096                0.960977994     -76.5111511
9.097                0.960884085     -76.6320046
9.098                 0.96078991     -76.7531692
9.099                0.960695468     -76.8746457
9.1                  0.960600759     -76.9964353
9.101                0.960505783     -77.1185388
9.102                0.960410537     -77.2409574
9.103                0.960315023     -77.3636919
9.104                0.960219239     -77.4867435
9.105                0.960123185     -77.6101132
9.106                 0.96002686      -77.733802
9.107                0.959930263     -77.8578108
9.108                0.959833394     -77.9821408
9.109                0.959736252      -78.106793
9.11                 0.959638837     -78.2317684
9.111                0.959541147     -78.3570681
9.112                0.959443182      -78.482693
9.113                0.959344941     -78.6086444
9.114                0.959246423     -78.7349231
9.115                0.959147628     -78.8615303
9.116                0.959048555      -78.988467
9.117                0.958949202     -79.1157344
9.118                0.958849569     -79.2433334
9.119                0.958749654     -79.3712652
9.12                 0.958649457     -79.4995308
9.121                0.958548978     -79.6281313
9.122                0.958448213     -79.7570678
9.123                0.958347163     -79.8863413
9.124                0.958245827     -80.0159531
9.125                0.958144202     -80.1459042
9.126                0.958042288     -80.2761956
9.127                0.957940083     -80.4068285
9.128                0.957837586      -80.537804
9.129                0.957734795     -80.6691233
9.13                 0.957631709     -80.8007873
9.131                0.957528326     -80.9327974
9.132                0.957424644     -81.0651544
9.133                0.957320661     -81.1978597
9.134                0.957216376     -81.3309143
9.135                0.957111786     -81.4643194
9.136                0.957006889      -81.598076
9.137                0.956901683     -81.7321854
9.138                0.956796166     -81.8666486
9.139                0.956690335     -82.0014669
9.14                 0.956584187     -82.1366412
9.141                0.956477719     -82.2721729
9.142                 0.95637093     -82.4080629
9.143                0.956263815     -82.5443126
9.144                0.956156372     -82.6809229
9.145                0.956048597      -82.817895
9.146                0.955940486     -82.9552301
9.147                0.955832037     -83.0929294
9.148                0.955723245     -83.2309938
9.149                0.955614107     -83.3694246
9.15                 0.955504617     -83.5082229
9.151                0.955394773     -83.6473897
9.152                0.955284569     -83.7869262
9.153                   0.955174     -83.9268336
9.154                0.955063063     -84.0671128
9.155                0.954951752     -84.2077649
9.156                0.954840061     -84.3487911
9.157                0.954727986     -84.4901924
9.158                0.954615522     -84.6319697
9.159                0.954502661     -84.7741243
9.16                   0.9543894      -84.916657
9.161                0.954275731     -85.0595688
9.162                0.954161649     -85.2028608
9.163                0.954047149     -85.3465338
9.164                0.953932223     -85.4905889
9.165                0.953816866     -85.6350269
9.166                0.953701071     -85.7798488
9.167                0.953584833     -85.9250552
9.168                0.953468144     -86.0706473
9.169                   0.953351     -86.2166256
9.17                 0.953233395      -86.362991
9.171                0.953115321     -86.5097443
9.172                0.952996775     -86.6568862
9.173                0.952877749     -86.8044174
9.174                 0.95275824     -86.9523385
9.175                0.952638242     -87.1006502
9.176                0.952517751      -87.249353
9.177                0.952396763     -87.3984477
9.178                0.952275275     -87.5479346
9.179                0.952153283     -87.6978145
9.18                 0.952030784     -87.8480877
9.181                0.951907778     -87.9987547
9.182                0.951784262     -88.1498161
9.183                0.951660236     -88.3012722
9.184                0.951535701     -88.4531235
9.185                0.951410657     -88.6053705
9.186                0.951285107     -88.7580135
9.187                0.951159051      -88.911053
9.188                0.951032495     -89.0644894
9.189                0.950905443     -89.2183231
9.19                 0.950777899     -89.3725546
9.191                0.950649869     -89.5271843
9.192                 0.95052136     -89.6822127
9.193                 0.95039238     -89.8376403
9.194                0.950262936     -89.9934676
9.195                0.950133039     -90.1496953
9.196                0.950002696     -90.3063238
9.197                 0.94987192     -90.4633538
9.198                0.949740721     -90.6207861
9.199                0.949609109     -90.7786213
9.2                  0.949477097     -90.9368602
9.201                0.949344696     -91.0955036
9.202                 0.94921192     -91.2545525
9.203                0.949078781     -91.4140078
9.204                 0.94894529     -91.5738704
9.205                0.948811462     -91.7341414
9.206                0.948677308     -91.8948219
9.207                0.948542841      -92.055913
9.208                0.948408074      -92.217416
9.209                0.948273017      -92.379332
9.21                 0.948137683     -92.5416624
9.211                0.948002084     -92.7044085
9.212                0.947866229     -92.8675716
9.213                0.947730129     -93.0311532
9.214                0.947593794     -93.1951547
9.215                0.947457234     -93.3595775
9.216                0.947320456     -93.5244232
9.217                0.947183469     -93.6896933
9.218                0.947046281     -93.8553892
9.219                0.946908898     -94.0215126
9.22                 0.946771326      -94.188065
9.221                0.946633571     -94.3550479
9.222                0.946495638      -94.522463
9.223                0.946357531     -94.6903117
9.224                0.946219255     -94.8585957
9.225                0.946080812     -95.0273165
9.226                0.945942205     -95.1964757
9.227                0.945803437     -95.3660748
9.228                 0.94566451     -95.5361153
9.229                0.945525424     -95.7065988
9.23                 0.945386182     -95.8775268
9.231                0.945246782     -96.0489007
9.232                0.945107227     -96.2207221
9.233                0.944967515     -96.3929923
9.234                0.944827647     -96.5657129
9.235                0.944687622     -96.7388852
9.236                0.944547439     -96.9125107
9.237                0.944407097     -97.0865907
9.238                0.944266595     -97.2611266
9.239                0.944125931     -97.4361198
9.24                 0.943985105     -97.6115715
9.241                0.943844115     -97.7874831
9.242                0.943702959     -97.9638558
9.243                0.943561636     -98.1406909
9.244                0.943420144     -98.3179897
9.245                 0.94327848     -98.4957534
9.246                0.943136645     -98.6739832
9.247                0.942994635     -98.8526802
9.248                0.942852449     -99.0318458
9.249                0.942710086     -99.2114809
9.25                 0.942567543     -99.3915869
9.251                 0.94242482     -99.5721647
9.252                0.942281914     -99.7532156
9.253                0.942138825     -99.9347405
9.254                0.941995551     -100.116741
9.255                 0.94185209     -100.299217
9.256                0.941708441     -100.482171
9.257                0.941564604     -100.665603
9.258                0.941420577     -100.849515
9.259                0.941276359     -101.033907
9.26                  0.94113195      -101.21878
9.261                0.940987348     -101.404136
9.262                0.940842552     -101.589976
9.263                0.940697563       -101.7763
9.264                 0.94055238     -101.963109
9.265                0.940407002     -102.150405
9.266                 0.94026143     -102.338188
9.267                0.940115662     -102.526459
9.268                0.939969699     -102.715219
9.269                 0.93982354      -102.90447
9.27                 0.939677186     -103.094211
9.271                0.939530638     -103.284445
9.272                0.939383895     -103.475171
9.273                0.939236957     -103.666391
9.274                0.939089825     -103.858106
9.275                  0.9389425     -104.050316
9.276                0.938794983     -104.243023
9.277                0.938647273     -104.436226
9.278                0.938499372     -104.629928
9.279                0.938351281     -104.824129
9.28                    0.938203     -105.018829
9.281                0.938054532      -105.21403
9.282                0.937905876     -105.409732
9.283                0.937757034     -105.605937
9.284                0.937608008     -105.802644
9.285                0.937458798     -105.999856
9.286                0.937309407     -106.197571
9.287                0.937159835     -106.395793
9.288                0.937010085      -106.59452
9.289                0.936860158     -106.793754
9.29                 0.936710056     -106.993496
9.291                 0.93655978     -107.193746
9.292                0.936409332     -107.394506
9.293                0.936258716     -107.595775
9.294                0.936107931     -107.797554
9.295                0.935956981     -107.999846
9.296                0.935805868     -108.202649
9.297                0.935654593     -108.405964
9.298                 0.93550316     -108.609793
9.299                 0.93535157     -108.814137
9.3                  0.935199826     -109.018994
9.301                 0.93504793     -109.224368
9.302                0.934895885     -109.430257
9.303                0.934743694     -109.636663
9.304                0.934591359     -109.843586
9.305                0.934438882     -110.051027
9.306                0.934286267     -110.258987
9.307                0.934133516     -110.467466
9.308                0.933980633     -110.676464
9.309                0.933827619     -110.885983
9.31                 0.933674479     -111.096023
9.311                0.933521214     -111.306584
9.312                0.933367829     -111.517667
9.313                0.933214326     -111.729273
9.314                0.933060709     -111.941402
9.315                0.932906981     -112.154055
9.316                0.932753144     -112.367231
9.317                0.932599203     -112.580932
9.318                0.932445161     -112.795158
9.319                0.932291021      -113.00991
9.32                 0.932136787     -113.225188
9.321                0.931982462     -113.440992
9.322                 0.93182805     -113.657323
9.323                0.931673554     -113.874181
9.324                0.931518979     -114.091568
9.325                0.931364328     -114.309482
9.326                0.931209605     -114.527925
9.327                0.931054814     -114.746896
9.328                0.930899958     -114.966397
9.329                0.930745042     -115.186428
9.33                 0.930590069     -115.406989
9.331                0.930435044     -115.628079
9.332                0.930279971     -115.849701
9.333                0.930124854     -116.071853
9.334                0.929969697     -116.294537
9.335                0.929814504     -116.517751
9.336                0.929659279     -116.741498
9.337                0.929504028     -116.965776
9.338                0.929348754     -117.190587
9.339                0.929193462      -117.41593
9.34                 0.929038156     -117.641806
9.341                0.928882841     -117.868214
9.342                0.928727522     -118.095155
9.343                0.928572202     -118.322629
9.344                0.928416887     -118.550636
9.345                0.928261582     -118.779177
9.346                 0.92810629     -119.008251
9.347                0.927951018     -119.237859
9.348                 0.92779577        -119.468
9.349                 0.92764055     -119.698674
9.35                 0.927485364     -119.929883
9.351                0.927330217     -120.161625
9.352                0.927175113       -120.3939
9.353                0.927020058      -120.62671
9.354                0.926865058     -120.860053
9.355                0.926710116     -121.093929
9.356                0.926555239     -121.328339
9.357                0.926400431     -121.563282
9.358                0.926245699     -121.798759
9.359                0.926091046     -122.034769
9.36                 0.925936479     -122.271312
9.361                0.925782004     -122.508388
9.362                0.925627625     -122.745997
9.363                0.925473348     -122.984138
9.364                0.925319179     -123.222811
9.365                0.925165124     -123.462017
9.366                0.925011187     -123.701755
9.367                0.924857375     -123.942024
9.368                0.924703693     -124.182824
9.369                0.924550148     -124.424155
9.37                 0.924396745     -124.666017
9.371                 0.92424349      -124.90841
9.372                0.924090388     -125.151332
9.373                0.923937447     -125.394784
9.374                0.923784671     -125.638765
9.375                0.923632067     -125.883274
9.376                0.923479642     -126.128312
9.377                  0.9233274     -126.373878
9.378                0.923175348     -126.619971
9.379                0.923023493     -126.866591
9.38                  0.92287184     -127.113737
9.381                0.922720397     -127.361409
9.382                0.922569168     -127.609606
9.383                0.922418162     -127.858327
9.384                0.922267383     -128.107573
9.385                0.922116838     -128.357341
9.386                0.921966535     -128.607632
9.387                0.921816479     -128.858446
9.388                0.921666677      -129.10978
9.389                0.921517135     -129.361635
9.39                 0.921367861     -129.614009
9.391                 0.92121886     -129.866902
9.392                 0.92107014     -130.120314
9.393                0.920921707     -130.374243
9.394                0.920773567     -130.628688
9.395                0.920625729     -130.883649
9.396                0.920478198     -131.139124
