! TOUCHSTONE file generated by CST DESIGN STUDIO
! Date and time: Tue Feb  4 13:32:37 2025
! Project name: C:\Work\MatlabApps\UnitCellOptimizationMatlab\CST\unitcell.cst
! Tree item: Tasks\Sweep1\SPara1\S-Parameters
! Header version: 2024
! Port assignment regex: !\s*Touchstone port\s*([0-9]+)\s*=\s*(CST MWS port|CST DES external port|CST DES block port)\s*(.+)\s* \(\"(.*)\"\)(\s*mode\s*([0-9]+))?.*
! Touchstone port assignment:
! Touchstone port 1 = CST DES external port 1 ("")
# GHz S MA R 50
9                     0.96945675     -63.2571354
9.001                0.969390646     -63.3460136
9.002                0.969324336     -63.4351015
9.003                0.969257819        -63.5244
9.004                0.969191095     -63.6139096
9.005                0.969124163      -63.703631
9.006                0.969057023     -63.7935648
9.007                0.968989674     -63.8837118
9.008                0.968922115     -63.9740725
9.009                0.968854345     -64.0646478
9.01                 0.968786364     -64.1554382
9.011                0.968718172     -64.2464445
9.012                0.968649767     -64.3376673
9.013                0.968581149     -64.4291073
9.014                0.968512317     -64.5207652
9.015                0.968443271     -64.6126417
9.016                0.968374009     -64.7047374
9.017                0.968304533     -64.7970532
9.018                0.968234839     -64.8895896
9.019                0.968164929     -64.9823473
9.02                 0.968094801     -65.0753272
9.021                0.968024455     -65.1685298
9.022                0.967953889     -65.2619558
9.023                0.967883104     -65.3556061
9.024                0.967812099     -65.4494813
9.025                0.967740873     -65.5435821
9.026                0.967669425     -65.6379092
9.027                0.967597754     -65.7324633
9.028                0.967525861     -65.8272452
9.029                0.967453743     -65.9222556
9.03                 0.967381402     -66.0174952
9.031                0.967308835     -66.1129647
9.032                0.967236043     -66.2086649
9.033                0.967163024     -66.3045965
9.034                0.967089778     -66.4007602
9.035                0.967016305     -66.4971568
9.036                0.966942603      -66.593787
9.037                0.966868672     -66.6906515
9.038                0.966794511     -66.7877511
9.039                 0.96672012     -66.8850866
9.04                 0.966645497     -66.9826587
9.041                0.966570643      -67.080468
9.042                0.966495556     -67.1785155
9.043                0.966420236     -67.2768018
9.044                0.966344682     -67.3753278
9.045                0.966268893     -67.4740941
9.046                 0.96619287     -67.5731015
9.047                 0.96611661     -67.6723508
9.048                0.966040114     -67.7718428
9.049                 0.96596338     -67.8715782
9.05                 0.965886409     -67.9715578
9.051                0.965809199     -68.0717823
9.052                0.965731749     -68.1722527
9.053                0.965654059     -68.2729696
9.054                0.965576129     -68.3739338
9.055                0.965497957     -68.4751461
9.056                0.965419544     -68.5766073
9.057                0.965340887     -68.6783181
9.058                0.965261987     -68.7802795
9.059                0.965182842     -68.8824921
9.06                 0.965103453     -68.9849568
9.061                0.965023819     -69.0876744
9.062                0.964943938     -69.1906456
9.063                 0.96486381     -69.2938713
9.064                0.964783434     -69.3973523
9.065                 0.96470281     -69.5010894
9.066                0.964621937     -69.6050834
9.067                0.964540815     -69.7093351
9.068                0.964459442     -69.8138453
9.069                0.964377818      -69.918615
9.07                 0.964295942     -70.0236447
9.071                0.964213814     -70.1289355
9.072                0.964131433     -70.2344882
9.073                0.964048798     -70.3403035
9.074                0.963965908     -70.4463823
9.075                0.963882763     -70.5527254
9.076                0.963799363     -70.6593337
9.077                0.963715705      -70.766208
9.078                0.963631791     -70.8733491
9.079                0.963547619     -70.9807579
9.08                 0.963463187     -71.0884353
9.081                0.963378497     -71.1963821
9.082                0.963293547     -71.3045991
9.083                0.963208336     -71.4130873
9.084                0.963122863     -71.5218473
9.085                0.963037129     -71.6308802
9.086                0.962951131     -71.7401868
9.087                0.962864871      -71.849768
9.088                0.962778346     -71.9596245
9.089                0.962691557     -72.0697574
9.09                 0.962604502     -72.1801674
9.091                0.962517181     -72.2908554
9.092                0.962429593     -72.4018223
9.093                0.962341738      -72.513069
9.094                0.962253614     -72.6245965
9.095                0.962165222     -72.7364054
9.096                 0.96207656     -72.8484968
9.097                0.961987628     -72.9608716
9.098                0.961898426     -73.0735306
9.099                0.961808951     -73.1864747
9.1                  0.961719205     -73.2997048
9.101                0.961629186     -73.4132218
9.102                0.961538893     -73.5270267
9.103                0.961448326     -73.6411203
9.104                0.961357485     -73.7555036
9.105                0.961266368     -73.8701774
9.106                0.961174974     -73.9851427
9.107                0.961083304     -74.1004003
9.108                0.960991357     -74.2159513
9.109                0.960899132     -74.3317964
9.11                 0.960806627     -74.4479367
9.111                0.960713844     -74.5643731
9.112                 0.96062078     -74.6811064
9.113                0.960527436     -74.7981377
9.114                0.960433811     -74.9154679
9.115                0.960339903     -75.0330978
9.116                0.960245713     -75.1510284
9.117                 0.96015124     -75.2692608
9.118                0.960056483     -75.3877957
9.119                0.959961441     -75.5066342
9.12                 0.959866115     -75.6257772
9.121                0.959770503     -75.7452256
9.122                0.959674604     -75.8649805
9.123                0.959578419     -75.9850427
9.124                0.959481945     -76.1054132
9.125                0.959385184      -76.226093
9.126                0.959288134      -76.347083
9.127                0.959190795     -76.4683843
9.128                0.959093166     -76.5899977
9.129                0.958995246     -76.7119242
9.13                 0.958897035     -76.8341649
9.131                0.958798532     -76.9567206
9.132                0.958699737     -77.0795924
9.133                0.958600649     -77.2027812
9.134                0.958501267      -77.326288
9.135                0.958401591     -77.4501139
9.136                0.958301621     -77.5742597
9.137                0.958201356     -77.6987265
9.138                0.958100794     -77.8235152
9.139                0.957999937      -77.948627
9.14                 0.957898782     -78.0740626
9.141                 0.95779733     -78.1998232
9.142                 0.95769558     -78.3259098
9.143                0.957593531     -78.4523232
9.144                0.957491184     -78.5790647
9.145                0.957388536     -78.7061351
9.146                0.957285589     -78.8335354
9.147                0.957182341     -78.9612667
9.148                0.957078792       -79.08933
9.149                 0.95697494     -79.2177263
9.15                 0.956870787     -79.3464567
9.151                0.956766331      -79.475522
9.152                0.956661572     -79.6049234
9.153                0.956556509     -79.7346619
9.154                0.956451142     -79.8647385
9.155                 0.95634547     -79.9951542
9.156                0.956239493       -80.12591
9.157                0.956133211     -80.2570071
9.158                0.956026622     -80.3884464
9.159                0.955919727     -80.5202289
9.16                 0.955812525     -80.6523557
9.161                0.955705015     -80.7848279
9.162                0.955597197     -80.9176464
9.163                0.955489071     -81.0508124
9.164                0.955380637     -81.1843268
9.165                0.955271893     -81.3181907
9.166                0.955162839     -81.4524052
9.167                0.955053476     -81.5869713
9.168                0.954943802       -81.72189
9.169                0.954833817     -81.8571625
9.17                 0.954723521     -81.9927897
9.171                0.954612913     -82.1287728
9.172                0.954501994     -82.2651128
9.173                0.954390762     -82.4018107
9.174                0.954279218     -82.5388676
9.175                 0.95416736     -82.6762847
9.176                 0.95405519     -82.8140628
9.177                0.953942705     -82.9522032
9.178                0.953829907     -83.0907069
9.179                0.953716794     -83.2295749
9.18                 0.953603366     -83.3688084
9.181                0.953489624     -83.5084084
9.182                0.953375566     -83.6483759
9.183                0.953261193     -83.7887121
9.184                0.953146504     -83.9294181
9.185                0.953031499     -84.0704949
9.186                0.952916178     -84.2119436
9.187                 0.95280054     -84.3537652
9.188                0.952684585      -84.495961
9.189                0.952568314     -84.6385319
9.19                 0.952451725     -84.7814791
9.191                0.952334819     -84.9248036
9.192                0.952217595     -85.0685065
9.193                0.952100053      -85.212589
9.194                0.951982193     -85.3570521
9.195                0.951864015     -85.5018968
9.196                0.951745519     -85.6471244
9.197                0.951626705     -85.7927359
9.198                0.951507571     -85.9387324
9.199                0.951388119      -86.085115
9.2                  0.951268349     -86.2318848
9.201                0.951148259     -86.3790429
9.202                 0.95102785     -86.5265904
9.203                0.950907123     -86.6745284
9.204                0.950786076      -86.822858
9.205                 0.95066471     -86.9715803
9.206                0.950543024     -87.1206965
9.207                 0.95042102     -87.2702075
9.208                0.950298696     -87.4201146
9.209                0.950176053     -87.5704189
9.21                  0.95005309     -87.7211213
9.211                0.949929809     -87.8722232
9.212                0.949806208     -88.0237255
9.213                0.949682288     -88.1756294
9.214                0.949558049      -88.327936
9.215                0.949433491     -88.4806463
9.216                0.949308614     -88.6337616
9.217                0.949183418     -88.7872829
9.218                0.949057903     -88.9412114
9.219                 0.94893207     -89.0955481
9.22                 0.948805919     -89.2502941
9.221                0.948679449     -89.4054507
9.222                0.948552661     -89.5610188
9.223                0.948425556     -89.7169996
9.224                0.948298132     -89.8733942
9.225                0.948170392     -90.0302038
9.226                0.948042334     -90.1874294
9.227                0.947913959     -90.3450722
9.228                0.947785267     -90.5031332
9.229                 0.94765626     -90.6616136
9.23                 0.947526936     -90.8205145
9.231                0.947397296      -90.979837
9.232                0.947267341     -91.1395823
9.233                0.947137071     -91.2997513
9.234                0.947006486     -91.4603454
9.235                0.946875587     -91.6213654
9.236                0.946744374     -91.7828127
9.237                0.946612848     -91.9446882
9.238                0.946481009     -92.1069931
9.239                0.946348857     -92.2697285
9.24                 0.946216393     -92.4328955
9.241                0.946083618     -92.5964952
9.242                0.945950532     -92.7605287
9.243                0.945817135     -92.9249971
9.244                0.945683428     -93.0899016
9.245                0.945549412     -93.2552432
9.246                0.945415087      -93.421023
9.247                0.945280454     -93.5872421
9.248                0.945145514     -93.7539017
9.249                0.945010267     -93.9210028
9.25                 0.944874714     -94.0885466
9.251                0.944738855      -94.256534
9.252                0.944602692     -94.4249663
9.253                0.944466224     -94.5938445
9.254                0.944329454     -94.7631697
9.255                0.944192381     -94.9329429
9.256                0.944055006     -95.1031654
9.257                0.943917331     -95.2738381
9.258                0.943779356     -95.4449621
9.259                0.943641081     -95.6165386
9.26                 0.943502509     -95.7885686
9.261                0.943363639     -95.9610531
9.262                0.943224474     -96.1339933
9.263                0.943085012     -96.3073903
9.264                0.942945257      -96.481245
9.265                0.942805208     -96.6555586
9.266                0.942664867     -96.8303322
9.267                0.942524235     -97.0055667
9.268                0.942383313     -97.1812633
9.269                0.942242102      -97.357423
9.27                 0.942100603     -97.5340469
9.271                0.941958818     -97.7111359
9.272                0.941816747     -97.8886913
9.273                0.941674392      -98.066714
9.274                0.941531753      -98.245205
9.275                0.941388833     -98.4241654
9.276                0.941245633     -98.6035962
9.277                0.941102154     -98.7834985
9.278                0.940958397     -98.9638733
9.279                0.940814363     -99.1447216
9.28                 0.940670055     -99.3260445
9.281                0.940525473     -99.5078428
9.282                0.940380619     -99.6901178
9.283                0.940235495     -99.8728703
9.284                0.940090102     -100.056101
9.285                0.939944441     -100.239812
9.286                0.939798514     -100.424003
9.287                0.939652323     -100.608676
9.288                0.939505869     -100.793832
9.289                0.939359155      -100.97947
9.29                 0.939212181     -101.165594
9.291                 0.93906495     -101.352203
9.292                0.938917463     -101.539298
9.293                0.938769722     -101.726881
9.294                0.938621728     -101.914952
9.295                0.938473485     -102.103513
9.296                0.938324993     -102.292564
9.297                0.938176255     -102.482106
9.298                0.938027272      -102.67214
9.299                0.937878046     -102.862667
9.3                   0.93772858     -103.053689
9.301                0.937578876     -103.245205
9.302                0.937428935     -103.437217
9.303                 0.93727876     -103.629726
9.304                0.937128353     -103.822733
9.305                0.936977716     -104.016238
9.306                0.936826851     -104.210242
9.307                 0.93667576     -104.404747
9.308                0.936524447     -104.599753
9.309                0.936372912     -104.795262
9.31                 0.936221159     -104.991273
9.311                 0.93606919     -105.187788
9.312                0.935917008     -105.384807
9.313                0.935764614     -105.582332
9.314                0.935612011     -105.780364
9.315                0.935459202     -105.978902
9.316                0.935306189     -106.177949
9.317                0.935152976     -106.377504
9.318                0.934999564     -106.577569
9.319                0.934845956     -106.778145
9.32                 0.934692155     -106.979231
9.321                0.934538165     -107.180829
9.322                0.934383986      -107.38294
9.323                0.934229624     -107.585565
9.324                0.934075079     -107.788704
9.325                0.933920356     -107.992358
9.326                0.933765456     -108.196527
9.327                0.933610384     -108.401213
9.328                0.933455142     -108.606416
9.329                0.933299734     -108.812137
9.33                 0.933144161     -109.018376
9.331                0.932988428     -109.225135
9.332                0.932832538     -109.432414
9.333                0.932676494     -109.640213
9.334                0.932520299     -109.848534
9.335                0.932363956     -110.057376
9.336                0.932207469     -110.266741
9.337                0.932050841     -110.476629
9.338                0.931894076     -110.687041
9.339                0.931737177     -110.897977
9.34                 0.931580148     -111.109438
9.341                0.931422991     -111.321425
9.342                0.931265712     -111.533938
9.343                0.931108313     -111.746978
9.344                0.930950798     -111.960545
9.345                 0.93079317      -112.17464
9.346                0.930635435     -112.389263
9.347                0.930477594     -112.604415
9.348                0.930319653     -112.820096
9.349                0.930161615     -113.036307
9.35                 0.930003484     -113.253049
9.351                0.929845264     -113.470321
9.352                0.929686959     -113.688125
9.353                0.929528573      -113.90646
9.354                 0.92937011     -114.125327
9.355                0.929211575     -114.344727
9.356                0.929052971      -114.56466
9.357                0.928894303     -114.785126
9.358                0.928735575     -115.006126
9.359                0.928576791      -115.22766
9.36                 0.928417956     -115.449728
9.361                0.928259075     -115.672331
9.362                0.928100151     -115.895469
9.363                0.927941189     -116.119142
9.364                0.927782193     -116.343351
9.365                0.927623169     -116.568096
9.366                0.927464121     -116.793377
9.367                0.927305054     -117.019195
9.368                0.927145972     -117.245549
9.369                 0.92698688      -117.47244
9.37                 0.926827782     -117.699869
9.371                0.926668685     -117.927834
9.372                0.926509592     -118.156337
9.373                0.926350509     -118.385378
9.374                0.926191441     -118.614956
9.375                0.926032392     -118.845072
9.376                0.925873368     -119.075726
9.377                0.925714373     -119.306918
9.378                0.925555414     -119.538648
9.379                0.925396495     -119.770916
9.38                 0.925237621     -120.003723
9.381                0.925078799     -120.237067
9.382                0.924920032      -120.47095
9.383                0.924761327     -120.705371
9.384                0.924602689      -120.94033
9.385                0.924444124     -121.175827
9.386                0.924285636     -121.411863
9.387                0.924127232     -121.648436
9.388                0.923968918     -121.885547
9.389                0.923810698     -122.123195
9.39                 0.923652578     -122.361382
9.391                0.923494565     -122.600105
9.392                0.923336665     -122.839366
9.393                0.923178882     -123.079164
9.394                0.923021223     -123.319498
9.395                0.922863693      -123.56037
9.396                0.922706299     -123.801777
