! TOUCHSTONE file generated by CST DESIGN STUDIO
! Date and time: Tue Feb  4 13:32:39 2025
! Project name: C:\Work\MatlabApps\UnitCellOptimizationMatlab\CST\unitcell.cst
! Tree item: Tasks\Sweep1\SPara1\S-Parameters
! Header version: 2024
! Port assignment regex: !\s*Touchstone port\s*([0-9]+)\s*=\s*(CST MWS port|CST DES external port|CST DES block port)\s*(.+)\s* \(\"(.*)\"\)(\s*mode\s*([0-9]+))?.*
! Touchstone port assignment:
! Touchstone port 1 = CST DES external port 1 ("")
# GHz S MA R 50
9                    0.970099356     -60.2942371
9.001                0.970037227     -60.3770949
9.002                0.969974913     -60.4601441
9.003                0.969912413     -60.5433854
9.004                0.969849726     -60.6268193
9.005                0.969786853     -60.7104465
9.006                0.969723793     -60.7942675
9.007                0.969660544      -60.878283
9.008                0.969597107     -60.9624936
9.009                 0.96953348     -61.0468999
9.01                 0.969469664     -61.1315025
9.011                0.969405658      -61.216302
9.012                 0.96934146     -61.3012991
9.013                0.969277071     -61.3864944
9.014                0.969212489     -61.4718886
9.015                0.969147715     -61.5574821
9.016                0.969082748     -61.6432758
9.017                0.969017587     -61.7292701
9.018                0.968952231     -61.8154658
9.019                 0.96888668     -61.9018635
9.02                 0.968820933     -61.9884639
9.021                 0.96875499     -62.0752675
9.022                 0.96868885      -62.162275
9.023                0.968622512      -62.249487
9.024                0.968555977     -62.3369043
9.025                0.968489242     -62.4245275
9.026                0.968422309     -62.5123571
9.027                0.968355175     -62.6003939
9.028                0.968287841     -62.6886386
9.029                0.968220306     -62.7770918
9.03                 0.968152569     -62.8657541
9.031                0.968084629     -62.9546262
9.032                0.968016487     -63.0437088
9.033                0.967948141     -63.1330026
9.034                0.967879591     -63.2225082
9.035                0.967810837     -63.3122263
9.036                0.967741877     -63.4021576
9.037                0.967672711     -63.4923027
9.038                0.967603338     -63.5826624
9.039                0.967533758     -63.6732374
9.04                 0.967463971     -63.7640282
9.041                0.967393975     -63.8550356
9.042                 0.96732377     -63.9462603
9.043                0.967253355     -64.0377031
9.044                 0.96718273     -64.1293645
9.045                0.967111895     -64.2212452
9.046                0.967040847     -64.3133461
9.047                0.966969588     -64.4056677
9.048                0.966898117     -64.4982108
9.049                0.966826432     -64.5909762
9.05                 0.966754533     -64.6839644
9.051                0.966682419     -64.7771762
9.052                0.966610091     -64.8706124
9.053                0.966537547     -64.9642736
9.054                0.966464786     -65.0581606
9.055                0.966391809     -65.1522741
9.056                0.966318614     -65.2466149
9.057                0.966245201     -65.3411835
9.058                 0.96617157     -65.4359809
9.059                0.966097718     -65.5310076
9.06                 0.966023648     -65.6262645
9.061                0.965949356     -65.7217523
9.062                0.965874843     -65.8174717
9.063                0.965800109     -65.9134234
9.064                0.965725152     -66.0096083
9.065                0.965649973      -66.106027
9.066                0.965574569     -66.2026803
9.067                0.965498942      -66.299569
9.068                 0.96542309     -66.3966938
9.069                0.965347013     -66.4940554
9.07                 0.965270709     -66.5916547
9.071                0.965194179     -66.6894924
9.072                0.965117422     -66.7875692
9.073                0.965040437      -66.885886
9.074                0.964963224     -66.9844434
9.075                0.964885782     -67.0832424
9.076                 0.96480811     -67.1822835
9.077                0.964730209     -67.2815677
9.078                0.964652076     -67.3810957
9.079                0.964573713     -67.4808683
9.08                 0.964495117     -67.5808862
9.081                0.964416289     -67.6811503
9.082                0.964337228     -67.7816614
9.083                0.964257934     -67.8824202
9.084                0.964178405     -67.9834276
9.085                0.964098642     -68.0846843
9.086                0.964018643     -68.1861911
9.087                0.963938408     -68.2879489
9.088                0.963857937     -68.3899584
9.089                0.963777229     -68.4922205
9.09                 0.963696283      -68.594736
9.091                  0.9636151     -68.6975057
9.092                0.963533677     -68.8005304
9.093                0.963452015     -68.9038109
9.094                0.963370113     -69.0073481
9.095                0.963287971     -69.1111427
9.096                0.963205588     -69.2151957
9.097                0.963122964     -69.3195078
9.098                0.963040097     -69.4240799
9.099                0.962956988     -69.5289128
9.1                  0.962873636     -69.6340074
9.101                0.962790041     -69.7393645
9.102                0.962706201     -69.8449849
9.103                0.962622116     -69.9508695
9.104                0.962537787     -70.0570191
9.105                0.962453211     -70.1634347
9.106                 0.96236839      -70.270117
9.107                0.962283322     -70.3770669
9.108                0.962198006     -70.4842853
9.109                0.962112443     -70.5917731
9.11                 0.962026631      -70.699531
9.111                0.961940571     -70.8075601
9.112                0.961854262     -70.9158611
9.113                0.961767703     -71.0244349
9.114                0.961680893     -71.1332825
9.115                0.961593834     -71.2424046
9.116                0.961506523     -71.3518023
9.117                 0.96141896     -71.4614763
9.118                0.961331146     -71.5714276
9.119                0.961243079     -71.6816571
9.12                 0.961154759     -71.7921656
9.121                0.961066186     -71.9029541
9.122                0.960977359     -72.0140235
9.123                0.960888277     -72.1253746
9.124                0.960798942     -72.2370084
9.125                0.960709351     -72.3489258
9.126                0.960619504     -72.4611278
9.127                0.960529402     -72.5736152
9.128                0.960439044     -72.6863889
9.129                0.960348429     -72.7994499
9.13                 0.960257557     -72.9127992
9.131                0.960166428     -73.0264376
9.132                0.960075041     -73.1403661
9.133                0.959983396     -73.2545856
9.134                0.959891492     -73.3690971
9.135                 0.95979933     -73.4839015
9.136                0.959706909     -73.5989997
9.137                0.959614228     -73.7143928
9.138                0.959521288     -73.8300816
9.139                0.959428087     -73.9460672
9.14                 0.959334627     -74.0623505
9.141                0.959240906     -74.1789324
9.142                0.959146924      -74.295814
9.143                 0.95905268     -74.4129962
9.144                0.958958176       -74.53048
9.145                 0.95886341     -74.6482663
9.146                0.958768382     -74.7663562
9.147                0.958673092     -74.8847506
9.148                 0.95857754     -75.0034505
9.149                0.958481725      -75.122457
9.15                 0.958385648      -75.241771
9.151                0.958289307     -75.3613936
9.152                0.958192704     -75.4813256
9.153                0.958095838     -75.6015683
9.154                0.957998708     -75.7221225
9.155                0.957901315     -75.8429893
9.156                0.957803659     -75.9641697
9.157                0.957705739     -76.0856647
9.158                0.957607555     -76.2074755
9.159                0.957509108     -76.3296029
9.16                 0.957410396     -76.4520481
9.161                0.957311421     -76.5748122
9.162                0.957212182      -76.697896
9.163                0.957112678     -76.8213008
9.164                0.957012911     -76.9450276
9.165                 0.95691288     -77.0690774
9.166                0.956812585     -77.1934513
9.167                0.956712026     -77.3181504
9.168                0.956611203     -77.4431758
9.169                0.956510116     -77.5685286
9.17                 0.956408765     -77.6942098
9.171                0.956307151     -77.8202206
9.172                0.956205272     -77.9465621
9.173                0.956103131     -78.0732353
9.174                0.956000726     -78.2002415
9.175                0.955898057     -78.3275816
9.176                0.955795125     -78.4552569
9.177                0.955691931     -78.5832685
9.178                0.955588473     -78.7116176
9.179                0.955484752     -78.8403052
9.18                 0.955380769     -78.9693326
9.181                0.955276523     -79.0987009
9.182                0.955172015     -79.2284113
9.183                0.955067245      -79.358465
9.184                0.954962212     -79.4888632
9.185                0.954856918      -79.619607
9.186                0.954751362     -79.7506978
9.187                0.954645544     -79.8821366
9.188                0.954539465     -80.0139248
9.189                0.954433125     -80.1460636
9.19                 0.954326523     -80.2785542
9.191                 0.95421966      -80.411398
9.192                0.954112536     -80.5445961
9.193                 0.95400515     -80.6781498
9.194                0.953897504     -80.8120606
9.195                0.953789596     -80.9463296
9.196                0.953681426     -81.0809582
9.197                0.953572996     -81.2159478
9.198                0.953464303     -81.3512996
9.199                0.953355348     -81.4870151
9.2                  0.953246131     -81.6230957
9.201                0.953136651     -81.7595428
9.202                0.953026907     -81.8963577
9.203                0.952916899      -82.033542
9.204                0.952806625      -82.171097
9.205                0.952696086     -82.3090243
9.206                0.952585279     -82.4473253
9.207                0.952474203     -82.5860016
9.208                0.952362857     -82.7250548
9.209                0.952251238     -82.8644863
9.21                 0.952139346     -83.0042978
9.211                0.952027177     -83.1444908
9.212                0.951914728     -83.2850671
9.213                0.951801998     -83.4260282
9.214                0.951688981      -83.567376
9.215                0.951575675      -83.709112
9.216                0.951462075     -83.8512381
9.217                0.951348176      -83.993756
9.218                0.951233973     -84.1366675
9.219                0.951119459     -84.2799745
9.22                 0.951004628     -84.4236789
9.221                0.950889471     -84.5677825
9.222                0.950773982     -84.7122873
9.223                0.950658149     -84.8571953
9.224                0.950541963     -85.0025085
9.225                0.950425412     -85.1482289
9.226                0.950308484     -85.2943585
9.227                0.950191162     -85.4408994
9.228                0.950073433     -85.5878539
9.229                0.949955279     -85.7352239
9.23                  0.94983668     -85.8830117
9.231                0.949717616     -86.0312195
9.232                0.949598062     -86.1798494
9.233                0.949477994     -86.3289035
9.234                0.949357384     -86.4783841
9.235                0.949236201     -86.6282934
9.236                0.949114412     -86.7786334
9.237                0.948991979     -86.9294063
9.238                0.948868864      -87.080614
9.239                0.948745024     -87.2322586
9.24                 0.948620411     -87.3843418
9.241                0.948494974     -87.5368653
9.242                0.948368661     -87.6898308
9.243                0.948241412     -87.8432396
9.244                0.948113164     -87.9970929
9.245                0.947983851     -88.1513915
9.246                0.947853403      -88.306136
9.247                0.947721745     -88.4613266
9.248                0.947588798     -88.6169632
9.249                0.947454481      -88.773045
9.25                 0.947318711      -88.929571
9.251                0.947181401     -89.0865392
9.252                0.947042464     -89.2439474
9.253                0.946901813     -89.4017924
9.254                0.946759362     -89.5600703
9.255                0.946615029     -89.7187766
9.256                0.946468735     -89.8779057
9.257                0.946320409     -90.0374514
9.258                 0.94616999     -90.1974063
9.259                0.946017426     -90.3577626
9.26                 0.945862682     -90.5185114
9.261                0.945705739     -90.6796432
9.262                0.945546596     -90.8411479
9.263                0.945385276     -91.0030148
9.264                0.945221824     -91.1652332
9.265                0.945056311     -91.3277921
9.266                0.944888837     -91.4906807
9.267                0.944719527     -91.6538886
9.268                0.944548533     -91.8174062
9.269                0.944376034     -91.9812248
9.27                 0.944202232     -92.1453369
9.271                0.944027348     -92.3097367
9.272                0.943851622     -92.4744199
9.273                0.943675303     -92.6393842
9.274                 0.94349865     -92.8046293
9.275                0.943321919     -92.9701569
9.276                0.943145366     -93.1359708
9.277                0.942969234     -93.3020766
9.278                0.942793753      -93.468482
9.279                0.942619134      -93.635196
9.28                 0.942445565     -93.8022292
9.281                 0.94227321     -93.9695933
9.282                0.942102204     -94.1373008
9.283                0.941932656     -94.3053648
9.284                0.941764648     -94.4737985
9.285                0.941598234     -94.6426155
9.286                0.941433444     -94.8118288
9.287                0.941270283     -94.9814514
9.288                0.941108736     -95.1514953
9.289                0.940948771     -95.3219722
9.29                  0.94079034     -95.4928928
9.291                 0.94063338      -95.664267
9.292                0.940477822     -95.8361039
9.293                0.940323584     -96.0084116
9.294                0.940170584     -96.1811975
9.295                0.940018732     -96.3544679
9.296                0.939867939     -96.5282284
9.297                0.939718114     -96.7024841
9.298                0.939569168     -96.8772392
9.299                0.939421014     -97.0524971
9.3                  0.939273566      -97.228261
9.301                0.939126744     -97.4045333
9.302                 0.93898047     -97.5813162
9.303                0.938834671     -97.7586112
9.304                0.938689277     -97.9364198
9.305                0.938544225     -98.1147429
9.306                0.938399454     -98.2935815
9.307                0.938254907      -98.472936
9.308                0.938110533     -98.6528069
9.309                0.937966285     -98.8331944
9.31                 0.937822119     -99.0140988
9.311                0.937677995     -99.1955201
9.312                0.937533876     -99.3774582
9.313                0.937389728     -99.5599132
9.314                0.937245523      -99.742885
9.315                0.937101232     -99.9263734
9.316                0.936956831     -100.110378
9.317                0.936812298       -100.2949
9.318                0.936667613     -100.479937
9.319                0.936522757     -100.665491
9.32                 0.936377716     -100.851561
9.321                0.936232475     -101.038147
9.322                0.936087022     -101.225249
9.323                0.935941345     -101.412867
9.324                0.935795435        -101.601
9.325                0.935649284      -101.78965
9.326                0.935502885     -101.978816
9.327                0.935356231     -102.168498
9.328                0.935209316     -102.358696
9.329                0.935062138      -102.54941
9.33                 0.934914692     -102.740641
9.331                0.934766975     -102.932389
9.332                0.934618985     -103.124653
9.333                 0.93447072     -103.317435
9.334                0.934322179     -103.510735
9.335                0.934173363     -103.704551
9.336                0.934024269     -103.898887
9.337                  0.9338749      -104.09374
9.338                0.933725254     -104.289112
9.339                0.933575334     -104.485003
9.34                  0.93342514     -104.681414
9.341                0.933274675     -104.878345
9.342                0.933123939     -105.075796
9.343                0.932972935     -105.273767
9.344                0.932821665      -105.47226
9.345                0.932670132     -105.671275
9.346                0.932518337     -105.870812
9.347                0.932366285     -106.070871
9.348                0.932213977     -106.271453
9.349                0.932061416     -106.472559
9.35                 0.931908607     -106.674189
9.351                0.931755552     -106.876343
9.352                0.931602254     -107.079023
9.353                0.931448718     -107.282228
9.354                0.931294946     -107.485959
9.355                0.931140942     -107.690217
9.356                 0.93098671     -107.895002
9.357                0.930832254     -108.100315
9.358                0.930677577     -108.306156
9.359                0.930522685     -108.512526
9.36                 0.930367579     -108.719424
9.361                0.930212265     -108.926853
9.362                0.930056747     -109.134812
9.363                0.929901029     -109.343302
9.364                0.929745115     -109.552323
9.365                0.929589009     -109.761876
9.366                0.929432716     -109.971961
9.367                 0.92927624     -110.182579
9.368                0.929119585      -110.39373
9.369                0.928962755     -110.605415
9.37                 0.928805756     -110.817635
9.371                0.928648592     -111.030389
9.372                0.928491266     -111.243679
9.373                0.928333785     -111.457504
9.374                0.928176151     -111.671866
9.375                0.928018371     -111.886764
9.376                0.927860448       -112.1022
9.377                0.927702388     -112.318173
9.378                0.927544195     -112.534684
9.379                0.927385873     -112.751733
9.38                 0.927227428     -112.969321
9.381                0.927068865     -113.187449
9.382                0.926910188     -113.406116
9.383                0.926751402     -113.625323
9.384                0.926592513     -113.845071
9.385                0.926433525     -114.065359
9.386                0.926274443     -114.286189
9.387                0.926115272      -114.50756
9.388                0.925956017     -114.729473
9.389                0.925796684     -114.951928
9.39                 0.925637277     -115.174925
9.391                0.925477802     -115.398465
9.392                0.925318264     -115.622548
9.393                0.925158669     -115.847174
9.394                 0.92499902     -116.072344
9.395                0.924839325     -116.298058
9.396                0.924679587     -116.524315
