! TOUCHSTONE file generated by CST DESIGN STUDIO
! Date and time: Tue Feb  4 13:32:40 2025
! Project name: C:\Work\MatlabApps\UnitCellOptimizationMatlab\CST\unitcell.cst
! Tree item: Tasks\Sweep1\SPara1\S-Parameters
! Header version: 2024
! Port assignment regex: !\s*Touchstone port\s*([0-9]+)\s*=\s*(CST MWS port|CST DES external port|CST DES block port)\s*(.+)\s* \(\"(.*)\"\)(\s*mode\s*([0-9]+))?.*
! Touchstone port assignment:
! Touchstone port 1 = CST DES external port 1 ("")
# GHz S MA R 50
9                    0.970759113     -57.3408422
9.001                 0.97070137     -57.4180079
9.002                0.970643455     -57.4953477
9.003                 0.97058537     -57.5728621
9.004                0.970527112     -57.6505518
9.005                0.970468681     -57.7284172
9.006                0.970410078     -57.8064588
9.007                0.970351301     -57.8846774
9.008                0.970292349     -57.9630733
9.009                0.970233223     -58.0416472
9.01                 0.970173922     -58.1203996
9.011                0.970114445     -58.1993312
9.012                0.970054791     -58.2784423
9.013                 0.96999496     -58.3577337
9.014                0.969934951     -58.4372059
9.015                0.969874765     -58.5168594
9.016                0.969814399     -58.5966949
9.017                0.969753855     -58.6767129
9.018                 0.96969313     -58.7569139
9.019                0.969632226     -58.8372986
9.02                  0.96957114     -58.9178675
9.021                0.969509872     -58.9986213
9.022                0.969448423     -59.0795605
9.023                 0.96938679     -59.1606856
9.024                0.969324975     -59.2419973
9.025                0.969262975     -59.3234963
9.026                0.969200791     -59.4051829
9.027                0.969138422      -59.487058
9.028                0.969075868      -59.569122
9.029                0.969013127     -59.6513755
9.03                   0.9689502     -59.7338192
9.031                0.968887085     -59.8164537
9.032                0.968823782     -59.8992795
9.033                0.968760291     -59.9822973
9.034                 0.96869661     -60.0655077
9.035                 0.96863274     -60.1489113
9.036                 0.96856868     -60.2325087
9.037                0.968504429     -60.3163006
9.038                0.968439986     -60.4002875
9.039                0.968375351       -60.48447
9.04                 0.968310524     -60.5688489
9.041                0.968245504     -60.6534247
9.042                0.968180289      -60.738198
9.043                0.968114881     -60.8231695
9.044                0.968049277     -60.9083398
9.045                0.967983478     -60.9937096
9.046                0.967917483     -61.0792794
9.047                 0.96785129       -61.16505
9.048                0.967784901     -61.2510219
9.049                0.967718313     -61.3371959
9.05                 0.967651527     -61.4235725
9.051                0.967584542     -61.5101524
9.052                0.967517357     -61.5969362
9.053                0.967449972     -61.6839247
9.054                0.967382386     -61.7711184
9.055                0.967314598      -61.858518
9.056                0.967246608     -61.9461242
9.057                0.967178415     -62.0339377
9.058                0.967110019      -62.121959
9.059                0.967041419      -62.210189
9.06                 0.966972615     -62.2986282
9.061                0.966903605     -62.3872773
9.062                 0.96683439      -62.476137
9.063                0.966764968     -62.5652079
9.064                0.966695339     -62.6544908
9.065                0.966625503     -62.7439864
9.066                0.966555458     -62.8336952
9.067                0.966485205      -62.923618
9.068                0.966414743     -63.0137556
9.069                 0.96634407     -63.1041085
9.07                 0.966273187     -63.1946775
9.071                0.966202093     -63.2854632
9.072                0.966130787     -63.3764664
9.073                0.966059269     -63.4676878
9.074                0.965987538     -63.5591281
9.075                0.965915593      -63.650788
9.076                0.965843434     -63.7426681
9.077                 0.96577106     -63.8347692
9.078                0.965698471     -63.9270921
9.079                0.965625666     -64.0196374
9.08                 0.965552644     -64.1124058
9.081                0.965479405     -64.2053981
9.082                0.965405949      -64.298615
9.083                0.965332274     -64.3920573
9.084                 0.96525838     -64.4857255
9.085                0.965184266     -64.5796206
9.086                0.965109933     -64.6737432
9.087                0.965035378      -64.768094
9.088                0.964960603     -64.8626739
9.089                0.964885605     -64.9574835
9.09                 0.964810385     -65.0525235
9.091                0.964734941     -65.1477948
9.092                0.964659274     -65.2432981
9.093                0.964583383     -65.3390341
9.094                0.964507267     -65.4350037
9.095                0.964430925     -65.5312074
9.096                0.964354358     -65.6276462
9.097                0.964277563     -65.7243208
9.098                0.964200542     -65.8212319
9.099                0.964123292     -65.9183803
9.1                  0.964045815     -66.0157668
9.101                0.963968108     -66.1133922
9.102                0.963890172     -66.2112572
9.103                0.963812005     -66.3093626
9.104                0.963733608     -66.4077093
9.105                 0.96365498     -66.5062979
9.106                 0.96357612     -66.6051293
9.107                0.963497027     -66.7042043
9.108                0.963417702     -66.8035237
9.109                0.963338143     -66.9030882
9.11                 0.963258349     -67.0028987
9.111                0.963178322      -67.102956
9.112                0.963098059     -67.2032609
9.113                 0.96301756     -67.3038141
9.114                0.962936825     -67.4046166
9.115                0.962855853     -67.5056691
9.116                0.962774644     -67.6069724
9.117                0.962693196     -67.7085273
9.118                0.962611511     -67.8103348
9.119                0.962529586     -67.9123956
9.12                 0.962447421     -68.0147105
9.121                0.962365017     -68.1172804
9.122                0.962282372     -68.2201062
9.123                0.962199486     -68.3231885
9.124                0.962116358     -68.4265284
9.125                0.962032988     -68.5301267
9.126                0.961949375     -68.6339841
9.127                0.961865519     -68.7381016
9.128                0.961781419       -68.84248
9.129                0.961697075     -68.9471202
9.13                 0.961612486      -69.052023
9.131                0.961527652     -69.1571893
9.132                0.961442573       -69.26262
9.133                0.961357247      -69.368316
9.134                0.961271674     -69.4742781
9.135                0.961185854     -69.5805071
9.136                0.961099787     -69.6870041
9.137                0.961013471     -69.7937698
9.138                0.960926907     -69.9008052
9.139                0.960840094     -70.0081112
9.14                 0.960753031     -70.1156887
9.141                0.960665718     -70.2235385
9.142                0.960578154     -70.3316615
9.143                 0.96049034     -70.4400588
9.144                0.960402275     -70.5487311
9.145                0.960313957     -70.6576795
9.146                0.960225388     -70.7669048
9.147                0.960136566      -70.876408
9.148                 0.96004749     -70.9861899
9.149                0.959958162     -71.0962516
9.15                 0.959868579     -71.2065939
9.151                0.959778742     -71.3172178
9.152                 0.95968865     -71.4281243
9.153                0.959598304     -71.5393143
9.154                0.959507701     -71.6507888
9.155                0.959416843     -71.7625486
9.156                0.959325728     -71.8745949
9.157                0.959234357     -71.9869284
9.158                0.959142729     -72.0995504
9.159                0.959050843     -72.2124616
9.16                 0.958958699      -72.325663
9.161                0.958866297     -72.4391558
9.162                0.958773637     -72.5529408
9.163                0.958680718     -72.6670191
9.164                0.958587539     -72.7813916
9.165                  0.9584941     -72.8960595
9.166                0.958400402     -73.0110236
9.167                0.958306443      -73.126285
9.168                0.958212223     -73.2418447
9.169                0.958117742     -73.3577038
9.17                    0.958023     -73.4738634
9.171                0.957927995     -73.5903243
9.172                0.957832728     -73.7070878
9.173                0.957737199     -73.8241548
9.174                0.957641407     -73.9415264
9.175                0.957545351     -74.0592037
9.176                0.957449031     -74.1771878
9.177                0.957352447     -74.2954797
9.178                0.957255599     -74.4140806
9.179                0.957158485     -74.5329915
9.18                 0.957061106     -74.6522135
9.181                 0.95696346     -74.7717478
9.182                0.956865548     -74.8915954
9.183                 0.95676737     -75.0117576
9.184                0.956668923     -75.1322355
9.185                0.956570209     -75.2530301
9.186                0.956471225     -75.3741427
9.187                0.956371973     -75.4955744
9.188                 0.95627245     -75.6173264
9.189                0.956172657        -75.7394
9.19                 0.956072592     -75.8617962
9.191                0.955972255     -75.9845163
9.192                0.955871645     -76.1075616
9.193                 0.95577076     -76.2309332
9.194                0.955669601     -76.3546324
9.195                0.955568165     -76.4786605
9.196                0.955466452     -76.6030188
9.197                 0.95536446     -76.7277085
9.198                0.955262189     -76.8527308
9.199                0.955159635     -76.9780873
9.2                  0.955056799     -77.1037791
9.201                0.954953678     -77.2298076
9.202                0.954850269     -77.3561742
9.203                0.954746572     -77.4828803
9.204                0.954642584     -77.6099272
9.205                0.954538302     -77.7373164
9.206                0.954433724     -77.8650493
9.207                0.954328846     -77.9931273
9.208                0.954223666      -78.121552
9.209                0.954118179     -78.2503248
9.21                 0.954012383     -78.3794472
9.211                0.953906272     -78.5089208
9.212                0.953799843     -78.6387471
9.213                0.953693089     -78.7689277
9.214                0.953586007     -78.8994643
9.215                0.953478589     -79.0303583
9.216                 0.95337083     -79.1616116
9.217                0.953262721     -79.2932258
9.218                0.953154256     -79.4252025
9.219                0.953045425     -79.5575435
9.22                  0.95293622     -79.6902505
9.221                 0.95282663     -79.8233254
9.222                0.952716644     -79.9567699
9.223                 0.95260625     -80.0905859
9.224                0.952495435     -80.2247751
9.225                0.952384184     -80.3593395
9.226                0.952272481      -80.494281
9.227                0.952160309     -80.6296013
9.228                 0.95204765     -80.7653025
9.229                0.951934483     -80.9013865
9.23                 0.951820785     -81.0378551
9.231                0.951706533     -81.1747104
9.232                  0.9515917     -81.3119541
9.233                0.951476258     -81.4495882
9.234                0.951360176     -81.5876145
9.235                0.951243419      -81.726035
9.236                0.951125953     -81.8648512
9.237                0.951007737      -82.004065
9.238                0.950888729      -82.143678
9.239                0.950768883     -82.2836916
9.24                 0.950648151     -82.4241072
9.241                0.950526481     -82.5649261
9.242                0.950403815     -82.7061493
9.243                0.950280095     -82.8477776
9.244                0.950155258     -82.9898116
9.245                0.950029235     -83.1322515
9.246                0.949901958     -83.2750972
9.247                0.949773352     -83.4183483
9.248                 0.94964334     -83.5620039
9.249                0.949511846     -83.7060625
9.25                 0.949378786     -83.8505222
9.251                0.949244081     -83.9953805
9.252                0.949107649      -84.140634
9.253                0.948969409      -84.286279
9.254                0.948829285     -84.4323106
9.255                0.948687203     -84.5787233
9.256                0.948543097     -84.7255109
9.257                 0.94839691     -84.8726661
9.258                0.948248593     -85.0201809
9.259                0.948098115     -85.1680466
9.26                 0.947945458     -85.3162534
9.261                0.947790624     -85.4647913
9.262                0.947633637     -85.6136494
9.263                0.947474546     -85.7628167
9.264                0.947313425     -85.9122818
9.265                0.947150375     -86.0620337
9.266                0.946985529     -86.2120614
9.267                0.946819047     -86.3623548
9.268                0.946651118     -86.5129045
9.269                0.946481957     -86.6637025
9.27                 0.946311804     -86.8147423
9.271                0.946140917     -86.9660194
9.272                0.945969572      -87.117531
9.273                0.945798054     -87.2692767
9.274                0.945626649     -87.4212584
9.275                0.945455643     -87.5734805
9.276                0.945285312     -87.7259493
9.277                0.945115916     -87.8786737
9.278                0.944947694     -88.0316642
9.279                0.944780859     -88.1849333
9.28                 0.944615596     -88.3384947
9.281                0.944452056     -88.4923632
9.282                0.944290357     -88.6465544
9.283                0.944130585     -88.8010843
9.284                 0.94397279     -88.9559687
9.285                0.943816994     -89.1112233
9.286                0.943663188     -89.2668634
9.287                0.943511337     -89.4229033
9.288                0.943361385     -89.5793566
9.289                0.943213257     -89.7362359
9.29                 0.943066861     -89.8935524
9.291                0.942922096     -90.0513165
9.292                0.942778848     -90.2095372
9.293                0.942637002     -90.3682226
9.294                0.942496437     -90.5273794
9.295                0.942357031     -90.6870135
9.296                0.942218665     -90.8471299
9.297                0.942081222     -91.0077326
9.298                0.941944588     -91.1688249
9.299                0.941808653     -91.3304093
9.3                  0.941673317     -91.4924879
9.301                 0.94153848      -91.655062
9.302                0.941404052     -91.8181328
9.303                0.941269948     -91.9817009
9.304                0.941136091     -92.1457666
9.305                0.941002407     -92.3103299
9.306                0.940868833     -92.4753908
9.307                0.940735306     -92.6409489
9.308                0.940601772     -92.8070038
9.309                0.940468182      -92.973555
9.31                 0.940334492      -93.140602
9.311                0.940200661     -93.3081441
9.312                0.940066652     -93.4761808
9.313                0.939932435     -93.6447114
9.314                 0.93979798     -93.8137353
9.315                0.939663262      -93.983252
9.316                0.939528259     -94.1532609
9.317                0.939392951     -94.3237615
9.318                0.939257321     -94.4947534
9.319                0.939121354     -94.6662362
9.32                 0.938985037     -94.8382095
9.321                0.938848359     -95.0106731
9.322                0.938711311     -95.1836267
9.323                0.938573883     -95.3570702
9.324                0.938436071     -95.5310034
9.325                0.938297867     -95.7054262
9.326                0.938159269     -95.8803387
9.327                0.938020271     -96.0557409
9.328                0.937880872     -96.2316329
9.329                 0.93774107     -96.4080147
9.33                 0.937600863     -96.5848867
9.331                0.937460252      -96.762249
9.332                0.937319234     -96.9401019
9.333                0.937177812     -97.1184456
9.334                0.937035986     -97.2972806
9.335                0.936893758     -97.4766073
9.336                0.936751128     -97.6564259
9.337                0.936608099     -97.8367371
9.338                0.936464672     -98.0175412
9.339                 0.93632085     -98.1988388
9.34                 0.936176636     -98.3806304
9.341                0.936032033     -98.5629165
9.342                0.935887042     -98.7456978
9.343                0.935741668     -98.9289749
9.344                0.935595913     -99.1127483
9.345                 0.93544978     -99.2970187
9.346                0.935303274     -99.4817868
9.347                0.935156396     -99.6670532
9.348                0.935009151     -99.8528187
9.349                0.934861543     -100.039084
9.35                 0.934713574      -100.22585
9.351                0.934565249     -100.413116
9.352                0.934416571     -100.600885
9.353                0.934267544     -100.789157
9.354                0.934118171     -100.977931
9.355                0.933968457      -101.16721
9.356                0.933818405     -101.356995
9.357                0.933668019     -101.547284
9.358                0.933517302     -101.738081
9.359                0.933366259     -101.929384
9.36                 0.933214893     -102.121196
9.361                0.933063209     -102.313517
9.362                0.932911209     -102.506347
9.363                0.932758899     -102.699688
9.364                0.932606281      -102.89354
9.365                 0.93245336     -103.087904
9.366                0.932300139     -103.282781
9.367                0.932146623     -103.478172
9.368                0.931992816     -103.674078
9.369                 0.93183872     -103.870498
9.37                 0.931684341     -104.067435
9.371                0.931529682     -104.264889
9.372                0.931374747     -104.462861
9.373                 0.93121954     -104.661351
9.374                0.931064065     -104.860361
9.375                0.930908325      -105.05989
9.376                0.930752326     -105.259941
9.377                 0.93059607     -105.460513
9.378                0.930439562     -105.661608
9.379                0.930282806     -105.863226
9.38                 0.930125806     -106.065368
9.381                0.929968566     -106.268035
9.382                0.929811089     -106.471227
9.383                0.929653381     -106.674946
9.384                0.929495445     -106.879192
9.385                0.929337284     -107.083965
9.386                0.929178904     -107.289268
9.387                0.929020309     -107.495099
9.388                0.928861502     -107.701461
9.389                0.928702487     -107.908353
9.39                  0.92854327     -108.115776
9.391                0.928383854     -108.323732
9.392                0.928224243     -108.532221
9.393                0.928064441     -108.741243
9.394                0.927904453     -108.950799
9.395                0.927744284      -109.16089
9.396                0.927583937     -109.371516
