! TOUCHSTONE file generated by CST DESIGN STUDIO
! Date and time: Tue Feb  4 13:33:49 2025
! Project name: C:\Work\MatlabApps\UnitCellOptimizationMatlab\CST\unitcell.cst
! Tree item: Tasks\Sweep1\SPara1\S-Parameters
! Header version: 2024
! Port assignment regex: !\s*Touchstone port\s*([0-9]+)\s*=\s*(CST MWS port|CST DES external port|CST DES block port)\s*(.+)\s* \(\"(.*)\"\)(\s*mode\s*([0-9]+))?.*
! Touchstone port assignment:
! Touchstone port 1 = CST DES external port 1 ("")
# GHz S MA R 50
9                    0.982862644     -68.8473197
9.001                0.982824886     -68.9461775
9.002                0.982787014     -69.0452707
9.003                0.982749027        -69.1446
9.004                0.982710924     -69.2441661
9.005                0.982672707     -69.3439697
9.006                0.982634374     -69.4440115
9.007                0.982595924     -69.5442924
9.008                0.982557359     -69.6448129
9.009                0.982518677     -69.7455739
9.01                 0.982479877      -69.846576
9.011                0.982440961     -69.9478201
9.012                0.982401927     -70.0493068
9.013                0.982362775     -70.1510369
9.014                0.982323505     -70.2530111
9.015                0.982284116     -70.3552302
9.016                0.982244609     -70.4576949
9.017                0.982204982      -70.560406
9.018                0.982165236     -70.6633642
9.019                 0.98212537     -70.7665702
9.02                 0.982085384     -70.8700249
9.021                0.982045278      -70.973729
9.022                0.982005051     -71.0776833
9.023                0.981964704     -71.1818884
9.024                0.981924235     -71.2863452
9.025                0.981883644     -71.3910545
9.026                0.981842931      -71.496017
9.027                0.981802096     -71.6012334
9.028                0.981761139     -71.7067046
9.029                0.981720059     -71.8124313
9.03                 0.981678855     -71.9184143
9.031                0.981637528     -72.0246544
9.032                0.981596078     -72.1311524
9.033                0.981554503      -72.237909
9.034                0.981512804     -72.3449251
9.035                0.981470981     -72.4522013
9.036                0.981429032     -72.5597386
9.037                0.981386958     -72.6675377
9.038                0.981344758     -72.7755994
9.039                0.981302433     -72.8839244
9.04                 0.981259981     -72.9925137
9.041                0.981217403     -73.1013679
9.042                0.981174698      -73.210488
9.043                0.981131866     -73.3198746
9.044                0.981088907     -73.4295287
9.045                 0.98104582     -73.5394509
9.046                0.981002605     -73.6496422
9.047                0.980959261     -73.7601033
9.048                0.980915789     -73.8708351
9.049                0.980872188     -73.9818384
9.05                 0.980828458     -74.0931139
9.051                0.980784598     -74.2046626
9.052                0.980740609     -74.3164851
9.053                0.980696489     -74.4285825
9.054                 0.98065224     -74.5409555
9.055                0.980607859     -74.6536048
9.056                0.980563348     -74.7665315
9.057                0.980518705     -74.8797362
9.058                 0.98047393     -74.9932198
9.059                0.980429024     -75.1069832
9.06                 0.980383986     -75.2210272
9.061                0.980338815     -75.3353527
9.062                0.980293512     -75.4499604
9.063                0.980248076     -75.5648513
9.064                0.980202506     -75.6800262
9.065                0.980156803     -75.7954859
9.066                0.980110966     -75.9112313
9.067                0.980064995     -76.0272633
9.068                0.980018889     -76.1435826
9.069                0.979972649     -76.2601903
9.07                 0.979926274      -76.377087
9.071                0.979879764     -76.4942738
9.072                0.979833118     -76.6117514
9.073                0.979786336     -76.7295207
9.074                0.979739419     -76.8475826
9.075                0.979692365     -76.9659379
9.076                0.979645174     -77.0845876
9.077                0.979597847     -77.2035325
9.078                0.979550383     -77.3227735
9.079                0.979502781     -77.4423115
9.08                 0.979455041     -77.5621473
9.081                0.979407164     -77.6822819
9.082                0.979359149      -77.802716
9.083                0.979310995     -77.9234507
9.084                0.979262702     -78.0444867
9.085                0.979214271      -78.165825
9.086                  0.9791657     -78.2874666
9.087                 0.97911699     -78.4094121
9.088                 0.97906814     -78.5316627
9.089                 0.97901915     -78.6542191
9.09                 0.978970021     -78.7770822
9.091                 0.97892075     -78.9002531
9.092                0.978871339     -79.0237325
9.093                0.978821788     -79.1475213
9.094                0.978772095     -79.2716206
9.095                 0.97872226     -79.3960312
9.096                0.978672285     -79.5207539
9.097                0.978622167     -79.6457898
9.098                0.978571907     -79.7711397
9.099                0.978521505     -79.8968045
9.1                  0.978470961     -80.0227852
9.101                0.978420274     -80.1490827
9.102                0.978369444     -80.2756979
9.103                 0.97831847     -80.4026318
9.104                0.978267354     -80.5298852
9.105                0.978216094      -80.657459
9.106                 0.97816469     -80.7853543
9.107                0.978113142     -80.9135719
9.108                 0.97806145     -81.0421128
9.109                0.978009613     -81.1709779
9.11                 0.977957632     -81.3001681
9.111                0.977905506     -81.4296844
9.112                0.977853235     -81.5595278
9.113                0.977800819      -81.689699
9.114                0.977748258     -81.8201992
9.115                0.977695551     -81.9510292
9.116                0.977642699       -82.08219
9.117                  0.9775897     -82.2136825
9.118                0.977536556     -82.3455077
9.119                0.977483265     -82.4776665
9.12                 0.977429828     -82.6101599
9.121                0.977376245     -82.7429888
9.122                0.977322514     -82.8761542
9.123                0.977268637      -83.009657
9.124                0.977214613     -83.1434982
9.125                0.977160442     -83.2776788
9.126                0.977106123     -83.4121996
9.127                0.977051657     -83.5470617
9.128                0.976997044      -83.682266
9.129                0.976942282     -83.8178135
9.13                 0.976887373     -83.9537052
9.131                0.976832316     -84.0899419
9.132                0.976777111     -84.2265248
9.133                0.976721757     -84.3634547
9.134                0.976666255     -84.5007325
9.135                0.976610605     -84.6383594
9.136                0.976554807     -84.7763362
9.137                0.976498859      -84.914664
9.138                0.976442763     -85.0533436
9.139                0.976386518     -85.1923761
9.14                 0.976330124     -85.3317624
9.141                0.976273581     -85.4715036
9.142                0.976216889     -85.6116005
9.143                0.976160048     -85.7520542
9.144                0.976103058     -85.8928657
9.145                0.976045918     -86.0340359
9.146                0.975988629     -86.1755658
9.147                0.975931191     -86.3174563
9.148                0.975873603     -86.4597086
9.149                0.975815865     -86.6023234
9.15                 0.975757979     -86.7453019
9.151                0.975699942     -86.8886451
9.152                0.975641756     -87.0323538
9.153                 0.97558342     -87.1764291
9.154                0.975524935      -87.320872
9.155                  0.9754663     -87.4656834
9.156                0.975407515     -87.6108643
9.157                0.975348581     -87.7564158
9.158                0.975289497     -87.9023388
9.159                0.975230263     -88.0486343
9.16                 0.975170879     -88.1953033
9.161                0.975111346     -88.3423467
9.162                0.975051664     -88.4897656
9.163                0.974991832      -88.637561
9.164                 0.97493185     -88.7857338
9.165                0.974871719     -88.9342851
9.166                0.974811438     -89.0832157
9.167                0.974751008     -89.2325268
9.168                0.974690429     -89.3822193
9.169                  0.9746297     -89.5322941
9.17                 0.974568822     -89.6827524
9.171                0.974507796      -89.833595
9.172                 0.97444662     -89.9848229
9.173                0.974385295     -90.1364373
9.174                0.974323821     -90.2884389
9.175                0.974262199     -90.4408289
9.176                0.974200429     -90.5936082
9.177                0.974138509     -90.7467778
9.178                0.974076442     -90.9003387
9.179                0.974014226     -91.0542918
9.18                 0.973951863     -91.2086383
9.181                0.973889351      -91.363379
9.182                0.973826692     -91.5185149
9.183                0.973763885      -91.674047
9.184                0.973700931     -91.8299764
9.185                 0.97363783      -91.986304
9.186                0.973574581     -92.1430308
9.187                0.973511186     -92.3001577
9.188                0.973447645     -92.4576858
9.189                0.973383957      -92.615616
9.19                 0.973320123     -92.7739493
9.191                0.973256143     -92.9326867
9.192                0.973192017     -93.0918292
9.193                0.973127746     -93.2513777
9.194                 0.97306333     -93.4113332
9.195                0.972998769     -93.5716968
9.196                0.972934063     -93.7324693
9.197                0.972869213     -93.8936518
9.198                0.972804219     -94.0552452
9.199                0.972739082     -94.2172505
9.2                  0.972673801     -94.3796687
9.201                0.972608377     -94.5425007
9.202                 0.97254281     -94.7057474
9.203                0.972477101       -94.86941
9.204                0.972411249     -95.0334893
9.205                0.972345256     -95.1979862
9.206                0.972279122     -95.3629018
9.207                0.972212847      -95.528237
9.208                0.972146431     -95.6939928
9.209                0.972079876     -95.8601701
9.21                  0.97201318     -96.0267698
9.211                0.971946345     -96.1937929
9.212                0.971879371     -96.3612405
9.213                0.971812259     -96.5291133
9.214                0.971745009     -96.6974124
9.215                0.971677621     -96.8661386
9.216                0.971610097      -97.035293
9.217                0.971542435     -97.2048765
9.218                0.971474638     -97.3748899
9.219                0.971406705     -97.5453343
9.22                 0.971338637     -97.7162106
9.221                0.971270435     -97.8875196
9.222                0.971202098     -98.0592624
9.223                0.971133629     -98.2314397
9.224                0.971065026     -98.4040526
9.225                0.970996291      -98.577102
9.226                0.970927424     -98.7505887
9.227                0.970858427     -98.9245138
9.228                0.970789299     -99.0988779
9.229                0.970720041     -99.2736822
9.23                 0.970650653     -99.4489275
9.231                0.970581137     -99.6246146
9.232                0.970511494     -99.8007445
9.233                0.970441723      -99.977318
9.234                0.970371825     -100.154336
9.235                0.970301802       -100.3318
9.236                0.970231653     -100.509709
9.237                0.970161381     -100.688066
9.238                0.970090984     -100.866871
9.239                0.970020464     -101.046125
9.24                 0.969949823     -101.225829
9.241                 0.96987906     -101.405983
9.242                0.969808176     -101.586588
9.243                0.969737173     -101.767646
9.244                 0.96966605     -101.949157
9.245                 0.96959481     -102.131122
9.246                0.969523452     -102.313542
9.247                0.969451977     -102.496418
9.248                0.969380388      -102.67975
9.249                0.969308683     -102.863539
9.25                 0.969236865     -103.047786
9.251                0.969164934     -103.232492
9.252                0.969092891     -103.417658
9.253                0.969020737     -103.603285
9.254                0.968948473     -103.789372
9.255                  0.9688761     -103.975922
9.256                0.968803618     -104.162935
9.257                 0.96873103     -104.350411
9.258                0.968658336     -104.538351
9.259                0.968585537     -104.726757
9.26                 0.968512634     -104.915629
9.261                0.968439628     -105.104967
9.262                 0.96836652     -105.294773
9.263                0.968293312     -105.485047
9.264                0.968220004     -105.675789
9.265                0.968146597     -105.867002
9.266                0.968073094     -106.058684
9.267                0.967999494     -106.250838
9.268                0.967925799     -106.443463
9.269                0.967852011     -106.636561
9.27                  0.96777813     -106.830132
9.271                0.967704157     -107.024177
9.272                0.967630095     -107.218696
9.273                0.967555944      -107.41369
9.274                0.967481705      -107.60916
9.275                 0.96740738     -107.805107
9.276                 0.96733297      -108.00153
9.277                0.967258477     -108.198432
9.278                0.967183901     -108.395811
9.279                0.967109245      -108.59367
9.28                 0.967034509     -108.792008
9.281                0.966959695     -108.990827
9.282                0.966884804     -109.190126
9.283                0.966809838     -109.389907
9.284                0.966734798      -109.59017
9.285                0.966659686     -109.790915
9.286                0.966584503     -109.992143
9.287                0.966509251     -110.193855
9.288                 0.96643393     -110.396051
9.289                0.966358544     -110.598732
9.29                 0.966283093     -110.801898
9.291                0.966207579      -111.00555
9.292                0.966132003     -111.209688
9.293                0.966056367     -111.414313
9.294                0.965980674     -111.619426
9.295                0.965904923     -111.825026
9.296                0.965829118     -112.031114
9.297                0.965753259     -112.237691
9.298                0.965677348     -112.444757
9.299                0.965601388     -112.652312
9.3                   0.96552538     -112.860358
9.301                0.965449325     -113.068894
9.302                0.965373226      -113.27792
9.303                0.965297085     -113.487438
9.304                0.965220902     -113.697448
9.305                 0.96514468     -113.907949
9.306                0.965068421     -114.118943
9.307                0.964992127     -114.330429
9.308                0.964915799     -114.542408
9.309                 0.96483944     -114.754881
9.31                 0.964763051     -114.967847
9.311                0.964686634     -115.181307
9.312                0.964610192     -115.395262
9.313                0.964533726     -115.609711
9.314                0.964457239     -115.824654
9.315                0.964380732     -116.040093
9.316                0.964304208     -116.256027
9.317                0.964227668     -116.472456
9.318                0.964151115     -116.689381
9.319                 0.96407455     -116.906802
9.32                 0.963997977     -117.124719
9.321                0.963921396     -117.343132
9.322                0.963844811     -117.562042
9.323                0.963768223     -117.781448
9.324                0.963691635     -118.001351
9.325                0.963615048      -118.22175
9.326                0.963538466     -118.442647
9.327                 0.96346189     -118.664041
9.328                0.963385323     -118.885931
9.329                0.963308767     -119.108319
9.33                 0.963232224     -119.331204
9.331                0.963155697     -119.554587
9.332                0.963079188     -119.778466
9.333                0.963002699     -120.002843
9.334                0.962926234     -120.227717
9.335                0.962849793     -120.453089
9.336                0.962773381     -120.678957
9.337                0.962696998     -120.905323
9.338                0.962620649     -121.132186
9.339                0.962544334     -121.359545
9.34                 0.962468058     -121.587402
9.341                0.962391822     -121.815755
9.342                0.962315628     -122.044605
9.343                 0.96223948     -122.273951
9.344                0.962163381     -122.503794
9.345                0.962087332     -122.734133
9.346                0.962011336     -122.964968
9.347                0.961935396     -123.196298
9.348                0.961859516     -123.428124
9.349                0.961783696     -123.660445
9.35                 0.961707941     -123.893261
9.351                0.961632253     -124.126572
9.352                0.961556634     -124.360377
9.353                0.961481088     -124.594676
9.354                0.961405617     -124.829469
9.355                0.961330225     -125.064755
9.356                0.961254913     -125.300535
9.357                0.961179685     -125.536806
9.358                0.961104544      -125.77357
9.359                0.961029492     -126.010826
9.36                 0.960954533     -126.248573
9.361                0.960879669     -126.486811
9.362                0.960804903     -126.725539
9.363                0.960730239     -126.964757
9.364                0.960655679     -127.204464
9.365                0.960581227     -127.444661
9.366                0.960506885     -127.685345
9.367                0.960432656     -127.926517
9.368                0.960358543     -128.168176
9.369                0.960284551     -128.410322
9.37                  0.96021068     -128.652953
9.371                0.960136936     -128.896069
9.372                 0.96006332      -129.13967
9.373                0.959989836     -129.383755
9.374                0.959916487     -129.628323
9.375                0.959843277     -129.873373
9.376                0.959770208     -130.118904
9.377                0.959697283     -130.364917
9.378                0.959624507     -130.611409
9.379                0.959551881     -130.858381
9.38                  0.95947941      -131.10583
9.381                0.959407097     -131.353758
9.382                0.959334944     -131.602162
9.383                0.959262956     -131.851041
9.384                0.959191135     -132.100395
9.385                0.959119484     -132.350223
9.386                0.959048008     -132.600524
9.387                 0.95897671     -132.851297
9.388                0.958905592     -133.102541
9.389                0.958834659     -133.354254
9.39                 0.958763913     -133.606436
9.391                0.958693358     -133.859086
9.392                0.958622997     -134.112203
9.393                0.958552834     -134.365784
9.394                0.958482873     -134.619831
9.395                0.958413116      -134.87434
9.396                0.958343567     -135.129311
