! TOUCHSTONE file generated by CST DESIGN STUDIO
! Date and time: Tue Feb  4 13:33:52 2025
! Project name: C:\Work\MatlabApps\UnitCellOptimizationMatlab\CST\unitcell.cst
! Tree item: Tasks\Sweep1\SPara1\S-Parameters
! Header version: 2024
! Port assignment regex: !\s*Touchstone port\s*([0-9]+)\s*=\s*(CST MWS port|CST DES external port|CST DES block port)\s*(.+)\s* \(\"(.*)\"\)(\s*mode\s*([0-9]+))?.*
! Touchstone port assignment:
! Touchstone port 1 = CST DES external port 1 ("")
# GHz S MA R 50
9                    0.983195582     -65.5329822
9.001                0.983160442     -65.6250207
9.002                0.983125194     -65.7172746
9.003                0.983089841     -65.8097446
9.004                 0.98305438     -65.9024314
9.005                0.983018813     -65.9953356
9.006                0.982983138     -66.0884579
9.007                0.982947355      -66.181799
9.008                0.982911464     -66.2753596
9.009                0.982875465     -66.3691403
9.01                 0.982839357     -66.4631417
9.011                0.982803141     -66.5573647
9.012                0.982766815     -66.6518099
9.013                0.982730379     -66.7464778
9.014                0.982693834     -66.8413694
9.015                0.982657178     -66.9364851
9.016                0.982620412     -67.0318258
9.017                0.982583535      -67.127392
9.018                0.982546546     -67.2231846
9.019                0.982509447     -67.3192042
9.02                 0.982472235     -67.4154514
9.021                0.982434912     -67.5119271
9.022                0.982397476     -67.6086318
9.023                0.982359927     -67.7055664
9.024                0.982322266     -67.8027314
9.025                0.982284491     -67.9001277
9.026                0.982246602      -67.997756
9.027                  0.9822086     -68.0956168
9.028                0.982170483     -68.1937111
9.029                0.982132251     -68.2920394
9.03                 0.982093905     -68.3906025
9.031                0.982055443     -68.4894011
9.032                0.982016866      -68.588436
9.033                0.981978173     -68.6877079
9.034                0.981939364     -68.7872174
9.035                0.981900439     -68.8869654
9.036                0.981861396     -68.9869526
9.037                0.981822237     -69.0871797
9.038                 0.98178296     -69.1876474
9.039                0.981743565     -69.2883565
9.04                 0.981704053     -69.3893077
9.041                0.981664422     -69.4905018
9.042                0.981624672     -69.5919395
9.043                0.981584803     -69.6936216
9.044                0.981544815     -69.7955488
9.045                0.981504708     -69.8977219
9.046                 0.98146448     -70.0001416
9.047                0.981424133     -70.1028086
9.048                0.981383664     -70.2057239
9.049                0.981343075      -70.308888
9.05                 0.981302365     -70.4123018
9.051                0.981261533      -70.515966
9.052                0.981220579     -70.6198814
9.053                0.981179503     -70.7240488
9.054                0.981138305      -70.828469
9.055                0.981096984     -70.9331427
9.056                 0.98105554     -71.0380707
9.057                0.981013972     -71.1432537
9.058                0.980972281     -71.2486926
9.059                0.980930466     -71.3543882
9.06                 0.980888527     -71.4603412
9.061                0.980846463     -71.5665525
9.062                0.980804274     -71.6730227
9.063                0.980761959     -71.7797528
9.064                 0.98071952     -71.8867434
9.065                0.980676954     -71.9939955
9.066                0.980634262     -72.1015097
9.067                0.980591444      -72.209287
9.068                0.980548499     -72.3173281
9.069                0.980505427     -72.4256337
9.07                 0.980462227     -72.5342048
9.071                  0.9804189     -72.6430422
9.072                0.980375445     -72.7521465
9.073                0.980331861     -72.8615188
9.074                0.980288149     -72.9711597
9.075                0.980244308     -73.0810701
9.076                0.980200338     -73.1912508
9.077                0.980156238     -73.3017027
9.078                0.980112008     -73.4124265
9.079                0.980067649     -73.5234232
9.08                 0.980023158     -73.6346934
9.081                0.979978538     -73.7462381
9.082                0.979933786     -73.8580581
9.083                0.979888902     -73.9701543
9.084                0.979843888     -74.0825274
9.085                0.979798741     -74.1951783
9.086                0.979753462     -74.3081079
9.087                0.979708051      -74.421317
9.088                0.979662506     -74.5348065
9.089                0.979616829     -74.6485771
9.09                 0.979571018     -74.7626298
9.091                0.979525074     -74.8769654
9.092                0.979478996     -74.9915847
9.093                0.979432783     -75.1064887
9.094                0.979386436     -75.2216782
9.095                0.979339955      -75.337154
9.096                0.979293338      -75.452917
9.097                0.979246585     -75.5689681
9.098                0.979199697     -75.6853082
9.099                0.979152674      -75.801938
9.1                  0.979105514     -75.9188586
9.101                0.979058217     -76.0360707
9.102                0.979010784     -76.1535753
9.103                0.978963213     -76.2713732
9.104                0.978915506     -76.3894653
9.105                0.978867661     -76.5078524
9.106                0.978819678     -76.6265356
9.107                0.978771556     -76.7455156
9.108                0.978723297     -76.8647934
9.109                0.978674899     -76.9843698
9.11                 0.978626362     -77.1042458
9.111                0.978577685     -77.2244222
9.112                 0.97852887     -77.3448999
9.113                0.978479914     -77.4656799
9.114                0.978430819      -77.586763
9.115                0.978381583     -77.7081502
9.116                0.978332207     -77.8298423
9.117                0.978282691     -77.9518402
9.118                0.978233033     -78.0741449
9.119                0.978183234     -78.1967573
9.12                 0.978133294     -78.3196783
9.121                0.978083212     -78.4429088
9.122                0.978032988     -78.5664497
9.123                0.977982622      -78.690302
9.124                0.977932114     -78.8144665
9.125                0.977881462     -78.9389442
9.126                0.977830668      -79.063736
9.127                0.977779731     -79.1888429
9.128                0.977728651     -79.3142658
9.129                0.977677427     -79.4400055
9.13                  0.97762606     -79.5660631
9.131                0.977574548     -79.6924394
9.132                0.977522892     -79.8191355
9.133                0.977471092     -79.9461522
9.134                0.977419147     -80.0734905
9.135                0.977367057     -80.2011513
9.136                0.977314822     -80.3291355
9.137                0.977262442     -80.4574442
9.138                0.977209917     -80.5860783
9.139                0.977157246     -80.7150387
9.14                 0.977104429     -80.8443263
9.141                0.977051466     -80.9739421
9.142                0.976998357     -81.1038871
9.143                0.976945101     -81.2341622
9.144                0.976891699     -81.3647684
9.145                 0.97683815     -81.4957067
9.146                0.976784454     -81.6269779
9.147                0.976730611     -81.7585831
9.148                0.976676621     -81.8905232
9.149                0.976622483     -82.0227992
9.15                 0.976568198      -82.155412
9.151                0.976513765     -82.2883627
9.152                0.976459184     -82.4216522
9.153                0.976404455     -82.5552814
9.154                0.976349577     -82.6892513
9.155                0.976294551      -82.823563
9.156                0.976239377     -82.9582173
9.157                0.976184054     -83.0932153
9.158                0.976128583     -83.2285579
9.159                0.976072962     -83.3642462
9.16                 0.976017192      -83.500281
9.161                0.975961274     -83.6366634
9.162                0.975905205     -83.7733944
9.163                0.975848988     -83.9104749
9.164                0.975792621     -84.0479059
9.165                0.975736104     -84.1856885
9.166                0.975679438     -84.3238236
9.167                0.975622622     -84.4623121
9.168                0.975565656     -84.6011551
9.169                 0.97550854     -84.7403537
9.17                 0.975451274     -84.8799086
9.171                0.975393858     -85.0198211
9.172                0.975336291     -85.1600919
9.173                0.975278575     -85.3007223
9.174                0.975220708      -85.441713
9.175                 0.97516269     -85.5830653
9.176                0.975104522     -85.7247799
9.177                0.975046204      -85.866858
9.178                0.974987735     -86.0093005
9.179                0.974929116     -86.1521085
9.18                 0.974870345     -86.2952829
9.181                0.974811425     -86.4388248
9.182                0.974752353     -86.5827351
9.183                0.974693131     -86.7270149
9.184                0.974633758     -86.8716651
9.185                0.974574235     -87.0166867
9.186                 0.97451456     -87.1620809
9.187                0.974454735     -87.3078485
9.188                 0.97439476     -87.4539906
9.189                0.974334634     -87.6005081
9.19                 0.974274357     -87.7474022
9.191                0.974213929     -87.8946738
9.192                0.974153351     -88.0423239
9.193                0.974092622     -88.1903535
9.194                0.974031743     -88.3387636
9.195                0.973970714     -88.4875552
9.196                0.973909534     -88.6367295
9.197                0.973848204     -88.7862872
9.198                0.973786723     -88.9362296
9.199                0.973725093     -89.0865575
9.2                  0.973663312      -89.237272
9.201                0.973601382     -89.3883741
9.202                0.973539301     -89.5398648
9.203                0.973477071     -89.6917452
9.204                0.973414691     -89.8440161
9.205                0.973352162     -89.9966787
9.206                0.973289483      -90.149734
9.207                0.973226656     -90.3031829
9.208                0.973163679     -90.4570265
9.209                0.973100553     -90.6112658
9.21                 0.973037278     -90.7659018
9.211                0.972973855     -90.9209355
9.212                0.972910283     -91.0763679
9.213                0.972846563        -91.2322
9.214                0.972782695     -91.3884328
9.215                 0.97271868     -91.5450673
9.216                0.972654516     -91.7021046
9.217                0.972590205     -91.8595457
9.218                0.972525747     -92.0173915
9.219                0.972461142      -92.175643
9.22                 0.972396391     -92.3343013
9.221                0.972331492     -92.4933674
9.222                0.972266448     -92.6528422
9.223                0.972201258     -92.8127267
9.224                0.972135922     -92.9730221
9.225                 0.97207044     -93.1337292
9.226                0.972004814      -93.294849
9.227                0.971939043     -93.4563826
9.228                0.971873127      -93.618331
9.229                0.971807067     -93.7806951
9.23                 0.971740863     -93.9434759
9.231                0.971674516     -94.1066745
9.232                0.971608026     -94.2702917
9.233                0.971541393     -94.4343287
9.234                0.971474618     -94.5987864
9.235                0.971407701     -94.7636657
9.236                0.971340642     -94.9289677
9.237                0.971273442     -95.0946934
9.238                0.971206101     -95.2608436
9.239                 0.97113862     -95.4274195
9.24                 0.971070999     -95.5944219
9.241                0.971003238     -95.7618519
9.242                0.970935338     -95.9297104
9.243                  0.9708673     -96.0979984
9.244                0.970799124     -96.2667168
9.245                 0.97073081     -96.4358667
9.246                0.970662359     -96.6054489
9.247                0.970593772     -96.7754645
9.248                0.970525048     -96.9459144
9.249                0.970456189     -97.1167995
9.25                 0.970387195     -97.2881209
9.251                0.970318066     -97.4598794
9.252                0.970248804      -97.632076
9.253                0.970179409     -97.8047117
9.254                 0.97010988     -97.9777873
9.255                 0.97004022     -98.1513039
9.256                0.969970428     -98.3252624
9.257                0.969900505     -98.4996636
9.258                0.969830452     -98.6745086
9.259                 0.96976027     -98.8497983
9.26                 0.969689959     -99.0255335
9.261                0.969619519     -99.2017152
9.262                0.969548952     -99.3783443
9.263                0.969478259     -99.5554217
9.264                0.969407439     -99.7329484
9.265                0.969336494     -99.9109252
9.266                0.969265424     -100.089353
9.267                 0.96919423     -100.268233
9.268                0.969122914     -100.447565
9.269                0.969051475     -100.627352
9.27                 0.968979914     -100.807593
9.271                0.968908233     -100.988289
9.272                0.968836432     -101.169442
9.273                0.968764512     -101.351052
9.274                0.968692474      -101.53312
9.275                0.968620319     -101.715647
9.276                0.968548047     -101.898633
9.277                 0.96847566     -102.082081
9.278                0.968403158      -102.26599
9.279                0.968330542     -102.450361
9.28                 0.968257814     -102.635196
9.281                0.968184974     -102.820494
9.282                0.968112023     -103.006258
9.283                0.968038963     -103.192487
9.284                0.967965794     -103.379182
9.285                0.967892516     -103.566345
9.286                0.967819133     -103.753976
9.287                0.967745643     -103.942076
9.288                0.967672049     -104.130645
9.289                0.967598351     -104.319685
9.29                 0.967524551     -104.509196
9.291                 0.96745065      -104.69918
9.292                0.967376648     -104.889636
9.293                0.967302547     -105.080565
9.294                0.967228348     -105.271969
9.295                0.967154053     -105.463848
9.296                0.967079662     -105.656203
9.297                0.967005177     -105.849035
9.298                0.966930599     -106.042343
9.299                0.966855929      -106.23613
9.3                  0.966781168     -106.430396
9.301                0.966706318      -106.62514
9.302                 0.96663138     -106.820365
9.303                0.966556355     -107.016071
9.304                0.966481245     -107.212259
9.305                0.966406051     -107.408928
9.306                0.966330775      -107.60608
9.307                0.966255417     -107.803716
9.308                0.966179979     -108.001836
9.309                0.966104463     -108.200441
9.31                  0.96602887     -108.399531
9.311                0.965953201     -108.599108
9.312                0.965877458     -108.799171
9.313                0.965801643     -108.999721
9.314                0.965725757     -109.200759
9.315                0.965649801     -109.402286
9.316                0.965573777     -109.604302
9.317                0.965497686     -109.806808
9.318                0.965421531     -110.009804
9.319                0.965345313      -110.21329
9.32                 0.965269033     -110.417268
9.321                0.965192693     -110.621738
9.322                0.965116294       -110.8267
9.323                0.965039839     -111.032156
9.324                0.964963329     -111.238104
9.325                0.964886766     -111.444547
9.326                0.964810152     -111.651484
9.327                0.964733487     -111.858916
9.328                0.964656775     -112.066843
9.329                0.964580017     -112.275267
9.33                 0.964503214     -112.484186
9.331                0.964426369     -112.693602
9.332                0.964349483     -112.903516
9.333                0.964272558     -113.113927
9.334                0.964195596     -113.324836
9.335                  0.9641186     -113.536243
9.336                 0.96404157     -113.748149
9.337                0.963964509     -113.960554
9.338                0.963887419     -114.173459
9.339                0.963810302     -114.386864
9.34                  0.96373316     -114.600768
9.341                0.963655995     -114.815173
9.342                0.963578809     -115.030079
9.343                0.963501604     -115.245486
9.344                0.963424382     -115.461395
9.345                0.963347145     -115.677805
9.346                0.963269896     -115.894717
9.347                0.963192636     -116.112131
9.348                0.963115368     -116.330047
9.349                0.963038094     -116.548466
9.35                 0.962960816     -116.767388
9.351                0.962883536     -116.986813
9.352                0.962806257     -117.206741
9.353                0.962728981     -117.427172
9.354                 0.96265171     -117.648107
9.355                0.962574447     -117.869546
9.356                0.962497194     -118.091488
9.357                0.962419952     -118.313934
9.358                0.962342726     -118.536884
9.359                0.962265516     -118.760338
9.36                 0.962188326     -118.984297
9.361                0.962111157     -119.208759
9.362                0.962034013     -119.433726
9.363                0.961956896     -119.659197
9.364                0.961879808     -119.885172
9.365                0.961802752     -120.111651
9.366                0.961725731     -120.338634
9.367                0.961648746     -120.566122
9.368                0.961571801     -120.794114
9.369                0.961494898     -121.022609
9.37                 0.961418039     -121.251609
9.371                0.961341228     -121.481112
9.372                0.961264468     -121.711119
9.373                 0.96118776      -121.94163
9.374                0.961111107     -122.172644
9.375                0.961034513     -122.404162
9.376                0.960957979     -122.636182
9.377                 0.96088151     -122.868705
9.378                0.960805106     -123.101731
9.379                0.960728772     -123.335259
9.38                 0.960652511      -123.56929
9.381                0.960576324     -123.803822
9.382                0.960500215     -124.038855
9.383                0.960424187      -124.27439
9.384                0.960348242     -124.510426
9.385                0.960272384     -124.746963
9.386                0.960196615     -124.983999
9.387                0.960120939     -125.221536
9.388                0.960045358     -125.459571
9.389                0.959969876     -125.698106
9.39                 0.959894495      -125.93714
9.391                0.959819219     -126.176671
9.392                 0.95974405       -126.4167
9.393                0.959668991     -126.657226
9.394                0.959594047     -126.898249
9.395                0.959519219     -127.139768
9.396                0.959444511     -127.381782
