! TOUCHSTONE file generated by CST DESIGN STUDIO
! Date and time: Tue Feb  4 13:33:50 2025
! Project name: C:\Work\MatlabApps\UnitCellOptimizationMatlab\CST\unitcell.cst
! Tree item: Tasks\Sweep1\SPara1\S-Parameters
! Header version: 2024
! Port assignment regex: !\s*Touchstone port\s*([0-9]+)\s*=\s*(CST MWS port|CST DES external port|CST DES block port)\s*(.+)\s* \(\"(.*)\"\)(\s*mode\s*([0-9]+))?.*
! Touchstone port assignment:
! Touchstone port 1 = CST DES external port 1 ("")
# GHz S MA R 50
9                    0.983027579      -67.198282
9.001                0.982991253     -67.2937064
9.002                0.982954814     -67.3893561
9.003                0.982918264     -67.4852317
9.004                  0.9828816     -67.5813339
9.005                0.982844824     -67.6776635
9.006                0.982807934     -67.7742211
9.007                0.982770931     -67.8710075
9.008                0.982733814     -67.9680233
9.009                0.982696582     -68.0652693
9.01                 0.982659236     -68.1627461
9.011                0.982621776     -68.2604544
9.012                  0.9825842      -68.358395
9.013                0.982546509     -68.4565686
9.014                0.982508702     -68.5549759
9.015                0.982470779     -68.6536176
9.016                 0.98243274     -68.7524944
9.017                0.982394584     -68.8516071
9.018                0.982356311     -68.9509563
9.019                0.982317922     -69.0505428
9.02                 0.982279414     -69.1503674
9.021                0.982240789     -69.2504307
9.022                0.982202046     -69.3507335
9.023                0.982163184     -69.4512765
9.024                0.982124203     -69.5520605
9.025                0.982085103     -69.6530861
9.026                0.982045885     -69.7543542
9.027                0.982006546     -69.8558655
9.028                0.981967087     -69.9576207
9.029                0.981927508     -70.0596205
9.03                 0.981887809     -70.1618658
9.031                0.981847989     -70.2643572
9.032                0.981808047     -70.3670956
9.033                0.981767984     -70.4700816
9.034                  0.9817278      -70.573316
9.035                0.981687493     -70.6767997
9.036                0.981647064     -70.7805333
9.037                0.981606512     -70.8845176
9.038                0.981565837     -70.9887535
9.039                0.981525038     -71.0932415
9.04                 0.981484117     -71.1979826
9.041                0.981443071     -71.3029775
9.042                0.981401901      -71.408227
9.043                0.981360606     -71.5137318
9.044                0.981319187     -71.6194927
9.045                0.981277643     -71.7255106
9.046                0.981235973     -71.8317862
9.047                0.981194177     -71.9383202
9.048                0.981152256     -72.0451135
9.049                0.981110208     -72.1521669
9.05                 0.981068034     -72.2594811
9.051                0.981025732      -72.367057
9.052                0.980983304     -72.4748953
9.053                0.980940747     -72.5829968
9.054                0.980898063     -72.6913625
9.055                0.980855251     -72.7999929
9.056                0.980812311      -72.908889
9.057                0.980769242     -73.0180516
9.058                0.980726044     -73.1274814
9.059                0.980682716     -73.2371794
9.06                 0.980639259     -73.3471462
9.061                0.980595672     -73.4573827
9.062                0.980551955     -73.5678898
9.063                0.980508108     -73.6786682
9.064                0.980464129     -73.7897189
9.065                 0.98042002     -73.9010425
9.066                0.980375779     -74.0126399
9.067                0.980331407      -74.124512
9.068                0.980286903     -74.2366596
9.069                0.980242266     -74.3490835
9.07                 0.980197497     -74.4617846
9.071                0.980152596     -74.5747637
9.072                0.980107561     -74.6880216
9.073                0.980062393     -74.8015592
9.074                0.980017091     -74.9153773
9.075                0.979971656     -75.0294768
9.076                0.979926086     -75.1438585
9.077                0.979880382     -75.2585233
9.078                0.979834543      -75.373472
9.079                0.979788569     -75.4887055
9.08                 0.979742459     -75.6042246
9.081                0.979696214     -75.7200302
9.082                0.979649834     -75.8361232
9.083                0.979603317     -75.9525044
9.084                0.979556663     -76.0691747
9.085                0.979509873     -76.1861349
9.086                0.979462947     -76.3033859
9.087                0.979415882     -76.4209287
9.088                0.979368681     -76.5387639
9.089                0.979321342     -76.6568927
9.09                 0.979273864     -76.7753157
9.091                0.979226249      -76.894034
9.092                0.979178495     -77.0130483
9.093                0.979130602     -77.1323596
9.094                 0.97908257     -77.2519687
9.095                0.979034399     -77.3718766
9.096                0.978986088     -77.4920841
9.097                0.978937638     -77.6125921
9.098                0.978889047     -77.7334016
9.099                0.978840317     -77.8545133
9.1                  0.978791445     -77.9759282
9.101                0.978742433     -78.0976472
9.102                 0.97869328     -78.2196713
9.103                0.978643986     -78.3420012
9.104                 0.97859455      -78.464638
9.105                0.978544972     -78.5875824
9.106                0.978495252     -78.7108355
9.107                 0.97844539     -78.8343982
9.108                0.978395386     -78.9582712
9.109                0.978345239     -79.0824557
9.11                 0.978294949     -79.2069524
9.111                0.978244516     -79.3317623
9.112                 0.97819394     -79.4568864
9.113                 0.97814322     -79.5823254
9.114                0.978092356     -79.7080805
9.115                0.978041349     -79.8341524
9.116                0.977990197     -79.9605422
9.117                  0.9779389     -80.0872506
9.118                0.977887459     -80.2142788
9.119                0.977835874     -80.3416276
9.12                 0.977784143     -80.4692979
9.121                0.977732267     -80.5972907
9.122                0.977680245     -80.7256069
9.123                0.977628078     -80.8542475
9.124                0.977575765     -80.9832133
9.125                0.977523306     -81.1125054
9.126                0.977470701     -81.2421247
9.127                 0.97741795     -81.3720721
9.128                0.977365051     -81.5023485
9.129                0.977312007      -81.632955
9.13                 0.977258815     -81.7638925
9.131                0.977205476     -81.8951619
9.132                 0.97715199     -82.0267641
9.133                0.977098357     -82.1587002
9.134                0.977044576     -82.2909711
9.135                0.976990647     -82.4235777
9.136                 0.97693657     -82.5565211
9.137                0.976882346     -82.6898021
9.138                0.976827973     -82.8234217
9.139                0.976773452     -82.9573809
9.14                 0.976718782     -83.0916807
9.141                0.976663964      -83.226322
9.142                0.976608997     -83.3613058
9.143                0.976553882      -83.496633
9.144                0.976498617     -83.6323047
9.145                0.976443203     -83.7683218
9.146                 0.97638764     -83.9046853
9.147                0.976331928     -84.0413961
9.148                0.976276066     -84.1784552
9.149                0.976220054     -84.3158636
9.15                 0.976163893     -84.4536223
9.151                0.976107583     -84.5917323
9.152                0.976051122     -84.7301945
9.153                0.975994512     -84.8690099
9.154                0.975937751     -85.0081795
9.155                0.975880841     -85.1477043
9.156                 0.97582378     -85.2875852
9.157                0.975766569     -85.4278233
9.158                0.975709208     -85.5684196
9.159                0.975651696     -85.7093749
9.16                 0.975594035     -85.8506904
9.161                0.975536222     -85.9923669
9.162                0.975478259     -86.1344056
9.163                0.975420146     -86.2768073
9.164                0.975361882     -86.4195731
9.165                0.975303467     -86.5627039
9.166                0.975244902     -86.7062008
9.167                0.975186186     -86.8500648
9.168                 0.97512732     -86.9942968
9.169                0.975068303     -87.1388978
9.17                 0.975009135     -87.2838688
9.171                0.974949817     -87.4292109
9.172                0.974890348      -87.574925
9.173                0.974830728     -87.7210121
9.174                0.974770958     -87.8674732
9.175                0.974711037     -88.0143093
9.176                0.974650965     -88.1615214
9.177                0.974590743     -88.3091105
9.178                0.974530371     -88.4570777
9.179                0.974469848     -88.6054238
9.18                 0.974409175     -88.7541499
9.181                0.974348352     -88.9032571
9.182                0.974287378     -89.0527462
9.183                0.974226254     -89.2026183
9.184                 0.97416498     -89.3528745
9.185                0.974103556     -89.5035156
9.186                0.974041982     -89.6545427
9.187                0.973980259     -89.8059568
9.188                0.973918386     -89.9577589
9.189                0.973856363       -90.10995
9.19                 0.973794191     -90.2625311
9.191                0.973731869     -90.4155032
9.192                0.973669398     -90.5688673
9.193                0.973606779     -90.7226244
9.194                 0.97354401     -90.8767754
9.195                0.973481093     -91.0313215
9.196                0.973418027     -91.1862635
9.197                0.973354813     -91.3416025
9.198                0.973291451     -91.4973395
9.199                0.973227941     -91.6534755
9.2                  0.973164283     -91.8100114
9.201                0.973100478     -91.9669483
9.202                0.973036525     -92.1242871
9.203                0.972972425     -92.2820289
9.204                0.972908178     -92.4401746
9.205                0.972843785     -92.5987253
9.206                0.972779245     -92.7576819
9.207                0.972714559     -92.9170454
9.208                0.972649727     -93.0768168
9.209                0.972584749     -93.2369971
9.21                 0.972519627     -93.3975872
9.211                0.972454359     -93.5585883
9.212                0.972388946     -93.7200011
9.213                0.972323389     -93.8818268
9.214                0.972257689     -94.0440663
9.215                0.972191844     -94.2067206
9.216                0.972125856     -94.3697907
9.217                0.972059725     -94.5332775
9.218                0.971993451      -94.697182
9.219                0.971927035     -94.8615052
9.22                 0.971860476     -95.0262481
9.221                0.971793777     -95.1914116
9.222                0.971726936     -95.3569967
9.223                0.971659954     -95.5230044
9.224                0.971592833     -95.6894357
9.225                0.971525571     -95.8562914
9.226                 0.97145817     -96.0235726
9.227                0.971390629     -96.1912802
9.228                 0.97132295     -96.3594152
9.229                0.971255134     -96.5279785
9.23                 0.971187179     -96.6969711
9.231                0.971119088     -96.8663939
9.232                0.971050859     -97.0362479
9.233                0.970982495      -97.206534
9.234                0.970913995     -97.3772532
9.235                0.970845361     -97.5484064
9.236                0.970776591     -97.7199945
9.237                0.970707688     -97.8920185
9.238                0.970638652     -98.0644793
9.239                0.970569483     -98.2373778
9.24                 0.970500181      -98.410715
9.241                0.970430749     -98.5844918
9.242                0.970361185     -98.7587091
9.243                0.970291491     -98.9333678
9.244                0.970221667     -99.1084688
9.245                0.970151715      -99.284013
9.246                0.970081634     -99.4600014
9.247                0.970011425     -99.6364348
9.248                 0.96994109     -99.8133142
9.249                0.969870628     -99.9906403
9.25                 0.969800041     -100.168414
9.251                0.969729329     -100.346637
9.252                0.969658493     -100.525309
9.253                0.969587534     -100.704431
9.254                0.969516453     -100.884005
9.255                 0.96944525     -101.064031
9.256                0.969373926     -101.244509
9.257                0.969302481     -101.425442
9.258                0.969230918     -101.606829
9.259                0.969159236     -101.788672
9.26                 0.969087437     -101.970971
9.261                0.969015521     -102.153728
9.262                 0.96894349     -102.336942
9.263                0.968871343     -102.520616
9.264                0.968799083     -102.704749
9.265                0.968726709     -102.889343
9.266                0.968654224     -103.074398
9.267                0.968581627     -103.259915
9.268                 0.96850892     -103.445895
9.269                0.968436105     -103.632339
9.27                 0.968363181     -103.819248
9.271                0.968290149     -104.006622
9.272                0.968217012     -104.194463
9.273                 0.96814377      -104.38277
9.274                0.968070424     -104.571545
9.275                0.967996975     -104.760788
9.276                0.967923424     -104.950501
9.277                0.967849772     -105.140684
9.278                0.967776021     -105.331338
9.279                0.967702172     -105.522463
9.28                 0.967628225      -105.71406
9.281                0.967554182      -105.90613
9.282                0.967480045     -106.098674
9.283                0.967405814     -106.291692
9.284                 0.96733149     -106.485186
9.285                0.967257075     -106.679155
9.286                 0.96718257     -106.873601
9.287                0.967107977     -107.068524
9.288                0.967033296     -107.263924
9.289                 0.96695853     -107.459804
9.29                 0.966883678     -107.656162
9.291                0.966808744     -107.853001
9.292                0.966733727     -108.050319
9.293                 0.96665863     -108.248119
9.294                0.966583453     -108.446401
9.295                0.966508199     -108.645165
9.296                0.966432868     -108.844413
9.297                0.966357463     -109.044144
9.298                0.966281984     -109.244359
9.299                0.966206433     -109.445058
9.3                  0.966130811     -109.646244
9.301                0.966055121     -109.847915
9.302                0.965979364     -110.050073
9.303                 0.96590354     -110.252718
9.304                0.965827652      -110.45585
9.305                0.965751702     -110.659471
9.306                0.965675691      -110.86358
9.307                 0.96559962     -111.068178
9.308                0.965523492     -111.273267
9.309                0.965447308     -111.478845
9.31                 0.965371069     -111.684914
9.311                0.965294778     -111.891474
9.312                0.965218435     -112.098526
9.313                0.965142044      -112.30607
9.314                0.965065605     -112.514107
9.315                0.964989121     -112.722636
9.316                0.964912592     -112.931659
9.317                0.964836022     -113.141176
9.318                0.964759412     -113.351186
9.319                0.964682763     -113.561692
9.32                 0.964606078     -113.772692
9.321                0.964529359     -113.984188
9.322                0.964452607      -114.19618
9.323                0.964375825     -114.408667
9.324                0.964299013     -114.621651
9.325                0.964222176     -114.835132
9.326                0.964145313     -115.049109
9.327                0.964068428     -115.263584
9.328                0.963991522     -115.478556
9.329                0.963914598     -115.694027
9.33                 0.963837657     -115.909995
9.331                0.963760702     -116.126462
9.332                0.963683735     -116.343427
9.333                0.963606758     -116.560892
9.334                0.963529772     -116.778855
9.335                0.963452781     -116.997317
9.336                0.963375787     -117.216279
9.337                0.963298791     -117.435741
9.338                0.963221796     -117.655702
9.339                0.963144805     -117.876163
9.34                 0.963067818     -118.097124
9.341                 0.96299084     -118.318585
9.342                0.962913872     -118.540546
9.343                0.962836916     -118.763008
9.344                0.962759975      -118.98597
9.345                0.962683051     -119.209432
9.346                0.962606147     -119.433395
9.347                0.962529265     -119.657859
9.348                0.962452407     -119.882822
9.349                0.962375577     -120.108287
9.35                 0.962298775     -120.334251
9.351                0.962222006     -120.560717
9.352                0.962145271     -120.787682
9.353                0.962068573     -121.015148
9.354                0.961991915     -121.243114
9.355                0.961915299      -121.47158
9.356                0.961838727     -121.700547
9.357                0.961762204     -121.930013
9.358                 0.96168573     -122.159978
9.359                0.961609308     -122.390444
9.36                 0.961532942     -122.621409
9.361                0.961456635     -122.852873
9.362                0.961380388     -123.084836
9.363                0.961304204     -123.317297
9.364                0.961228087     -123.550257
9.365                0.961152039     -123.783716
9.366                0.961076063     -124.017672
9.367                0.961000162     -124.252126
9.368                0.960924338     -124.487078
9.369                0.960848594     -124.722526
9.37                 0.960772934     -124.958471
9.371                 0.96069736     -125.194912
9.372                0.960621875     -125.431849
9.373                0.960546482     -125.669282
9.374                0.960471185     -125.907209
9.375                0.960395985     -126.145632
9.376                0.960320886     -126.384548
9.377                0.960245891     -126.623958
9.378                0.960171003     -126.863861
9.379                0.960096225     -127.104257
9.38                  0.96002156     -127.345145
9.381                0.959947011     -127.586524
9.382                0.959872581     -127.828394
9.383                0.959798274     -128.070755
9.384                0.959724092     -128.313605
9.385                0.959650039     -128.556944
9.386                0.959576118     -128.800772
9.387                0.959502332     -129.045088
9.388                0.959428684      -129.28989
9.389                0.959355177     -129.535179
9.39                 0.959281815     -129.780953
9.391                  0.9592086     -130.027213
9.392                0.959135537     -130.273956
9.393                0.959062628     -130.521182
9.394                0.958989877     -130.768891
9.395                0.958917287     -131.017082
9.396                0.958844861     -131.265753
