! TOUCHSTONE file generated by CST DESIGN STUDIO
! Date and time: Tue Feb  4 13:33:53 2025
! Project name: C:\Work\MatlabApps\UnitCellOptimizationMatlab\CST\unitcell.cst
! Tree item: Tasks\Sweep1\SPara1\S-Parameters
! Header version: 2024
! Port assignment regex: !\s*Touchstone port\s*([0-9]+)\s*=\s*(CST MWS port|CST DES external port|CST DES block port)\s*(.+)\s* \(\"(.*)\"\)(\s*mode\s*([0-9]+))?.*
! Touchstone port assignment:
! Touchstone port 1 = CST DES external port 1 ("")
# GHz S MA R 50
9                    0.983366123     -63.8556287
9.001                0.983332369     -63.9443913
9.002                0.983298512     -64.0333596
9.003                0.983264553     -64.1225343
9.004                0.983230491      -64.211916
9.005                0.983196325     -64.3015053
9.006                0.983162056     -64.3913028
9.007                0.983127682     -64.4813093
9.008                0.983093205     -64.5715254
9.009                0.983058622     -64.6619517
9.01                 0.983023935     -64.7525888
9.011                0.982989143     -64.8434374
9.012                0.982954245     -64.9344982
9.013                0.982919242     -65.0257718
9.014                0.982884132     -65.1172589
9.015                0.982848917     -65.2089601
9.016                0.982813594     -65.3008762
9.017                0.982778164     -65.3930076
9.018                0.982742627     -65.4853552
9.019                0.982706983     -65.5779196
9.02                  0.98267123     -65.6707015
9.021                 0.98263537     -65.7637015
9.022                  0.9825994     -65.8569203
9.023                0.982563322     -65.9503585
9.024                0.982527135      -66.044017
9.025                0.982490838     -66.1378962
9.026                0.982454432      -66.231997
9.027                0.982417915       -66.32632
9.028                0.982381288      -66.420866
9.029                 0.98234455     -66.5156354
9.03                 0.982307701     -66.6106292
9.031                0.982270741      -66.705848
9.032                 0.98223367     -66.8012924
9.033                0.982196486     -66.8969631
9.034                 0.98215919      -66.992861
9.035                0.982121781     -67.0889866
9.036                 0.98208426     -67.1853406
9.037                0.982046625     -67.2819239
9.038                0.982008877      -67.378737
9.039                0.981971015     -67.4757807
9.04                 0.981933039     -67.5730558
9.041                0.981894948     -67.6705628
9.042                0.981856743     -67.7683026
9.043                0.981818422     -67.8662759
9.044                0.981779987     -67.9644833
9.045                0.981741435     -68.0629257
9.046                0.981702767     -68.1616037
9.047                0.981663983      -68.260518
9.048                0.981625083     -68.3596695
9.049                0.981586065     -68.4590587
9.05                  0.98154693     -68.5586866
9.051                0.981507678     -68.6585537
9.052                0.981468307     -68.7586609
9.053                0.981428819     -68.8590088
9.054                0.981389211     -68.9595983
9.055                0.981349485       -69.06043
9.056                 0.98130964     -69.1615048
9.057                0.981269675     -69.2628233
9.058                0.981229591     -69.3643864
9.059                0.981189386     -69.4661947
9.06                 0.981149061     -69.5682491
9.061                0.981108615     -69.6705503
9.062                0.981068048      -69.773099
9.063                 0.98102736      -69.875896
9.064                 0.98098655     -69.9789421
9.065                0.980945618     -70.0822381
9.066                0.980904563     -70.1857848
9.067                0.980863386     -70.2895828
9.068                0.980822086      -70.393633
9.069                0.980780663     -70.4979361
9.07                 0.980739116      -70.602493
9.071                0.980697446     -70.7073044
9.072                0.980655651     -70.8123711
9.073                0.980613731     -70.9176939
9.074                0.980571687     -71.0232735
9.075                0.980529518     -71.1291109
9.076                0.980487223     -71.2352067
9.077                0.980444803     -71.3415617
9.078                0.980402256     -71.4481768
9.079                0.980359583     -71.5550528
9.08                 0.980316783     -71.6621904
9.081                0.980273857     -71.7695904
9.082                0.980230803     -71.8772538
9.083                0.980187621     -71.9851812
9.084                0.980144312     -72.0933735
9.085                0.980100874     -72.2018315
9.086                0.980057308     -72.3105561
9.087                0.980013613     -72.4195479
9.088                0.979969788      -72.528808
9.089                0.979925835      -72.638337
9.09                 0.979881751     -72.7481358
9.091                0.979837538     -72.8582052
9.092                0.979793194     -72.9685461
9.093                0.979748719     -73.0791593
9.094                0.979704114     -73.1900457
9.095                0.979659377      -73.301206
9.096                0.979614509     -73.4126411
9.097                0.979569509     -73.5243518
9.098                0.979524377      -73.636339
9.099                0.979479112     -73.7486035
9.1                  0.979433715     -73.8611463
9.101                0.979388184      -73.973968
9.102                 0.97934252     -74.0870696
9.103                0.979296723      -74.200452
9.104                0.979250792      -74.314116
9.105                0.979204726     -74.4280623
9.106                0.979158526      -74.542292
9.107                0.979112191     -74.6568059
9.108                0.979065721     -74.7716048
9.109                0.979019116     -74.8866896
9.11                 0.978972375     -75.0020612
9.111                0.978925498     -75.1177204
9.112                0.978878485     -75.2336681
9.113                0.978831336     -75.3499052
9.114                0.978784049     -75.4664326
9.115                0.978736626     -75.5832511
9.116                0.978689065     -75.7003617
9.117                0.978641367     -75.8177651
9.118                0.978593531     -75.9354624
9.119                0.978545556     -76.0534543
9.12                 0.978497444     -76.1717419
9.121                0.978449192     -76.2903259
9.122                0.978400802     -76.4092072
9.123                0.978352272     -76.5283869
9.124                0.978303603     -76.6478657
9.125                0.978254794     -76.7676445
9.126                0.978205845     -76.8877243
9.127                0.978156756      -77.008106
9.128                0.978107526     -77.1287905
9.129                0.978058156     -77.2497786
9.13                 0.978008644     -77.3710714
9.131                0.977958991     -77.4926696
9.132                0.977909197     -77.6145743
9.133                0.977859261     -77.7367864
9.134                0.977809182     -77.8593067
9.135                0.977758962     -77.9821362
9.136                0.977708599     -78.1052757
9.137                0.977658093     -78.2287264
9.138                0.977607444      -78.352489
9.139                0.977556652     -78.4765644
9.14                 0.977505716     -78.6009537
9.141                0.977454637     -78.7256578
9.142                0.977403413     -78.8506775
9.143                0.977352046     -78.9760139
9.144                0.977300534     -79.1016678
9.145                0.977248878     -79.2276403
9.146                0.977197076     -79.3539322
9.147                 0.97714513     -79.4805444
9.148                0.977093038     -79.6074781
9.149                0.977040801      -79.734734
9.15                 0.976988419     -79.8623131
9.151                 0.97693589     -79.9902165
9.152                0.976883215     -80.1184449
9.153                0.976830394     -80.2469995
9.154                0.976777427     -80.3758812
9.155                0.976724312     -80.5050908
9.156                0.976671051     -80.6346294
9.157                0.976617643      -80.764498
9.158                0.976564087     -80.8946974
9.159                0.976510385     -81.0252288
9.16                 0.976456534     -81.1560929
9.161                0.976402536     -81.2872909
9.162                0.976348389     -81.4188236
9.163                0.976294095     -81.5506921
9.164                0.976239652     -81.6828973
9.165                0.976185061     -81.8154402
9.166                0.976130321     -81.9483218
9.167                0.976075433      -82.081543
9.168                0.976020395     -82.2151049
9.169                0.975965209     -82.3490084
9.17                 0.975909873     -82.4832544
9.171                0.975854388     -82.6178441
9.172                0.975798753     -82.7527783
9.173                0.975742969      -82.888058
9.174                0.975687035     -83.0236843
9.175                0.975630951     -83.1596582
9.176                0.975574717     -83.2959805
9.177                0.975518333     -83.4326524
9.178                0.975461799     -83.5696748
9.179                0.975405114     -83.7070487
9.18                 0.975348279     -83.8447751
9.181                0.975291293      -83.982855
9.182                0.975234157     -84.1212894
9.183                 0.97517687     -84.2600793
9.184                0.975119432     -84.3992257
9.185                0.975061843     -84.5387296
9.186                0.975004104      -84.678592
9.187                0.974946213     -84.8188139
9.188                0.974888171     -84.9593964
9.189                0.974829978     -85.1003403
9.19                 0.974771634     -85.2416468
9.191                0.974713138     -85.3833169
9.192                0.974654491     -85.5253515
9.193                0.974595693     -85.6677517
9.194                0.974536743     -85.8105184
9.195                0.974477642     -85.9536528
9.196                 0.97441839     -86.0971557
9.197                0.974358985     -86.2410282
9.198                 0.97429943     -86.3852714
9.199                0.974239723     -86.5298863
9.2                  0.974179864     -86.6748738
9.201                0.974119854     -86.8202349
9.202                0.974059692     -86.9659708
9.203                0.973999379     -87.1120824
9.204                0.973938915     -87.2585707
9.205                0.973878299     -87.4054368
9.206                0.973817531     -87.5526817
9.207                0.973756613     -87.7003063
9.208                0.973695542     -87.8483118
9.209                0.973634321     -87.9966991
9.21                 0.973572948     -88.1454693
9.211                0.973511425     -88.2946234
9.212                 0.97344975     -88.4441623
9.213                0.973387924     -88.5940872
9.214                0.973325947     -88.7443991
9.215                0.973263819     -88.8950989
9.216                0.973201541     -89.0461877
9.217                0.973139112     -89.1976665
9.218                0.973076533     -89.3495364
9.219                0.973013803     -89.5017984
9.22                 0.972950923     -89.6544534
9.221                0.972887892     -89.8075026
9.222                0.972824712     -89.9609469
9.223                0.972761382     -90.1147873
9.224                0.972697902     -90.2690249
9.225                0.972634273     -90.4236608
9.226                0.972570494     -90.5786958
9.227                0.972506566     -90.7341311
9.228                 0.97244249     -90.8899677
9.229                0.972378264     -91.0462066
9.23                  0.97231389     -91.2028488
9.231                0.972249367     -91.3598953
9.232                0.972184697     -91.5173472
9.233                0.972119878     -91.6752054
9.234                0.972054912      -91.833471
9.235                0.971989798     -91.9921451
9.236                0.971924537     -92.1512285
9.237                 0.97185913     -92.3107224
9.238                0.971793575     -92.4706278
9.239                0.971727874     -92.6309456
9.24                 0.971662028     -92.7916769
9.241                0.971596035     -92.9528227
9.242                0.971529897      -93.114384
9.243                0.971463614     -93.2763618
9.244                0.971397186     -93.4387571
9.245                0.971330614     -93.6015709
9.246                0.971263897     -93.7648043
9.247                0.971197037     -93.9284583
9.248                0.971130033     -94.0925337
9.249                0.971062887     -94.2570317
9.25                 0.970995597     -94.4219533
9.251                0.970928166     -94.5872994
9.252                0.970860592      -94.753071
9.253                0.970792878     -94.9192692
9.254                0.970725022     -95.0858949
9.255                0.970657026     -95.2529491
9.256                 0.97058889     -95.4204328
9.257                0.970520614      -95.588347
9.258                0.970452199     -95.7566927
9.259                0.970383645     -95.9254709
9.26                 0.970314953     -96.0946825
9.261                0.970246124     -96.2643285
9.262                0.970177157     -96.4344099
9.263                0.970108054     -96.6049277
9.264                0.970038815     -96.7758828
9.265                 0.96996944     -96.9472762
9.266                0.969899931     -97.1191089
9.267                0.969830287     -97.2913819
9.268                0.969760509     -97.4640961
9.269                0.969690598     -97.6372524
9.27                 0.969620554     -97.8108518
9.271                0.969550379     -97.9848953
9.272                0.969480072     -98.1593838
9.273                0.969409635     -98.3343183
9.274                0.969339067     -98.5096996
9.275                 0.96926837     -98.6855288
9.276                0.969197545     -98.8618068
9.277                0.969126592     -99.0385345
9.278                0.969055511     -99.2157129
9.279                0.968984304     -99.3933427
9.28                 0.968912972     -99.5714251
9.281                0.968841514     -99.7499609
9.282                0.968769932      -99.928951
9.283                0.968698227     -100.108396
9.284                0.968626399     -100.288298
9.285                0.968554449     -100.468656
9.286                0.968482379     -100.649473
9.287                0.968410188     -100.830748
9.288                0.968337878     -101.012483
9.289                0.968265449     -101.194678
9.29                 0.968192903     -101.377335
9.291                 0.96812024     -101.560455
9.292                0.968047462     -101.744037
9.293                0.967974568     -101.928084
9.294                0.967901561     -102.112596
9.295                0.967828441     -102.297573
9.296                0.967755209     -102.483017
9.297                0.967681866     -102.668929
9.298                0.967608413     -102.855309
9.299                0.967534851     -103.042158
9.3                  0.967461181     -103.229477
9.301                0.967387404     -103.417267
9.302                0.967313522     -103.605528
9.303                0.967239535     -103.794262
9.304                0.967165444     -103.983469
9.305                 0.96709125      -104.17315
9.306                0.967016956     -104.363307
9.307                0.966942561     -104.553938
9.308                0.966868066     -104.745047
9.309                0.966793474     -104.936632
9.31                 0.966718786     -105.128695
9.311                0.966644002     -105.321237
9.312                0.966569123     -105.514259
9.313                0.966494152      -105.70776
9.314                0.966419089     -105.901743
9.315                0.966343935     -106.096208
9.316                0.966268692     -106.291154
9.317                0.966193362     -106.486584
9.318                0.966117944     -106.682498
9.319                0.966042442     -106.878896
9.32                 0.965966856      -107.07578
9.321                0.965891187      -107.27315
9.322                0.965815438     -107.471006
9.323                0.965739608     -107.669349
9.324                0.965663701     -107.868181
9.325                0.965587717     -108.067501
9.326                0.965511658      -108.26731
9.327                0.965435525     -108.467609
9.328                 0.96535932     -108.668399
9.329                0.965283044      -108.86968
9.33                 0.965206699     -109.071452
9.331                0.965130286     -109.273717
9.332                0.965053808     -109.476475
9.333                0.964977265     -109.679727
9.334                0.964900659     -109.883473
9.335                0.964823992     -110.087713
9.336                0.964747266     -110.292449
9.337                0.964670482      -110.49768
9.338                0.964593642     -110.703408
9.339                0.964516748     -110.909633
9.34                 0.964439801     -111.116355
9.341                0.964362803     -111.323575
9.342                0.964285757     -111.531293
9.343                0.964208663     -111.739511
9.344                0.964131523     -111.948227
9.345                 0.96405434     -112.157444
9.346                0.963977116     -112.367161
9.347                0.963899851     -112.577378
9.348                0.963822549     -112.788097
9.349                 0.96374521     -112.999317
9.35                 0.963667838     -113.211039
9.351                0.963590433     -113.423264
9.352                0.963512999     -113.635991
9.353                0.963435536     -113.849222
9.354                0.963358047     -114.062956
9.355                0.963280534     -114.277194
9.356                0.963202999     -114.491937
9.357                0.963125444     -114.707183
9.358                0.963047871     -114.922935
9.359                0.962970283     -115.139192
9.36                 0.962892681     -115.355954
9.361                0.962815068     -115.573222
9.362                0.962737445     -115.790996
9.363                0.962659816     -116.009277
9.364                0.962582182     -116.228063
9.365                0.962504545     -116.447357
9.366                0.962426908     -116.667157
9.367                0.962349273     -116.887465
9.368                0.962271643      -117.10828
9.369                0.962194019     -117.329602
9.37                 0.962116405     -117.551432
9.371                0.962038801      -117.77377
9.372                0.961961212     -117.996615
9.373                0.961883639     -118.219969
9.374                0.961806084     -118.443831
9.375                0.961728551     -118.668201
9.376                0.961651041     -118.893079
9.377                0.961573558     -119.118465
9.378                0.961496103      -119.34436
9.379                0.961418679     -119.570763
9.38                 0.961341289     -119.797675
9.381                0.961263936     -120.025095
9.382                0.961186621     -120.253023
9.383                0.961109348      -120.48146
9.384                0.961032119     -120.710405
9.385                0.960954937     -120.939858
9.386                0.960877805     -121.169819
9.387                0.960800724     -121.400288
9.388                0.960723699     -121.631265
9.389                0.960646732     -121.862749
9.39                 0.960569825     -122.094741
9.391                0.960492981     -122.327241
9.392                0.960416204     -122.560248
9.393                0.960339495     -122.793761
9.394                0.960262858     -123.027782
9.395                0.960186296     -123.262309
9.396                0.960109811     -123.497342
