! TOUCHSTONE file generated by CST DESIGN STUDIO
! Date and time: Tue Feb  4 13:50:03 2025
! Project name: C:\Work\MatlabApps\UnitCellOptimizationMatlab\CST\unitcell.cst
! Tree item: Tasks\Sweep1\SPara1\S-Parameters
! Header version: 2024
! Port assignment regex: !\s*Touchstone port\s*([0-9]+)\s*=\s*(CST MWS port|CST DES external port|CST DES block port)\s*(.+)\s* \(\"(.*)\"\)(\s*mode\s*([0-9]+))?.*
! Touchstone port assignment:
! Touchstone port 1 = CST DES external port 1 ("")
# GHz S MA R 50
9                    0.979585641     -60.7436783
9.001                0.979545535     -60.8266799
9.002                0.979505306      -60.909871
9.003                0.979464956     -60.9932521
9.004                0.979424484     -61.0768238
9.005                0.979383888     -61.1605868
9.006                 0.97934317     -61.2445415
9.007                0.979302327     -61.3286887
9.008                0.979261361      -61.413029
9.009                0.979220271     -61.4975628
9.01                 0.979179056     -61.5822908
9.011                0.979137716     -61.6672137
9.012                 0.97909625      -61.752332
9.013                0.979054659     -61.8376463
9.014                0.979012941     -61.9231573
9.015                0.978971097     -62.0088655
9.016                0.978929125     -62.0947716
9.017                0.978887027     -62.1808762
9.018                  0.9788448     -62.2671799
9.019                0.978802445     -62.3536832
9.02                 0.978759962      -62.440387
9.021                 0.97871735     -62.5272917
9.022                0.978674608      -62.614398
9.023                0.978631737     -62.7017065
9.024                0.978588735     -62.7892179
9.025                0.978545603     -62.8769327
9.026                 0.97850234     -62.9648517
9.027                0.978458946     -63.0529754
9.028                 0.97841542     -63.1413046
9.029                0.978371762     -63.2298397
9.03                 0.978327971     -63.3185815
9.031                0.978284048     -63.4075307
9.032                0.978239991     -63.4966878
9.033                  0.9781958     -63.5860536
9.034                0.978151475     -63.6756286
9.035                0.978107016     -63.7654135
9.036                0.978062422     -63.8554091
9.037                0.978017692     -63.9456158
9.038                0.977972827     -64.0360345
9.039                0.977927825     -64.1266657
9.04                 0.977882687     -64.2175102
9.041                0.977837412     -64.3085685
9.042                   0.977792     -64.3998414
9.043                 0.97774645     -64.4913296
9.044                0.977700761     -64.5830336
9.045                0.977654935     -64.6749543
9.046                0.977608969     -64.7670922
9.047                0.977562863      -64.859448
9.048                0.977516618     -64.9520224
9.049                0.977470233     -65.0448162
9.05                 0.977423707       -65.13783
9.051                 0.97737704     -65.2310644
9.052                0.977330232     -65.3245202
9.053                0.977283281     -65.4181981
9.054                0.977236189     -65.5120987
9.055                0.977188954     -65.6062228
9.056                0.977141575     -65.7005711
9.057                0.977094053     -65.7951442
9.058                0.977046387     -65.8899429
9.059                0.976998577     -65.9849679
9.06                 0.976950622     -66.0802198
9.061                0.976902522     -66.1756995
9.062                0.976854276     -66.2714075
9.063                0.976805884     -66.3673447
9.064                0.976757346     -66.4635117
9.065                0.976708661     -66.5599093
9.066                0.976659829     -66.6565382
9.067                0.976610848     -66.7533991
9.068                 0.97656172     -66.8504927
9.069                0.976512444     -66.9478198
9.07                 0.976463018     -67.0453811
9.071                0.976413443     -67.1431773
9.072                0.976363718     -67.2412092
9.073                0.976313843     -67.3394775
9.074                0.976263817      -67.437983
9.075                0.976213641     -67.5367263
9.076                0.976163312     -67.6357083
9.077                0.976112832     -67.7349297
9.078                  0.9760622     -67.8343912
9.079                0.976011415     -67.9340937
9.08                 0.975960476     -68.0340377
9.081                0.975909385     -68.1342242
9.082                0.975858139     -68.2346539
9.083                0.975806739     -68.3353274
9.084                0.975755183     -68.4362457
9.085                0.975703473     -68.5374094
9.086                0.975651607     -68.6388194
9.087                0.975599585     -68.7404763
9.088                0.975547406      -68.842381
9.089                0.975495071     -68.9445343
9.09                 0.975442578     -69.0469369
9.091                0.975389927     -69.1495897
9.092                0.975337118     -69.2524933
9.093                 0.97528415     -69.3556486
9.094                0.975231024     -69.4590563
9.095                0.975177738     -69.5627174
9.096                0.975124292     -69.6666324
9.097                0.975070685     -69.7708024
9.098                0.975016918     -69.8752279
9.099                 0.97496299       -69.97991
9.1                    0.9749089     -70.0848492
9.101                0.974854648     -70.1900465
9.102                0.974800234     -70.2955027
9.103                0.974745657     -70.4012186
9.104                0.974690917     -70.5071949
9.105                0.974636013     -70.6134325
9.106                0.974580945     -70.7199322
9.107                0.974525713     -70.8266949
9.108                0.974470316     -70.9337213
9.109                0.974414753     -71.0410123
9.11                 0.974359024     -71.1485687
9.111                 0.97430313     -71.2563913
9.112                0.974247069      -71.364481
9.113                0.974190841     -71.4728386
9.114                0.974134445     -71.5814649
9.115                0.974077882     -71.6903608
9.116                 0.97402115     -71.7995271
9.117                 0.97396425     -71.9089647
9.118                0.973907181     -72.0186743
9.119                0.973849943     -72.1286569
9.12                 0.973792534     -72.2389133
9.121                0.973734956     -72.3494443
9.122                0.973677206     -72.4602509
9.123                0.973619286     -72.5713338
9.124                0.973561194     -72.6826939
9.125                 0.97350293     -72.7943321
9.126                0.973444494     -72.9062492
9.127                0.973385885     -73.0184462
9.128                0.973327104     -73.1309238
9.129                0.973268148      -73.243683
9.13                 0.973209019     -73.3567246
9.131                0.973149716     -73.4700495
9.132                0.973090238     -73.5836586
9.133                0.973030585     -73.6975528
9.134                0.972970756     -73.8117329
9.135                0.972910752     -73.9261998
9.136                0.972850571     -74.0409544
9.137                0.972790214     -74.1559977
9.138                 0.97272968     -74.2713304
9.139                0.972668968     -74.3869535
9.14                 0.972608079      -74.502868
9.141                0.972547011     -74.6190746
9.142                0.972485765     -74.7355743
9.143                 0.97242434      -74.852368
9.144                0.972362736     -74.9694566
9.145                0.972300952      -75.086841
9.146                0.972238988     -75.2045222
9.147                0.972176843     -75.3225009
9.148                0.972114518     -75.4407782
9.149                0.972052012      -75.559355
9.15                 0.971989324     -75.6782322
9.151                0.971926454     -75.7974107
9.152                0.971863402     -75.9168914
9.153                0.971800168     -76.0366752
9.154                 0.97173675     -76.1567632
9.155                0.971673149     -76.2771562
9.156                0.971609365     -76.3978551
9.157                0.971545396     -76.5188609
9.158                0.971481243     -76.6401746
9.159                0.971416906      -76.761797
9.16                 0.971352383     -76.8837291
9.161                0.971287675     -77.0059719
9.162                0.971222781     -77.1285262
9.163                0.971157701     -77.2513931
9.164                0.971092435     -77.3745736
9.165                0.971026982     -77.4980684
9.166                0.970961342     -77.6218787
9.167                0.970895514     -77.7460053
9.168                0.970829499     -77.8704493
9.169                0.970763295     -77.9952115
9.17                 0.970696904      -78.120293
9.171                0.970630324     -78.2456947
9.172                0.970563554     -78.3714176
9.173                0.970496596     -78.4974626
9.174                0.970429448     -78.6238308
9.175                 0.97036211      -78.750523
9.176                0.970294581     -78.8775404
9.177                0.970226863     -79.0048837
9.178                0.970158953     -79.1325541
9.179                0.970090853     -79.2605526
9.18                 0.970022561       -79.38888
9.181                0.969954077     -79.5175374
9.182                0.969885402     -79.6465257
9.183                0.969816535     -79.7758461
9.184                0.969747475     -79.9054993
9.185                0.969678222     -80.0354866
9.186                0.969608776     -80.1658087
9.187                0.969539137     -80.2964668
9.188                0.969469305     -80.4274618
9.189                0.969399279     -80.5587948
9.19                 0.969329059     -80.6904667
9.191                0.969258645     -80.8224786
9.192                0.969188036     -80.9548314
9.193                0.969117233     -81.0875261
9.194                0.969046235     -81.2205639
9.195                0.968975041     -81.3539456
9.196                0.968903652     -81.4876723
9.197                0.968832068      -81.621745
9.198                0.968760288     -81.7561648
9.199                0.968688312     -81.8909325
9.2                   0.96861614     -82.0260494
9.201                0.968543771     -82.1615163
9.202                0.968471206     -82.2973344
9.203                0.968398445     -82.4335046
9.204                0.968325486     -82.5700279
9.205                 0.96825233     -82.7069054
9.206                0.968178977     -82.8441382
9.207                0.968105427     -82.9817272
9.208                0.968031679     -83.1196734
9.209                0.967957733      -83.257978
9.21                 0.967883589     -83.3966419
9.211                0.967809248     -83.5356663
9.212                0.967734708      -83.675052
9.213                 0.96765997     -83.8148002
9.214                0.967585034     -83.9549119
9.215                0.967509899     -84.0953882
9.216                0.967434566       -84.23623
9.217                0.967359034     -84.3774385
9.218                0.967283303     -84.5190147
9.219                0.967207373     -84.6609596
9.22                 0.967131244     -84.8032742
9.221                0.967054916     -84.9459597
9.222                0.966978389     -85.0890171
9.223                0.966901663     -85.2324474
9.224                0.966824738     -85.3762516
9.225                0.966747613     -85.5204309
9.226                 0.96667029     -85.6649863
9.227                0.966592766     -85.8099188
9.228                0.966515044     -85.9552295
9.229                0.966437122     -86.1009195
9.23                    0.966359     -86.2469898
9.231                0.966280679     -86.3934414
9.232                0.966202159     -86.5402755
9.233                 0.96612344      -86.687493
9.234                0.966044521     -86.8350951
9.235                0.965965402     -86.9830829
9.236                0.965886085     -87.1314573
9.237                0.965806568     -87.2802194
9.238                0.965726852     -87.4293703
9.239                0.965646936     -87.5789111
9.24                 0.965566822     -87.7288428
9.241                0.965486509     -87.8791666
9.242                0.965405997     -88.0298833
9.243                0.965325286     -88.1809942
9.244                0.965244376     -88.3325003
9.245                0.965163268     -88.4844027
9.246                0.965081961     -88.6367023
9.247                0.965000456     -88.7894004
9.248                0.964918753     -88.9424979
9.249                0.964836851      -89.095996
9.25                 0.964754752     -89.2498956
9.251                0.964672455     -89.4041979
9.252                0.964589961     -89.5589039
9.253                0.964507269     -89.7140147
9.254                0.964424381     -89.8695314
9.255                0.964341295      -90.025455
9.256                0.964258013     -90.1817866
9.257                0.964174534     -90.3385272
9.258                0.964090859      -90.495678
9.259                0.964006988     -90.6532399
9.26                 0.963922921     -90.8112142
9.261                 0.96383866     -90.9696017
9.262                0.963754202     -91.1284036
9.263                0.963669551      -91.287621
9.264                0.963584704     -91.4472549
9.265                0.963499664     -91.6073064
9.266                0.963414429     -91.7677765
9.267                0.963329002     -91.9286663
9.268                0.963243381     -92.0899768
9.269                0.963157567     -92.2517092
9.27                 0.963071561     -92.4138645
9.271                0.962985363     -92.5764437
9.272                0.962898973     -92.7394479
9.273                0.962812393     -92.9028781
9.274                0.962725621     -93.0667354
9.275                 0.96263866     -93.2310209
9.276                0.962551508     -93.3957356
9.277                0.962464168     -93.5608806
9.278                0.962376638     -93.7264569
9.279                 0.96228892     -93.8924655
9.28                 0.962201014     -94.0589075
9.281                0.962112921      -94.225784
9.282                0.962024641      -94.393096
9.283                0.961936175     -94.5608445
9.284                0.961847524     -94.7290305
9.285                0.961758687     -94.8976552
9.286                0.961669666     -95.0667195
9.287                0.961580461     -95.2362245
9.288                0.961491073     -95.4061712
9.289                0.961401502     -95.5765606
9.29                 0.961311749     -95.7473938
9.291                0.961221816     -95.9186718
9.292                0.961131701     -96.0903956
9.293                0.961041407     -96.2625663
9.294                0.960950933     -96.4351847
9.295                0.960860282     -96.6082521
9.296                0.960769452     -96.7817693
9.297                0.960678446     -96.9557375
9.298                0.960587264     -97.1301575
9.299                0.960495906     -97.3050304
9.3                  0.960404374     -97.4803572
9.301                0.960312668     -97.6561389
9.302                 0.96022079     -97.8323766
9.303                0.960128739     -98.0090711
9.304                0.960036518     -98.1862234
9.305                0.959944126     -98.3638347
9.306                0.959851565     -98.5419058
9.307                0.959758836     -98.7204377
9.308                 0.95966594     -98.8994314
9.309                0.959572877     -99.0788879
9.31                 0.959479649     -99.2588081
9.311                0.959386256      -99.439193
9.312                  0.9592927     -99.6200435
9.313                0.959198982     -99.8013607
9.314                0.959105102     -99.9831455
9.315                0.959011063     -100.165399
9.316                0.958916864     -100.348121
9.317                0.958822508     -100.531315
9.318                0.958727994     -100.714979
9.319                0.958633325     -100.899116
9.32                 0.958538502     -101.083726
9.321                0.958443525     -101.268809
9.322                0.958348396     -101.454368
9.323                0.958253117     -101.640403
9.324                0.958157687     -101.826915
9.325                 0.95806211     -102.013905
9.326                0.957966386     -102.201373
9.327                0.957870516      -102.38932
9.328                0.957774501     -102.577748
9.329                0.957678344     -102.766658
9.33                 0.957582045     -102.956049
9.331                0.957485606     -103.145923
9.332                0.957389028     -103.336282
9.333                0.957292313     -103.527125
9.334                0.957195462     -103.718454
9.335                0.957098477     -103.910269
9.336                0.957001359     -104.102571
9.337                0.956904109     -104.295361
9.338                 0.95680673     -104.488641
9.339                0.956709223      -104.68241
9.34                 0.956611589     -104.876669
9.341                 0.95651383      -105.07142
9.342                0.956415948     -105.266663
9.343                0.956317944     -105.462399
9.344                 0.95621982     -105.658629
9.345                0.956121578     -105.855353
9.346                0.956023219     -106.052572
9.347                0.955924746     -106.250288
9.348                 0.95582616       -106.4485
9.349                0.955727463     -106.647209
9.35                 0.955628656     -106.846417
9.351                0.955529742     -107.046124
9.352                0.955430722      -107.24633
9.353                0.955331599     -107.447037
9.354                0.955232374     -107.648245
9.355                0.955133049     -107.849955
9.356                0.955033627     -108.052167
9.357                0.954934108     -108.254883
9.358                0.954834496     -108.458102
9.359                0.954734792     -108.661825
9.36                 0.954634999     -108.866054
9.361                0.954535118     -109.070789
9.362                0.954435151      -109.27603
9.363                0.954335102     -109.481778
9.364                0.954234971     -109.688033
9.365                0.954134762     -109.894797
9.366                0.954034476     -110.102069
9.367                0.953934115     -110.309851
9.368                0.953833683     -110.518143
9.369                 0.95373318     -110.726946
9.37                 0.953632611     -110.936259
9.371                0.953531976     -111.146084
9.372                0.953431278     -111.356422
9.373                0.953330521     -111.567272
9.374                0.953229705     -111.778635
9.375                0.953128834     -111.990512
9.376                0.953027911     -112.202903
9.377                0.952926937     -112.415808
9.378                0.952825915     -112.629229
9.379                0.952724848     -112.843165
9.38                 0.952623739     -113.057617
9.381                 0.95252259     -113.272585
9.382                0.952421403     -113.488071
9.383                0.952320182     -113.704073
9.384                0.952218929     -113.920593
9.385                0.952117647     -114.137631
9.386                0.952016338     -114.355188
9.387                0.951915006     -114.573263
9.388                0.951813654     -114.791857
9.389                0.951712283      -115.01097
9.39                 0.951610897     -115.230603
9.391                  0.9515095     -115.450756
9.392                0.951408093      -115.67143
9.393                 0.95130668     -115.892623
9.394                0.951205264     -116.114338
9.395                0.951103848     -116.336573
9.396                0.951002434      -116.55933
