! TOUCHSTONE file generated by CST DESIGN STUDIO
! Date and time: Tue Feb  4 13:49:57 2025
! Project name: C:\Work\MatlabApps\UnitCellOptimizationMatlab\CST\unitcell.cst
! Tree item: Tasks\Sweep1\SPara1\S-Parameters
! Header version: 2024
! Port assignment regex: !\s*Touchstone port\s*([0-9]+)\s*=\s*(CST MWS port|CST DES external port|CST DES block port)\s*(.+)\s* \(\"(.*)\"\)(\s*mode\s*([0-9]+))?.*
! Touchstone port assignment:
! Touchstone port 1 = CST DES external port 1 ("")
# GHz S MA R 50
9                    0.978722261     -68.9705026
9.001                0.978674411     -69.0700713
9.002                0.978626418     -69.1698789
9.003                 0.97857828     -69.2699262
9.004                0.978529997     -69.3702138
9.005                0.978481569     -69.4707426
9.006                0.978432995     -69.5715132
9.007                0.978384275     -69.6725264
9.008                0.978335409     -69.7737829
9.009                0.978286396     -69.8752836
9.01                 0.978237236      -69.977029
9.011                0.978187928     -70.0790201
9.012                0.978138472     -70.1812575
9.013                0.978088867      -70.283742
9.014                0.978039114     -70.3864744
9.015                0.977989211     -70.4894554
9.016                0.977939159     -70.5926858
9.017                0.977888957     -70.6961664
9.018                0.977838604     -70.7998978
9.019                  0.9777881      -70.903881
9.02                 0.977737445     -71.0081166
9.021                0.977686638     -71.1126054
9.022                0.977635679     -71.2173483
9.023                0.977584568     -71.3223459
9.024                0.977533303     -71.4275991
9.025                0.977481886     -71.5331087
9.026                0.977430314     -71.6388754
9.027                0.977378589        -71.7449
9.028                0.977326709     -71.8511834
9.029                0.977274674     -71.9577262
9.03                 0.977222484     -72.0645294
9.031                0.977170138     -72.1715936
9.032                0.977117636     -72.2789198
9.033                0.977064977     -72.3865086
9.034                0.977012161     -72.4943609
9.035                0.976959189     -72.6024776
9.036                0.976906058     -72.7108593
9.037                0.976852769      -72.819507
9.038                0.976799322     -72.9284214
9.039                0.976745716     -73.0376033
9.04                 0.976691951     -73.1470536
9.041                0.976638026     -73.2567731
9.042                0.976583941     -73.3667626
9.043                0.976529695     -73.4770229
9.044                0.976475289     -73.5875549
9.045                0.976420721     -73.6983593
9.046                0.976365992      -73.809437
9.047                  0.9763111     -73.9207889
9.048                0.976256046     -74.0324157
9.049                 0.97620083     -74.1443183
9.05                  0.97614545     -74.2564976
9.051                0.976089906     -74.3689544
9.052                0.976034199     -74.4816894
9.053                0.975978327     -74.5947037
9.054                0.975922291      -74.707998
9.055                0.975866089     -74.8215731
9.056                0.975809722     -74.9354299
9.057                0.975753189     -75.0495693
9.058                 0.97569649     -75.1639922
9.059                0.975639624     -75.2786993
9.06                 0.975582591     -75.3936915
9.061                0.975525391     -75.5089698
9.062                0.975468023     -75.6245349
9.063                0.975410486     -75.7403877
9.064                0.975352782     -75.8565292
9.065                0.975294908     -75.9729601
9.066                0.975236865     -76.0896814
9.067                0.975178653     -76.2066938
9.068                0.975120271     -76.3239984
9.069                0.975061718     -76.4415959
9.07                 0.975002995     -76.5594873
9.071                  0.9749441     -76.6776734
9.072                0.974885035     -76.7961551
9.073                0.974825797     -76.9149334
9.074                0.974766387      -77.034009
9.075                0.974706805     -77.1533829
9.076                 0.97464705      -77.273056
9.077                0.974587122     -77.3930292
9.078                0.974527021     -77.5133033
9.079                0.974466745     -77.6338793
9.08                 0.974406296      -77.754758
9.081                0.974345672     -77.8759405
9.082                0.974284873     -77.9974275
9.083                0.974223899       -78.11922
9.084                0.974162749     -78.2413188
9.085                0.974101423      -78.363725
9.086                0.974039921     -78.4864394
9.087                0.973978243      -78.609463
9.088                0.973916388     -78.7327965
9.089                0.973854356     -78.8564411
9.09                 0.973792146     -78.9803975
9.091                0.973729758     -79.1046667
9.092                0.973667192     -79.2292497
9.093                0.973604448     -79.3541473
9.094                0.973541525     -79.4793605
9.095                0.973478424     -79.6048902
9.096                0.973415142     -79.7307374
9.097                0.973351681      -79.856903
9.098                0.973288041     -79.9833878
9.099                 0.97322422      -80.110193
9.1                  0.973160218     -80.2373193
9.101                0.973096036     -80.3647677
9.102                0.973031672     -80.4925392
9.103                0.972967128     -80.6206348
9.104                0.972902401     -80.7490553
9.105                0.972837493     -80.8778017
9.106                0.972772402      -81.006875
9.107                0.972707129      -81.136276
9.108                0.972641673     -81.2660059
9.109                0.972576035     -81.3960655
9.11                 0.972510213     -81.5264557
9.111                0.972444207     -81.6571776
9.112                0.972378018     -81.7882321
9.113                0.972311645     -81.9196201
9.114                0.972245088     -82.0513426
9.115                0.972178346     -82.1834006
9.116                0.972111419     -82.3157951
9.117                0.972044308      -82.448527
9.118                0.971977011     -82.5815972
9.119                0.971909529     -82.7150068
9.12                 0.971841862     -82.8487567
9.121                0.971774009      -82.982848
9.122                0.971705969     -83.1172814
9.123                0.971637744     -83.2520582
9.124                0.971569332     -83.3871791
9.125                0.971500733     -83.5226452
9.126                0.971431948     -83.6584575
9.127                0.971362976      -83.794617
9.128                0.971293816     -83.9311246
9.129                0.971224469     -84.0679814
9.13                 0.971154935     -84.2051882
9.131                0.971085213     -84.3427461
9.132                0.971015303     -84.4806562
9.133                0.970945206     -84.6189193
9.134                 0.97087492     -84.7575364
9.135                0.970804446     -84.8965086
9.136                0.970733783     -85.0358368
9.137                0.970662932     -85.1755221
9.138                0.970591893     -85.3155654
9.139                0.970520664     -85.4559677
9.14                 0.970449247     -85.5967301
9.141                 0.97037764     -85.7378534
9.142                0.970305845     -85.8793388
9.143                 0.97023386     -86.0211871
9.144                0.970161686     -86.1633995
9.145                0.970089323     -86.3059769
9.146                 0.97001677     -86.4489203
9.147                0.969944027     -86.5922307
9.148                0.969871095     -86.7359092
9.149                0.969797974     -86.8799566
9.15                 0.969724662     -87.0243741
9.151                0.969651161     -87.1691626
9.152                 0.96957747     -87.3143231
9.153                0.969503589     -87.4598567
9.154                0.969429519     -87.6057643
9.155                0.969355258      -87.752047
9.156                0.969280808     -87.8987057
9.157                0.969206168     -88.0457415
9.158                0.969131337     -88.1931554
9.159                0.969056317     -88.3409484
9.16                 0.968981107     -88.4891214
9.161                0.968905708     -88.6376756
9.162                0.968830118     -88.7866118
9.163                0.968754339     -88.9359312
9.164                 0.96867837     -89.0856347
9.165                0.968602211     -89.2357234
9.166                0.968525863     -89.3861982
9.167                0.968449325     -89.5370602
9.168                0.968372598     -89.6883104
9.169                0.968295682     -89.8399497
9.17                 0.968218576     -89.9919793
9.171                0.968141281        -90.1444
9.172                0.968063797      -90.297213
9.173                0.967986124     -90.4504192
9.174                0.967908263     -90.6040196
9.175                0.967830213     -90.7580153
9.176                0.967751974     -90.9124072
9.177                0.967673547     -91.0671964
9.178                0.967594932     -91.2223839
9.179                0.967516129     -91.3779707
9.18                 0.967437139     -91.5339577
9.181                 0.96735796     -91.6903461
9.182                0.967278595     -91.8471367
9.183                0.967199042     -92.0043307
9.184                0.967119303      -92.161929
9.185                0.967039376     -92.3199326
9.186                0.966959264     -92.4783425
9.187                0.966878965     -92.6371597
9.188                 0.96679848     -92.7963853
9.189                 0.96671781     -92.9560202
9.19                 0.966636955     -93.1160655
9.191                0.966555914     -93.2765221
9.192                0.966474689      -93.437391
9.193                 0.96639328     -93.5986732
9.194                0.966311686     -93.7603698
9.195                0.966229909     -93.9224816
9.196                0.966147948     -94.0850098
9.197                0.966065805     -94.2479553
9.198                0.965983479     -94.4113191
9.199                0.965900971     -94.5751022
9.2                  0.965818281     -94.7393055
9.201                 0.96573541     -94.9039301
9.202                0.965652358     -95.0689769
9.203                0.965569126      -95.234447
9.204                0.965485713     -95.4003413
9.205                0.965402121     -95.5666607
9.206                 0.96531835     -95.7334063
9.207                0.965234401      -95.900579
9.208                0.965150273     -96.0681799
9.209                0.965065968     -96.2362098
9.21                 0.964981486     -96.4046698
9.211                0.964896827     -96.5735608
9.212                0.964811993     -96.7428837
9.213                0.964726983     -96.9126396
9.214                0.964641799     -97.0828294
9.215                 0.96455644     -97.2534541
9.216                0.964470908     -97.4245145
9.217                0.964385204     -97.5960118
9.218                0.964299326     -97.7679467
9.219                0.964213278     -97.9403203
9.22                 0.964127058     -98.1131335
9.221                0.964040668     -98.2863872
9.222                0.963954109     -98.4600824
9.223                0.963867381     -98.6342201
9.224                0.963780485      -98.808801
9.225                0.963693422     -98.9838263
9.226                0.963606192     -99.1592967
9.227                0.963518796     -99.3352133
9.228                0.963431235     -99.5115768
9.229                0.963343511     -99.6883884
9.23                 0.963255622     -99.8656488
9.231                0.963167572     -100.043359
9.232                 0.96307936      -100.22152
9.233                0.962990987     -100.400132
9.234                0.962902454     -100.579197
9.235                0.962813762     -100.758715
9.236                0.962724912     -100.938688
9.237                0.962635905     -101.119115
9.238                0.962546742     -101.299999
9.239                0.962457424     -101.481339
9.24                 0.962367951     -101.663137
9.241                0.962278326     -101.845394
9.242                0.962188548      -102.02811
9.243                0.962098619     -102.211287
9.244                 0.96200854     -102.394925
9.245                0.961918313     -102.579024
9.246                0.961827937     -102.763587
9.247                0.961737415     -102.948613
9.248                0.961646747     -103.134104
9.249                0.961555935      -103.32006
9.25                 0.961464979     -103.506483
9.251                0.961373881     -103.693372
9.252                0.961282643     -103.880729
9.253                0.961191264     -104.068555
9.254                0.961099748      -104.25685
9.255                0.961008094     -104.445616
9.256                0.960916305     -104.634852
9.257                0.960824381      -104.82456
9.258                0.960732323      -105.01474
9.259                0.960640134     -105.205394
9.26                 0.960547815     -105.396522
9.261                0.960455366     -105.588125
9.262                 0.96036279     -105.780203
9.263                0.960270087     -105.972758
9.264                 0.96017726     -106.165789
9.265                0.960084309     -106.359298
9.266                0.959991236     -106.553286
9.267                0.959898043     -106.747753
9.268                0.959804731       -106.9427
9.269                0.959711302     -107.138127
9.27                 0.959617757     -107.334036
9.271                0.959524099     -107.530426
9.272                0.959430327       -107.7273
9.273                0.959336445     -107.924656
9.274                0.959242453     -108.122497
9.275                0.959148354     -108.320822
9.276                 0.95905415     -108.519632
9.277                0.958959841     -108.718928
9.278                 0.95886543     -108.918711
9.279                0.958770918     -109.118981
9.28                 0.958676307     -109.319738
9.281                  0.9585816     -109.520984
9.282                0.958486797     -109.722719
9.283                0.958391902     -109.924943
9.284                0.958296914     -110.127658
9.285                0.958201838     -110.330863
9.286                0.958106673     -110.534559
9.287                0.958011424     -110.738747
9.288                 0.95791609     -110.943427
9.289                0.957820675       -111.1486
9.29                 0.957725181     -111.354267
9.291                0.957629608     -111.560427
9.292                0.957533961     -111.767081
9.293                 0.95743824     -111.974231
9.294                0.957342447     -112.181875
9.295                0.957246586     -112.390016
9.296                0.957150658     -112.598652
9.297                0.957054665     -112.807785
9.298                0.956958609     -113.017416
9.299                0.956862493     -113.227543
9.3                  0.956766319     -113.438169
9.301                0.956670089     -113.649293
9.302                0.956573806     -113.860916
9.303                0.956477471     -114.073038
9.304                0.956381088     -114.285659
9.305                0.956284659      -114.49878
9.306                0.956188185     -114.712401
9.307                 0.95609167     -114.926523
9.308                0.955995116     -115.141145
9.309                0.955898526     -115.356268
9.31                 0.955801901     -115.571893
9.311                0.955705245      -115.78802
9.312                 0.95560856     -116.004648
9.313                0.955511848     -116.221779
9.314                0.955415113     -116.439412
9.315                0.955318356     -116.657547
9.316                0.955221581     -116.876186
9.317                0.955124791     -117.095327
9.318                0.955027987     -117.314972
9.319                0.954931173      -117.53512
9.32                 0.954834351     -117.755772
9.321                0.954737525     -117.976927
9.322                0.954640696     -118.198587
9.323                0.954543869      -118.42075
9.324                0.954447045     -118.643417
9.325                0.954350227     -118.866589
9.326                 0.95425342     -119.090265
9.327                0.954156625     -119.314445
9.328                0.954059845     -119.539129
9.329                0.953963084     -119.764318
9.33                 0.953866344     -119.990011
9.331                0.953769628     -120.216209
9.332                0.953672941     -120.442911
9.333                0.953576284     -120.670117
9.334                 0.95347966     -120.897828
9.335                0.953383074     -121.126042
9.336                0.953286528     -121.354761
9.337                0.953190025     -121.583984
9.338                0.953093568     -121.813711
9.339                0.952997162     -122.043942
9.34                 0.952900808     -122.274676
9.341                0.952804511     -122.505914
9.342                0.952708273     -122.737655
9.343                0.952612098     -122.969899
9.344                 0.95251599     -123.202647
9.345                0.952419951     -123.435897
9.346                0.952323986     -123.669649
9.347                0.952228097     -123.903903
9.348                0.952132289      -124.13866
9.349                0.952036564     -124.373918
9.35                 0.951940926     -124.609677
9.351                0.951845378     -124.845937
9.352                0.951749925     -125.082698
9.353                 0.95165457     -125.319958
9.354                0.951559316     -125.557719
9.355                0.951464167     -125.795979
9.356                0.951369127     -126.034738
9.357                0.951274199     -126.273996
9.358                0.951179387     -126.513751
9.359                0.951084695     -126.754004
9.36                 0.950990127     -126.994755
9.361                0.950895686     -127.236001
9.362                0.950801376     -127.477744
9.363                0.950707202     -127.719982
9.364                0.950613166     -127.962715
9.365                0.950519272     -128.205942
9.366                0.950425526     -128.449663
9.367                0.950331929     -128.693876
9.368                0.950238487     -128.938582
9.369                0.950145204      -129.18378
9.37                 0.950052083     -129.429468
9.371                0.949959128     -129.675647
9.372                0.949866343     -129.922315
9.373                0.949773733     -130.169471
9.374                0.949681301     -130.417116
9.375                0.949589052     -130.665248
9.376                0.949496989     -130.913865
9.377                0.949405117     -131.162969
9.378                 0.94931344     -131.412556
9.379                0.949221961     -131.662627
9.38                 0.949130686     -131.913181
9.381                0.949039619     -132.164217
9.382                0.948948762     -132.415733
9.383                0.948858122      -132.66773
9.384                0.948767701     -132.920205
9.385                0.948677505     -133.173157
9.386                0.948587537     -133.426587
9.387                0.948497802     -133.680492
9.388                0.948408304     -133.934871
9.389                0.948319048     -134.189724
9.39                 0.948230037      -134.44505
9.391                0.948141277     -134.700846
9.392                0.948052771     -134.957112
9.393                0.947964523     -135.213847
9.394                0.947876539      -135.47105
9.395                0.947788823     -135.728718
9.396                0.947701379     -135.986852
