! TOUCHSTONE file generated by CST DESIGN STUDIO
! Date and time: Tue Feb  4 13:49:58 2025
! Project name: C:\Work\MatlabApps\UnitCellOptimizationMatlab\CST\unitcell.cst
! Tree item: Tasks\Sweep1\SPara1\S-Parameters
! Header version: 2024
! Port assignment regex: !\s*Touchstone port\s*([0-9]+)\s*=\s*(CST MWS port|CST DES external port|CST DES block port)\s*(.+)\s* \(\"(.*)\"\)(\s*mode\s*([0-9]+))?.*
! Touchstone port assignment:
! Touchstone port 1 = CST DES external port 1 ("")
# GHz S MA R 50
9                    0.978926052     -66.9470814
9.001                0.978880026     -67.0423517
9.002                0.978833862     -67.1378482
9.003                0.978787559     -67.2335714
9.004                0.978741117     -67.3295223
9.005                0.978694535     -67.4257014
9.006                0.978647813     -67.5221095
9.007                 0.97860095     -67.6187472
9.008                0.978553946     -67.7156153
9.009                0.978506801     -67.8127145
9.01                 0.978459514     -67.9100456
9.011                0.978412085     -68.0076091
9.012                0.978364514     -68.1054059
9.013                0.978316799     -68.2034366
9.014                0.978268941      -68.301702
9.015                0.978220939     -68.4002028
9.016                0.978172793     -68.4989397
9.017                0.978124503     -68.5979135
9.018                0.978076067     -68.6971249
9.019                0.978027486     -68.7965746
9.02                 0.977978759     -68.8962634
9.021                0.977929886     -68.9961919
9.022                0.977880866      -69.096361
9.023                0.977831699     -69.1967714
9.024                0.977782385     -69.2974238
9.025                0.977732922     -69.3983189
9.026                0.977683312     -69.4994576
9.027                0.977633553     -69.6008405
9.028                0.977583644     -69.7024685
9.029                0.977533586     -69.8043422
9.03                 0.977483379     -69.9064625
9.031                 0.97743302       -70.00883
9.032                0.977382512     -70.1114456
9.033                0.977331852       -70.21431
9.034                 0.97728104     -70.3174241
9.035                0.977230076     -70.4207884
9.036                 0.97717896     -70.5244039
9.037                0.977127692     -70.6282713
9.038                 0.97707627     -70.7323914
9.039                0.977024694     -70.8367649
9.04                 0.976972965     -70.9413926
9.041                0.976921081     -71.0462754
9.042                0.976869042      -71.151414
9.043                0.976816848     -71.2568091
9.044                0.976764499     -71.3624616
9.045                0.976711993     -71.4683723
9.046                0.976659331      -71.574542
9.047                0.976606512     -71.6809714
9.048                0.976553536     -71.7876613
9.049                0.976500402     -71.8946126
9.05                  0.97644711     -72.0018261
9.051                 0.97639366     -72.1093025
9.052                0.976340051     -72.2170427
9.053                0.976286282     -72.3250475
9.054                0.976232354     -72.4333176
9.055                0.976178266      -72.541854
9.056                0.976124017     -72.6506574
9.057                0.976069608     -72.7597286
9.058                0.976015037     -72.8690684
9.059                0.975960305     -72.9786778
9.06                  0.97590541     -73.0885574
9.061                0.975850353     -73.1987082
9.062                0.975795134     -73.3091309
9.063                0.975739751     -73.4198264
9.064                0.975684204     -73.5307956
9.065                0.975628493     -73.6420392
9.066                0.975572618     -73.7535581
9.067                0.975516578     -73.8653532
9.068                0.975460373     -73.9774252
9.069                0.975404003     -74.0897751
9.07                 0.975347466     -74.2024036
9.071                0.975290763     -74.3153116
9.072                0.975233893     -74.4285001
9.073                0.975176856     -74.5419697
9.074                0.975119652     -74.6557215
9.075                 0.97506228     -74.7697561
9.076                0.975004739     -74.8840746
9.077                 0.97494703     -74.9986778
9.078                0.974889151     -75.1135665
9.079                0.974831104     -75.2287415
9.08                 0.974772886     -75.3442039
9.081                0.974714499     -75.4599543
9.082                 0.97465594     -75.5759938
9.083                0.974597211     -75.6923232
9.084                0.974538311     -75.8089433
9.085                0.974479239     -75.9258551
9.086                0.974419995     -76.0430594
9.087                0.974360578     -76.1605571
9.088                0.974300989     -76.2783491
9.089                0.974241227     -76.3964362
9.09                 0.974181291     -76.5148195
9.091                0.974121182     -76.6334997
9.092                0.974060898     -76.7524777
9.093                 0.97400044     -76.8717545
9.094                0.973939806      -76.991331
9.095                0.973878998      -77.111208
9.096                0.973818014     -77.2313865
9.097                0.973756854     -77.3518674
9.098                0.973695518     -77.4726515
9.099                0.973634005     -77.5937398
9.1                  0.973572316     -77.7151331
9.101                0.973510449     -77.8368325
9.102                0.973448404     -77.9588388
9.103                0.973386181     -78.0811529
9.104                 0.97332378     -78.2037758
9.105                0.973261201     -78.3267083
9.106                0.973198442     -78.4499515
9.107                0.973135505     -78.5735061
9.108                0.973072387     -78.6973732
9.109                 0.97300909     -78.8215537
9.11                 0.972945613     -78.9460485
9.111                0.972881955     -79.0708585
9.112                0.972818116     -79.1959847
9.113                0.972754096     -79.3214281
9.114                0.972689895     -79.4471894
9.115                0.972625512     -79.5732698
9.116                0.972560947       -79.69967
9.117                0.972496199     -79.8263912
9.118                0.972431269     -79.9534342
9.119                0.972366156     -80.0807999
9.12                  0.97230086     -80.2084893
9.121                 0.97223538     -80.3365035
9.122                0.972169716     -80.4648432
9.123                0.972103869     -80.5935095
9.124                0.972037837     -80.7225034
9.125                0.971971621     -80.8518257
9.126                 0.97190522     -80.9814775
9.127                0.971838633     -81.1114597
9.128                0.971771861     -81.2417733
9.129                0.971704904     -81.3724192
9.13                 0.971637761     -81.5033984
9.131                0.971570432     -81.6347119
9.132                0.971502916     -81.7663607
9.133                0.971435214     -81.8983456
9.134                0.971367325     -82.0306677
9.135                0.971299249     -82.1633281
9.136                0.971230986     -82.2963275
9.137                0.971162535     -82.4296671
9.138                0.971093896     -82.5633477
9.139                 0.97102507     -82.6973704
9.14                 0.970956055     -82.8317362
9.141                0.970886853     -82.9664461
9.142                0.970817461     -83.1015009
9.143                0.970747881     -83.2369018
9.144                0.970678112     -83.3726497
9.145                0.970608154     -83.5087455
9.146                0.970538007     -83.6451904
9.147                 0.97046767     -83.7819852
9.148                0.970397144      -83.919131
9.149                0.970326427     -84.0566287
9.15                 0.970255521     -84.1944794
9.151                0.970184425     -84.3326841
9.152                0.970113139     -84.4712437
9.153                0.970041662     -84.6101592
9.154                0.969969995     -84.7494317
9.155                0.969898137     -84.8890622
9.156                0.969826089     -85.0290516
9.157                0.969753849     -85.1694009
9.158                0.969681419     -85.3101113
9.159                0.969608797     -85.4511836
9.16                 0.969535984     -85.5926188
9.161                 0.96946298     -85.7344181
9.162                0.969389785     -85.8765823
9.163                0.969316398     -86.0191126
9.164                 0.96924282     -86.1620098
9.165                 0.96916905     -86.3052751
9.166                0.969095088     -86.4489094
9.167                0.969020935     -86.5929138
9.168                0.968946589     -86.7372892
9.169                0.968872052     -86.8820367
9.17                 0.968797324     -87.0271573
9.171                0.968722403      -87.172652
9.172                 0.96864729     -87.3185218
9.173                0.968571986     -87.4647677
9.174                 0.96849649     -87.6113908
9.175                0.968420801     -87.7583921
9.176                0.968344921     -87.9057726
9.177                0.968268849     -88.0535333
9.178                0.968192585     -88.2016752
9.179                0.968116129     -88.3501993
9.18                 0.968039482     -88.4991068
9.181                0.967962642     -88.6483985
9.182                0.967885611     -88.7980755
9.183                0.967808389     -88.9481389
9.184                0.967730974     -89.0985896
9.185                0.967653369     -89.2494287
9.186                0.967575572     -89.4006572
9.187                0.967497583     -89.5522761
9.188                0.967419404     -89.7042865
9.189                0.967341033     -89.8566893
9.19                 0.967262472     -90.0094856
9.191                 0.96718372     -90.1626764
9.192                0.967104777     -90.3162627
9.193                0.967025643     -90.4702455
9.194                0.966946319      -90.624626
9.195                0.966866805      -90.779405
9.196                0.966787101     -90.9345836
9.197                0.966707207     -91.0901628
9.198                0.966627124     -91.2461437
9.199                0.966546851     -91.4025273
9.2                  0.966466389     -91.5593145
9.201                0.966385738     -91.7165064
9.202                0.966304898      -91.874104
9.203                 0.96622387     -92.0321084
9.204                0.966142654     -92.1905205
9.205                0.966061249     -92.3493414
9.206                0.965979658     -92.5085721
9.207                0.965897878     -92.6682135
9.208                0.965815912     -92.8282668
9.209                0.965733759     -92.9887329
9.21                 0.965651419     -93.1496127
9.211                0.965568894     -93.3109075
9.212                0.965486183      -93.472618
9.213                0.965403286     -93.6347455
9.214                0.965320204     -93.7972907
9.215                0.965236938     -93.9602549
9.216                0.965153488     -94.1236389
9.217                0.965069853     -94.2874437
9.218                0.964986036     -94.4516704
9.219                0.964902035       -94.61632
9.22                 0.964817852     -94.7813935
9.221                0.964733487     -94.9468918
9.222                0.964648941     -95.1128159
9.223                0.964564213     -95.2791669
9.224                0.964479304     -95.4459457
9.225                0.964394216     -95.6131534
9.226                0.964308948     -95.7807908
9.227                0.964223501     -95.9488591
9.228                0.964137876     -96.1173591
9.229                0.964052072     -96.2862918
9.23                 0.963966092     -96.4556583
9.231                0.963879934     -96.6254595
9.232                0.963793601     -96.7956964
9.233                0.963707091     -96.9663699
9.234                0.963620408      -97.137481
9.235                0.963533549     -97.3090307
9.236                0.963446518       -97.48102
9.237                0.963359313     -97.6534497
9.238                0.963271936     -97.8263209
9.239                0.963184388     -97.9996345
9.24                 0.963096669     -98.1733915
9.241                0.963008779     -98.3475928
9.242                0.962920721     -98.5222394
9.243                0.962832494     -98.6973322
9.244                0.962744099      -98.872872
9.245                0.962655538       -99.04886
9.246                 0.96256681      -99.225297
9.247                0.962477917     -99.4021839
9.248                0.962388859     -99.5795217
9.249                0.962299638     -99.7573112
9.25                 0.962210255     -99.9355535
9.251                0.962120709     -100.114249
9.252                0.962031003       -100.2934
9.253                0.961941136     -100.473005
9.254                0.961851111     -100.653068
9.255                0.961760928     -100.833587
9.256                0.961670587     -101.014564
9.257                0.961580091     -101.196001
9.258                0.961489439     -101.377897
9.259                0.961398634     -101.560254
9.26                 0.961307675     -101.743073
9.261                0.961216565     -101.926354
9.262                0.961125304     -102.110099
9.263                0.961033893     -102.294308
9.264                0.960942334     -102.478982
9.265                0.960850627     -102.664122
9.266                0.960758774     -102.849729
9.267                0.960666776     -103.035803
9.268                0.960574635     -103.222346
9.269                 0.96048235     -103.409358
9.27                 0.960389924      -103.59684
9.271                0.960297358     -103.784794
9.272                0.960204653     -103.973218
9.273                0.960111811     -104.162116
9.274                0.960018832     -104.351487
9.275                0.959925719     -104.541332
9.276                0.959832472     -104.731652
9.277                0.959739093     -104.922447
9.278                0.959645583      -105.11372
9.279                0.959551943     -105.305469
9.28                 0.959458176     -105.497697
9.281                0.959364283     -105.690403
9.282                0.959270264     -105.883589
9.283                0.959176122     -106.077255
9.284                0.959081858     -106.271402
9.285                0.958987474      -106.46603
9.286                0.958892971     -106.661142
9.287                 0.95879835     -106.856736
9.288                0.958703615     -107.052814
9.289                0.958608765     -107.249377
9.29                 0.958513802     -107.446425
9.291                 0.95841873      -107.64396
9.292                0.958323548      -107.84198
9.293                0.958228259     -108.040488
9.294                0.958132864     -108.239484
9.295                0.958037366     -108.438969
9.296                0.957941766     -108.638943
9.297                0.957846066     -108.839406
9.298                0.957750267     -109.040361
9.299                0.957654372     -109.241806
9.3                  0.957558383     -109.443743
9.301                0.957462301     -109.646172
9.302                0.957366128     -109.849095
9.303                0.957269867      -110.05251
9.304                0.957173519      -110.25642
9.305                0.957077085     -110.460824
9.306                 0.95698057     -110.665724
9.307                0.956883973     -110.871119
9.308                0.956787298     -111.077011
9.309                0.956690546     -111.283399
9.31                  0.95659372     -111.490285
9.311                0.956496822     -111.697668
9.312                0.956399853      -111.90555
9.313                0.956302817      -112.11393
9.314                0.956205715      -112.32281
9.315                0.956108549     -112.532189
9.316                0.956011323     -112.742069
9.317                0.955914037     -112.952449
9.318                0.955816695      -113.16333
9.319                0.955719298     -113.374713
9.32                  0.95562185     -113.586597
9.321                0.955524352     -113.798983
9.322                0.955426807     -114.011872
9.323                0.955329218     -114.225264
9.324                0.955231586      -114.43916
9.325                0.955133915     -114.653559
9.326                0.955036206     -114.868462
9.327                0.954938463     -115.083869
9.328                0.954840688     -115.299781
9.329                0.954742884     -115.516198
9.33                 0.954645052      -115.73312
9.331                0.954547197     -115.950547
9.332                 0.95444932      -116.16848
9.333                0.954351424     -116.386919
9.334                0.954253512     -116.605865
9.335                0.954155586     -116.825317
9.336                0.954057651     -117.045275
9.337                0.953959707      -117.26574
9.338                0.953861759     -117.486712
9.339                0.953763808     -117.708191
9.34                 0.953665858     -117.930178
9.341                0.953567912     -118.152672
9.342                0.953469973     -118.375673
9.343                0.953372043     -118.599182
9.344                0.953274126     -118.823199
9.345                0.953176224     -119.047724
9.346                0.953078341     -119.272756
9.347                 0.95298048     -119.498297
9.348                0.952882643     -119.724345
9.349                0.952784835     -119.950901
9.35                 0.952687057     -120.177965
9.351                0.952589314     -120.405538
9.352                0.952491608     -120.633618
9.353                0.952393942     -120.862205
9.354                0.952296321     -121.091301
9.355                0.952198746     -121.320904
9.356                0.952101222     -121.551015
9.357                0.952003752     -121.781633
9.358                0.951906339     -122.012759
9.359                0.951808986     -122.244392
9.36                 0.951711697     -122.476532
9.361                0.951614476     -122.709178
9.362                0.951517325     -122.942332
9.363                0.951420248     -123.175991
9.364                0.951323249     -123.410157
9.365                0.951226332     -123.644829
9.366                0.951129499     -123.880007
9.367                0.951032754     -124.115689
9.368                0.950936101     -124.351877
9.369                0.950839544      -124.58857
9.37                 0.950743086     -124.825767
9.371                0.950646731     -125.063468
9.372                0.950550483     -125.301673
9.373                0.950454344     -125.540381
9.374                 0.95035832     -125.779592
9.375                0.950262414     -126.019305
9.376                0.950166629      -126.25952
9.377                 0.95007097     -126.500236
9.378                 0.94997544     -126.741454
9.379                0.949880043     -126.983172
9.38                 0.949784783      -127.22539
9.381                0.949689664     -127.468107
9.382                 0.94959469     -127.711323
9.383                0.949499864     -127.955037
9.384                0.949405192     -128.199249
9.385                0.949310676     -128.443958
9.386                0.949216321     -128.689162
9.387                 0.94912213     -128.934863
9.388                0.949028109     -129.181058
9.389                 0.94893426     -129.427748
9.39                 0.948840589     -129.674931
9.391                0.948747099     -129.922607
9.392                0.948653794     -130.170774
9.393                0.948560679     -130.419433
9.394                0.948467757     -130.668582
9.395                0.948375033      -130.91822
9.396                0.948282511     -131.168347
