! TOUCHSTONE file generated by CST DESIGN STUDIO
! Date and time: Tue Feb  4 13:49:52 2025
! Project name: C:\Work\MatlabApps\UnitCellOptimizationMatlab\CST\unitcell.cst
! Tree item: Tasks\Sweep1\SPara1\S-Parameters
! Header version: 2024
! Port assignment regex: !\s*Touchstone port\s*([0-9]+)\s*=\s*(CST MWS port|CST DES external port|CST DES block port)\s*(.+)\s* \(\"(.*)\"\)(\s*mode\s*([0-9]+))?.*
! Touchstone port assignment:
! Touchstone port 1 = CST DES external port 1 ("")
# GHz S MA R 50
9                    0.978169791     -74.7979343
9.001                0.978117107     -74.9106306
9.002                0.978064264     -75.0236043
9.003                0.978011261     -75.1368564
9.004                0.977958097     -75.2503877
9.005                0.977904773      -75.364199
9.006                0.977851287     -75.4782911
9.007                 0.97779764      -75.592665
9.008                0.977743832     -75.7073214
9.009                0.977689861     -75.8222611
9.01                 0.977635727     -75.9374852
9.011                0.977581431     -76.0529943
9.012                0.977526971     -76.1687893
9.013                0.977472348     -76.2848712
9.014                 0.97741756     -76.4012407
9.015                0.977362608     -76.5178988
9.016                0.977307492     -76.6348462
9.017                 0.97725221     -76.7520839
9.018                0.977196763     -76.8696126
9.019                 0.97714115     -76.9874334
9.02                 0.977085371      -77.105547
9.021                0.977029426     -77.2239543
9.022                0.976973313     -77.3426562
9.023                0.976917033     -77.4616535
9.024                0.976860586     -77.5809473
9.025                0.976803971     -77.7005382
9.026                0.976747188     -77.8204272
9.027                0.976690235     -77.9406152
9.028                0.976633115     -78.0611031
9.029                0.976575824     -78.1818917
9.03                 0.976518364      -78.302982
9.031                0.976460735     -78.4243748
9.032                0.976402935     -78.5460711
9.033                0.976344964     -78.6680717
9.034                0.976286822     -78.7903775
9.035                0.976228509     -78.9129894
9.036                0.976170025     -79.0359083
9.037                0.976111369     -79.1591352
9.038                 0.97605254     -79.2826709
9.039                0.975993539     -79.4065163
9.04                 0.975934365     -79.5306723
9.041                0.975875018     -79.6551399
9.042                0.975815497       -79.77992
9.043                0.975755803     -79.9050134
9.044                0.975695934     -80.0304211
9.045                0.975635891      -80.156144
9.046                0.975575673     -80.2821831
9.047                0.975515281     -80.4085392
9.048                0.975454713     -80.5352132
9.049                0.975393969     -80.6622061
9.05                  0.97533305     -80.7895189
9.051                0.975271954     -80.9171524
9.052                0.975210682     -81.0451075
9.053                0.975149233     -81.1733852
9.054                0.975087608     -81.3019865
9.055                0.975025805     -81.4309122
9.056                0.974963824     -81.5601634
9.057                0.974901666     -81.6897408
9.058                0.974839329     -81.8196456
9.059                0.974776814     -81.9498785
9.06                 0.974714121     -82.0804406
9.061                0.974651249     -82.2113328
9.062                0.974588197      -82.342556
9.063                0.974524967     -82.4741112
9.064                0.974461556     -82.6059993
9.065                0.974397966     -82.7382213
9.066                0.974334196     -82.8707782
9.067                0.974270245     -83.0036708
9.068                0.974206114     -83.1369001
9.069                0.974141802     -83.2704672
9.07                 0.974077309     -83.4043729
9.071                0.974012635     -83.5386181
9.072                 0.97394778      -83.673204
9.073                0.973882743     -83.8081313
9.074                0.973817524     -83.9434012
9.075                0.973752123     -84.0790144
9.076                 0.97368654     -84.2149721
9.077                0.973620775     -84.3512751
9.078                0.973554826     -84.4879245
9.079                0.973488696     -84.6249212
9.08                 0.973422382     -84.7622661
9.081                0.973355885     -84.8999602
9.082                0.973289204     -85.0380046
9.083                0.973222341     -85.1764002
9.084                0.973155293     -85.3151479
9.085                0.973088062     -85.4542487
9.086                0.973020647     -85.5937036
9.087                0.972953048     -85.7335136
9.088                0.972885265     -85.8736796
9.089                0.972817297     -86.0142026
9.09                 0.972749145     -86.1550837
9.091                0.972680808     -86.2963237
9.092                0.972612287     -86.4379237
9.093                 0.97254358     -86.5798846
9.094                0.972474689     -86.7222075
9.095                0.972405613     -86.8648932
9.096                0.972336352     -87.0079428
9.097                0.972266905     -87.1513573
9.098                0.972197274     -87.2951377
9.099                0.972127457     -87.4392849
9.1                  0.972057454     -87.5837999
9.101                0.971987266     -87.7286837
9.102                0.971916893     -87.8739372
9.103                0.971846334     -88.0195616
9.104                0.971775589     -88.1655578
9.105                0.971704659     -88.3119266
9.106                0.971633543     -88.4586693
9.107                0.971562241     -88.6057866
9.108                0.971490753     -88.7532797
9.109                 0.97141908     -88.9011494
9.11                 0.971347221     -89.0493969
9.111                0.971275176     -89.1980231
9.112                0.971202946     -89.3470289
9.113                 0.97113053     -89.4964153
9.114                0.971057928     -89.6461835
9.115                 0.97098514     -89.7963342
9.116                0.970912167     -89.9468686
9.117                0.970839008     -90.0977876
9.118                0.970765664     -90.2490922
9.119                0.970692135     -90.4007835
9.12                  0.97061842     -90.5528622
9.121                0.970544519     -90.7053296
9.122                0.970470434     -90.8581866
9.123                0.970396163      -91.011434
9.124                0.970321708     -91.1650731
9.125                0.970247067     -91.3191046
9.126                0.970172242     -91.4735297
9.127                0.970097233     -91.6283492
9.128                0.970022038     -91.7835643
9.129                 0.96994666     -91.9391758
9.13                 0.969871097     -92.0951848
9.131                0.969795351     -92.2515922
9.132                 0.96971942     -92.4083991
9.133                0.969643306     -92.5656064
9.134                0.969567008      -92.723215
9.135                0.969490528     -92.8812261
9.136                0.969413864     -93.0396404
9.137                0.969337017     -93.1984592
9.138                0.969259988     -93.3576832
9.139                0.969182777     -93.5173135
9.14                 0.969105383     -93.6773511
9.141                0.969027808     -93.8377969
9.142                0.968950051      -93.998652
9.143                0.968872113     -94.1599172
9.144                0.968793994     -94.3215936
9.145                0.968715694     -94.4836821
9.146                0.968637215     -94.6461838
9.147                0.968558555     -94.8090995
9.148                0.968479715     -94.9724302
9.149                0.968400696     -95.1361769
9.15                 0.968321499     -95.3003406
9.151                0.968242122     -95.4649222
9.152                0.968162568     -95.6299227
9.153                0.968082836      -95.795343
9.154                0.968002926     -95.9611841
9.155                 0.96792284      -96.127447
9.156                0.967842577     -96.2941325
9.157                0.967762138     -96.4612417
9.158                0.967681523     -96.6287755
9.159                0.967600733     -96.7967348
9.16                 0.967519769     -96.9651206
9.161                 0.96743863     -97.1339338
9.162                0.967357318     -97.3031754
9.163                0.967275833     -97.4728463
9.164                0.967194175     -97.6429474
9.165                0.967112344     -97.8134797
9.166                0.967030343      -97.984444
9.167                 0.96694817     -98.1558414
9.168                0.966865827     -98.3276726
9.169                0.966783315     -98.4999388
9.17                 0.966700633     -98.6726407
9.171                0.966617783     -98.8457792
9.172                0.966534765     -99.0193554
9.173                0.966451579       -99.19337
9.174                0.966368227     -99.3678241
9.175                 0.96628471     -99.5427184
9.176                0.966201027      -99.718054
9.177                0.966117179     -99.8938316
9.178                0.966033168     -100.070052
9.179                0.965948994     -100.246717
9.18                 0.965864657     -100.423826
9.181                 0.96578016     -100.601381
9.182                0.965695501     -100.779382
9.183                0.965610683     -100.957831
9.184                0.965525705     -101.136728
9.185                0.965440569     -101.316074
9.186                0.965355276      -101.49587
9.187                0.965269827     -101.676117
9.188                0.965184221     -101.856815
9.189                0.965098461     -102.037966
9.19                 0.965012547      -102.21957
9.191                0.964926481     -102.401629
9.192                0.964840262     -102.584142
9.193                0.964753892     -102.767112
9.194                0.964667372     -102.950538
9.195                0.964580704     -103.134421
9.196                0.964493887     -103.318763
9.197                0.964406923     -103.503564
9.198                0.964319814     -103.688824
9.199                0.964232559     -103.874546
9.2                  0.964145161     -104.060729
9.201                 0.96405762     -104.247374
9.202                0.963969937     -104.434482
9.203                0.963882114     -104.622054
9.204                0.963794152      -104.81009
9.205                0.963706051     -104.998592
9.206                0.963617814      -105.18756
9.207                0.963529441     -105.376995
9.208                0.963440933     -105.566897
9.209                0.963352293     -105.757268
9.21                  0.96326352     -105.948108
9.211                0.963174616     -106.139417
9.212                0.963085583     -106.331197
9.213                0.962996423     -106.523449
9.214                0.962907135     -106.716172
9.215                0.962817722     -106.909367
9.216                0.962728185     -107.103036
9.217                0.962638525     -107.297179
9.218                0.962548745     -107.491797
9.219                0.962458844      -107.68689
9.22                 0.962368825     -107.882459
9.221                 0.96227869     -108.078504
9.222                0.962188439     -108.275027
9.223                0.962098074     -108.472027
9.224                0.962007598     -108.669506
9.225                 0.96191701     -108.867465
9.226                0.961826313     -109.065903
9.227                0.961735509     -109.264821
9.228                0.961644599      -109.46422
9.229                0.961553585     -109.664101
9.23                 0.961462469     -109.864464
9.231                0.961371251      -110.06531
9.232                0.961279934     -110.266639
9.233                 0.96118852     -110.468452
9.234                 0.96109701     -110.670749
9.235                0.961005407      -110.87353
9.236                0.960913711     -111.076798
9.237                0.960821925     -111.280551
9.238                 0.96073005     -111.484791
9.239                0.960638089     -111.689517
9.24                 0.960546043     -111.894731
9.241                0.960453915     -112.100433
9.242                0.960361705     -112.306623
9.243                0.960269417     -112.513302
9.244                0.960177052      -112.72047
9.245                0.960084612     -112.928128
9.246                0.959992098     -113.136276
9.247                0.959899514     -113.344914
9.248                0.959806861     -113.554043
9.249                0.959714142     -113.763664
9.25                 0.959621358     -113.973776
9.251                0.959528511     -114.184381
9.252                0.959435604     -114.395477
9.253                0.959342639     -114.607067
9.254                0.959249618     -114.819149
9.255                0.959156543     -115.031725
9.256                0.959063416     -115.244795
9.257                0.958970241     -115.458359
9.258                0.958877018     -115.672417
9.259                0.958783751     -115.886969
9.26                 0.958690442     -116.102017
9.261                0.958597093     -116.317559
9.262                0.958503707     -116.533597
9.263                0.958410285      -116.75013
9.264                0.958316831     -116.967159
9.265                0.958223346     -117.184684
9.266                0.958129834     -117.402706
9.267                0.958036297     -117.621223
9.268                0.957942737     -117.840237
9.269                0.957849157     -118.059748
9.27                  0.95775556     -118.279755
9.271                0.957661948     -118.500259
9.272                0.957568323      -118.72126
9.273                0.957474689     -118.942759
9.274                0.957381049     -119.164754
9.275                0.957287403     -119.387247
9.276                0.957193757     -119.610237
9.277                0.957100112     -119.833724
9.278                 0.95700647     -120.057708
9.279                0.956912836      -120.28219
9.28                 0.956819212     -120.507169
9.281                0.956725599     -120.732645
9.282                0.956632003     -120.958618
9.283                0.956538424     -121.185089
9.284                0.956444867     -121.412057
9.285                0.956351334     -121.639521
9.286                0.956257829     -121.867483
9.287                0.956164353     -122.095941
9.288                 0.95607091     -122.324896
9.289                0.955977504     -122.554347
9.29                 0.955884137     -122.784295
9.291                0.955790812     -123.014739
9.292                0.955697533     -123.245679
9.293                0.955604303     -123.477114
9.294                0.955511124     -123.709045
9.295                   0.955418     -123.941471
9.296                0.955324934     -124.174392
9.297                 0.95523193     -124.407807
9.298                 0.95513899     -124.641717
9.299                0.955046118     -124.876121
9.3                  0.954953317     -125.111019
9.301                0.954860591      -125.34641
9.302                0.954767943     -125.582294
9.303                0.954675376      -125.81867
9.304                0.954582894     -126.055538
9.305                  0.9544905     -126.292899
9.306                0.954398197      -126.53075
9.307                0.954305989     -126.769092
9.308                0.954213879     -127.007925
9.309                0.954121872     -127.247247
9.31                  0.95402997     -127.487058
9.311                0.953938177     -127.727359
9.312                0.953846496     -127.968147
9.313                0.953754932     -128.209423
9.314                0.953663487     -128.451186
9.315                0.953572166     -128.693435
9.316                0.953480972      -128.93617
9.317                0.953389908     -129.179389
9.318                0.953298979     -129.423094
9.319                0.953208188     -129.667282
9.32                 0.953117539     -129.911952
9.321                0.953027035     -130.157105
9.322                0.952936681      -130.40274
9.323                 0.95284648     -130.648855
9.324                0.952756436      -130.89545
9.325                0.952666553     -131.142524
9.326                0.952576834     -131.390076
9.327                0.952487284     -131.638105
9.328                0.952397906     -131.886611
9.329                0.952308705     -132.135593
9.33                 0.952219684     -132.385048
9.331                0.952130847     -132.634978
9.332                0.952042198      -132.88538
9.333                0.951953741     -133.136254
9.334                0.951865481     -133.387599
9.335                 0.95177742     -133.639413
9.336                0.951689564     -133.891695
9.337                0.951601916     -134.144446
9.338                0.951514479     -134.397662
9.339                 0.95142726     -134.651344
9.34                  0.95134026      -134.90549
9.341                0.951253485     -135.160098
9.342                0.951166939     -135.415169
9.343                0.951080625       -135.6707
9.344                0.950994549      -135.92669
9.345                0.950908713     -136.183139
9.346                0.950823122     -136.440044
9.347                0.950737781     -136.697404
9.348                0.950652693     -136.955219
9.349                0.950567863     -137.213486
9.35                 0.950483295     -137.472205
9.351                0.950398994     -137.731374
9.352                0.950314962     -137.990991
9.353                0.950231206     -138.251056
9.354                0.950147728     -138.511566
9.355                0.950064533      -138.77252
9.356                0.949981626     -139.033918
9.357                0.949899011     -139.295756
9.358                0.949816692     -139.558033
9.359                0.949734673     -139.820749
9.36                 0.949652959     -140.083901
9.361                0.949571553     -140.347488
9.362                0.949490461     -140.611508
9.363                0.949409687     -140.875959
9.364                0.949329235      -141.14084
9.365                0.949249109     -141.406149
9.366                0.949169314     -141.671884
9.367                0.949089853     -141.938044
9.368                0.949010732     -142.204626
9.369                0.948931955      -142.47163
9.37                 0.948853526     -142.739052
9.371                0.948775449     -143.006891
9.372                0.948697729     -143.275146
9.373                 0.94862037     -143.543814
9.374                0.948543377     -143.812893
9.375                0.948466753     -144.082382
9.376                0.948390504     -144.352278
9.377                0.948314634      -144.62258
9.378                0.948239146     -144.893285
9.379                0.948164046     -145.164391
9.38                 0.948089337     -145.435897
9.381                0.948015025     -145.707799
9.382                0.947941113     -145.980097
9.383                0.947867605     -146.252788
9.384                0.947794507     -146.525869
9.385                0.947721822     -146.799339
9.386                0.947649555     -147.073195
9.387                 0.94757771     -147.347434
9.388                0.947506292     -147.622056
9.389                0.947435304     -147.897057
9.39                 0.947364752     -148.172435
9.391                0.947294638     -148.448188
9.392                0.947224969     -148.724313
9.393                0.947155747     -149.000809
9.394                0.947086977     -149.277671
9.395                0.947018664     -149.554899
9.396                0.946950812      -149.83249
