! TOUCHSTONE file generated by CST DESIGN STUDIO
! Date and time: Tue Feb  4 13:49:55 2025
! Project name: C:\Work\MatlabApps\UnitCellOptimizationMatlab\CST\unitcell.cst
! Tree item: Tasks\Sweep1\SPara1\S-Parameters
! Header version: 2024
! Port assignment regex: !\s*Touchstone port\s*([0-9]+)\s*=\s*(CST MWS port|CST DES external port|CST DES block port)\s*(.+)\s* \(\"(.*)\"\)(\s*mode\s*([0-9]+))?.*
! Touchstone port assignment:
! Touchstone port 1 = CST DES external port 1 ("")
# GHz S MA R 50
9                    0.978527757     -70.9599107
9.001                0.978478184     -71.0638608
9.002                0.978428461     -71.1680628
9.003                0.978378589     -71.2725172
9.004                0.978328566     -71.3772249
9.005                0.978278392     -71.4821867
9.006                0.978228068     -71.5874034
9.007                0.978177592     -71.6928756
9.008                0.978126964     -71.7986043
9.009                0.978076184     -71.9045901
9.01                 0.978025251     -72.0108339
9.011                0.977974166     -72.1173364
9.012                0.977922927     -72.2240985
9.013                0.977871534     -72.3311209
9.014                0.977819987     -72.4384044
9.015                0.977768285     -72.5459499
9.016                0.977716428     -72.6537581
9.017                0.977664416     -72.7618298
9.018                0.977612248     -72.8701658
9.019                0.977559924     -72.9787669
9.02                 0.977507443      -73.087634
9.021                0.977454805     -73.1967678
9.022                 0.97740201     -73.3061692
9.023                0.977349057     -73.4158389
9.024                0.977295946     -73.5257778
9.025                0.977242677     -73.6359868
9.026                0.977189248     -73.7464665
9.027                 0.97713566     -73.8572179
9.028                0.977081913     -73.9682417
9.029                0.977028005     -74.0795388
9.03                 0.976973937     -74.1911101
9.031                0.976919708     -74.3029563
9.032                0.976865318     -74.4150783
9.033                0.976810766     -74.5274769
9.034                0.976756053     -74.6401529
9.035                0.976701176     -74.7531073
9.036                0.976646137     -74.8663407
9.037                0.976590935     -74.9798542
9.038                 0.97653557     -75.0936484
9.039                 0.97648004     -75.2077244
9.04                 0.976424346     -75.3220829
9.041                0.976368488     -75.4367247
9.042                0.976312464     -75.5516507
9.043                0.976256275     -75.6668619
9.044                0.976199921      -75.782359
9.045                  0.9761434     -75.8981428
9.046                0.976086713     -76.0142144
9.047                0.976029858     -76.1305744
9.048                0.975972837     -76.2472239
9.049                0.975915648     -76.3641636
9.05                 0.975858291     -76.4813945
9.051                0.975800765     -76.5989173
9.052                0.975743071      -76.716733
9.053                0.975685208     -76.8348425
9.054                0.975627176     -76.9532466
9.055                0.975568974     -77.0719463
9.056                0.975510601     -77.1909423
9.057                0.975452058     -77.3102356
9.058                0.975393345     -77.4298271
9.059                 0.97533446     -77.5497176
9.06                 0.975275404     -77.6699081
9.061                0.975216176     -77.7903994
9.062                0.975156776     -77.9111925
9.063                0.975097203     -78.0322882
9.064                0.975037457     -78.1536874
9.065                0.974977538     -78.2753911
9.066                0.974917446        -78.3974
9.067                 0.97485718     -78.5197153
9.068                0.974796739     -78.6423376
9.069                0.974736124     -78.7652681
9.07                 0.974675335     -78.8885074
9.071                 0.97461437     -79.0120567
9.072                0.974553229     -79.1359168
9.073                0.974491913     -79.2600885
9.074                0.974430421     -79.3845729
9.075                0.974368752     -79.5093708
9.076                0.974306907     -79.6344832
9.077                0.974244885     -79.7599109
9.078                0.974182685      -79.885655
9.079                0.974120307     -80.0117163
9.08                 0.974057752     -80.1380958
9.081                0.973995019     -80.2647944
9.082                0.973932107      -80.391813
9.083                0.973869016     -80.5191526
9.084                0.973805746      -80.646814
9.085                0.973742297     -80.7747983
9.086                0.973678668     -80.9031064
9.087                0.973614859     -81.0317392
9.088                 0.97355087     -81.1606976
9.089                  0.9734867     -81.2899827
9.09                  0.97342235     -81.4195953
9.091                0.973357819     -81.5495364
9.092                0.973293106     -81.6798069
9.093                0.973228213     -81.8104078
9.094                0.973163137     -81.9413401
9.095                0.973097879     -82.0726046
9.096                0.973032439     -82.2042024
9.097                0.972966817     -82.3361344
9.098                0.972901011     -82.4684016
9.099                0.972835023     -82.6010049
9.1                  0.972768852     -82.7339453
9.101                0.972702497     -82.8672238
9.102                0.972635959     -83.0008412
9.103                0.972569237     -83.1347987
9.104                 0.97250233      -83.269097
9.105                 0.97243524     -83.4037373
9.106                0.972367965     -83.5387205
9.107                0.972300505     -83.6740475
9.108                0.972232861     -83.8097194
9.109                0.972165031      -83.945737
9.11                 0.972097016     -84.0821014
9.111                0.972028816     -84.2188136
9.112                 0.97196043     -84.3558745
9.113                0.971891859     -84.4932851
9.114                0.971823101     -84.6310464
9.115                0.971754158     -84.7691593
9.116                0.971685028     -84.9076249
9.117                0.971615712     -85.0464441
9.118                0.971546209     -85.1856179
9.119                 0.97147652     -85.3251473
9.12                 0.971406644     -85.4650333
9.121                0.971336581     -85.6052768
9.122                 0.97126633     -85.7458789
9.123                0.971195893     -85.8868406
9.124                0.971125269     -86.0281628
9.125                0.971054457     -86.1698465
9.126                0.970983457     -86.3118927
9.127                 0.97091227     -86.4543024
9.128                0.970840896     -86.5970766
9.129                0.970769333     -86.7402163
9.13                 0.970697583     -86.8837225
9.131                0.970625645     -87.0275962
9.132                0.970553519     -87.1718383
9.133                0.970481205     -87.3164499
9.134                0.970408703      -87.461432
9.135                0.970336013     -87.6067856
9.136                0.970263134     -87.7525116
9.137                0.970190068     -87.8986111
9.138                0.970116813      -88.045085
9.139                0.970043371     -88.1919344
9.14                  0.96996974     -88.3391603
9.141                 0.96989592     -88.4867636
9.142                0.969821913     -88.6347454
9.143                0.969747717     -88.7831066
9.144                0.969673334     -88.9318483
9.145                0.969598762     -89.0809715
9.146                0.969524002     -89.2304771
9.147                0.969449054     -89.3803662
9.148                0.969373918     -89.5306398
9.149                0.969298594     -89.6812988
9.15                 0.969223083     -89.8323443
9.151                0.969147383     -89.9837773
9.152                0.969071496     -90.1355988
9.153                0.968995422     -90.2878097
9.154                0.968919159     -90.4404111
9.155                 0.96884271      -90.593404
9.156                0.968766073     -90.7467894
9.157                0.968689249     -90.9005682
9.158                0.968612238     -91.0547415
9.159                0.968535041     -91.2093103
9.16                 0.968457656     -91.3642756
9.161                0.968380085     -91.5196384
9.162                0.968302328     -91.6753996
9.163                0.968224384     -91.8315603
9.164                0.968146255     -91.9881215
9.165                 0.96806794     -92.1450841
9.166                0.967989439     -92.3024493
9.167                0.967910753     -92.4602178
9.168                0.967831882     -92.6183909
9.169                0.967752826     -92.7769693
9.17                 0.967673586     -92.9359543
9.171                0.967594161     -93.0953466
9.172                0.967514552     -93.2551474
9.173                0.967434759     -93.4153576
9.174                0.967354783     -93.5759782
9.175                0.967274624     -93.7370102
9.176                0.967194281     -93.8984546
9.177                0.967113757     -94.0603123
9.178                 0.96703305     -94.2225844
9.179                0.966952161     -94.3852718
9.18                 0.966871091     -94.5483755
9.181                 0.96678984     -94.7118965
9.182                0.966708408     -94.8758358
9.183                0.966626796     -95.0401943
9.184                0.966545004     -95.2049731
9.185                0.966463032      -95.370173
9.186                0.966380881     -95.5357951
9.187                0.966298552     -95.7018403
9.188                0.966216045     -95.8683096
9.189                 0.96613336      -96.035204
9.19                 0.966050497     -96.2025244
9.191                0.965967458     -96.3702718
9.192                0.965884243     -96.5384472
9.193                0.965800853     -96.7070514
9.194                0.965717287     -96.8760855
9.195                0.965633546     -97.0455504
9.196                0.965549632     -97.2154471
9.197                0.965465544     -97.3857765
9.198                0.965381283     -97.5565395
9.199                 0.96529685     -97.7277372
9.2                  0.965212245     -97.8993703
9.201                 0.96512747       -98.07144
9.202                0.965042524      -98.243947
9.203                0.964957408     -98.4168924
9.204                0.964872123      -98.590277
9.205                 0.96478667     -98.7641018
9.206                 0.96470105     -98.9383678
9.207                0.964615262     -99.1130757
9.208                0.964529308     -99.2882266
9.209                0.964443189     -99.4638214
9.21                 0.964356905     -99.6398609
9.211                0.964270457      -99.816346
9.212                0.964183846     -99.9932777
9.213                0.964097073     -100.170657
9.214                0.964010139     -100.348484
9.215                0.963923043     -100.526761
9.216                0.963835788     -100.705488
9.217                0.963748374     -100.884666
9.218                0.963660802     -101.064296
9.219                0.963573073     -101.244378
9.22                 0.963485188     -101.424915
9.221                0.963397148     -101.605905
9.222                0.963308953     -101.787351
9.223                0.963220605     -101.969254
9.224                0.963132104     -102.151613
9.225                0.963043453      -102.33443
9.226                0.962954651     -102.517706
9.227                0.962865699     -102.701442
9.228                  0.9627766     -102.885637
9.229                0.962687353     -103.070295
9.23                 0.962597961     -103.255414
9.231                0.962508423     -103.440996
9.232                0.962418742     -103.627042
9.233                0.962328918     -103.813552
9.234                0.962238953     -104.000528
9.235                0.962148847     -104.187969
9.236                0.962058602     -104.375878
9.237                 0.96196822     -104.564254
9.238                0.961877701     -104.753099
9.239                0.961787046     -104.942412
9.24                 0.961696258     -105.132196
9.241                0.961605336     -105.322451
9.242                0.961514284     -105.513176
9.243                0.961423101     -105.704375
9.244                0.961331789     -105.896046
9.245                 0.96124035      -106.08819
9.246                0.961148786      -106.28081
9.247                0.961057096     -106.473904
9.248                0.960965284     -106.667474
9.249                0.960873349     -106.861521
9.25                 0.960781295     -107.056045
9.251                0.960689122     -107.251046
9.252                0.960596832     -107.446527
9.253                0.960504426     -107.642487
9.254                0.960411907     -107.838926
9.255                0.960319275     -108.035846
9.256                0.960226532     -108.233248
9.257                0.960133679     -108.431131
9.258                 0.96004072     -108.629497
9.259                0.959947654     -108.828346
9.26                 0.959854484     -109.027679
9.261                0.959761212     -109.227496
9.262                0.959667839     -109.427799
9.263                0.959574367     -109.628586
9.264                0.959480797      -109.82986
9.265                0.959387133     -110.031621
9.266                0.959293374     -110.233869
9.267                0.959199524     -110.436605
9.268                0.959105584     -110.639829
9.269                0.959011557     -110.843542
9.27                 0.958917443     -111.047745
9.271                0.958823245     -111.252437
9.272                0.958728965     -111.457621
9.273                0.958634604     -111.663295
9.274                0.958540166      -111.86946
9.275                0.958445651     -112.076118
9.276                0.958351062     -112.283268
9.277                0.958256402     -112.490911
9.278                0.958161671     -112.699047
9.279                0.958066873     -112.907677
9.28                 0.957972009     -113.116801
9.281                0.957877081      -113.32642
9.282                0.957782092     -113.536534
9.283                0.957687045     -113.747143
9.284                 0.95759194     -113.958248
9.285                0.957496781     -114.169849
9.286                 0.95740157     -114.381947
9.287                0.957306308     -114.594541
9.288                0.957210999     -114.807633
9.289                0.957115645     -115.021222
9.29                 0.957020248      -115.23531
9.291                0.956924811     -115.449895
9.292                0.956829336     -115.664978
9.293                0.956733825     -115.880561
9.294                0.956638281     -116.096642
9.295                0.956542707     -116.313223
9.296                0.956447105     -116.530303
9.297                0.956351477     -116.747883
9.298                0.956255826     -116.965962
9.299                0.956160156     -117.184542
9.3                  0.956064467     -117.403622
9.301                0.955968764     -117.623202
9.302                0.955873049     -117.843283
9.303                0.955777324     -118.063864
9.304                0.955681592     -118.284947
9.305                0.955585856      -118.50653
9.306                0.955490119     -118.728615
9.307                0.955394383     -118.951201
9.308                0.955298652     -119.174288
9.309                0.955202929     -119.397876
9.31                 0.955107215     -119.621965
9.311                0.955011514     -119.846556
9.312                 0.95491583     -120.071648
9.313                0.954820164     -120.297242
9.314                 0.95472452     -120.523337
9.315                0.954628902     -120.749933
9.316                0.954533311     -120.977031
9.317                0.954437751     -121.204629
9.318                0.954342225     -121.432729
9.319                0.954246737      -121.66133
9.32                 0.954151289     -121.890432
9.321                0.954055885     -122.120034
9.322                0.953960527     -122.350137
9.323                0.953865219     -122.580741
9.324                0.953769964     -122.811845
9.325                0.953674766     -123.043448
9.326                0.953579628     -123.275552
9.327                0.953484552     -123.508156
9.328                0.953389543     -123.741259
9.329                0.953294603     -123.974861
9.33                 0.953199737     -124.208961
9.331                0.953104947     -124.443561
9.332                0.953010237     -124.678658
9.333                 0.95291561     -124.914254
9.334                 0.95282107     -125.150347
9.335                 0.95272662     -125.386937
9.336                0.952632264     -125.624024
9.337                0.952538006     -125.861607
9.338                0.952443848     -126.099686
9.339                0.952349795     -126.338261
9.34                  0.95225585     -126.577331
9.341                0.952162017     -126.816895
9.342                0.952068299     -127.056953
9.343                0.951974701     -127.297505
9.344                0.951881225      -127.53855
9.345                0.951787875     -127.780087
9.346                0.951694656     -128.022117
9.347                0.951601571     -128.264637
9.348                0.951508624     -128.507648
9.349                0.951415819     -128.751149
9.35                 0.951323159     -128.995139
9.351                0.951230648     -129.239618
9.352                0.951138291     -129.484585
9.353                 0.95104609     -129.730039
9.354                0.950954051     -129.975979
9.355                0.950862176     -130.222405
9.356                0.950770471     -130.469317
9.357                0.950678938     -130.716712
9.358                0.950587582      -130.96459
9.359                0.950496407     -131.212951
9.36                 0.950405417     -131.461794
9.361                0.950314616     -131.711117
9.362                0.950224008      -131.96092
9.363                0.950133597     -132.211202
9.364                0.950043388     -132.461962
9.365                0.949953383     -132.713199
9.366                0.949863588     -132.964912
9.367                0.949774007     -133.217099
9.368                0.949684644     -133.469761
9.369                0.949595502     -133.722895
9.37                 0.949506587     -133.976501
9.371                0.949417902     -134.230578
9.372                0.949329452     -134.485124
9.373                 0.94924124     -134.740138
9.374                0.949153272      -134.99562
9.375                0.949065552     -135.251567
9.376                0.948978083      -135.50798
9.377                 0.94889087     -135.764855
9.378                0.948803917     -136.022193
9.379                 0.94871723     -136.279992
9.38                 0.948630811     -136.538251
9.381                0.948544665     -136.796968
9.382                0.948458798     -137.056142
9.383                0.948373213     -137.315771
9.384                0.948287914     -137.575854
9.385                0.948202906     -137.836391
9.386                0.948118193     -138.097378
9.387                0.948033781     -138.358815
9.388                0.947949672     -138.620701
9.389                0.947865872     -138.883033
9.39                 0.947782386      -139.14581
9.391                0.947699217     -139.409031
9.392                 0.94761637     -139.672695
9.393                0.947533849     -139.936798
9.394                0.947451659      -140.20134
9.395                0.947369805      -140.46632
9.396                0.947288291     -140.731735
