! TOUCHSTONE file generated by CST DESIGN STUDIO
! Date and time: Tue Feb  4 18:42:46 2025
! Project name: C:\Work\MatlabApps\UnitCellOptimizationMatlab\CST\unitcell.cst
! Tree item: Tasks\Sweep1\SPara1\S-Parameters
! Header version: 2024
! Port assignment regex: !\s*Touchstone port\s*([0-9]+)\s*=\s*(CST MWS port|CST DES external port|CST DES block port)\s*(.+)\s* \(\"(.*)\"\)(\s*mode\s*([0-9]+))?.*
! Touchstone port assignment:
! Touchstone port 1 = CST DES external port 1 ("")
# GHz S MA R 50
9                    0.965504197     -48.8524415
9.001                0.965443688     -48.9138206
9.002                0.965382998     -48.9753268
9.003                0.965322126     -49.0369606
9.004                0.965261071     -49.0987223
9.005                0.965199833     -49.1606124
9.006                0.965138411     -49.2226311
9.007                0.965076804     -49.2847789
9.008                0.965015012     -49.3470562
9.009                0.964953035     -49.4094634
9.01                 0.964890871     -49.4720009
9.011                 0.96482852      -49.534669
9.012                0.964765981     -49.5974682
9.013                0.964703254     -49.6603989
9.014                0.964640338     -49.7234614
9.015                0.964577232     -49.7866562
9.016                0.964513937     -49.8499837
9.017                 0.96445045     -49.9134442
9.018                0.964386771     -49.9770383
9.019                0.964322901     -50.0407662
9.02                 0.964258837     -50.1046284
9.021                 0.96419458     -50.1686254
9.022                0.964130129     -50.2327574
9.023                0.964065483      -50.297025
9.024                0.964000642     -50.3614286
9.025                0.963935604     -50.4259685
9.026                0.963870369     -50.4906452
9.027                0.963804937     -50.5554592
9.028                0.963739307     -50.6204107
9.029                0.963673477     -50.6855004
9.03                 0.963607448     -50.7507285
9.031                0.963541219     -50.8160955
9.032                0.963474789     -50.8816018
9.033                0.963408158     -50.9472479
9.034                0.963341324     -51.0130342
9.035                0.963274287     -51.0789611
9.036                0.963207046     -51.1450291
9.037                0.963139601     -51.2112385
9.038                0.963071951     -51.2775899
9.039                0.963004095     -51.3440837
9.04                 0.962936032     -51.4107203
9.041                0.962867763     -51.4775002
9.042                0.962799285     -51.5444237
9.043                0.962730599     -51.6114914
9.044                0.962661703     -51.6787037
9.045                0.962592597      -51.746061
9.046                0.962523281     -51.8135638
9.047                0.962453753     -51.8812126
9.048                0.962384013     -51.9490077
9.049                 0.96231406     -52.0169497
9.05                 0.962243893      -52.085039
9.051                0.962173512     -52.1532761
9.052                0.962102915     -52.2216614
9.053                0.962032103     -52.2901954
9.054                0.961961074     -52.3588785
9.055                0.961889828     -52.4277113
9.056                0.961818363     -52.4966941
9.057                 0.96174668     -52.5658275
9.058                0.961674777     -52.6351119
9.059                0.961602654     -52.7045478
9.06                 0.961530309     -52.7741357
9.061                0.961457743      -52.843876
9.062                0.961384954     -52.9137693
9.063                0.961311942      -52.983816
9.064                0.961238705     -53.0540165
9.065                0.961165244     -53.1243714
9.066                0.961091557     -53.1948812
9.067                0.961017643     -53.2655463
9.068                0.960943502     -53.3363672
9.069                0.960869133     -53.4073445
9.07                 0.960794536     -53.4784785
9.071                0.960719708     -53.5497699
9.072                0.960644651      -53.621219
9.073                0.960569362     -53.6928265
9.074                0.960493841     -53.7645927
9.075                0.960418087     -53.8365182
9.076                  0.9603421     -53.9086035
9.077                0.960265878     -53.9808492
9.078                0.960189422     -54.0532556
9.079                0.960112729     -54.1258234
9.08                   0.9600358      -54.198553
9.081                0.959958633     -54.2714449
9.082                0.959881227     -54.3444996
9.083                0.959803583     -54.4177178
9.084                0.959725698     -54.4910998
9.085                0.959647573     -54.5646462
9.086                0.959569205     -54.6383576
9.087                0.959490596     -54.7122344
9.088                0.959411743     -54.7862772
9.089                0.959332646     -54.8604865
9.09                 0.959253304     -54.9348628
9.091                0.959173716     -55.0094067
9.092                0.959093881     -55.0841187
9.093                0.959013799     -55.1589993
9.094                0.958933468     -55.2340491
9.095                0.958852889     -55.3092686
9.096                0.958772059     -55.3846583
9.097                0.958690978     -55.4602189
9.098                0.958609646     -55.5359507
9.099                0.958528061     -55.6118545
9.1                  0.958446223     -55.6879307
9.101                 0.95836413     -55.7641799
9.102                0.958281782     -55.8406026
9.103                0.958199178     -55.9171994
9.104                0.958116317     -55.9939709
9.105                0.958033198     -56.0709176
9.106                 0.95794982       -56.14804
9.107                0.957866183     -56.2253388
9.108                0.957782286     -56.3028145
9.109                0.957698127     -56.3804677
9.11                 0.957613706     -56.4582989
9.111                0.957529022     -56.5363087
9.112                0.957444073     -56.6144976
9.113                 0.95735886     -56.6928664
9.114                0.957273381     -56.7714155
9.115                0.957187636     -56.8501455
9.116                0.957101622      -56.929057
9.117                0.957015341     -57.0081506
9.118                0.956928789     -57.0874268
9.119                0.956841968     -57.1668864
9.12                 0.956754875     -57.2465297
9.121                 0.95666751     -57.3263576
9.122                0.956579872     -57.4063704
9.123                 0.95649196     -57.4865689
9.124                0.956403773     -57.5669537
9.125                 0.95631531     -57.6475252
9.126                0.956226571     -57.7282842
9.127                0.956137553     -57.8092313
9.128                0.956048257      -57.890367
9.129                0.955958682      -57.971692
9.13                 0.955868826     -58.0532069
9.131                0.955778688     -58.1349123
9.132                0.955688268     -58.2168088
9.133                0.955597565      -58.298897
9.134                0.955506577     -58.3811776
9.135                0.955415304     -58.4636511
9.136                0.955323745     -58.5463183
9.137                0.955231899     -58.6291797
9.138                0.955139764      -58.712236
9.139                0.955047341     -58.7954877
9.14                 0.954954627     -58.8789356
9.141                0.954861622     -58.9625803
9.142                0.954768326     -59.0464224
9.143                0.954674736     -59.1304626
9.144                0.954580852     -59.2147014
9.145                0.954486673     -59.2991396
9.146                0.954392199     -59.3837778
9.147                0.954297427     -59.4686167
9.148                0.954202358     -59.5536569
9.149                 0.95410699      -59.638899
9.15                 0.954011321     -59.7243437
9.151                0.953915352     -59.8099918
9.152                0.953819081     -59.8958438
9.153                0.953722508     -59.9819004
9.154                 0.95362563     -60.0681622
9.155                0.953528448     -60.1546301
9.156                0.953430959     -60.2413046
9.157                0.953333164     -60.3281863
9.158                0.953235061     -60.4152761
9.159                0.953136648     -60.5025745
9.16                 0.953037926     -60.5900823
9.161                0.952938893     -60.6778001
9.162                0.952839549     -60.7657287
9.163                0.952739891     -60.8538686
9.164                0.952639919     -60.9422207
9.165                0.952539632     -61.0307855
9.166                0.952439029     -61.1195639
9.167                0.952338108     -61.2085565
9.168                 0.95223687      -61.297764
9.169                0.952135313     -61.3871871
9.17                 0.952033435     -61.4768265
9.171                0.951931236     -61.5666829
9.172                0.951828715     -61.6567571
9.173                 0.95172587     -61.7470498
9.174                0.951622701     -61.8375616
9.175                0.951519207     -61.9282934
9.176                0.951415386     -62.0192458
9.177                0.951311237     -62.1104195
9.178                 0.95120676     -62.2018153
9.179                0.951101953     -62.2934339
9.18                 0.950996816     -62.3852761
9.181                0.950891347     -62.4773426
9.182                0.950785545     -62.5696341
9.183                0.950679409     -62.6621514
9.184                0.950572938     -62.7548951
9.185                0.950466131     -62.8478662
9.186                0.950358986     -62.9410652
9.187                0.950251504     -63.0344931
9.188                0.950143682     -63.1281504
9.189                0.950035521      -63.222038
9.19                 0.949927017     -63.3161567
9.191                0.949818171     -63.4105071
9.192                0.949708982     -63.5050902
9.193                0.949599448     -63.5999065
9.194                0.949489568      -63.694957
9.195                0.949379341     -63.7902424
9.196                0.949268766     -63.8857634
9.197                0.949157842     -63.9815209
9.198                0.949046569     -64.0775156
9.199                0.948934944     -64.1737483
9.2                  0.948822966     -64.2702198
9.201                0.948710635     -64.3669309
9.202                 0.94859795     -64.4638823
9.203                0.948484909      -64.561075
9.204                0.948371511     -64.6585096
9.205                0.948257756      -64.756187
9.206                0.948143641      -64.854108
9.207                0.948029167     -64.9522734
9.208                0.947914332      -65.050684
9.209                0.947799134     -65.1493406
9.21                 0.947683573      -65.248244
9.211                0.947567647     -65.3473951
9.212                0.947451356     -65.4467946
9.213                0.947334698     -65.5464435
9.214                0.947217672     -65.6463425
9.215                0.947100277     -65.7464924
9.216                0.946982513     -65.8468941
9.217                0.946864377     -65.9475484
9.218                0.946745869     -66.0484562
9.219                0.946626987     -66.1496183
9.22                 0.946507731     -66.2510356
9.221                  0.9463881     -66.3527088
9.222                0.946268091     -66.4546389
9.223                0.946147705     -66.5568267
9.224                 0.94602694      -66.659273
9.225                0.945905794     -66.7619788
9.226                0.945784268     -66.8649448
9.227                0.945662359     -66.9681719
9.228                0.945540066     -67.0716611
9.229                0.945417389     -67.1754131
9.23                 0.945294326     -67.2794289
9.231                0.945170876     -67.3837093
9.232                0.945047038     -67.4882552
9.233                0.944922812     -67.5930675
9.234                0.944798194     -67.6981471
9.235                0.944673186     -67.8034949
9.236                0.944547785     -67.9091116
9.237                 0.94442199     -68.0149984
9.238                  0.9442958     -68.1211559
9.239                0.944169215     -68.2275853
9.24                 0.944042233     -68.3342872
9.241                0.943914852     -68.4412627
9.242                0.943787072     -68.5485127
9.243                0.943658892      -68.656038
9.244                 0.94353031     -68.7638396
9.245                0.943401326     -68.8719185
9.246                0.943271938     -68.9802754
9.247                0.943142144     -69.0889114
9.248                0.943011945     -69.1978274
9.249                0.942881339     -69.3070242
9.25                 0.942750324      -69.416503
9.251                  0.9426189     -69.5262644
9.252                0.942487066     -69.6363096
9.253                 0.94235482     -69.7466395
9.254                0.942222161     -69.8572549
9.255                0.942089088     -69.9681569
9.256                0.941955601     -70.0793464
9.257                0.941821697     -70.1908243
9.258                0.941687376     -70.3025916
9.259                0.941552636     -70.4146493
9.26                 0.941417478     -70.5269983
9.261                0.941281898     -70.6396396
9.262                0.941145897     -70.7525742
9.263                0.941009474      -70.865803
9.264                0.940872626      -70.979327
9.265                0.940735353     -71.0931472
9.266                0.940597655     -71.2072646
9.267                0.940459529     -71.3216801
9.268                0.940320975     -71.4363948
9.269                0.940181992     -71.5514096
9.27                 0.940042578     -71.6667255
9.271                0.939902732     -71.7823435
9.272                0.939762454     -71.8982646
9.273                0.939621743     -72.0144899
9.274                0.939480596     -72.1310203
9.275                0.939339014     -72.2478568
9.276                0.939196995     -72.3650004
9.277                0.939054538     -72.4824522
9.278                0.938911641     -72.6002132
9.279                0.938768305     -72.7182844
9.28                 0.938624527     -72.8366668
9.281                0.938480307     -72.9553614
9.282                0.938335644     -73.0743693
9.283                0.938190536     -73.1936915
9.284                0.938044983     -73.3133291
9.285                0.937898984      -73.433283
9.286                0.937752537     -73.5535543
9.287                0.937605641     -73.6741441
9.288                0.937458296     -73.7950534
9.289                  0.9373105     -73.9162833
9.29                 0.937162253     -74.0378348
9.291                0.937013553     -74.1597089
9.292                0.936864399     -74.2819068
9.293                0.936714791     -74.4044295
9.294                0.936564727      -74.527278
9.295                0.936414206     -74.6504535
9.296                0.936263228     -74.7739569
9.297                 0.93611179     -74.8977894
9.298                0.935959894     -75.0219521
9.299                0.935807536     -75.1464459
9.3                  0.935654717     -75.2712721
9.301                0.935501436     -75.3964317
9.302                0.935347691     -75.5219258
9.303                0.935193481     -75.6477554
9.304                0.935038806     -75.7739217
9.305                0.934883665     -75.9004258
9.306                0.934728056     -76.0272687
9.307                0.934571979     -76.1544516
9.308                0.934415433     -76.2819756
9.309                0.934258417     -76.4098417
9.31                  0.93410093     -76.5380512
9.311                0.933942971      -76.666605
9.312                0.933784539     -76.7955044
9.313                0.933625633     -76.9247504
9.314                0.933466253     -77.0543442
9.315                0.933306397     -77.1842869
9.316                0.933146065     -77.3145796
9.317                0.932985256     -77.4452235
9.318                0.932823969     -77.5762197
9.319                0.932662203     -77.7075693
9.32                 0.932499957     -77.8392734
9.321                0.932337231     -77.9713333
9.322                0.932174023       -78.10375
9.323                0.932010333     -78.2365247
9.324                0.931846161     -78.3696586
9.325                0.931681504     -78.5031528
9.326                0.931516363     -78.6370084
9.327                0.931350737     -78.7712266
9.328                0.931184625     -78.9058087
9.329                0.931018026     -79.0407557
9.33                  0.93085094     -79.1760687
9.331                0.930683365     -79.3117491
9.332                0.930515301     -79.4477979
9.333                0.930346748     -79.5842164
9.334                0.930177704     -79.7210056
9.335                0.930008169     -79.8581668
9.336                0.929838143     -79.9957012
9.337                0.929667624       -80.13361
9.338                0.929496612     -80.2718942
9.339                0.929325106     -80.4105552
9.34                 0.929153107     -80.5495941
9.341                0.928980612     -80.6890121
9.342                0.928807621     -80.8288104
9.343                0.928634135     -80.9689903
9.344                0.928460152     -81.1095528
9.345                0.928285672     -81.2504992
9.346                0.928110694     -81.3918307
9.347                0.927935218     -81.5335486
9.348                0.927759242      -81.675654
9.349                0.927582768     -81.8181481
9.35                 0.927405794     -81.9610322
9.351                0.927228319     -82.1043075
9.352                0.927050344     -82.2479751
9.353                0.926871867     -82.3920364
9.354                0.926692889     -82.5364925
9.355                0.926513409     -82.6813446
9.356                0.926333426     -82.8265941
9.357                0.926152941      -82.972242
9.358                0.925971952     -83.1182898
9.359                 0.92579046     -83.2647384
9.36                 0.925608463     -83.4115894
9.361                0.925425963     -83.5588437
9.362                0.925242958     -83.7065028
9.363                0.925059449     -83.8545678
9.364                0.924875434     -84.0030399
9.365                0.924690914     -84.1519205
9.366                0.924505888     -84.3012107
9.367                0.924320357     -84.4509119
9.368                 0.92413432     -84.6010252
9.369                0.923947776     -84.7515519
9.37                 0.923760727     -84.9024933
9.371                0.923573171     -85.0538506
9.372                0.923385108     -85.2056251
9.373                0.923196539      -85.357818
9.374                0.923007463     -85.5104306
9.375                0.922817881     -85.6634642
9.376                0.922627792     -85.8169199
9.377                0.922437196     -85.9707992
9.378                0.922246093     -86.1251031
9.379                0.922054483     -86.2798331
9.38                 0.921862367     -86.4349903
9.381                0.921669744     -86.5905761
9.382                0.921476615     -86.7465916
9.383                0.921282979     -86.9030383
9.384                0.921088838     -87.0599173
9.385                 0.92089419     -87.2172298
9.386                0.920699036     -87.3749773
9.387                0.920503377      -87.533161
9.388                0.920307212      -87.691782
9.389                0.920110542     -87.8508418
9.39                 0.919913367     -88.0103415
9.391                0.919715688     -88.1702826
9.392                0.919517505     -88.3306661
9.393                0.919318818     -88.4914935
9.394                0.919119627     -88.6527659
9.395                0.918919934     -88.8144847
9.396                0.918719738     -88.9766512
