! TOUCHSTONE file generated by CST DESIGN STUDIO
! Date and time: Tue Feb  4 18:42:31 2025
! Project name: C:\Work\MatlabApps\UnitCellOptimizationMatlab\CST\unitcell.cst
! Tree item: Tasks\Sweep1\SPara1\S-Parameters
! Header version: 2024
! Port assignment regex: !\s*Touchstone port\s*([0-9]+)\s*=\s*(CST MWS port|CST DES external port|CST DES block port)\s*(.+)\s* \(\"(.*)\"\)(\s*mode\s*([0-9]+))?.*
! Touchstone port assignment:
! Touchstone port 1 = CST DES external port 1 ("")
# GHz S MA R 50
9                    0.947232266     -84.7125117
9.001                0.947086189     -84.8554115
9.002                0.946939682     -84.9986935
9.003                0.946792743     -85.1423586
9.004                0.946645373     -85.2864082
9.005                 0.94649757     -85.4308432
9.006                0.946349334     -85.5756648
9.007                0.946200665     -85.7208743
9.008                0.946051562     -85.8664726
9.009                0.945902025      -86.012461
9.01                 0.945752053     -86.1588406
9.011                0.945601646     -86.3056125
9.012                0.945450803     -86.4527778
9.013                0.945299524     -86.6003378
9.014                0.945147808     -86.7482936
9.015                0.944995656     -86.8966462
9.016                0.944843066     -87.0453969
9.017                0.944690039     -87.1945468
9.018                0.944536574      -87.344097
9.019                 0.94438267     -87.4940488
9.02                 0.944228328     -87.6444032
9.021                0.944073547     -87.7951614
9.022                0.943918327     -87.9463245
9.023                0.943762667     -88.0978938
9.024                0.943606567     -88.2498703
9.025                0.943450027     -88.4022553
9.026                0.943293047     -88.5550498
9.027                0.943135627     -88.7082551
9.028                0.942977766     -88.8618722
9.029                0.942819464     -89.0159025
9.03                 0.942660721     -89.1703469
9.031                0.942501537     -89.3252067
9.032                0.942341911      -89.480483
9.033                0.942181844      -89.636177
9.034                0.942021336     -89.7922899
9.035                0.941860386     -89.9488228
9.036                0.941698994     -90.1057768
9.037                 0.94153716     -90.2631532
9.038                0.941374885     -90.4209531
9.039                0.941212168     -90.5791777
9.04                 0.941049009     -90.7378281
9.041                0.940885409     -90.8969054
9.042                0.940721367     -91.0564109
9.043                0.940556883     -91.2163458
9.044                0.940391958     -91.3767111
9.045                0.940226591      -91.537508
9.046                0.940060783     -91.6987377
9.047                0.939894534     -91.8604014
9.048                0.939727844     -92.0225002
9.049                0.939560714     -92.1850353
9.05                 0.939393143     -92.3480078
9.051                0.939225131      -92.511419
9.052                 0.93905668     -92.6752699
9.053                0.938887789     -92.8395617
9.054                0.938718458     -93.0042956
9.055                0.938548689     -93.1694727
9.056                 0.93837848     -93.3350942
9.057                0.938207834     -93.5011613
9.058                0.938036749     -93.6676751
9.059                0.937865227     -93.8346367
9.06                 0.937693267     -94.0020474
9.061                0.937520871     -94.1699082
9.062                0.937348039     -94.3382203
9.063                0.937174772     -94.5069849
9.064                0.937001069     -94.6762031
9.065                0.936826932      -94.845876
9.066                0.936652361     -95.0160049
9.067                0.936477357     -95.1865908
9.068                 0.93630192     -95.3576349
9.069                0.936126051     -95.5291383
9.07                 0.935949751     -95.7011022
9.071                0.935773021     -95.8735277
9.072                0.935595861     -96.0464159
9.073                0.935418272      -96.219768
9.074                0.935240255     -96.3935851
9.075                0.935061811     -96.5678684
9.076                0.934882941     -96.7426189
9.077                0.934703645     -96.9178378
9.078                0.934523925     -97.0935262
9.079                0.934343781     -97.2696852
9.08                 0.934163214     -97.4463159
9.081                0.933982227     -97.6234196
9.082                0.933800818     -97.8009972
9.083                0.933618991     -97.9790498
9.084                0.933436745     -98.1575787
9.085                0.933254083     -98.3365848
9.086                0.933071004     -98.5160694
9.087                0.932887511     -98.6960334
9.088                0.932703605      -98.876478
9.089                0.932519286     -99.0574043
9.09                 0.932334557     -99.2388133
9.091                0.932149419     -99.4207062
9.092                0.931963872      -99.603084
9.093                0.931777919     -99.7859478
9.094                0.931591561     -99.9692986
9.095                0.931404799     -100.153138
9.096                0.931217636     -100.337466
9.097                0.931030072     -100.522284
9.098                0.930842109     -100.707594
9.099                0.930653749     -100.893396
9.1                  0.930464993     -101.079692
9.101                0.930275843     -101.266482
9.102                0.930086302     -101.453768
9.103                 0.92989637      -101.64155
9.104                 0.92970605     -101.829829
9.105                0.929515343     -102.018608
9.106                0.929324252     -102.207885
9.107                0.929132778     -102.397664
9.108                0.928940924     -102.587944
9.109                 0.92874869     -102.778727
9.11                 0.928556081     -102.970013
9.111                0.928363096     -103.161804
9.112                 0.92816974     -103.354101
9.113                0.927976013     -103.546904
9.114                0.927781919     -103.740215
9.115                0.927587459     -103.934035
9.116                0.927392635     -104.128363
9.117                0.927197451     -104.323203
9.118                0.927001909     -104.518554
9.119                 0.92680601     -104.714417
9.12                 0.926609758     -104.910793
9.121                0.926413155     -105.107684
9.122                0.926216204      -105.30509
9.123                0.926018907     -105.503012
9.124                0.925821267     -105.701451
9.125                0.925623286     -105.900407
9.126                0.925424968     -106.099883
9.127                0.925226316     -106.299878
9.128                0.925027331     -106.500394
9.129                0.924828018     -106.701431
9.13                 0.924628378     -106.902991
9.131                0.924428416     -107.105073
9.132                0.924228133      -107.30768
9.133                0.924027534     -107.510811
9.134                0.923826621     -107.714468
9.135                0.923625398     -107.918652
9.136                0.923423868     -108.123363
9.137                0.923222033     -108.328602
9.138                0.923019898      -108.53437
9.139                0.922817466     -108.740667
9.14                  0.92261474     -108.947495
9.141                0.922411724     -109.154855
9.142                0.922208422     -109.362746
9.143                0.922004836      -109.57117
9.144                0.921800971     -109.780127
9.145                 0.92159683     -109.989619
9.146                0.921392418     -110.199646
9.147                0.921187737     -110.410208
9.148                0.920982792     -110.621307
9.149                0.920777587     -110.832942
9.15                 0.920572125     -111.045116
9.151                0.920366412     -111.257827
9.152                 0.92016045     -111.471078
9.153                0.919954244     -111.684869
9.154                0.919747798     -111.899199
9.155                0.919541116     -112.114071
9.156                0.919334204     -112.329484
9.157                0.919127064     -112.545439
9.158                0.918919702     -112.761938
9.159                0.918712121     -112.978979
9.16                 0.918504327     -113.196564
9.161                0.918296325     -113.414694
9.162                0.918088118     -113.633368
9.163                0.917879711     -113.852588
9.164                0.917671109     -114.072354
9.165                0.917462318     -114.292667
9.166                0.917253341     -114.513526
9.167                0.917044184     -114.734933
9.168                0.916834852     -114.956887
9.169                 0.91662535      -115.17939
9.17                 0.916415682     -115.402442
9.171                0.916205855     -115.626043
9.172                0.915995872     -115.850194
9.173                0.915785741     -116.074894
9.174                0.915575465     -116.300145
9.175                0.915365051     -116.525946
9.176                0.915154503     -116.752299
9.177                0.914943828     -116.979202
9.178                 0.91473303     -117.206658
9.179                0.914522117     -117.434665
9.18                 0.914311092     -117.663225
9.181                0.914099962     -117.892337
9.182                0.913888733     -118.122002
9.183                 0.91367741      -118.35222
9.184                0.913466001     -118.582991
9.185                0.913254509     -118.814315
9.186                0.913042943     -119.046193
9.187                0.912831307     -119.278625
9.188                0.912619608     -119.511611
9.189                0.912407852      -119.74515
9.19                 0.912196046     -119.979244
9.191                0.911984196     -120.213892
9.192                0.911772307     -120.449094
9.193                0.911560388     -120.684851
9.194                0.911348444     -120.921162
9.195                0.911136482     -121.158027
9.196                0.910924508     -121.395447
9.197                 0.91071253     -121.633422
9.198                0.910500554      -121.87195
9.199                0.910288586     -122.111033
9.2                  0.910076635     -122.350671
9.201                0.909864706     -122.590862
9.202                0.909652808     -122.831607
9.203                0.909440946     -123.072907
9.204                0.909229128      -123.31476
9.205                0.909017361     -123.557167
9.206                0.908805653     -123.800127
9.207                0.908594011     -124.043641
9.208                0.908382443     -124.287707
9.209                0.908170955     -124.532326
9.21                 0.907959555     -124.777498
9.211                0.907748251     -125.023221
9.212                 0.90753705     -125.269497
9.213                0.907325961     -125.516324
9.214                 0.90711499     -125.763702
9.215                0.906904147     -126.011631
9.216                0.906693437      -126.26011
9.217                 0.90648287     -126.509139
9.218                0.906272454     -126.758718
9.219                0.906062196     -127.008846
9.22                 0.905852104     -127.259522
9.221                0.905642188     -127.510746
9.222                0.905432454     -127.762518
9.223                0.905222911     -128.014836
9.224                0.905013568     -128.267701
9.225                0.904804433     -128.521111
9.226                0.904595514     -128.775067
9.227                0.904386819     -129.029567
9.228                0.904178358     -129.284611
9.229                0.903970139     -129.540197
9.23                  0.90376217     -129.796326
9.231                0.903554461     -130.052997
9.232                0.903347019     -130.310208
9.233                0.903139855     -130.567959
9.234                0.902932976     -130.826249
9.235                0.902726391     -131.085078
9.236                 0.90252011     -131.344444
9.237                0.902314141     -131.604346
9.238                0.902108494     -131.864784
9.239                0.901903177     -132.125756
9.24                   0.9016982     -132.387263
9.241                0.901493572     -132.649301
9.242                0.901289302     -132.911871
9.243                  0.9010854     -133.174972
9.244                0.900881874     -133.438602
9.245                0.900678734      -133.70276
9.246                 0.90047599     -133.967446
9.247                0.900273652     -134.232657
9.248                0.900071727     -134.498393
9.249                0.899870227     -134.764653
9.25                  0.89966916     -135.031435
9.251                0.899468537     -135.298738
9.252                0.899268367     -135.566561
9.253                0.899068659     -135.834902
9.254                0.898869424      -136.10376
9.255                 0.89867067     -136.373133
9.256                0.898472409     -136.643021
9.257                 0.89827465     -136.913422
9.258                0.898077403     -137.184333
9.259                0.897880677     -137.455755
9.26                 0.897684483     -137.727685
9.261                 0.89748883     -138.000121
9.262                0.897293729     -138.273063
9.263                 0.89709919     -138.546508
9.264                0.896905223     -138.820455
9.265                0.896711837     -139.094902
9.266                0.896519043     -139.369847
9.267                0.896326852     -139.645289
9.268                0.896135273     -139.921226
9.269                0.895944316     -140.197656
9.27                 0.895753992     -140.474578
9.271                0.895564311     -140.751989
9.272                0.895375284     -141.029887
9.273                 0.89518692     -141.308271
9.274                0.894999229     -141.587139
9.275                0.894812224     -141.866489
9.276                0.894625912     -142.146318
9.277                0.894440306     -142.426625
9.278                0.894255414     -142.707408
9.279                0.894071249     -142.988664
9.28                 0.893887819     -143.270392
9.281                0.893705136     -143.552589
9.282                 0.89352321     -143.835253
9.283                0.893342051     -144.118382
9.284                 0.89316167     -144.401974
9.285                0.892982077     -144.686026
9.286                0.892803283     -144.970536
9.287                0.892625297     -145.255502
9.288                0.892448131     -145.540921
9.289                0.892271795     -145.826792
9.29                   0.8920963     -146.113111
9.291                0.891921655     -146.399876
9.292                0.891747871     -146.687084
9.293                0.891574959     -146.974734
9.294                0.891402929     -147.262822
9.295                0.891231791     -147.551347
9.296                0.891061557     -147.840304
9.297                0.890892235     -148.129693
9.298                0.890723837      -148.41951
9.299                0.890556374     -148.709752
9.3                  0.890389854     -149.000416
9.301                0.890224289     -149.291501
9.302                 0.89005969     -149.583003
9.303                0.889896065     -149.874919
9.304                0.889733426     -150.167247
9.305                0.889571783     -150.459983
9.306                0.889411146     -150.753125
9.307                0.889251525      -151.04667
9.308                 0.88909293     -151.340614
9.309                0.888935372     -151.634956
9.31                 0.888778861     -151.929691
9.311                0.888623406     -152.224817
9.312                0.888469018     -152.520331
9.313                0.888315707     -152.816229
9.314                0.888163483     -153.112509
9.315                0.888012355     -153.409167
9.316                0.887862334       -153.7062
9.317                0.887713429     -154.003604
9.318                0.887565651     -154.301378
9.319                0.887419008     -154.599517
9.32                 0.887273512     -154.898018
9.321                 0.88712917     -155.196877
9.322                0.886985994     -155.496092
9.323                0.886843992     -155.795659
9.324                0.886703175     -156.095574
9.325                0.886563551     -156.395834
9.326                 0.88642513     -156.696436
9.327                0.886287921     -156.997376
9.328                0.886151934     -157.298651
9.329                0.886017178     -157.600257
9.33                 0.885883662      -157.90219
9.331                0.885751396     -158.204446
9.332                0.885620387     -158.507023
9.333                0.885490646     -158.809917
9.334                0.885362181     -159.113123
9.335                   0.885235     -159.416639
9.336                0.885109114      -159.72046
9.337                 0.88498453     -160.024582
9.338                0.884861257     -160.329003
9.339                0.884739304     -160.633717
9.34                 0.884618679     -160.938722
9.341                 0.88449939     -161.244013
9.342                0.884381446     -161.549587
9.343                0.884264856     -161.855439
9.344                0.884149626     -162.161565
9.345                0.884035766     -162.467963
9.346                0.883923283     -162.774627
9.347                0.883812185     -163.081554
9.348                0.883702481     -163.388739
9.349                0.883594177     -163.696179
9.35                 0.883487281      -164.00387
9.351                0.883381801     -164.311807
9.352                0.883277744     -164.619987
9.353                0.883175118     -164.928405
9.354                 0.88307393     -165.237057
9.355                0.882974187     -165.545939
9.356                0.882875896     -165.855046
9.357                0.882779064     -166.164376
9.358                0.882683698     -166.473922
9.359                0.882589805     -166.783682
9.36                 0.882497391     -167.093651
9.361                0.882406462     -167.403824
9.362                0.882317026     -167.714197
9.363                0.882229088     -168.024766
9.364                0.882142655     -168.335527
9.365                0.882057733     -168.646475
9.366                0.881974327     -168.957606
9.367                0.881892444     -169.268916
9.368                 0.88181209     -169.580399
9.369                 0.88173327     -169.892052
9.37                 0.881655989     -170.203871
9.371                0.881580253      -170.51585
9.372                0.881506068     -170.827986
9.373                0.881433438     -171.140273
9.374                0.881362368     -171.452708
9.375                0.881292864     -171.765285
9.376                 0.88122493     -172.078001
9.377                 0.88115857     -172.390851
9.378                0.881093791      -172.70383
9.379                0.881030595     -173.016934
9.38                 0.880968987     -173.330158
9.381                0.880908971     -173.643498
9.382                0.880850552     -173.956948
9.383                0.880793733     -174.270505
9.384                0.880738519     -174.584164
9.385                0.880684912      -174.89792
9.386                0.880632916     -175.211769
9.387                0.880582535     -175.525706
9.388                0.880533772     -175.839726
9.389                 0.88048663     -176.153824
9.39                 0.880441111     -176.467997
9.391                 0.88039722     -176.782239
9.392                0.880354959     -177.096546
9.393                0.880314329     -177.410913
9.394                0.880275335     -177.725335
9.395                0.880237977     -178.039807
9.396                0.880202259     -178.354326
