! TOUCHSTONE file generated by CST DESIGN STUDIO
! Date and time: Tue Feb  4 18:42:45 2025
! Project name: C:\Work\MatlabApps\UnitCellOptimizationMatlab\CST\unitcell.cst
! Tree item: Tasks\Sweep1\SPara1\S-Parameters
! Header version: 2024
! Port assignment regex: !\s*Touchstone port\s*([0-9]+)\s*=\s*(CST MWS port|CST DES external port|CST DES block port)\s*(.+)\s* \(\"(.*)\"\)(\s*mode\s*([0-9]+))?.*
! Touchstone port assignment:
! Touchstone port 1 = CST DES external port 1 ("")
# GHz S MA R 50
9                    0.963509697     -52.5263752
9.001                0.963440426     -52.5941706
9.002                0.963370946     -52.6621125
9.003                0.963301256     -52.7302016
9.004                0.963231355     -52.7984382
9.005                0.963161241     -52.8668228
9.006                0.963090916     -52.9353558
9.007                0.963020377     -53.0040379
9.008                0.962949624     -53.0728692
9.009                0.962878657     -53.1418505
9.01                 0.962807474     -53.2109821
9.011                0.962736075     -53.2802644
9.012                0.962664459      -53.349698
9.013                0.962592625     -53.4192833
9.014                0.962520574     -53.4890208
9.015                0.962448302      -53.558911
9.016                0.962375812     -53.6289543
9.017                  0.9623031     -53.6991512
9.018                0.962230167     -53.7695022
9.019                0.962157012     -53.8400078
9.02                 0.962083634     -53.9106684
9.021                0.962010032     -53.9814846
9.022                0.961936206     -54.0524568
9.023                0.961862155     -54.1235855
9.024                0.961787877     -54.1948712
9.025                0.961713373     -54.2663144
9.026                0.961638641     -54.3379156
9.027                0.961563682     -54.4096752
9.028                0.961488492     -54.4815939
9.029                0.961413074      -54.553672
9.03                 0.961337424       -54.62591
9.031                0.961261543     -54.6983086
9.032                 0.96118543     -54.7708681
9.033                0.961109083     -54.8435891
9.034                0.961032503      -54.916472
9.035                0.960955688     -54.9895175
9.036                0.960878638      -55.062726
9.037                0.960801352      -55.136098
9.038                0.960723828      -55.209634
9.039                0.960646067     -55.2833346
9.04                 0.960568067     -55.3572002
9.041                0.960489827     -55.4312315
9.042                0.960411347     -55.5054288
9.043                0.960332626     -55.5797928
9.044                0.960253663     -55.6543239
9.045                0.960174458     -55.7290227
9.046                0.960095008     -55.8038897
9.047                0.960015315     -55.8789255
9.048                0.959935376     -55.9541306
9.049                0.959855191     -56.0295055
9.05                 0.959774759     -56.1050507
9.051                0.959694079     -56.1807668
9.052                 0.95961315     -56.2566544
9.053                0.959531973     -56.3327139
9.054                0.959450544     -56.4089459
9.055                0.959368865     -56.4853511
9.056                0.959286934     -56.5619298
9.057                0.959204749     -56.6386827
9.058                0.959122311     -56.7156104
9.059                0.959039619     -56.7927133
9.06                 0.958956671      -56.869992
9.061                0.958873466     -56.9474472
9.062                0.958790004     -57.0250793
9.063                0.958706285     -57.1028889
9.064                0.958622306     -57.1808766
9.065                0.958538068      -57.259043
9.066                0.958453569     -57.3373885
9.067                0.958368808     -57.4159139
9.068                0.958283785     -57.4946197
9.069                0.958198498     -57.5735064
9.07                 0.958112947     -57.6525746
9.071                0.958027131     -57.7318249
9.072                0.957941049     -57.8112579
9.073                  0.9578547     -57.8908741
9.074                0.957768083     -57.9706743
9.075                0.957681198     -58.0506588
9.076                0.957594043     -58.1308284
9.077                0.957506617     -58.2111836
9.078                 0.95741892     -58.2917251
9.079                 0.95733095     -58.3724533
9.08                 0.957242707      -58.453369
9.081                 0.95715419     -58.5344727
9.082                0.957065398      -58.615765
9.083                 0.95697633     -58.6972466
9.084                0.956886984      -58.778918
9.085                0.956797361     -58.8607798
9.086                0.956707459     -58.9428327
9.087                0.956617277     -59.0250773
9.088                0.956526815     -59.1075141
9.089                0.956436071     -59.1901439
9.09                 0.956345044     -59.2729672
9.091                0.956253734     -59.3559846
9.092                0.956162139     -59.4391968
9.093                0.956070259     -59.5226045
9.094                0.955978092     -59.6062082
9.095                0.955885638     -59.6900085
9.096                0.955792896     -59.7740061
9.097                0.955699865     -59.8582017
9.098                0.955606543     -59.9425959
9.099                 0.95551293     -60.0271893
9.1                  0.955419025     -60.1119826
9.101                0.955324827     -60.1969764
9.102                0.955230335     -60.2821713
9.103                0.955135548     -60.3675681
9.104                0.955040464     -60.4531673
9.105                0.954945084     -60.5389697
9.106                0.954849406     -60.6249758
9.107                0.954753429     -60.7111864
9.108                0.954657152      -60.797602
9.109                0.954560574     -60.8842235
9.11                 0.954463694     -60.9710514
9.111                0.954366511     -61.0580864
9.112                0.954269024     -61.1453292
9.113                0.954171232     -61.2327804
9.114                0.954073134     -61.3204407
9.115                 0.95397473     -61.4083109
9.116                0.953876017     -61.4963916
9.117                0.953776996     -61.5846834
9.118                0.953677665     -61.6731871
9.119                0.953578022     -61.7619034
9.12                 0.953478068     -61.8508329
9.121                0.953377801     -61.9399764
9.122                 0.95327722     -62.0293344
9.123                0.953176324     -62.1189079
9.124                0.953075112     -62.2086973
9.125                0.952973582     -62.2987035
9.126                0.952871735     -62.3889272
9.127                0.952769569      -62.479369
9.128                0.952667082     -62.5700297
9.129                0.952564275     -62.6609099
9.13                 0.952461145     -62.7520105
9.131                0.952357692      -62.843332
9.132                0.952253915     -62.9348754
9.133                0.952149812     -63.0266411
9.134                0.952045383     -63.1186301
9.135                0.951940627      -63.210843
9.136                0.951835542     -63.3032806
9.137                0.951730128     -63.3959435
9.138                0.951624383     -63.4888326
9.139                0.951518307     -63.5819485
9.14                 0.951411898      -63.675292
9.141                0.951305156     -63.7688639
9.142                0.951198078     -63.8626649
9.143                0.951090665     -63.9566957
9.144                0.950982916     -64.0509571
9.145                0.950874828     -64.1454499
9.146                0.950766401     -64.2401748
9.147                0.950657634     -64.3351326
9.148                0.950548526      -64.430324
9.149                0.950439076     -64.5257498
9.15                 0.950329283     -64.6214108
9.151                0.950219145     -64.7173078
9.152                0.950108662     -64.8134414
9.153                0.949997833     -64.9098126
9.154                0.949886656      -65.006422
9.155                0.949775131     -65.1032705
9.156                0.949663255     -65.2003588
9.157                0.949551029     -65.2976878
9.158                0.949438452     -65.3952581
9.159                0.949325521     -65.4930707
9.16                 0.949212236     -65.5911263
9.161                0.949098597     -65.6894257
9.162                0.948984601     -65.7879697
9.163                0.948870247     -65.8867591
9.164                0.948755536     -65.9857947
9.165                0.948640465     -66.0850773
9.166                0.948525033     -66.1846078
9.167                 0.94840924     -66.2843869
9.168                0.948293084     -66.3844154
9.169                0.948176565     -66.4846943
9.17                  0.94805968     -66.5852243
9.171                 0.94794243     -66.6860062
9.172                0.947824812     -66.7870409
9.173                0.947706827     -66.8883291
9.174                0.947588472     -66.9898718
9.175                0.947469746     -67.0916698
9.176                 0.94735065     -67.1937238
9.177                 0.94723118     -67.2960349
9.178                0.947111337     -67.3986037
9.179                0.946991119     -67.5014311
9.18                 0.946870526      -67.604518
9.181                0.946749555     -67.7078653
9.182                0.946628207     -67.8114738
9.183                0.946506479     -67.9153443
9.184                0.946384371     -68.0194777
9.185                0.946261881      -68.123875
9.186                0.946139009     -68.2285369
9.187                0.946015754     -68.3334643
9.188                0.945892114     -68.4386581
9.189                0.945768088     -68.5441192
9.19                 0.945643675     -68.6498484
9.191                0.945518874     -68.7558467
9.192                0.945393685     -68.8621149
9.193                0.945268105     -68.9686539
9.194                0.945142133     -69.0754646
9.195                 0.94501577     -69.1825479
9.196                0.944889013     -69.2899046
9.197                0.944761861     -69.3975358
9.198                0.944634314     -69.5054422
9.199                0.944506369     -69.6136249
9.2                  0.944378027     -69.7220846
9.201                0.944249286     -69.8308224
9.202                0.944120145     -69.9398391
9.203                0.943990603     -70.0491356
9.204                0.943860659     -70.1587129
9.205                0.943730311     -70.2685718
9.206                0.943599559     -70.3787134
9.207                0.943468401     -70.4891385
9.208                0.943336836     -70.5998481
9.209                0.943204864     -70.7108431
9.21                 0.943072483     -70.8221244
9.211                0.942939692      -70.933693
9.212                 0.94280649     -71.0455499
9.213                0.942672877     -71.1576958
9.214                 0.94253885     -71.2701319
9.215                0.942404408     -71.3828591
9.216                0.942269552     -71.4958783
9.217                0.942134279     -71.6091905
9.218                0.941998588     -71.7227966
9.219                0.941862479     -71.8366976
9.22                 0.941725951     -71.9508945
9.221                0.941589002     -72.0653882
9.222                0.941451631     -72.1801797
9.223                0.941313837       -72.29527
9.224                0.941175619       -72.41066
9.225                0.941036977     -72.5263508
9.226                0.940897908     -72.6423434
9.227                0.940758413     -72.7586386
9.228                0.940618489     -72.8752375
9.229                0.940478136     -72.9921411
9.23                 0.940337354     -73.1093504
9.231                0.940196139     -73.2268664
9.232                0.940054493     -73.3446901
9.233                0.939912413     -73.4628225
9.234                0.939769899     -73.5812645
9.235                 0.93962695     -73.7000173
9.236                0.939483564     -73.8190817
9.237                0.939339741     -73.9384589
9.238                0.939195479     -74.0581499
9.239                0.939050778     -74.1781556
9.24                 0.938905637     -74.2984772
9.241                0.938760054     -74.4191155
9.242                0.938614029     -74.5400717
9.243                 0.93846756     -74.6613468
9.244                0.938320646     -74.7829418
9.245                0.938173288     -74.9048577
9.246                0.938025483     -75.0270957
9.247                 0.93787723     -75.1496567
9.248                0.937728529     -75.2725417
9.249                0.937579379      -75.395752
9.25                 0.937429778     -75.5192884
9.251                0.937279727      -75.643152
9.252                0.937129223      -75.767344
9.253                0.936978265     -75.8918653
9.254                0.936826854      -76.016717
9.255                0.936674988     -76.1419003
9.256                0.936522665     -76.2674161
9.257                0.936369886     -76.3932655
9.258                0.936216649     -76.5194497
9.259                0.936062953     -76.6459696
9.26                 0.935908798     -76.7728264
9.261                0.935754182     -76.9000212
9.262                0.935599105      -77.027555
9.263                0.935443565     -77.1554289
9.264                0.935287562      -77.283644
9.265                0.935131095     -77.4122015
9.266                0.934974163     -77.5411023
9.267                0.934816766     -77.6703477
9.268                0.934658901     -77.7999387
9.269                0.934500569     -77.9298763
9.27                 0.934341769     -78.0601618
9.271                  0.9341825     -78.1907962
9.272                0.934022761     -78.3217807
9.273                0.933862551     -78.4531163
9.274                0.933701869     -78.5848042
9.275                0.933540716     -78.7168455
9.276                0.933379089     -78.8492413
9.277                0.933216988     -78.9819927
9.278                0.933054412      -79.115101
9.279                0.932891361     -79.2485671
9.28                 0.932727834     -79.3823922
9.281                 0.93256383     -79.5165775
9.282                0.932399348     -79.6511242
9.283                0.932234388     -79.7860332
9.284                0.932068948     -79.9213059
9.285                 0.93190303     -80.0569433
9.286                 0.93173663     -80.1929465
9.287                 0.93156975     -80.3293169
9.288                0.931402387     -80.4660553
9.289                0.931234542     -80.6031632
9.29                 0.931066215     -80.7406415
9.291                0.930897403     -80.8784915
9.292                0.930728107     -81.0167143
9.293                0.930558326     -81.1553111
9.294                 0.93038806      -81.294283
9.295                0.930217308     -81.4336313
9.296                0.930046069      -81.573357
9.297                0.929874342     -81.7134614
9.298                0.929702128     -81.8539456
9.299                0.929529426     -81.9948109
9.3                  0.929356234     -82.1360583
9.301                0.929182554     -82.2776891
9.302                0.929008383     -82.4197045
9.303                0.928833723     -82.5621056
9.304                0.928658571     -82.7048936
9.305                0.928482929     -82.8480698
9.306                0.928306794     -82.9916353
9.307                0.928130168     -83.1355913
9.308                0.927953049     -83.2799389
9.309                0.927775438     -83.4246795
9.31                 0.927597333     -83.5698142
9.311                0.927418735     -83.7153441
9.312                0.927239642     -83.8612706
9.313                0.927060056     -84.0075948
9.314                0.926879975     -84.1543179
9.315                0.926699399     -84.3014411
9.316                0.926518328     -84.4489656
9.317                0.926336762     -84.5968927
9.318                  0.9261547     -84.7452235
9.319                0.925972143     -84.8939593
9.32                 0.925789089     -85.0431013
9.321                0.925605539     -85.1926507
9.322                0.925421493     -85.3426087
9.323                 0.92523695     -85.4929766
9.324                0.925051911     -85.6437555
9.325                0.924866375     -85.7949467
9.326                0.924680342     -85.9465514
9.327                0.924493812     -86.0985708
9.328                0.924306785     -86.2510063
9.329                0.924119262     -86.4038589
9.33                 0.923931241     -86.5571299
9.331                0.923742723     -86.7108206
9.332                0.923553709     -86.8649322
9.333                0.923364197     -87.0194659
9.334                0.923174189     -87.1744229
9.335                0.922983684     -87.3298045
9.336                0.922792683      -87.485612
9.337                0.922601185     -87.6418465
9.338                 0.92240919     -87.7985093
9.339                  0.9222167     -87.9556017
9.34                 0.922023714     -88.1131248
9.341                0.921830232       -88.27108
9.342                0.921636255     -88.4294683
9.343                0.921441783     -88.5882912
9.344                0.921246816     -88.7475499
9.345                0.921051355     -88.9072455
9.346                  0.9208554     -89.0673793
9.347                0.920658951     -89.2279526
9.348                0.920462008     -89.3889666
9.349                0.920264573     -89.5504226
9.35                 0.920066646     -89.7123217
9.351                0.919868227     -89.8746653
9.352                0.919669316     -90.0374546
9.353                0.919469915     -90.2006908
9.354                0.919270024     -90.3643751
9.355                0.919069642     -90.5285089
9.356                0.918868772     -90.6930933
9.357                0.918667414     -90.8581297
9.358                0.918465568     -91.0236192
9.359                0.918263236      -91.189563
9.36                 0.918060417     -91.3559625
9.361                0.917857113     -91.5228189
9.362                0.917653324     -91.6901334
9.363                0.917449052     -91.8579073
9.364                0.917244297     -92.0261417
9.365                 0.91703906      -92.194838
9.366                0.916833342     -92.3639973
9.367                0.916627144      -92.533621
9.368                0.916420467     -92.7037102
9.369                0.916213312     -92.8742663
9.37                 0.916005681     -93.0452903
9.371                0.915797573     -93.2167836
9.372                0.915588992     -93.3887474
9.373                0.915379936     -93.5611829
9.374                0.915170409     -93.7340913
9.375                 0.91496041      -93.907474
9.376                0.914749942      -94.081332
9.377                0.914539006     -94.2556667
9.378                0.914327602     -94.4304793
9.379                0.914115733     -94.6057709
9.38                   0.9139034     -94.7815428
9.381                0.913690604     -94.9577963
9.382                0.913477347     -95.1345325
9.383                 0.91326363     -95.3117526
9.384                0.913049455      -95.489458
9.385                0.912834824     -95.6676497
9.386                0.912619738     -95.8463289
9.387                0.912404199      -96.025497
9.388                0.912188209     -96.2051551
9.389                0.911971769     -96.3853044
9.39                 0.911754881      -96.565946
9.391                0.911537547     -96.7470813
9.392                 0.91131977     -96.9287113
9.393                 0.91110155     -97.1108373
9.394                0.910882891     -97.2934605
9.395                0.910663793      -97.476582
9.396                 0.91044426      -97.660203
