! TOUCHSTONE file generated by CST DESIGN STUDIO
! Date and time: Wed Feb  5 13:42:29 2025
! Project name: C:\Work\MatlabApps\UnitCellOptimizationMatlab\CST\unitcell.cst
! Tree item: Tasks\Sweep1\SPara1\S-Parameters
! Header version: 2024
! Port assignment regex: !\s*Touchstone port\s*([0-9]+)\s*=\s*(CST MWS port|CST DES external port|CST DES block port)\s*(.+)\s* \(\"(.*)\"\)(\s*mode\s*([0-9]+))?.*
! Touchstone port assignment:
! Touchstone port 1 = CST DES external port 1 ("")
# GHz S MA R 50
9                    0.971456833     -57.4785202
9.001                 0.97140127     -57.5557397
9.002                0.971345538     -57.6331328
9.003                0.971289636        -57.7107
9.004                0.971233565     -57.7884419
9.005                0.971177322      -57.866359
9.006                0.971120909     -57.9444519
9.007                0.971064324     -58.0227211
9.008                0.971007567     -58.1011671
9.009                0.970950636     -58.1797906
9.01                 0.970893533      -58.258592
9.011                0.970836255     -58.3375719
9.012                0.970778803      -58.416731
9.013                0.970721176     -58.4960697
9.014                0.970663373     -58.5755886
9.015                0.970605394     -58.6552883
9.016                0.970547238     -58.7351693
9.017                0.970488904     -58.8152322
9.018                0.970430393     -58.8954776
9.019                0.970371703     -58.9759061
9.02                 0.970312834     -59.0565182
9.021                0.970253786     -59.1373145
9.022                0.970194557     -59.2182956
9.023                0.970135147     -59.2994621
9.024                0.970075556     -59.3808145
9.025                0.970015782     -59.4623535
9.026                0.969955826     -59.5440796
9.027                0.969895687     -59.6259934
9.028                0.969835365     -59.7080955
9.029                0.969774857     -59.7903865
9.03                 0.969714165      -59.872867
9.031                0.969653287     -59.9555376
9.032                0.969592223     -60.0383989
9.033                0.969530973     -60.1214514
9.034                0.969469535     -60.2046959
9.035                0.969407909     -60.2881329
9.036                0.969346094      -60.371763
9.037                0.969284091     -60.4555868
9.038                0.969221897      -60.539605
9.039                0.969159513     -60.6238181
9.04                 0.969096938     -60.7082267
9.041                0.969034172     -60.7928316
9.042                0.968971213     -60.8776332
9.043                0.968908062     -60.9626323
9.044                0.968844717     -61.0478295
9.045                0.968781178     -61.1332253
9.046                0.968717445     -61.2188204
9.047                0.968653516     -61.3046155
9.048                0.968589391     -61.3906112
9.049                 0.96852507     -61.4768081
9.05                 0.968460552     -61.5632068
9.051                0.968395836      -61.649808
9.052                0.968330921     -61.7366124
9.053                0.968265808     -61.8236205
9.054                0.968200495     -61.9108331
9.055                0.968134982     -61.9982507
9.056                0.968069268     -62.0858741
9.057                0.968003352     -62.1737038
9.058                0.967937234     -62.2617406
9.059                0.967870913     -62.3499851
9.06                 0.967804389      -62.438438
9.061                0.967737661     -62.5270999
9.062                0.967670729     -62.6159714
9.063                0.967603591     -62.7050534
9.064                0.967536247     -62.7943463
9.065                0.967468696      -62.883851
9.066                0.967400938      -62.973568
9.067                0.967332972      -63.063498
9.068                0.967264798     -63.1536418
9.069                0.967196415         -63.244
9.07                 0.967127821     -63.3345733
9.071                0.967059018     -63.4253624
9.072                0.966990003     -63.5163679
9.073                0.966920776     -63.6075906
9.074                0.966851337     -63.6990312
9.075                0.966781685     -63.7906903
9.076                0.966711819     -63.8825686
9.077                0.966641739     -63.9746669
9.078                0.966571444     -64.0669858
9.079                0.966500933     -64.1595261
9.08                 0.966430206     -64.2522885
9.081                0.966359262     -64.3452736
9.082                  0.9662881     -64.4384822
9.083                 0.96621672      -64.531915
9.084                 0.96614512     -64.6255727
9.085                0.966073302      -64.719456
9.086                0.966001262     -64.8135657
9.087                0.965929002     -64.9079024
9.088                0.965856521      -65.002467
9.089                0.965783817     -65.0972601
9.09                  0.96571089     -65.1922824
9.091                0.965637739     -65.2875348
9.092                0.965564364     -65.3830178
9.093                0.965490764     -65.4787324
9.094                0.965416939     -65.5746792
9.095                0.965342887     -65.6708589
9.096                0.965268608     -65.7672723
9.097                0.965194102     -65.8639202
9.098                0.965119367     -65.9608032
9.099                0.965044403     -66.0579223
9.1                   0.96496921      -66.155278
9.101                0.964893786     -66.2528712
9.102                0.964818131     -66.3507026
9.103                0.964742245      -66.448773
9.104                0.964666126     -66.5470832
9.105                0.964589774     -66.6456339
9.106                0.964513189     -66.7444259
9.107                0.964436369       -66.84346
9.108                0.964359314     -66.9427369
9.109                0.964282023     -67.0422574
9.11                 0.964204496     -67.1420224
9.111                0.964126732     -67.2420325
9.112                0.964048729     -67.3422886
9.113                0.963970489     -67.4427915
9.114                0.963892009     -67.5435419
9.115                 0.96381329     -67.6445407
9.116                 0.96373433     -67.7457886
9.117                0.963655128     -67.8472864
9.118                0.963575685      -67.949035
9.119                   0.963496     -68.0510351
9.12                 0.963416071     -68.1532876
9.121                0.963335898     -68.2557932
9.122                0.963255481     -68.3585528
9.123                0.963174818     -68.4615672
9.124                 0.96309391     -68.5648372
9.125                0.963012754     -68.6683636
9.126                0.962931352     -68.7721472
9.127                0.962849702      -68.876189
9.128                0.962767802     -68.9804896
9.129                0.962685654     -69.0850499
9.13                 0.962603255     -69.1898708
9.131                0.962520606      -69.294953
9.132                0.962437705     -69.4002975
9.133                0.962354553      -69.505905
9.134                0.962271147     -69.6117765
9.135                0.962187488     -69.7179127
9.136                0.962103575     -69.8243145
9.137                0.962019407     -69.9309827
9.138                0.961934984     -70.0379183
9.139                0.961850305      -70.145122
9.14                 0.961765369     -70.2525947
9.141                0.961680175     -70.3603372
9.142                0.961594723     -70.4683506
9.143                0.961509012     -70.5766355
9.144                0.961423042     -70.6851928
9.145                0.961336812     -70.7940236
9.146                 0.96125032     -70.9031285
9.147                0.961163568     -71.0125085
9.148                0.961076553     -71.1221645
9.149                0.960989275     -71.2320973
9.15                 0.960901733     -71.3423079
9.151                0.960813928      -71.452797
9.152                0.960725857     -71.5635657
9.153                0.960637522     -71.6746148
9.154                0.960548919     -71.7859451
9.155                 0.96046005     -71.8975577
9.156                0.960370914     -72.0094533
9.157                0.960281509     -72.1216329
9.158                0.960191836     -72.2340975
9.159                0.960101893     -72.3468478
9.16                  0.96001168     -72.4598848
9.161                0.959921196     -72.5732094
9.162                 0.95983044     -72.6868226
9.163                0.959739413     -72.8007253
9.164                0.959648113     -72.9149183
9.165                0.959556539     -73.0294026
9.166                0.959464691     -73.1441791
9.167                0.959372569     -73.2592488
9.168                0.959280171     -73.3746125
9.169                0.959187498     -73.4902713
9.17                 0.959094548      -73.606226
9.171                 0.95900132     -73.7224776
9.172                0.958907815      -73.839027
9.173                0.958814031     -73.9558752
9.174                0.958719968     -74.0730231
9.175                0.958625626     -74.1904716
9.176                0.958531003     -74.3082218
9.177                0.958436099     -74.4262745
9.178                0.958340913     -74.5446308
9.179                0.958245446     -74.6632915
9.18                 0.958149695     -74.7822577
9.181                0.958053661     -74.9015303
9.182                0.957957343     -75.0211103
9.183                 0.95786074     -75.1409986
9.184                0.957763853     -75.2611962
9.185                0.957666679     -75.3817041
9.186                0.957569219     -75.5025232
9.187                0.957471471     -75.6236546
9.188                0.957373437     -75.7450992
9.189                0.957275114      -75.866858
9.19                 0.957176502      -75.988932
9.191                0.957077601     -76.1113222
9.192                 0.95697841     -76.2340295
9.193                0.956878928      -76.357055
9.194                0.956779155     -76.4803997
9.195                0.956679091     -76.6040645
9.196                0.956578735     -76.7280505
9.197                0.956478086     -76.8523586
9.198                0.956377143     -76.9769899
9.199                0.956275907     -77.1019454
9.2                  0.956174376      -77.227226
9.201                0.956072551     -77.3528328
9.202                 0.95597043     -77.4787669
9.203                0.955868013     -77.6050292
9.204                0.955765299     -77.7316207
9.205                0.955662289     -77.8585425
9.206                0.955558981     -77.9857956
9.207                0.955455375      -78.113381
9.208                 0.95535147     -78.2412997
9.209                0.955247267     -78.3695528
9.21                 0.955142763     -78.4981414
9.211                 0.95503796     -78.6270664
9.212                0.954932857     -78.7563288
9.213                0.954827452     -78.8859298
9.214                0.954721746     -79.0158704
9.215                0.954615738     -79.1461516
9.216                0.954509427     -79.2767744
9.217                0.954402814       -79.40774
9.218                0.954295898     -79.5390493
9.219                0.954188678     -79.6707034
9.22                 0.954081153     -79.8027034
9.221                0.953973324     -79.9350503
9.222                 0.95386519     -80.0677452
9.223                0.953756751     -80.2007892
9.224                0.953648006     -80.3341832
9.225                0.953538954     -80.4679285
9.226                0.953429596      -80.602026
9.227                0.953319931     -80.7364768
9.228                0.953209958      -80.871282
9.229                0.953099678     -81.0064426
9.23                  0.95298909     -81.1419598
9.231                0.952878193     -81.2778346
9.232                0.952766987     -81.4140681
9.233                0.952655472     -81.5506614
9.234                0.952543647     -81.6876156
9.235                0.952431513     -81.8249317
9.236                0.952319068     -81.9626108
9.237                0.952206313      -82.100654
9.238                0.952093247     -82.2390625
9.239                 0.95197987     -82.3778372
9.24                 0.951866181     -82.5169794
9.241                0.951752181     -82.6564901
9.242                0.951637869     -82.7963703
9.243                0.951523245     -82.9366213
9.244                0.951408308      -83.077244
9.245                0.951293059     -83.2182397
9.246                0.951177496     -83.3596093
9.247                0.951061621     -83.5013541
9.248                0.950945432      -83.643475
9.249                 0.95082893     -83.7859733
9.25                 0.950712113     -83.9288501
9.251                0.950594983     -84.0721063
9.252                0.950477539     -84.2157433
9.253                 0.95035978      -84.359762
9.254                0.950241707     -84.5041636
9.255                 0.95012332     -84.6489492
9.256                0.950004618     -84.7941199
9.257                0.949885601     -84.9396769
9.258                0.949766269     -85.0856213
9.259                0.949646622     -85.2319541
9.26                 0.949526659     -85.3786766
9.261                0.949406382     -85.5257898
9.262                 0.94928579     -85.6732948
9.263                0.949164882     -85.8211929
9.264                0.949043658     -85.9694851
9.265                 0.94892212     -86.1181725
9.266                0.948800266     -86.2672563
9.267                0.948678097     -86.4167376
9.268                0.948555612     -86.5666176
9.269                0.948432812     -86.7168974
9.27                 0.948309697      -86.867578
9.271                0.948186266     -87.0186607
9.272                 0.94806252     -87.1701466
9.273                 0.94793846     -87.3220368
9.274                0.947814084     -87.4743325
9.275                0.947689393     -87.6270347
9.276                0.947564387     -87.7801447
9.277                0.947439067     -87.9336635
9.278                0.947313433     -88.0875924
9.279                0.947187484     -88.2419324
9.28                 0.947061221     -88.3966847
9.281                0.946934644     -88.5518504
9.282                0.946807753     -88.7074306
9.283                0.946680548     -88.8634266
9.284                0.946553031     -89.0198394
9.285                  0.9464252     -89.1766703
9.286                0.946297057     -89.3339202
9.287                0.946168601     -89.4915904
9.288                0.946039833     -89.6496821
9.289                0.945910754     -89.8081963
9.29                 0.945781362     -89.9671341
9.291                 0.94565166     -90.1264969
9.292                0.945521647     -90.2862856
9.293                0.945391324     -90.4465014
9.294                 0.94526069     -90.6071455
9.295                0.945129747      -90.768219
9.296                0.944998495      -90.929723
9.297                0.944866935     -91.0916587
9.298                0.944735066     -91.2540272
9.299                 0.94460289     -91.4168297
9.3                  0.944470406     -91.5800673
9.301                0.944337616     -91.7437411
9.302                 0.94420452     -91.9078523
9.303                0.944071119      -92.072402
9.304                0.943937413     -92.2373913
9.305                0.943803402     -92.4028214
9.306                0.943669088     -92.5686935
9.307                0.943534471     -92.7350085
9.308                0.943399552     -92.9017677
9.309                0.943264332     -93.0689723
9.31                  0.94312881     -93.2366232
9.311                0.942992989     -93.4047217
9.312                0.942856868     -93.5732689
9.313                0.942720448     -93.7422659
9.314                0.942583731     -93.9117139
9.315                0.942446717     -94.0816138
9.316                0.942309407      -94.251967
9.317                0.942171802     -94.4227744
9.318                0.942033903     -94.5940373
9.319                 0.94189571     -94.7657566
9.32                 0.941757225     -94.9379336
9.321                0.941618448     -95.1105693
9.322                0.941479381     -95.2836649
9.323                0.941340025     -95.4572215
9.324                 0.94120038     -95.6312401
9.325                0.941060448     -95.8057218
9.326                 0.94092023     -95.9806678
9.327                0.940779726     -96.1560792
9.328                0.940638939      -96.331957
9.329                0.940497869     -96.5083024
9.33                 0.940356517     -96.6851164
9.331                0.940214885     -96.8624001
9.332                0.940072974     -97.0401547
9.333                0.939930785     -97.2183811
9.334                0.939788319     -97.3970804
9.335                0.939645578     -97.5762538
9.336                0.939502564     -97.7559023
9.337                0.939359276      -97.936027
9.338                0.939215718     -98.1166289
9.339                 0.93907189     -98.2977091
9.34                 0.938927794     -98.4792686
9.341                0.938783431     -98.6613086
9.342                0.938638803       -98.84383
9.343                0.938493911     -99.0268339
9.344                0.938348757     -99.2103213
9.345                0.938203343     -99.3942934
9.346                 0.93805767      -99.578751
9.347                 0.93791174     -99.7636953
9.348                0.937765554     -99.9491272
9.349                0.937619115     -100.135048
9.35                 0.937472424     -100.321458
9.351                0.937325482     -100.508359
9.352                0.937178293     -100.695752
9.353                0.937030856     -100.883637
9.354                0.936883175     -101.072017
9.355                0.936735252     -101.260891
9.356                0.936587088      -101.45026
9.357                0.936438685     -101.640126
9.358                0.936290045      -101.83049
9.359                0.936141171     -102.021353
9.36                 0.935992064     -102.212715
9.361                0.935842726     -102.404578
9.362                0.935693161     -102.596942
9.363                0.935543369     -102.789809
9.364                0.935393353     -102.983179
9.365                0.935243115     -103.177053
9.366                0.935092658     -103.371432
9.367                0.934941984     -103.566318
9.368                0.934791096     -103.761711
9.369                0.934639995     -103.957612
9.37                 0.934488684     -104.154021
9.371                0.934337165     -104.350941
9.372                0.934185442     -104.548371
9.373                0.934033517     -104.746313
9.374                0.933881391     -104.944767
9.375                0.933729068     -105.143734
9.376                0.933576551     -105.343216
9.377                0.933423842     -105.543212
9.378                0.933270944     -105.743725
9.379                0.933117859     -105.944754
9.38                 0.932964591       -106.1463
9.381                0.932811142     -106.348365
9.382                0.932657516     -106.550949
9.383                0.932503714     -106.754053
9.384                 0.93234974     -106.957678
9.385                0.932195597     -107.161824
9.386                0.932041289     -107.366492
9.387                0.931886817     -107.571684
9.388                0.931732186     -107.777399
9.389                0.931577398     -107.983639
9.39                 0.931422456     -108.190404
9.391                0.931267364     -108.397696
9.392                0.931112126     -108.605514
9.393                0.930956743     -108.813859
9.394                0.930801221     -109.022732
9.395                0.930645561     -109.232135
9.396                0.930489769     -109.442067
