! TOUCHSTONE file generated by CST DESIGN STUDIO
! Date and time: Wed Feb  5 13:42:17 2025
! Project name: C:\Work\MatlabApps\UnitCellOptimizationMatlab\CST\unitcell.cst
! Tree item: Tasks\Sweep1\SPara1\S-Parameters
! Header version: 2024
! Port assignment regex: !\s*Touchstone port\s*([0-9]+)\s*=\s*(CST MWS port|CST DES external port|CST DES block port)\s*(.+)\s* \(\"(.*)\"\)(\s*mode\s*([0-9]+))?.*
! Touchstone port assignment:
! Touchstone port 1 = CST DES external port 1 ("")
# GHz S MA R 50
9                    0.968327689     -77.0382323
9.001                0.968247529     -77.1580632
9.002                0.968167127     -77.2781974
9.003                0.968086481     -77.3986357
9.004                0.968005592      -77.519379
9.005                0.967924458     -77.6404284
9.006                0.967843079     -77.7617847
9.007                0.967761455     -77.8834489
9.008                0.967679585     -78.0054218
9.009                0.967597469     -78.1277045
9.01                 0.967515105     -78.2502978
9.011                0.967432495     -78.3732028
9.012                0.967349636     -78.4964202
9.013                0.967266528     -78.6199511
9.014                0.967183172     -78.7437965
9.015                0.967099566     -78.8679572
9.016                0.967015709     -78.9924342
9.017                0.966931603     -79.1172285
9.018                0.966847245     -79.2423409
9.019                0.966762636     -79.3677725
9.02                 0.966677774     -79.4935243
9.021                 0.96659266     -79.6195971
9.022                0.966507294     -79.7459919
9.023                0.966421673     -79.8727097
9.024                0.966335799     -79.9997515
9.025                 0.96624967     -80.1271182
9.026                0.966163286     -80.2548108
9.027                0.966076647     -80.3828302
9.028                0.965989751     -80.5111775
9.029                  0.9659026     -80.6398535
9.03                 0.965815192     -80.7688593
9.031                0.965727526     -80.8981959
9.032                0.965639603     -81.0278642
9.033                0.965551422     -81.1578651
9.034                0.965462982     -81.2881998
9.035                0.965374283     -81.4188691
9.036                0.965285324     -81.5498741
9.037                0.965196106     -81.6812157
9.038                0.965106628     -81.8128949
9.039                0.965016888     -81.9449128
9.04                 0.964926888     -82.0772702
9.041                0.964836626     -82.2099683
9.042                0.964746103     -82.3430079
9.043                0.964655316     -82.4763902
9.044                0.964564268      -82.610116
9.045                0.964472956     -82.7441865
9.046                0.964381381     -82.8786025
9.047                0.964289541     -83.0133651
9.048                0.964197438     -83.1484753
9.049                 0.96410507     -83.2839341
9.05                 0.964012437     -83.4197425
9.051                0.963919539     -83.5559016
9.052                0.963826375     -83.6924123
9.053                0.963732945     -83.8292756
9.054                0.963639249     -83.9664926
9.055                0.963545287     -84.1040643
9.056                0.963451057     -84.2419916
9.057                 0.96335656     -84.3802757
9.058                0.963261795     -84.5189175
9.059                0.963166763      -84.657918
9.06                 0.963071463     -84.7972783
9.061                0.962975894     -84.9369994
9.062                0.962880056     -85.0770823
9.063                0.962783949      -85.217528
9.064                0.962687573     -85.3583376
9.065                0.962590928     -85.4995122
9.066                0.962494012     -85.6410526
9.067                0.962396827       -85.78296
9.068                0.962299371     -85.9252353
9.069                0.962201645     -86.0678797
9.07                 0.962103649     -86.2108941
9.071                0.962005381     -86.3542796
9.072                0.961906842     -86.4980372
9.073                0.961808032      -86.642168
9.074                0.961708951      -86.786673
9.075                0.961609597     -86.9315532
9.076                0.961509972     -87.0768096
9.077                0.961410075     -87.2224434
9.078                0.961309906     -87.3684554
9.079                0.961209464     -87.5148469
9.08                  0.96110875     -87.6616188
9.081                0.961007764     -87.8087722
9.082                0.960906505      -87.956308
9.083                0.960804972     -88.1042274
9.084                0.960703168     -88.2525314
9.085                 0.96060109     -88.4012211
9.086                0.960498739     -88.5502974
9.087                0.960396115     -88.6997615
9.088                0.960293218     -88.8496143
9.089                0.960190047     -88.9998569
9.09                 0.960086604     -89.1504904
9.091                0.959982887     -89.3015158
9.092                0.959878897     -89.4529342
9.093                0.959774633     -89.6047466
9.094                0.959670097      -89.756954
9.095                0.959565287     -89.9095575
9.096                0.959460204     -90.0625582
9.097                0.959354847      -90.215957
9.098                0.959249218     -90.3697551
9.099                0.959143316     -90.5239535
9.1                   0.95903714     -90.6785532
9.101                0.958930692     -90.8335552
9.102                0.958823971     -90.9889607
9.103                0.958716977     -91.1447707
9.104                 0.95860971     -91.3009862
9.105                0.958502172     -91.4576082
9.106                 0.95839436     -91.6146379
9.107                0.958286277     -91.7720762
9.108                0.958177922     -91.9299242
9.109                0.958069296     -92.0881829
9.11                 0.957960397     -92.2468534
9.111                0.957851228     -92.4059368
9.112                0.957741787      -92.565434
9.113                0.957632076     -92.7253461
9.114                0.957522093     -92.8856742
9.115                0.957411841     -93.0464192
9.116                0.957301319     -93.2075823
9.117                0.957190527     -93.3691645
9.118                0.957079465     -93.5311667
9.119                0.956968135     -93.6935901
9.12                 0.956856536     -93.8564356
9.121                0.956744668     -94.0197044
9.122                0.956632533     -94.1833974
9.123                 0.95652013     -94.3475156
9.124                 0.95640746     -94.5120602
9.125                0.956294523     -94.6770321
9.126                 0.95618132     -94.8424323
9.127                0.956067851     -95.0082619
9.128                0.955954117     -95.1745219
9.129                0.955840118     -95.3412133
9.13                 0.955725854     -95.5083372
9.131                0.955611327     -95.6758945
9.132                0.955496537     -95.8438863
9.133                0.955381483     -96.0123136
9.134                0.955266168     -96.1811773
9.135                0.955150591     -96.3504786
9.136                0.955034753     -96.5202184
9.137                0.954918655     -96.6903978
9.138                0.954802297     -96.8610176
9.139                0.954685681      -97.032079
9.14                 0.954568806     -97.2035829
9.141                0.954451673     -97.3755304
9.142                0.954334283     -97.5479223
9.143                0.954216638     -97.7207598
9.144                0.954098737     -97.8940438
9.145                0.953980581     -98.0677752
9.146                0.953862172     -98.2419551
9.147                 0.95374351     -98.4165845
9.148                0.953624595     -98.5916643
9.149                 0.95350543     -98.7671954
9.15                 0.953386014      -98.943179
9.151                0.953266348     -99.1196159
9.152                0.953146434      -99.296507
9.153                0.953026273     -99.4738535
9.154                0.952905865     -99.6516561
9.155                0.952785211     -99.8299159
9.156                0.952664313     -100.008634
9.157                0.952543171     -100.187811
9.158                0.952421786     -100.367448
9.159                0.952300161     -100.547546
9.16                 0.952178294     -100.728106
9.161                0.952056189     -100.909128
9.162                0.951933845     -101.090615
9.163                0.951811265     -101.272566
9.164                0.951688449     -101.454982
9.165                0.951565398     -101.637865
9.166                0.951442114     -101.821216
9.167                0.951318599     -102.005035
9.168                0.951194852     -102.189323
9.169                0.951070876     -102.374081
9.17                 0.950946672      -102.55931
9.171                0.950822241     -102.745011
9.172                0.950697585     -102.931184
9.173                0.950572705     -103.117832
9.174                0.950447603     -103.304953
9.175                0.950322279      -103.49255
9.176                0.950196736     -103.680624
9.177                0.950070976     -103.869174
9.178                0.949944998     -104.058202
9.179                0.949818806     -104.247709
9.18                   0.9496924     -104.437696
9.181                0.949565783     -104.628163
9.182                0.949438956     -104.819111
9.183                 0.94931192     -105.010542
9.184                0.949184678     -105.202455
9.185                 0.94905723     -105.394852
9.186                 0.94892958     -105.587733
9.187                0.948801728     -105.781099
9.188                0.948673676     -105.974952
9.189                0.948545427     -106.169291
9.19                 0.948416982     -106.364118
9.191                0.948288343     -106.559433
9.192                0.948159512     -106.755238
9.193                0.948030491     -106.951532
9.194                0.947901281     -107.148317
9.195                0.947771886     -107.345593
9.196                0.947642306     -107.543361
9.197                0.947512544     -107.741622
9.198                0.947382603     -107.940376
9.199                0.947252484     -108.139624
9.2                  0.947122189     -108.339368
9.201                0.946991721     -108.539607
9.202                0.946861081     -108.740342
9.203                0.946730273     -108.941574
9.204                0.946599298     -109.143303
9.205                0.946468159     -109.345531
9.206                0.946336857     -109.548257
9.207                0.946205396     -109.751483
9.208                0.946073778     -109.955209
9.209                0.945942005     -110.159436
9.21                  0.94581008     -110.364164
9.211                0.945678005     -110.569394
9.212                0.945545783     -110.775127
9.213                0.945413417     -110.981362
9.214                0.945280908     -111.188101
9.215                 0.94514826     -111.395345
9.216                0.945015475     -111.603093
9.217                0.944882556     -111.811346
9.218                0.944749505     -112.020105
9.219                0.944616327     -112.229371
9.22                 0.944483022     -112.439143
9.221                0.944349595     -112.649422
9.222                0.944216047      -112.86021
9.223                0.944082383     -113.071505
9.224                0.943948604     -113.283309
9.225                0.943814714     -113.495623
9.226                0.943680716     -113.708446
9.227                0.943546613     -113.921779
9.228                0.943412407     -114.135622
9.229                0.943278103     -114.349976
9.23                 0.943143703     -114.564842
9.231                 0.94300921     -114.780219
9.232                0.942874628     -114.996108
9.233                 0.94273996     -115.212509
9.234                0.942605209     -115.429423
9.235                0.942470378      -115.64685
9.236                0.942335471      -115.86479
9.237                0.942200492     -116.083244
9.238                0.942065443     -116.302211
9.239                0.941930328     -116.521693
9.24                  0.94179515     -116.741689
9.241                0.941659914       -116.9622
9.242                0.941524622     -117.183225
9.243                0.941389279     -117.404766
9.244                0.941253888     -117.626822
9.245                0.941118452     -117.849393
9.246                0.940982976     -118.072481
9.247                0.940847462     -118.296084
9.248                0.940711916     -118.520202
9.249                 0.94057634     -118.744837
9.25                 0.940440739     -118.969989
9.251                0.940305117     -119.195656
9.252                0.940169477      -119.42184
9.253                0.940033823      -119.64854
9.254                0.939898159     -119.875757
9.255                 0.93976249     -120.103491
9.256                 0.93962682     -120.331741
9.257                0.939491152     -120.560507
9.258                 0.93935549     -120.789791
9.259                 0.93921984      -121.01959
9.26                 0.939084205     -121.249907
9.261                0.938948589     -121.480739
9.262                0.938812998     -121.712088
9.263                0.938677434     -121.943954
9.264                0.938541902     -122.176335
9.265                0.938406408     -122.409233
9.266                0.938270954     -122.642646
9.267                0.938135547     -122.876576
9.268                0.938000189      -123.11102
9.269                0.937864887      -123.34598
9.27                 0.937729643     -123.581456
9.271                0.937594464     -123.817446
9.272                0.937459354     -124.053951
9.273                0.937324317      -124.29097
9.274                0.937189357     -124.528503
9.275                0.937054481     -124.766551
9.276                0.936919692     -125.005111
9.277                0.936784996     -125.244185
9.278                0.936650397     -125.483771
9.279                0.936515901      -125.72387
9.28                 0.936381511     -125.964481
9.281                0.936247234     -126.205603
9.282                0.936113073     -126.447237
9.283                0.935979035     -126.689381
9.284                0.935845124     -126.932035
9.285                0.935711345     -127.175199
9.286                0.935577704     -127.418872
9.287                0.935444205     -127.663054
9.288                0.935310855     -127.907744
9.289                0.935177657     -128.152941
9.29                 0.935044617     -128.398645
9.291                0.934911742     -128.644855
9.292                0.934779035     -128.891571
9.293                0.934646502     -129.138792
9.294                0.934514149     -129.386517
9.295                0.934381982     -129.634745
9.296                0.934250004     -129.883476
9.297                0.934118223      -130.13271
9.298                0.933986644     -130.382444
9.299                0.933855271     -130.632679
9.3                  0.933724112     -130.883413
9.301                 0.93359317     -131.134647
9.302                0.933462453     -131.386378
9.303                0.933331965     -131.638606
9.304                0.933201712      -131.89133
9.305                  0.9330717      -132.14455
9.306                0.932941936     -132.398264
9.307                0.932812423     -132.652471
9.308                0.932683169      -132.90717
9.309                0.932554179      -133.16236
9.31                 0.932425459     -133.418041
9.311                0.932297015     -133.674211
9.312                0.932168853     -133.930868
9.313                0.932040978     -134.188013
9.314                0.931913397     -134.445644
9.315                0.931786116     -134.703758
9.316                 0.93165914     -134.962357
9.317                0.931532476     -135.221437
9.318                0.931406129     -135.480999
9.319                0.931280106      -135.74104
9.32                 0.931154413      -136.00156
9.321                0.931029056     -136.262556
9.322                0.930904041     -136.524029
9.323                0.930779374     -136.785975
9.324                0.930655061     -137.048395
9.325                0.930531109     -137.311286
9.326                0.930407524     -137.574648
9.327                0.930284312     -137.838478
9.328                0.930161478     -138.102776
9.329                0.930039031     -138.367539
9.33                 0.929916974     -138.632766
9.331                0.929795316     -138.898456
9.332                0.929674062     -139.164607
9.333                0.929553219     -139.431217
9.334                0.929432793     -139.698285
9.335                 0.92931279      -139.96581
9.336                0.929193216     -140.233788
9.337                0.929074078      -140.50222
9.338                0.928955383     -140.771102
9.339                0.928837136     -141.040434
9.34                 0.928719345     -141.310213
9.341                0.928602015     -141.580437
9.342                0.928485152     -141.851106
9.343                0.928368764     -142.122216
9.344                0.928252857     -142.393767
9.345                0.928137437     -142.665755
9.346                 0.92802251      -142.93818
9.347                0.927908084     -143.211039
9.348                0.927794164      -143.48433
9.349                0.927680757     -143.758051
9.35                 0.927567869       -144.0322
9.351                0.927455507     -144.306776
9.352                0.927343677     -144.581775
9.353                0.927232385     -144.857197
9.354                0.927121639     -145.133037
9.355                0.927011445     -145.409296
9.356                0.926901808      -145.68597
9.357                0.926792736     -145.963056
9.358                0.926684234     -146.240554
9.359                 0.92657631      -146.51846
9.36                  0.92646897     -146.796773
9.361                 0.92636222     -147.075489
9.362                0.926256066     -147.354607
9.363                0.926150515     -147.634124
9.364                0.926045573     -147.914038
9.365                0.925941247     -148.194346
9.366                0.925837544     -148.475046
9.367                0.925734468     -148.756135
9.368                0.925632028     -149.037611
9.369                0.925530228     -149.319471
9.37                 0.925429076     -149.601714
9.371                0.925328577     -149.884335
9.372                0.925228739     -150.167333
9.373                0.925129567     -150.450705
9.374                0.925031067     -150.734448
9.375                0.924933246      -151.01856
9.376                 0.92483611     -151.303037
9.377                0.924739665     -151.587878
9.378                0.924643917     -151.873078
9.379                0.924548873     -152.158637
9.38                 0.924454538      -152.44455
9.381                0.924360919     -152.730815
9.382                0.924268022     -153.017429
9.383                0.924175853     -153.304389
9.384                0.924084417     -153.591693
9.385                0.923993722     -153.879337
9.386                0.923903772     -154.167318
9.387                0.923814573     -154.455633
9.388                0.923726133      -154.74428
9.389                0.923638455     -155.033255
9.39                 0.923551548     -155.322555
9.391                0.923465415     -155.612177
9.392                0.923380063     -155.902119
9.393                0.923295498     -156.192376
9.394                0.923211725     -156.482946
9.395                 0.92312875     -156.773826
9.396                0.923046579     -157.065012
