! TOUCHSTONE file generated by CST DESIGN STUDIO
! Date and time: Wed Feb  5 13:42:20 2025
! Project name: C:\Work\MatlabApps\UnitCellOptimizationMatlab\CST\unitcell.cst
! Tree item: Tasks\Sweep1\SPara1\S-Parameters
! Header version: 2024
! Port assignment regex: !\s*Touchstone port\s*([0-9]+)\s*=\s*(CST MWS port|CST DES external port|CST DES block port)\s*(.+)\s* \(\"(.*)\"\)(\s*mode\s*([0-9]+))?.*
! Touchstone port assignment:
! Touchstone port 1 = CST DES external port 1 ("")
# GHz S MA R 50
9                    0.969078783     -71.6854869
9.001                0.969004675      -71.792519
9.002                0.968930339     -71.8998156
9.003                0.968855775     -72.0073775
9.004                0.968780983     -72.1152054
9.005                0.968705963     -72.2233002
9.006                0.968630712     -72.3316629
9.007                0.968555232      -72.440294
9.008                 0.96847952     -72.5491946
9.009                0.968403578     -72.6583655
9.01                 0.968327403     -72.7678074
9.011                0.968250996     -72.8775212
9.012                0.968174355     -72.9875078
9.013                0.968097481     -73.0977681
9.014                0.968020373     -73.2083028
9.015                0.967943029     -73.3191128
9.016                 0.96786545     -73.4301989
9.017                0.967787635     -73.5415621
9.018                0.967709583     -73.6532032
9.019                0.967631293      -73.765123
9.02                 0.967552766     -73.8773224
9.021                0.967473999     -73.9898022
9.022                0.967394994     -74.1025634
9.023                0.967315749     -74.2156068
9.024                0.967236264     -74.3289332
9.025                0.967156538     -74.4425436
9.026                 0.96707657     -74.5564388
9.027                 0.96699636     -74.6706197
9.028                0.966915907     -74.7850871
9.029                0.966835211     -74.8998421
9.03                 0.966754271     -75.0148853
9.031                0.966673087     -75.1302178
9.032                0.966591658     -75.2458404
9.033                0.966509983      -75.361754
9.034                0.966428062     -75.4779595
9.035                0.966345894     -75.5944578
9.036                0.966263479     -75.7112498
9.037                0.966180816     -75.8283364
9.038                0.966097904     -75.9457186
9.039                0.966014743     -76.0633971
9.04                 0.965931333     -76.1813729
9.041                0.965847673     -76.2996469
9.042                0.965763761     -76.4182201
9.043                0.965679599     -76.5370934
9.044                0.965595185     -76.6562676
9.045                0.965510518     -76.7757436
9.046                0.965425598     -76.8955225
9.047                0.965340425     -77.0156051
9.048                0.965254998     -77.1359924
9.049                0.965169316     -77.2566853
9.05                 0.965083379     -77.3776846
9.051                0.964997186     -77.4989914
9.052                0.964910738     -77.6206066
9.053                0.964824032     -77.7425311
9.054                0.964737069     -77.8647659
9.055                0.964649848     -77.9873118
9.056                0.964562369     -78.1101699
9.057                0.964474632      -78.233341
9.058                0.964386634     -78.3568262
9.059                0.964298377     -78.4806263
9.06                  0.96420986     -78.6047424
9.061                0.964121082     -78.7291753
9.062                0.964032042     -78.8539261
9.063                 0.96394274     -78.9789957
9.064                0.963853176      -79.104385
9.065                0.963763349      -79.230095
9.066                0.963673259     -79.3561267
9.067                0.963582905     -79.4824811
9.068                0.963492286      -79.609159
9.069                0.963401403     -79.7361616
9.07                 0.963310254     -79.8634896
9.071                 0.96321884     -79.9911442
9.072                0.963127159     -80.1191263
9.073                0.963035212     -80.2474369
9.074                0.962942997     -80.3760769
9.075                0.962850515     -80.5050473
9.076                0.962757765     -80.6343492
9.077                0.962664747     -80.7639834
9.078                0.962571459     -80.8939511
9.079                0.962477902     -81.0242531
9.08                 0.962384075     -81.1548905
9.081                0.962289978     -81.2858642
9.082                0.962195611     -81.4171753
9.083                0.962100972     -81.5488247
9.084                0.962006062     -81.6808135
9.085                 0.96191088     -81.8131426
9.086                0.961815426      -81.945813
9.087                0.961719699     -82.0788259
9.088                0.961623699      -82.212182
9.089                0.961527426     -82.3458825
9.09                 0.961430878     -82.4799284
9.091                0.961334057     -82.6143206
9.092                0.961236961     -82.7490603
9.093                0.961139591     -82.8841483
9.094                0.961041945     -83.0195857
9.095                0.960944023     -83.1553736
9.096                0.960845826     -83.2915129
9.097                0.960747352     -83.4280046
9.098                0.960648602     -83.5648499
9.099                0.960549575     -83.7020496
9.1                   0.96045027     -83.8396049
9.101                0.960350688     -83.9775167
9.102                0.960250829     -84.1157861
9.103                0.960150691     -84.2544141
9.104                0.960050275     -84.3934017
9.105                 0.95994958       -84.53275
9.106                0.959848606       -84.67246
9.107                0.959747354     -84.8125327
9.108                0.959645821     -84.9529692
9.109                0.959544009     -85.0937705
9.11                 0.959441918     -85.2349376
9.111                0.959339546     -85.3764715
9.112                0.959236893     -85.5183734
9.113                 0.95913396     -85.6606442
9.114                0.959030747      -85.803285
9.115                0.958927252     -85.9462968
9.116                0.958823476     -86.0896807
9.117                0.958719419     -86.2334377
9.118                0.958615081     -86.3775689
9.119                 0.95851046     -86.5220752
9.12                 0.958405558     -86.6669578
9.121                0.958300374     -86.8122178
9.122                0.958194908      -86.957856
9.123                 0.95808916     -87.1038737
9.124                0.957983129     -87.2502718
9.125                0.957876816     -87.3970514
9.126                0.957770221     -87.5442135
9.127                0.957663343     -87.6917593
9.128                0.957556182     -87.8396897
9.129                0.957448739     -87.9880058
9.13                 0.957341012     -88.1367086
9.131                0.957233003     -88.2857993
9.132                0.957124711     -88.4352788
9.133                0.957016137     -88.5851483
9.134                0.956907279     -88.7354087
9.135                0.956798139     -88.8860612
9.136                0.956688715     -89.0371067
9.137                0.956579009     -89.1885465
9.138                 0.95646902     -89.3403814
9.139                0.956358749     -89.4926125
9.14                 0.956248195      -89.645241
9.141                0.956137358     -89.7982679
9.142                0.956026238     -89.9516942
9.143                0.955914837      -90.105521
9.144                0.955803153     -90.2597493
9.145                0.955691186     -90.4143802
9.146                0.955578938     -90.5694148
9.147                0.955466408     -90.7248542
9.148                0.955353596     -90.8806993
9.149                0.955240503     -91.0369512
9.15                 0.955127128      -91.193611
9.151                0.955013473     -91.3506798
9.152                0.954899536     -91.5081585
9.153                0.954785319     -91.6660484
9.154                0.954670821     -91.8243503
9.155                0.954556043     -91.9830654
9.156                0.954440985     -92.1421947
9.157                0.954325648     -92.3017393
9.158                0.954210031     -92.4617003
9.159                0.954094135     -92.6220786
9.16                 0.953977961     -92.7828753
9.161                0.953861508     -92.9440915
9.162                0.953744778     -93.1057282
9.163                 0.95362777     -93.2677866
9.164                0.953510485     -93.4302675
9.165                0.953392923     -93.5931721
9.166                0.953275084     -93.7565014
9.167                 0.95315697     -93.9202565
9.168                0.953038581     -94.0844384
9.169                0.952919917     -94.2490481
9.17                 0.952800978     -94.4140867
9.171                0.952681766     -94.5795553
9.172                 0.95256228     -94.7454548
9.173                0.952442521     -94.9117862
9.174                 0.95232249     -95.0785508
9.175                0.952202188     -95.2457493
9.176                0.952081614      -95.413383
9.177                 0.95196077     -95.5814528
9.178                0.951839657     -95.7499597
9.179                0.951718274     -95.9189048
9.18                 0.951596623     -96.0882891
9.181                0.951474704     -96.2581136
9.182                0.951352518     -96.4283793
9.183                0.951230065     -96.5990873
9.184                0.951107348     -96.7702386
9.185                0.950984365     -96.9418341
9.186                0.950861119     -97.1138749
9.187                 0.95073761      -97.286362
9.188                0.950613838     -97.4592964
9.189                0.950489805     -97.6326791
9.19                 0.950365511     -97.8065111
9.191                0.950240958     -97.9807934
9.192                0.950116146      -98.155527
9.193                0.949991076     -98.3307128
9.194                0.949865749     -98.5063519
9.195                0.949740167     -98.6824452
9.196                 0.94961433     -98.8589938
9.197                0.949488239     -99.0359986
9.198                0.949361895     -99.2134605
9.199                  0.9492353     -99.3913806
9.2                  0.949108454     -99.5697599
9.201                0.948981358     -99.7485992
9.202                0.948854015     -99.9278995
9.203                0.948726424     -100.107662
9.204                0.948598588     -100.287887
9.205                0.948470506     -100.468576
9.206                0.948342182      -100.64973
9.207                0.948213615      -100.83135
9.208                0.948084807     -101.013437
9.209                 0.94795576     -101.195991
9.21                 0.947826474     -101.379013
9.211                0.947696951     -101.562506
9.212                0.947567194     -101.746468
9.213                0.947437202     -101.930902
9.214                0.947306977     -102.115808
9.215                0.947176521     -102.301188
9.216                0.947045836     -102.487041
9.217                0.946914922     -102.673369
9.218                0.946783782     -102.860173
9.219                0.946652417     -103.047454
9.22                 0.946520829     -103.235213
9.221                0.946389018     -103.423449
9.222                0.946256988     -103.612166
9.223                0.946124739     -103.801362
9.224                0.945992274     -103.991039
9.225                0.945859593     -104.181198
9.226                0.945726699      -104.37184
9.227                0.945593594     -104.562966
9.228                0.945460279     -104.754576
9.229                0.945326757     -104.946671
9.23                 0.945193029     -105.139252
9.231                0.945059096      -105.33232
9.232                0.944924962     -105.525876
9.233                0.944790628      -105.71992
9.234                0.944656096     -105.914453
9.235                0.944521368     -106.109476
9.236                0.944386445      -106.30499
9.237                0.944251331     -106.500996
9.238                0.944116028     -106.697494
9.239                0.943980537     -106.894485
9.24                  0.94384486      -107.09197
9.241                   0.943709      -107.28995
9.242                 0.94357296     -107.488425
9.243                0.943436741     -107.687395
9.244                0.943300345     -107.886863
9.245                0.943163776     -108.086828
9.246                0.943027035     -108.287291
9.247                0.942890125     -108.488253
9.248                0.942753048     -108.689715
9.249                0.942615807     -108.891677
9.25                 0.942478404     -109.094139
9.251                0.942340842     -109.297103
9.252                0.942203124      -109.50057
9.253                0.942065251     -109.704539
9.254                0.941927227     -109.909011
9.255                0.941789054     -110.113988
9.256                0.941650736     -110.319469
9.257                0.941512274     -110.525456
9.258                0.941373672     -110.731948
9.259                0.941234932     -110.938947
9.26                 0.941096057     -111.146453
9.261                 0.94095705     -111.354466
9.262                0.940817915     -111.562987
9.263                0.940678653     -111.772017
9.264                0.940539268     -111.981557
9.265                0.940399764     -112.191606
9.266                0.940260142     -112.402165
9.267                0.940120406     -112.613235
9.268                 0.93998056     -112.824816
9.269                0.939840606     -113.036908
9.27                 0.939700548     -113.249513
9.271                0.939560389     -113.462631
9.272                0.939420131     -113.676261
9.273                 0.93927978     -113.890405
9.274                0.939139337     -114.105063
9.275                0.938998806     -114.320234
9.276                0.938858191     -114.535921
9.277                0.938717495     -114.752123
9.278                0.938576721     -114.968839
9.279                0.938435874     -115.186072
9.28                 0.938294956     -115.403821
9.281                0.938153971     -115.622086
9.282                0.938012924     -115.840868
9.283                0.937871817     -116.060167
9.284                0.937730654     -116.279983
9.285                 0.93758944     -116.500317
9.286                0.937448177     -116.721168
9.287                 0.93730687     -116.942538
9.288                0.937165523     -117.164426
9.289                0.937024139     -117.386832
9.29                 0.936882722     -117.609758
9.291                0.936741277     -117.833202
9.292                0.936599808     -118.057165
9.293                0.936458318     -118.281647
9.294                0.936316811     -118.506649
9.295                0.936175292     -118.732171
9.296                0.936033766     -118.958212
9.297                0.935892235     -119.184772
9.298                0.935750705     -119.411853
9.299                0.935609179     -119.639453
9.3                  0.935467662     -119.867574
9.301                0.935326159     -120.096214
9.302                0.935184673     -120.325374
9.303                 0.93504321     -120.555055
9.304                0.934901773     -120.785255
9.305                0.934760368     -121.015975
9.306                0.934618998     -121.247215
9.307                0.934477669     -121.478975
9.308                0.934336384     -121.711255
9.309                 0.93419515     -121.944054
9.31                 0.934053969     -122.177373
9.311                0.933912848     -122.411211
9.312                 0.93377179     -122.645569
9.313                0.933630802     -122.880445
9.314                0.933489887     -123.115841
9.315                 0.93334905     -123.351755
9.316                0.933208296     -123.588188
9.317                0.933067631     -123.825139
9.318                 0.93292706     -124.062608
9.319                0.932786586     -124.300594
9.32                 0.932646217     -124.539098
9.321                0.932505955     -124.778119
9.322                0.932365808     -125.017657
9.323                0.932225779     -125.257711
9.324                0.932085875     -125.498281
9.325                  0.9319461     -125.739367
9.326                0.931806459     -125.980968
9.327                0.931666959     -126.223084
9.328                0.931527604     -126.465714
9.329                  0.9313884     -126.708858
9.33                 0.931249352     -126.952515
9.331                0.931110466     -127.196685
9.332                0.930971747     -127.441368
9.333                0.930833201     -127.686562
9.334                0.930694833     -127.932267
9.335                0.930556649     -128.178483
9.336                0.930418654     -128.425209
9.337                0.930280855     -128.672444
9.338                0.930143257     -128.920187
9.339                0.930005865     -129.168439
9.34                 0.929868686     -129.417198
9.341                0.929731725     -129.666464
9.342                0.929594988     -129.916235
9.343                0.929458481     -130.166511
9.344                 0.92932221     -130.417292
9.345                 0.92918618     -130.668576
9.346                0.929050398     -130.920362
9.347                 0.92891487      -131.17265
9.348                0.928779602     -131.425439
9.349                  0.9286446     -131.678728
9.35                 0.928509869     -131.932516
9.351                0.928375416     -132.186802
9.352                0.928241247     -132.441585
9.353                0.928107369     -132.696864
9.354                0.927973786     -132.952638
9.355                0.927840507     -133.208906
9.356                0.927707536     -133.465667
9.357                 0.92757488      -133.72292
9.358                0.927442546     -133.980663
9.359                0.927310539     -134.238896
9.36                 0.927178867     -134.497618
9.361                0.927047535     -134.756826
9.362                0.926916549     -135.016521
9.363                0.926785917     -135.276701
9.364                0.926655644     -135.537364
9.365                0.926525737     -135.798509
9.366                0.926396203     -136.060135
9.367                0.926267048      -136.32224
9.368                0.926138278     -136.584824
9.369                  0.9260099     -136.847885
9.37                 0.925881921     -137.111421
9.371                0.925754347     -137.375431
9.372                0.925627185     -137.639914
9.373                0.925500441     -137.904867
9.374                0.925374122      -138.17029
9.375                0.925248234     -138.436181
9.376                0.925122785     -138.702539
9.377                 0.92499778     -138.969361
9.378                0.924873227     -139.236646
9.379                0.924749132     -139.504393
9.38                 0.924625502       -139.7726
9.381                0.924502344     -140.041266
9.382                0.924379664     -140.310387
9.383                0.924257469     -140.579964
9.384                0.924135766     -140.849993
9.385                0.924014562     -141.120473
9.386                0.923893862     -141.391403
9.387                0.923773675     -141.662781
9.388                0.923654007     -141.934604
9.389                0.923534864      -142.20687
9.39                 0.923416254     -142.479579
9.391                0.923298182     -142.752727
9.392                0.923180657     -143.026314
9.393                0.923063685     -143.300336
9.394                0.922947272     -143.574792
9.395                0.922831425      -143.84968
9.396                0.922716151     -144.124997
