! TOUCHSTONE file generated by CST DESIGN STUDIO
! Date and time: Wed Feb  5 13:42:15 2025
! Project name: C:\Work\MatlabApps\UnitCellOptimizationMatlab\CST\unitcell.cst
! Tree item: Tasks\Sweep1\SPara1\S-Parameters
! Header version: 2024
! Port assignment regex: !\s*Touchstone port\s*([0-9]+)\s*=\s*(CST MWS port|CST DES external port|CST DES block port)\s*(.+)\s* \(\"(.*)\"\)(\s*mode\s*([0-9]+))?.*
! Touchstone port assignment:
! Touchstone port 1 = CST DES external port 1 ("")
# GHz S MA R 50
9                    0.968005842     -79.5494085
9.001                0.967923144     -79.6754974
9.002                0.967840197     -79.8019082
9.003                   0.967757     -79.9286418
9.004                0.967673554     -80.0556991
9.005                0.967589858     -80.1830812
9.006                0.967505911      -80.310789
9.007                0.967421712     -80.4388235
9.008                0.967337263     -80.5671856
9.009                0.967252561     -80.6958764
9.01                 0.967167607     -80.8248967
9.011                0.967082399     -80.9542475
9.012                0.966996939     -81.0839299
9.013                0.966911224     -81.2139448
9.014                0.966825255     -81.3442932
9.015                0.966739032     -81.4749761
9.016                0.966652553     -81.6059944
9.017                0.966565819     -81.7373491
9.018                0.966478828     -81.8690413
9.019                0.966391582     -82.0010719
9.02                 0.966304078     -82.1334419
9.021                0.966216317     -82.2661524
9.022                0.966128299     -82.3992042
9.023                0.966040022     -82.5325984
9.024                0.965951487     -82.6663359
9.025                0.965862693     -82.8004179
9.026                 0.96577364     -82.9348453
9.027                0.965684327      -83.069619
9.028                0.965594755     -83.2047401
9.029                0.965504922     -83.3402097
9.03                 0.965414828     -83.4760286
9.031                0.965324473     -83.6121979
9.032                0.965233857     -83.7487187
9.033                0.965142979     -83.8855919
9.034                0.965051839     -84.0228185
9.035                0.964960436     -84.1603996
9.036                0.964868771     -84.2983361
9.037                0.964776843     -84.4366291
9.038                0.964684651     -84.5752797
9.039                0.964592195     -84.7142887
9.04                 0.964499476     -84.8536573
9.041                0.964406492     -84.9933865
9.042                0.964313244     -85.1334772
9.043                0.964219731     -85.2739306
9.044                0.964125952     -85.4147476
9.045                0.964031908     -85.5559292
9.046                0.963937599     -85.6974766
9.047                0.963843024     -85.8393906
9.048                0.963748182     -85.9816724
9.049                0.963653074      -86.124323
9.05                   0.9635577     -86.2673434
9.051                0.963462058     -86.4107346
9.052                 0.96336615     -86.5544977
9.053                0.963269974     -86.6986337
9.054                0.963173531     -86.8431436
9.055                 0.96307682     -86.9880285
9.056                0.962979841     -87.1332894
9.057                0.962882594     -87.2789274
9.058                0.962785079     -87.4249435
9.059                0.962687296     -87.5713387
9.06                 0.962589244      -87.718114
9.061                0.962490923     -87.8652706
9.062                0.962392334     -88.0128094
9.063                0.962293476     -88.1607314
9.064                0.962194349     -88.3090379
9.065                0.962094953     -88.4577296
9.066                0.961995287     -88.6068078
9.067                0.961895353     -88.7562735
9.068                0.961795149     -88.9061277
9.069                0.961694675     -89.0563714
9.07                 0.961593933     -89.2070057
9.071                 0.96149292     -89.3580316
9.072                0.961391638     -89.5094502
9.073                0.961290087     -89.6612625
9.074                0.961188266     -89.8134696
9.075                0.961086175     -89.9660725
9.076                0.960983815     -90.1190723
9.077                0.960881186       -90.27247
9.078                0.960778286     -90.4262666
9.079                0.960675118     -90.5804632
9.08                  0.96057168     -90.7350608
9.081                0.960467972     -90.8900606
9.082                0.960363996     -91.0454634
9.083                 0.96025975     -91.2012704
9.084                0.960155235     -91.3574827
9.085                0.960050452     -91.5141012
9.086                0.959945399      -91.671127
9.087                0.959840078     -91.8285611
9.088                0.959734488     -91.9864047
9.089                 0.95962863     -92.1446586
9.09                 0.959522504     -92.3033241
9.091                0.959416109      -92.462402
9.092                0.959309447     -92.6218935
9.093                0.959202518     -92.7817996
9.094                0.959095321     -92.9421214
9.095                0.958987857     -93.1028597
9.096                0.958880126     -93.2640158
9.097                0.958772128     -93.4255907
9.098                0.958663865     -93.5875853
9.099                0.958555335     -93.7500007
9.1                   0.95844654     -93.9128379
9.101                0.958337479     -94.0760981
9.102                0.958228154     -94.2397821
9.103                0.958118564      -94.403891
9.104                0.958008709     -94.5684259
9.105                0.957898591     -94.7333878
9.106                 0.95778821     -94.8987777
9.107                0.957677565     -95.0645966
9.108                0.957566658     -95.2308456
9.109                0.957455489     -95.3975256
9.11                 0.957344058     -95.5646377
9.111                0.957232366      -95.732183
9.112                0.957120414     -95.9001623
9.113                0.957008201     -96.0685768
9.114                0.956895729     -96.2374274
9.115                0.956782997     -96.4067152
9.116                0.956670008     -96.5764411
9.117                 0.95655676     -96.7466061
9.118                0.956443255     -96.9172114
9.119                0.956329494     -97.0882577
9.12                 0.956215476     -97.2597463
9.121                0.956101204      -97.431678
9.122                0.955986677     -97.6040538
9.123                0.955871895     -97.7768747
9.124                0.955756861     -97.9501418
9.125                0.955641574     -98.1238559
9.126                0.955526036     -98.2980182
9.127                0.955410246     -98.4726295
9.128                0.955294207     -98.6476908
9.129                0.955177918     -98.8232031
9.13                  0.95506138     -98.9991674
9.131                0.954944595     -99.1755846
9.132                0.954827564     -99.3524557
9.133                0.954710286     -99.5297817
9.134                0.954592764     -99.7075635
9.135                0.954474997      -99.885802
9.136                0.954356988     -100.064498
9.137                0.954238736     -100.243653
9.138                0.954120243     -100.423268
9.139                0.954001511     -100.603343
9.14                 0.953882539     -100.783879
9.141                 0.95376333     -100.964878
9.142                0.953643884      -101.14634
9.143                0.953524202     -101.328267
9.144                0.953404285     -101.510658
9.145                0.953284135     -101.693516
9.146                0.953163753      -101.87684
9.147                 0.95304314     -102.060633
9.148                0.952922297     -102.244894
9.149                0.952801225     -102.429625
9.15                 0.952679927     -102.614826
9.151                0.952558402     -102.800499
9.152                0.952436653     -102.986644
9.153                 0.95231468     -103.173262
9.154                0.952192486     -103.360354
9.155                 0.95207007     -103.547921
9.156                0.951947436     -103.735964
9.157                0.951824585     -103.924484
9.158                0.951701517     -104.113481
9.159                0.951578234     -104.302956
9.16                 0.951454738      -104.49291
9.161                0.951331031     -104.683344
9.162                0.951207113     -104.874259
9.163                0.951082988     -105.065656
9.164                0.950958655     -105.257535
9.165                0.950834117     -105.449897
9.166                0.950709376     -105.642743
9.167                0.950584433     -105.836074
9.168                 0.95045929      -106.02989
9.169                0.950333949     -106.224193
9.17                 0.950208412     -106.418983
9.171                0.950082679      -106.61426
9.172                0.949956754     -106.810027
9.173                0.949830638     -107.006282
9.174                0.949704334     -107.203028
9.175                0.949577842     -107.400264
9.176                0.949451165     -107.597992
9.177                0.949324305     -107.796212
9.178                0.949197263     -107.994925
9.179                0.949070043     -108.194132
9.18                 0.948942646     -108.393833
9.181                0.948815074     -108.594029
9.182                0.948687329     -108.794721
9.183                0.948559414     -108.995909
9.184                0.948431331     -109.197594
9.185                0.948303081     -109.399777
9.186                0.948174668     -109.602458
9.187                0.948046093     -109.805638
9.188                0.947917358     -110.009318
9.189                0.947788467     -110.213497
9.19                 0.947659422     -110.418178
9.191                0.947530224      -110.62336
9.192                0.947400877     -110.829044
9.193                0.947271383      -111.03523
9.194                0.947141744     -111.241919
9.195                0.947011962     -111.449112
9.196                0.946882042     -111.656809
9.197                0.946751984     -111.865011
9.198                0.946621793     -112.073718
9.199                0.946491469     -112.282931
9.2                  0.946361017      -112.49265
9.201                0.946230439     -112.702876
9.202                0.946099737     -112.913609
9.203                0.945968915     -113.124849
9.204                0.945837975     -113.336598
9.205                 0.94570692     -113.548855
9.206                0.945575753     -113.761621
9.207                0.945444477     -113.974897
9.208                0.945313095     -114.188683
9.209                 0.94518161     -114.402978
9.21                 0.945050025     -114.617785
9.211                0.944918343     -114.833102
9.212                0.944786568     -115.048931
9.213                0.944654702     -115.265271
9.214                0.944522748     -115.482124
9.215                 0.94439071     -115.699488
9.216                0.944258591     -115.917366
9.217                0.944126394     -116.135756
9.218                0.943994123      -116.35466
9.219                 0.94386178     -116.574077
9.22                  0.94372937     -116.794008
9.221                0.943596896     -117.014453
9.222                0.943464361     -117.235412
9.223                0.943331768     -117.456886
9.224                0.943199122     -117.678874
9.225                0.943066426     -117.901378
9.226                0.942933683     -118.124396
9.227                0.942800896     -118.347929
9.228                0.942668071     -118.571978
9.229                 0.94253521     -118.796542
9.23                 0.942402317     -119.021622
9.231                0.942269396     -119.247217
9.232                 0.94213645     -119.473329
9.233                0.942003485     -119.699956
9.234                0.941870502     -119.927098
9.235                0.941737507     -120.154757
9.236                0.941604503     -120.382932
9.237                0.941471495     -120.611623
9.238                0.941338485     -120.840829
9.239                0.941205479     -121.070552
9.24                 0.941072481      -121.30079
9.241                0.940939494     -121.531544
9.242                0.940806523     -121.762814
9.243                0.940673572     -121.994599
9.244                0.940540645       -122.2269
9.245                0.940407746     -122.459717
9.246                0.940274881     -122.693048
9.247                0.940142052     -122.926895
9.248                0.940009265     -123.161256
9.249                0.939876523     -123.396132
9.25                 0.939743833     -123.631523
9.251                0.939611196     -123.867428
9.252                 0.93947862     -124.103847
9.253                0.939346107     -124.340779
9.254                0.939213662     -124.578225
9.255                0.939081291     -124.816184
9.256                0.938948997     -125.054656
9.257                0.938816786     -125.293641
9.258                0.938684662     -125.533137
9.259                 0.93855263     -125.773145
9.26                 0.938420695     -126.013665
9.261                0.938288861     -126.254695
9.262                0.938157134     -126.496236
9.263                0.938025518     -126.738286
9.264                0.937894018     -126.980846
9.265                0.937762639     -127.223915
9.266                0.937631387     -127.467493
9.267                0.937500265     -127.711578
9.268                 0.93736928     -127.956171
9.269                0.937238437      -128.20127
9.27                 0.937107739     -128.446876
9.271                0.936977194     -128.692987
9.272                0.936846805     -128.939603
9.273                0.936716578     -129.186723
9.274                0.936586518     -129.434347
9.275                0.936456631     -129.682474
9.276                0.936326922     -129.931102
9.277                0.936197395     -130.180232
9.278                0.936068058     -130.429862
9.279                0.935938914     -130.679993
9.28                 0.935809969     -130.930622
9.281                 0.93568123     -131.181749
9.282                0.935552701     -131.433373
9.283                0.935424387     -131.685494
9.284                0.935296295      -131.93811
9.285                0.935168429     -132.191221
9.286                0.935040797     -132.444825
9.287                0.934913402     -132.698921
9.288                0.934786251      -132.95351
9.289                0.934659349     -133.208588
9.29                 0.934532703     -133.464157
9.291                0.934406317     -133.720213
9.292                0.934280198     -133.976757
9.293                0.934154351     -134.233787
9.294                0.934028783     -134.491302
9.295                0.933903498     -134.749301
9.296                0.933778504     -135.007783
9.297                0.933653805     -135.266746
9.298                0.933529407      -135.52619
9.299                0.933405317     -135.786112
9.3                   0.93328154     -136.046512
9.301                0.933158083     -136.307388
9.302                0.933034951      -136.56874
9.303                0.932912151     -136.830565
9.304                0.932789687     -137.092863
9.305                0.932667567     -137.355631
9.306                0.932545797     -137.618869
9.307                0.932424382     -137.882575
9.308                0.932303328     -138.146747
9.309                0.932182642     -138.411385
9.31                  0.93206233     -138.676486
9.311                0.931942398     -138.942049
9.312                0.931822852     -139.208072
9.313                0.931703698     -139.474554
9.314                0.931584942     -139.741493
9.315                0.931466591     -140.008887
9.316                0.931348651     -140.276735
9.317                0.931231127     -140.545036
9.318                0.931114027     -140.813786
9.319                0.930997356     -141.082985
9.32                 0.930881121     -141.352631
9.321                0.930765328     -141.622722
9.322                0.930649982     -141.893256
9.323                0.930535092     -142.164231
9.324                0.930420661     -142.435646
9.325                0.930306698     -142.707498
9.326                0.930193208     -142.979786
9.327                0.930080198     -143.252507
9.328                0.929967673     -143.525659
9.329                0.929855641     -143.799242
9.33                 0.929744107     -144.073251
9.331                0.929633077     -144.347686
9.332                0.929522559     -144.622545
9.333                0.929412558     -144.897825
9.334                 0.92930308     -145.173523
9.335                0.929194133     -145.449639
9.336                0.929085721     -145.726169
9.337                0.928977853     -146.003112
9.338                0.928870532     -146.280465
9.339                0.928763767     -146.558225
9.34                 0.928657564     -146.836392
9.341                0.928551928     -147.114962
9.342                0.928446866     -147.393932
9.343                0.928342384     -147.673302
9.344                0.928238489     -147.953067
9.345                0.928135186     -148.233226
9.346                0.928032482     -148.513777
9.347                0.927930383     -148.794716
9.348                0.927828896     -149.076041
9.349                0.927728026     -149.357751
9.35                  0.92762778     -149.639841
9.351                0.927528164      -149.92231
9.352                0.927429184     -150.205155
9.353                0.927330846     -150.488373
9.354                0.927233156     -150.771962
9.355                0.927136121     -151.055919
9.356                0.927039747     -151.340242
9.357                0.926944039     -151.624926
9.358                0.926849004     -151.909971
9.359                0.926754647     -152.195373
9.36                 0.926660975     -152.481129
9.361                0.926567994     -152.767236
9.362                0.926475709     -153.053692
9.363                0.926384127     -153.340493
9.364                0.926293254     -153.627637
9.365                0.926203095     -153.915121
9.366                0.926113656     -154.202942
9.367                0.926024943     -154.491097
9.368                0.925936962     -154.779582
9.369                0.925849718     -155.068395
9.37                 0.925763218     -155.357533
9.371                0.925677467     -155.646993
9.372                0.925592471     -155.936771
9.373                0.925508235     -156.226865
9.374                0.925424765     -156.517271
9.375                0.925342067     -156.807986
9.376                0.925260145     -157.099008
9.377                0.925179006     -157.390332
9.378                0.925098656     -157.681955
9.379                0.925019098     -157.973875
9.38                  0.92494034     -158.266088
9.381                0.924862385      -158.55859
9.382                 0.92478524     -158.851379
9.383                 0.92470891     -159.144451
9.384                  0.9246334     -159.437803
9.385                0.924558714      -159.73143
9.386                0.924484859     -160.025331
9.387                0.924411839     -160.319501
9.388                 0.92433966     -160.613937
9.389                0.924268325     -160.908636
9.39                 0.924197841     -161.203594
9.391                0.924128212     -161.498807
9.392                0.924059443     -161.794272
9.393                0.923991538     -162.089986
9.394                0.923924503     -162.385944
9.395                0.923858342     -162.682144
9.396                 0.92379306     -162.978581
