! TOUCHSTONE file generated by CST DESIGN STUDIO
! Date and time: Tue Feb  4 18:12:22 2025
! Project name: C:\Work\MatlabApps\UnitCellOptimizationMatlab\CST\unitcell.cst
! Tree item: Tasks\Sweep1\SPara1\S-Parameters
! Header version: 2024
! Port assignment regex: !\s*Touchstone port\s*([0-9]+)\s*=\s*(CST MWS port|CST DES external port|CST DES block port)\s*(.+)\s* \(\"(.*)\"\)(\s*mode\s*([0-9]+))?.*
! Touchstone port assignment:
! Touchstone port 1 = CST DES external port 1 ("")
# GHz S MA R 50
9                    0.942004281     -66.4244863
9.001                0.941860239     -66.5227467
9.002                0.941715734     -66.6212529
9.003                0.941570766      -66.720006
9.004                0.941425333     -66.8190066
9.005                0.941279434     -66.9182557
9.006                0.941133066     -67.0177539
9.007                0.940986229     -67.1175022
9.008                0.940838921     -67.2175014
9.009                0.940691141     -67.3177523
9.01                 0.940542886     -67.4182557
9.011                0.940394156     -67.5190125
9.012                0.940244949     -67.6200234
9.013                0.940095264     -67.7212895
9.014                0.939945099     -67.8228114
9.015                0.939794452       -67.92459
9.016                0.939643322     -68.0266262
9.017                0.939491708     -68.1289209
9.018                0.939339608     -68.2314748
9.019                0.939187021     -68.3342889
9.02                 0.939033944     -68.4373641
9.021                0.938880377      -68.540701
9.022                0.938726318     -68.6443008
9.023                0.938571766     -68.7481641
9.024                0.938416718     -68.8522919
9.025                0.938261175     -68.9566851
9.026                0.938105133     -69.0613445
9.027                0.937948591      -69.166271
9.028                0.937791549     -69.2714655
9.029                0.937634004     -69.3769289
9.03                 0.937475955      -69.482662
9.031                  0.9373174     -69.5886659
9.032                0.937158338     -69.6949413
9.033                0.936998768     -69.8014892
9.034                0.936838687     -69.9083104
9.035                0.936678095     -70.0154059
9.036                0.936516989     -70.1227765
9.037                0.936355369     -70.2304233
9.038                0.936193233     -70.3383471
9.039                0.936030579     -70.4465487
9.04                 0.935867405     -70.5550292
9.041                0.935703711     -70.6637895
9.042                0.935539495     -70.7728304
9.043                0.935374755      -70.882153
9.044                0.935209489     -70.9917581
9.045                0.935043697     -71.1016467
9.046                0.934877376     -71.2118197
9.047                0.934710526      -71.322278
9.048                0.934543144     -71.4330227
9.049                0.934375229     -71.5440545
9.05                  0.93420678     -71.6553746
9.051                0.934037795     -71.7669839
9.052                0.933868272     -71.8788832
9.053                0.933698211     -71.9910736
9.054                0.933527609      -72.103556
9.055                0.933356465     -72.2163314
9.056                0.933184777     -72.3294007
9.057                0.933012545      -72.442765
9.058                0.932839766     -72.5564252
9.059                0.932666439     -72.6703822
9.06                 0.932492563     -72.7846371
9.061                0.932318136     -72.8991908
9.062                0.932143156     -73.0140443
9.063                0.931967623     -73.1291987
9.064                0.931791534     -73.2446548
9.065                0.931614888     -73.3604138
9.066                0.931437683     -73.4764765
9.067                0.931259919     -73.5928441
9.068                0.931081593     -73.7095174
9.069                0.930902705     -73.8264975
9.07                 0.930723252     -73.9437854
9.071                0.930543233     -74.0613822
9.072                0.930362647     -74.1792888
9.073                0.930181492     -74.2975063
9.074                0.929999767     -74.4160356
9.075                0.929817471     -74.5348779
9.076                0.929634601      -74.654034
9.077                0.929451157     -74.7735052
9.078                0.929267137     -74.8932923
9.079                0.929082539     -75.0133965
9.08                 0.928897362     -75.1338188
9.081                0.928711605     -75.2545601
9.082                0.928525267     -75.3756216
9.083                0.928338345     -75.4970044
9.084                0.928150838     -75.6187094
9.085                0.927962746     -75.7407377
9.086                0.927774066     -75.8630904
9.087                0.927584797     -75.9857685
9.088                0.927394938     -76.1087731
9.089                0.927204488     -76.2321053
9.09                 0.927013444     -76.3557661
9.091                0.926821806     -76.4797566
9.092                0.926629572     -76.6040779
9.093                0.926436741     -76.7287311
9.094                0.926243312     -76.8537172
9.095                0.926049282     -76.9790373
9.096                0.925854652     -77.1046926
9.097                0.925659419      -77.230684
9.098                0.925463582     -77.3570127
9.099                 0.92526714     -77.4836799
9.1                  0.925070091     -77.6106865
9.101                0.924872434     -77.7380337
9.102                0.924674168     -77.8657226
9.103                0.924475292     -77.9937543
9.104                0.924275804     -78.1221299
9.105                0.924075703     -78.2508505
9.106                0.923874987     -78.3799173
9.107                0.923673656     -78.5093313
9.108                0.923471708     -78.6390937
9.109                0.923269142     -78.7692057
9.11                 0.923065956     -78.8996682
9.111                 0.92286215     -79.0304825
9.112                0.922657723     -79.1616497
9.113                0.922452672      -79.293171
9.114                0.922246997     -79.4250474
9.115                0.922040696     -79.5572801
9.116                0.921833769     -79.6898702
9.117                0.921626214      -79.822819
9.118                 0.92141803     -79.9561275
9.119                0.921209216     -80.0897969
9.12                 0.920999771     -80.2238283
9.121                0.920789694      -80.358223
9.122                0.920578983      -80.492982
9.123                0.920367637     -80.6281066
9.124                0.920155656     -80.7635979
9.125                0.919943038      -80.899457
9.126                0.919729783     -81.0356852
9.127                0.919515888     -81.1722835
9.128                0.919301353     -81.3092533
9.129                0.919086178     -81.4465956
9.13                 0.918870361     -81.5843116
9.131                  0.9186539     -81.7224026
9.132                0.918436796     -81.8608697
9.133                0.918219047     -81.9997141
9.134                0.918000652     -82.1389369
9.135                 0.91778161     -82.2785395
9.136                 0.91756192     -82.4185229
9.137                0.917341582     -82.5588883
9.138                0.917120594     -82.6996371
9.139                0.916898956     -82.8407703
9.14                 0.916676667     -82.9822892
9.141                0.916453725      -83.124195
9.142                 0.91623013     -83.2664888
9.143                0.916005882      -83.409172
9.144                0.915780979     -83.5522457
9.145                 0.91555542     -83.6957111
9.146                0.915329206     -83.8395694
9.147                0.915102334     -83.9838219
9.148                0.914874805     -84.1284698
9.149                0.914646617     -84.2735144
9.15                 0.914417771     -84.4189567
9.151                0.914188265     -84.5647982
9.152                0.913958098     -84.7110399
9.153                 0.91372727     -84.8576831
9.154                0.913495781     -85.0047291
9.155                 0.91326363     -85.1521791
9.156                0.913030816     -85.3000344
9.157                0.912797338     -85.4482961
9.158                0.912563197     -85.5969655
9.159                0.912328391     -85.7460439
9.16                 0.912092921     -85.8955325
9.161                0.911856785     -86.0454326
9.162                0.911619984     -86.1957453
9.163                0.911382516      -86.346472
9.164                0.911144382     -86.4976139
9.165                0.910905581     -86.6491723
9.166                0.910666112     -86.8011483
9.167                0.910425976     -86.9535433
9.168                0.910185173     -87.1063586
9.169                0.909943701     -87.2595953
9.17                  0.90970156     -87.4132548
9.171                0.909458751     -87.5673382
9.172                0.909215273      -87.721847
9.173                0.908971126     -87.8767822
9.174                 0.90872631     -88.0321453
9.175                0.908480825     -88.1879374
9.176                 0.90823467     -88.3441599
9.177                0.907987846     -88.5008139
9.178                0.907740353     -88.6579008
9.179                 0.90749219     -88.8154219
9.18                 0.907243358     -88.9733783
9.181                0.906993856     -89.1317715
9.182                0.906743685     -89.2906026
9.183                0.906492845      -89.449873
9.184                0.906241336     -89.6095838
9.185                0.905989159     -89.7697364
9.186                0.905736312     -89.9303321
9.187                0.905482797     -90.0913722
9.188                0.905228615     -90.2528578
9.189                0.904973764     -90.4147904
9.19                 0.904718246     -90.5771711
9.191                0.904462061     -90.7400013
9.192                0.904205209     -90.9032822
9.193                0.903947691     -91.0670151
9.194                0.903689507     -91.2312013
9.195                0.903430658     -91.3958421
9.196                0.903171144     -91.5609387
9.197                0.902910966     -91.7264925
9.198                0.902650125     -91.8925047
9.199                0.902388621     -92.0589765
9.2                  0.902126455     -92.2259094
9.201                0.901863627     -92.3933045
9.202                0.901600139     -92.5611631
9.203                0.901335991     -92.7294866
9.204                0.901071184     -92.8982761
9.205                0.900805719      -93.067533
9.206                0.900539597     -93.2372586
9.207                0.900272818     -93.4074541
9.208                0.900005385     -93.5781208
9.209                0.899737297       -93.74926
9.21                 0.899468557     -93.9208729
9.211                0.899199164     -94.0929608
9.212                0.898929121     -94.2655251
9.213                0.898658428     -94.4385669
9.214                0.898387087     -94.6120876
9.215                  0.8981151     -94.7860884
9.216                0.897842466     -94.9605706
9.217                0.897569189     -95.1355354
9.218                0.897295269     -95.3109842
9.219                0.897020708     -95.4869181
9.22                 0.896745507     -95.6633385
9.221                0.896469668     -95.8402466
9.222                0.896193192     -96.0176436
9.223                0.895916082     -96.1955309
9.224                0.895638339     -96.3739097
9.225                0.895359965     -96.5527812
9.226                0.895080962     -96.7321467
9.227                 0.89480133     -96.9120074
9.228                0.894521074     -97.0923646
9.229                0.894240194     -97.2732196
9.23                 0.893958692     -97.4545735
9.231                0.893676571     -97.6364276
9.232                0.893393833     -97.8187832
9.233                0.893110479     -98.0016414
9.234                0.892826513     -98.1850036
9.235                0.892541937     -98.3688709
9.236                0.892256752     -98.5532446
9.237                0.891970961     -98.7381259
9.238                0.891684567      -98.923516
9.239                0.891397573     -99.1094161
9.24                  0.89110998     -99.2958275
9.241                0.890821792     -99.4827513
9.242                0.890533011     -99.6701888
9.243                0.890243641     -99.8581412
9.244                0.889953683      -100.04661
9.245                0.889663141     -100.235595
9.246                0.889372017     -100.425099
9.247                0.889080315     -100.615123
9.248                0.888788038     -100.805668
9.249                0.888495189     -100.996734
9.25                  0.88820177     -101.188324
9.251                0.887907787     -101.380438
9.252                 0.88761324     -101.573077
9.253                0.887318135     -101.766243
9.254                0.887022475     -101.959937
9.255                0.886726262      -102.15416
9.256                0.886429501     -102.348913
9.257                0.886132195     -102.544197
9.258                0.885834348     -102.740014
9.259                0.885535964     -102.936364
9.26                 0.885237047     -103.133249
9.261                  0.8849376     -103.330669
9.262                0.884637627     -103.528626
9.263                0.884337133     -103.727121
9.264                0.884036122     -103.926156
9.265                0.883734598      -104.12573
9.266                0.883432565     -104.325845
9.267                0.883130027     -104.526503
9.268                 0.88282699     -104.727704
9.269                0.882523457      -104.92945
9.27                 0.882219432     -105.131741
9.271                0.881914922     -105.334578
9.272                 0.88160993     -105.537963
9.273                0.881304461     -105.741897
9.274                 0.88099852      -105.94638
9.275                0.880692112     -106.151414
9.276                0.880385242        -106.357
9.277                0.880077915     -106.563138
9.278                0.879770136      -106.76983
9.279                0.879461911     -106.977076
9.28                 0.879153244     -107.184878
9.281                0.878844142     -107.393237
9.282                 0.87853461     -107.602153
9.283                0.878224652     -107.811627
9.284                0.877914276     -108.021661
9.285                0.877603487     -108.232256
9.286                 0.87729229     -108.443411
9.287                0.876980691     -108.655129
9.288                0.876668697      -108.86741
9.289                0.876356313     -109.080255
9.29                 0.876043545     -109.293664
9.291                0.875730401      -109.50764
9.292                0.875416885     -109.722182
9.293                0.875103006     -109.937291
9.294                0.874788768     -110.152969
9.295                0.874474178     -110.369215
9.296                0.874159244     -110.586032
9.297                0.873843972     -110.803419
9.298                0.873528369     -111.021378
9.299                0.873212441     -111.239909
9.3                  0.872896197     -111.459014
9.301                0.872579642     -111.678692
9.302                0.872262784     -111.898944
9.303                 0.87194563     -112.119772
9.304                0.871628188     -112.341176
9.305                0.871310465     -112.563157
9.306                0.870992468     -112.785715
9.307                0.870674206     -113.008851
9.308                0.870355686     -113.232566
9.309                0.870036916      -113.45686
9.31                 0.869717903     -113.681734
9.311                0.869398656     -113.907189
9.312                0.869079183     -114.133226
9.313                0.868759492     -114.359844
9.314                0.868439591     -114.587045
9.315                0.868119489     -114.814828
9.316                0.867799194     -115.043196
9.317                0.867478715     -115.272147
9.318                0.867158059     -115.501683
9.319                0.866837237     -115.731804
9.32                 0.866516257     -115.962511
9.321                0.866195127     -116.193804
9.322                0.865873858     -116.425684
9.323                0.865552457      -116.65815
9.324                0.865230935     -116.891204
9.325                0.864909299     -117.124846
9.326                0.864587561     -117.359076
9.327                0.864265729     -117.593895
9.328                0.863943814     -117.829303
9.329                0.863621823       -118.0653
9.33                 0.863299769     -118.301886
9.331                0.862977659     -118.539063
9.332                0.862655505     -118.776829
9.333                0.862333317     -119.015187
9.334                0.862011104     -119.254135
9.335                0.861688877     -119.493673
9.336                0.861366646     -119.733803
9.337                0.861044421     -119.974525
9.338                0.860722214     -120.215838
9.339                0.860400035     -120.457742
9.34                 0.860077894     -120.700239
9.341                0.859755803     -120.943327
9.342                0.859433772     -121.187007
9.343                0.859111813      -121.43128
9.344                0.858789936     -121.676144
9.345                0.858468153     -121.921601
9.346                0.858146475      -122.16765
9.347                0.857824914     -122.414291
9.348                 0.85750348     -122.661524
9.349                0.857182187     -122.909349
9.35                 0.856861044     -123.157765
9.351                0.856540065     -123.406774
9.352                0.856219261     -123.656375
9.353                0.855898643     -123.906567
9.354                0.855578225      -124.15735
9.355                0.855258018     -124.408725
9.356                0.854938034     -124.660691
9.357                0.854618287     -124.913247
9.358                0.854298787     -125.166394
9.359                0.853979548     -125.420131
9.36                 0.853660583     -125.674458
9.361                0.853341904     -125.929374
9.362                0.853023524     -126.184879
9.363                0.852705455     -126.440974
9.364                0.852387711     -126.697656
9.365                0.852070305     -126.954927
9.366                0.851753251     -127.212784
9.367                 0.85143656     -127.471229
9.368                0.851120247      -127.73026
9.369                0.850804325     -127.989877
9.37                 0.850488807      -128.25008
9.371                0.850173708     -128.510867
9.372                 0.84985904     -128.772238
9.373                0.849544818     -129.034192
9.374                0.849231055      -129.29673
9.375                0.848917765     -129.559849
9.376                0.848604962     -129.823549
9.377                0.848292661     -130.087831
9.378                0.847980875     -130.352691
9.379                0.847669619     -130.618131
9.38                 0.847358907     -130.884149
9.381                0.847048753     -131.150744
9.382                0.846739172     -131.417915
9.383                0.846430178     -131.685661
9.384                0.846121786     -131.953982
9.385                0.845814011     -132.222876
9.386                0.845506867     -132.492343
9.387                 0.84520037     -132.762381
9.388                0.844894533     -133.032989
9.389                0.844589372     -133.304166
9.39                 0.844284903     -133.575911
9.391                0.843981139     -133.848223
9.392                0.843678097       -134.1211
9.393                0.843375792     -134.394542
9.394                0.843074238     -134.668546
9.395                0.842773451     -134.943113
9.396                0.842473446     -135.218239
