! TOUCHSTONE file generated by CST DESIGN STUDIO
! Date and time: Tue Feb  4 18:12:15 2025
! Project name: C:\Work\MatlabApps\UnitCellOptimizationMatlab\CST\unitcell.cst
! Tree item: Tasks\Sweep1\SPara1\S-Parameters
! Header version: 2024
! Port assignment regex: !\s*Touchstone port\s*([0-9]+)\s*=\s*(CST MWS port|CST DES external port|CST DES block port)\s*(.+)\s* \(\"(.*)\"\)(\s*mode\s*([0-9]+))?.*
! Touchstone port assignment:
! Touchstone port 1 = CST DES external port 1 ("")
# GHz S MA R 50
9                    0.919075057     -89.6988422
9.001                0.918840227     -89.8599685
9.002                0.918604724     -90.0215454
9.003                0.918368546     -90.1835742
9.004                0.918131694     -90.3460562
9.005                0.917894169     -90.5089926
9.006                0.917655969     -90.6723849
9.007                0.917417094     -90.8362342
9.008                0.917177546      -91.000542
9.009                0.916937324     -91.1653096
9.01                 0.916696427     -91.3305382
9.011                0.916454857     -91.4962293
9.012                0.916212613      -91.662384
9.013                0.915969695     -91.8290038
9.014                0.915726104     -91.9960899
9.015                0.915481839     -92.1636437
9.016                0.915236902     -92.3316665
9.017                0.914991293     -92.5001596
9.018                0.914745011     -92.6691243
9.019                0.914498057      -92.838562
9.02                 0.914250432     -93.0084739
9.021                0.914002136     -93.1788614
9.022                 0.91375317     -93.3497258
9.023                0.913503533     -93.5210684
9.024                0.913253228     -93.6928906
9.025                0.913002253     -93.8651935
9.026                0.912750611     -94.0379786
9.027                0.912498301     -94.2112472
9.028                0.912245325     -94.3850006
9.029                0.911991682     -94.5592401
9.03                 0.911737375     -94.7339669
9.031                0.911482403     -94.9091825
9.032                0.911226768     -95.0848881
9.033                0.910970471      -95.261085
9.034                0.910713512     -95.4377745
9.035                0.910455893      -95.614958
9.036                0.910197615     -95.7926367
9.037                0.909938678     -95.9708119
9.038                0.909679084      -96.149485
9.039                0.909418835     -96.3286572
9.04                  0.90915793     -96.5083298
9.041                0.908896373     -96.6885041
9.042                0.908634163     -96.8691815
9.043                0.908371303     -97.0503631
9.044                0.908107794     -97.2320503
9.045                0.907843637     -97.4142444
9.046                0.907578833     -97.5969466
9.047                0.907313386     -97.7801583
9.048                0.907047295     -97.9638806
9.049                0.906780563     -98.1481149
9.05                 0.906513191     -98.3328625
9.051                0.906245182     -98.5181246
9.052                0.905976537     -98.7039024
9.053                0.905707258     -98.8901973
9.054                0.905437346     -99.0770105
9.055                0.905166805     -99.2643432
9.056                0.904895635     -99.4521967
9.057                 0.90462384     -99.6405723
9.058                0.904351421     -99.8294711
9.059                 0.90407838     -100.018895
9.06                  0.90380472     -100.208844
9.061                0.903530443      -100.39932
9.062                0.903255552     -100.590324
9.063                0.902980048     -100.781858
9.064                0.902703935     -100.973922
9.065                0.902427214     -101.166519
9.066                 0.90214989     -101.359648
9.067                0.901871963     -101.553312
9.068                0.901593438     -101.747511
9.069                0.901314316     -101.942247
9.07                 0.901034601     -102.137521
9.071                0.900754295     -102.333334
9.072                0.900473403     -102.529687
9.073                0.900191926     -102.726581
9.074                0.899909867     -102.924018
9.075                0.899627231     -103.121999
9.076                 0.89934402     -103.320525
9.077                0.899060237     -103.519597
9.078                0.898775887     -103.719215
9.079                0.898490971     -103.919383
9.08                 0.898205495     -104.120099
9.081                0.897919461     -104.321367
9.082                0.897632874     -104.523186
9.083                0.897345736     -104.725557
9.084                0.897058052     -104.928483
9.085                0.896769826     -105.131964
9.086                0.896481061     -105.336001
9.087                0.896191761     -105.540595
9.088                0.895901932     -105.745747
9.089                0.895611576     -105.951459
9.09                 0.895320698      -106.15773
9.091                0.895029302     -106.364564
9.092                0.894737393      -106.57196
9.093                0.894444975     -106.779919
9.094                0.894152053     -106.988443
9.095                0.893858632     -107.197532
9.096                0.893564715     -107.407188
9.097                0.893270308     -107.617412
9.098                0.892975415     -107.828204
9.099                0.892680042     -108.039565
9.1                  0.892384194     -108.251497
9.101                0.892087875     -108.464001
9.102                 0.89179109     -108.677076
9.103                0.891493846     -108.890726
9.104                0.891196147     -109.104949
9.105                0.890897999     -109.319748
9.106                0.890599407     -109.535122
9.107                0.890300377     -109.751074
9.108                0.890000914     -109.967603
9.109                0.889701024     -110.184712
9.11                 0.889400713       -110.4024
9.111                0.889099987     -110.620668
9.112                0.888798851     -110.839518
9.113                0.888497313     -111.058949
9.114                0.888195377     -111.278964
9.115                0.887893051     -111.499563
9.116                0.887590341     -111.720746
9.117                0.887287252     -111.942514
9.118                0.886983792     -112.164868
9.119                0.886679967      -112.38781
9.12                 0.886375784     -112.611339
9.121                0.886071249     -112.835456
9.122                 0.88576637     -113.060162
9.123                0.885461154     -113.285458
9.124                0.885155606     -113.511345
9.125                0.884849735     -113.737822
9.126                0.884543548     -113.964891
9.127                0.884237052     -114.192553
9.128                0.883930255     -114.420808
9.129                0.883623163     -114.649656
9.13                 0.883315785     -114.879099
9.131                0.883008129     -115.109136
9.132                0.882700201     -115.339769
9.133                 0.88239201     -115.570997
9.134                0.882083564     -115.802822
9.135                0.881774871     -116.035245
9.136                0.881465939     -116.268264
9.137                0.881156776     -116.501882
9.138                 0.88084739     -116.736098
9.139                0.880537791     -116.970913
9.14                 0.880227987     -117.206327
9.141                0.879917985     -117.442341
9.142                0.879607796     -117.678956
9.143                0.879297427      -117.91617
9.144                0.878986888     -118.153986
9.145                0.878676187     -118.392403
9.146                0.878365335     -118.631421
9.147                0.878054339     -118.871042
9.148                 0.87774321     -119.111264
9.149                0.877431956     -119.352089
9.15                 0.877120587     -119.593517
9.151                0.876809113     -119.835548
9.152                0.876497543     -120.078181
9.153                0.876185888     -120.321418
9.154                0.875874157     -120.565259
9.155                0.875562359     -120.809703
9.156                0.875250506     -121.054751
9.157                0.874938607     -121.300403
9.158                0.874626673     -121.546659
9.159                0.874314714     -121.793519
9.16                  0.87400274     -122.040983
9.161                0.873690762     -122.289051
9.162                 0.87337879     -122.537723
9.163                0.873066836     -122.786999
9.164                 0.87275491     -123.036879
9.165                0.872443023     -123.287364
9.166                0.872131186     -123.538452
9.167                0.871819411     -123.790143
9.168                0.871507708     -124.042439
9.169                0.871196089     -124.295338
9.17                 0.870884566      -124.54884
9.171                0.870573149     -124.802945
9.172                0.870261851     -125.057653
9.173                0.869950683     -125.312964
9.174                0.869639656     -125.568877
9.175                0.869328784     -125.825392
9.176                0.869018078     -126.082508
9.177                0.868707549     -126.340226
9.178                 0.86839721     -126.598545
9.179                0.868087074     -126.857464
9.18                 0.867777153     -127.116983
9.181                0.867467459     -127.377102
9.182                0.867158004      -127.63782
9.183                0.866848802     -127.899136
9.184                0.866539865     -128.161051
9.185                0.866231206     -128.423563
9.186                0.865922838     -128.686671
9.187                0.865614773     -128.950376
9.188                0.865307026     -129.214677
9.189                0.864999608     -129.479572
9.19                 0.864692534     -129.745062
9.191                0.864385816     -130.011145
9.192                0.864079468      -130.27782
9.193                0.863773504     -130.545088
9.194                0.863467937     -130.812946
9.195                0.863162781     -131.081395
9.196                 0.86285805     -131.350433
9.197                0.862553757     -131.620059
9.198                0.862249916     -131.890273
9.199                0.861946541     -132.161073
9.2                  0.861643647     -132.432459
9.201                0.861341247     -132.704429
9.202                0.861039356     -132.976982
9.203                0.860737988     -133.250118
9.204                0.860437157     -133.523834
9.205                0.860136879     -133.798131
9.206                0.859837166     -134.073006
9.207                0.859538035     -134.348459
9.208                0.859239499     -134.624488
9.209                0.858941573     -134.901092
9.21                 0.858644272     -135.178269
9.211                0.858347612     -135.456019
9.212                0.858051606      -135.73434
9.213                 0.85775627      -136.01323
9.214                0.857461619     -136.292688
9.215                0.857167668     -136.572712
9.216                0.856874432     -136.853302
9.217                0.856581926     -137.134455
9.218                0.856290166      -137.41617
9.219                0.855999167     -137.698445
9.22                 0.855708945     -137.981278
9.221                0.855419514     -138.264669
9.222                 0.85513089     -138.548615
9.223                0.854843089     -138.833114
9.224                0.854556127     -139.118164
9.225                0.854270019     -139.403764
9.226                 0.85398478     -139.689913
9.227                0.853700427     -139.976607
9.228                0.853416975     -140.263845
9.229                 0.85313444     -140.551626
9.23                 0.852852837     -140.839946
9.231                0.852572184     -141.128805
9.232                0.852292495     -141.418199
9.233                0.852013786     -141.708127
9.234                0.851736074     -141.998587
9.235                0.851459374     -142.289577
9.236                0.851183703     -142.581094
9.237                0.850909076     -142.873136
9.238                0.850635509     -143.165701
9.239                 0.85036302     -143.458786
9.24                 0.850091623     -143.752389
9.241                0.849821335     -144.046508
9.242                0.849552171      -144.34114
9.243                0.849284149     -144.636283
9.244                0.849017285     -144.931934
9.245                0.848751593     -145.228091
9.246                0.848487091     -145.524751
9.247                0.848223795     -145.821912
9.248                0.847961721      -146.11957
9.249                0.847700885     -146.417724
9.25                 0.847441304      -146.71637
9.251                0.847182992     -147.015506
9.252                0.846925968     -147.315128
9.253                0.846670246     -147.615235
9.254                0.846415842     -147.915823
9.255                0.846162774     -148.216889
9.256                0.845911057      -148.51843
9.257                0.845660707     -148.820444
9.258                0.845411741     -149.122927
9.259                0.845164173     -149.425877
9.26                 0.844918021     -149.729289
9.261                  0.8446733     -150.033162
9.262                0.844430026     -150.337491
9.263                0.844188216     -150.642275
9.264                0.843947884     -150.947508
9.265                0.843709048     -151.253189
9.266                0.843471722     -151.559314
9.267                0.843235922     -151.865879
9.268                0.843001665     -152.172881
9.269                0.842768965     -152.480317
9.27                 0.842537839     -152.788183
9.271                0.842308302     -153.096476
9.272                0.842080369     -153.405193
9.273                0.841854056     -153.714329
9.274                0.841629379     -154.023881
9.275                0.841406352     -154.333845
9.276                0.841184991     -154.644219
9.277                0.840965312     -154.954997
9.278                0.840747328     -155.266177
9.279                0.840531056     -155.577754
9.28                  0.84031651     -155.889726
9.281                0.840103705     -156.202087
9.282                0.839892656     -156.514834
9.283                0.839683378     -156.827964
9.284                0.839475885     -157.141472
9.285                0.839270193     -157.455354
9.286                0.839066314     -157.769606
9.287                0.838864264     -158.084225
9.288                0.838664057     -158.399205
9.289                0.838465707     -158.714544
9.29                 0.838269229     -159.030237
9.291                0.838074635      -159.34628
9.292                0.837881941     -159.662668
9.293                0.837691159     -159.979398
9.294                0.837502304     -160.296464
9.295                0.837315389     -160.613864
9.296                0.837130427     -160.931592
9.297                0.836947432     -161.249644
9.298                0.836766416     -161.568016
9.299                0.836587393     -161.886703
9.3                  0.836410376     -162.205701
9.301                0.836235378     -162.525006
9.302                 0.83606241     -162.844612
9.303                0.835891486     -163.164516
9.304                0.835722619     -163.484713
9.305                0.835555819     -163.805198
9.306                  0.8353911     -164.125967
9.307                0.835228474     -164.447015
9.308                0.835067951     -164.768337
9.309                0.834909544     -165.089929
9.31                 0.834753265     -165.411786
9.311                0.834599124     -165.733903
9.312                0.834447133     -166.056276
9.313                0.834297303     -166.378899
9.314                0.834149645     -166.701768
9.315                0.834004169     -167.024878
9.316                0.833860886     -167.348225
9.317                0.833719807     -167.671802
9.318                0.833580942     -167.995606
9.319                  0.8334443     -168.319631
9.32                 0.833309892     -168.643873
9.321                0.833177727     -168.968327
9.322                0.833047815     -169.292987
9.323                0.832920166     -169.617848
9.324                0.832794788     -169.942906
9.325                 0.83267169     -170.268155
9.326                0.832550881     -170.593591
9.327                0.832432371     -170.919207
9.328                0.832316166        -171.245
9.329                0.832202276     -171.570964
9.33                 0.832090709     -171.897094
9.331                0.831981472     -172.223385
9.332                0.831874574     -172.549831
9.333                0.831770021     -172.876427
9.334                0.831667821     -173.203168
9.335                0.831567981      -173.53005
9.336                0.831470508     -173.857066
9.337                0.831375408     -174.184211
9.338                0.831282688      -174.51148
9.339                0.831192355     -174.838869
9.34                 0.831104415     -175.166371
9.341                0.831018872     -175.493981
9.342                0.830935734     -175.821694
9.343                0.830855005     -176.149504
9.344                0.830776691     -176.477407
9.345                0.830700796     -176.805397
9.346                0.830627326     -177.133468
9.347                0.830556285     -177.461616
9.348                0.830487678     -177.789834
9.349                0.830421508     -178.118118
9.35                  0.83035778     -178.446462
9.351                0.830296498      -178.77486
9.352                0.830237664     -179.103308
9.353                0.830181283       -179.4318
9.354                0.830127357      -179.76033
9.355                 0.83007589      179.911107
9.356                0.830026884      179.582516
9.357                0.829980341      179.253903
9.358                0.829936264      178.925273
9.359                0.829894654      178.596632
9.36                 0.829855514      178.267985
9.361                0.829818845      177.939337
9.362                0.829784648      177.610694
9.363                0.829752925      177.282062
9.364                0.829723677      176.953445
9.365                0.829696903       176.62485
9.366                0.829672605      176.296281
9.367                0.829650783      175.967744
9.368                0.829631437      175.639245
9.369                0.829614566      175.310788
9.37                 0.829600171       174.98238
9.371                 0.82958825      174.654025
9.372                0.829578803       174.32573
9.373                0.829571829      173.997499
9.374                0.829567326      173.669337
9.375                0.829565293      173.341251
9.376                0.829565728      173.013246
9.377                0.829568629      172.685326
9.378                0.829573994      172.357498
9.379                0.829581821      172.029767
9.38                 0.829592107      171.702137
9.381                0.829604849      171.374615
9.382                0.829620044      171.047205
9.383                0.829637689      170.719913
9.384                 0.82965778      170.392745
9.385                0.829680314      170.065705
9.386                0.829705287      169.738799
9.387                0.829732695      169.412032
9.388                0.829762534      169.085409
9.389                0.829794798      168.758936
9.39                 0.829829484      168.432617
9.391                0.829866585      168.106458
9.392                0.829906099      167.780465
9.393                0.829948018      167.454641
9.394                0.829992337      167.128993
9.395                0.830039051      166.803526
9.396                0.830088154      166.478244
