! TOUCHSTONE file generated by CST DESIGN STUDIO
! Date and time: Tue Feb  4 18:12:27 2025
! Project name: C:\Work\MatlabApps\UnitCellOptimizationMatlab\CST\unitcell.cst
! Tree item: Tasks\Sweep1\SPara1\S-Parameters
! Header version: 2024
! Port assignment regex: !\s*Touchstone port\s*([0-9]+)\s*=\s*(CST MWS port|CST DES external port|CST DES block port)\s*(.+)\s* \(\"(.*)\"\)(\s*mode\s*([0-9]+))?.*
! Touchstone port assignment:
! Touchstone port 1 = CST DES external port 1 ("")
# GHz S MA R 50
9                    0.956594187     -51.8016846
9.001                0.956506975     -51.8680621
9.002                0.956419501     -51.9345832
9.003                0.956331763     -52.0012482
9.004                 0.95624376     -52.0680575
9.005                0.956155493     -52.1350117
9.006                0.956066959     -52.2021112
9.007                0.955978159     -52.2693564
9.008                 0.95588909     -52.3367478
9.009                0.955799753     -52.4042858
9.01                 0.955710145     -52.4719709
9.011                0.955620267     -52.5398036
9.012                0.955530117     -52.6077843
9.013                0.955439694     -52.6759134
9.014                0.955348997     -52.7441915
9.015                0.955258026      -52.812619
9.016                0.955166779     -52.8811964
9.017                0.955075256     -52.9499241
9.018                0.954983455     -53.0188026
9.019                0.954891375     -53.0878323
9.02                 0.954799016     -53.1570139
9.021                0.954706376     -53.2263477
9.022                0.954613455     -53.2958341
9.023                0.954520251     -53.3654738
9.024                0.954426763     -53.4352671
9.025                0.954332992     -53.5052146
9.026                0.954238934     -53.5753167
9.027                 0.95414459      -53.645574
9.028                0.954049959     -53.7159868
9.029                0.953955039     -53.7865558
9.03                 0.953859829     -53.8572813
9.031                0.953764329     -53.9281639
9.032                0.953668537     -53.9992042
9.033                0.953572453     -54.0704024
9.034                0.953476075     -54.1417593
9.035                0.953379402     -54.2132752
9.036                0.953282434     -54.2849508
9.037                0.953185168     -54.3567864
9.038                0.953087605     -54.4287826
9.039                0.952989743     -54.5009398
9.04                 0.952891582     -54.5732588
9.041                0.952793119     -54.6457398
9.042                0.952694354     -54.7183834
9.043                0.952595286     -54.7911903
9.044                0.952495914     -54.8641607
9.045                0.952396236     -54.9372954
9.046                0.952296253     -55.0105948
9.047                0.952195962     -55.0840594
9.048                0.952095362     -55.1576898
9.049                0.951994453     -55.2314865
9.05                 0.951893234       -55.30545
9.051                0.951791702     -55.3795808
9.052                0.951689858     -55.4538796
9.053                  0.9515877     -55.5283467
9.054                0.951485227     -55.6029828
9.055                0.951382438     -55.6777884
9.056                0.951279331     -55.7527641
9.057                0.951175907     -55.8279103
9.058                0.951072162     -55.9032276
9.059                0.950968098     -55.9787167
9.06                 0.950863711     -56.0543779
9.061                0.950759002     -56.1302119
9.062                0.950653969     -56.2062193
9.063                0.950548611     -56.2824005
9.064                0.950442926     -56.3587562
9.065                0.950336914     -56.4352868
9.066                0.950230574     -56.5119931
9.067                0.950123904     -56.5888755
9.068                0.950016903     -56.6659345
9.069                0.949909571     -56.7431708
9.07                 0.949801905      -56.820585
9.071                0.949693905     -56.8981776
9.072                0.949585569     -56.9759491
9.073                0.949476897     -57.0539002
9.074                0.949367887     -57.1320314
9.075                0.949258539     -57.2103434
9.076                 0.94914885     -57.2888366
9.077                0.949038819     -57.3675118
9.078                0.948928447     -57.4463694
9.079                 0.94881773       -57.52541
9.08                 0.948706669     -57.6046343
9.081                0.948595262     -57.6840429
9.082                0.948483507     -57.7636363
9.083                0.948371404     -57.8434151
9.084                0.948258951       -57.92338
9.085                0.948146147     -58.0035316
9.086                0.948032991     -58.0838703
9.087                0.947919482      -58.164397
9.088                0.947805618     -58.2451121
9.089                0.947691399     -58.3260163
9.09                 0.947576822     -58.4071101
9.091                0.947461887     -58.4883943
9.092                0.947346593     -58.5698694
9.093                0.947230938     -58.6515361
9.094                0.947114921     -58.7333949
9.095                0.946998541     -58.8154465
9.096                0.946881796     -58.8976916
9.097                0.946764686     -58.9801307
9.098                0.946647208     -59.0627645
9.099                0.946529363     -59.1455936
9.1                  0.946411148     -59.2286187
9.101                0.946292562     -59.3118403
9.102                0.946173604     -59.3952592
9.103                0.946054272      -59.478876
9.104                0.945934567     -59.5626914
9.105                0.945814485     -59.6467059
9.106                0.945694026     -59.7309202
9.107                0.945573188      -59.815335
9.108                0.945451971      -59.899951
9.109                0.945330373     -59.9847687
9.11                 0.945208393     -60.0697889
9.111                0.945086028     -60.1550123
9.112                0.944963279     -60.2404394
9.113                0.944840144      -60.326071
9.114                0.944716621     -60.4119077
9.115                0.944592709     -60.4979502
9.116                0.944468407     -60.5841991
9.117                0.944343713     -60.6706553
9.118                0.944218627     -60.7573193
9.119                0.944093146     -60.8441917
9.12                  0.94396727     -60.9312734
9.121                0.943840997      -61.018565
9.122                0.943714326     -61.1060672
9.123                0.943587255     -61.1937806
9.124                0.943459783      -61.281706
9.125                0.943331909     -61.3698441
9.126                0.943203632     -61.4581955
9.127                 0.94307495     -61.5467611
9.128                0.942945861     -61.6355414
9.129                0.942816364     -61.7245371
9.13                 0.942686459     -61.8137491
9.131                0.942556143      -61.903178
9.132                0.942425416     -61.9928245
9.133                0.942294275     -62.0826894
9.134                 0.94216272     -62.1727733
9.135                0.942030749      -62.263077
9.136                 0.94189836     -62.3536012
9.137                0.941765553     -62.4443467
9.138                0.941632326     -62.5353142
9.139                0.941498678     -62.6265043
9.14                 0.941364606      -62.717918
9.141                0.941230111     -62.8095558
9.142                0.941095189     -62.9014185
9.143                0.940959841     -62.9935069
9.144                0.940824064     -63.0858218
9.145                0.940687858     -63.1783638
9.146                 0.94055122     -63.2711337
9.147                0.940414149     -63.3641323
9.148                0.940276645     -63.4573604
9.149                0.940138705     -63.5508187
9.15                 0.940000327     -63.6445079
9.151                0.939861512     -63.7384289
9.152                0.939722257     -63.8325824
9.153                 0.93958256     -63.9269691
9.154                0.939442421     -64.0215899
9.155                0.939301838     -64.1164456
9.156                0.939160809     -64.2115368
9.157                0.939019333     -64.3068644
9.158                0.938877409     -64.4024293
9.159                0.938735035      -64.498232
9.16                  0.93859221     -64.5942736
9.161                0.938448932     -64.6905547
9.162                  0.9383052     -64.7870761
9.163                0.938161012     -64.8838387
9.164                0.938016367     -64.9808433
9.165                0.937871263     -65.0780906
9.166                  0.9377257     -65.1755815
9.167                0.937579675     -65.2733167
9.168                0.937433186     -65.3712972
9.169                0.937286234     -65.4695237
9.17                 0.937138816      -65.567997
9.171                 0.93699093     -65.6667179
9.172                0.936842575     -65.7656874
9.173                 0.93669375     -65.8649061
9.174                0.936544454      -65.964375
9.175                0.936394684     -66.0640949
9.176                0.936244439     -66.1640666
9.177                0.936093718     -66.2642909
9.178                 0.93594252     -66.3647687
9.179                0.935790842     -66.4655009
9.18                 0.935638683     -66.5664883
9.181                0.935486043     -66.6677317
9.182                0.935332919      -66.769232
9.183                0.935179309       -66.87099
9.184                0.935025213     -66.9730067
9.185                0.934870629     -67.0752829
9.186                0.934715555     -67.1778194
9.187                 0.93455999     -67.2806172
9.188                0.934403933      -67.383677
9.189                0.934247382     -67.4869998
9.19                 0.934090334     -67.5905864
9.191                 0.93393279     -67.6944378
9.192                0.933774747     -67.7985548
9.193                0.933616204     -67.9029383
9.194                 0.93345716     -68.0075892
9.195                0.933297612     -68.1125083
9.196                 0.93313756     -68.2176967
9.197                0.932977002     -68.3231551
9.198                0.932815936     -68.4288845
9.199                0.932654361     -68.5348858
9.2                  0.932492276     -68.6411599
9.201                0.932329678     -68.7477078
9.202                0.932166567     -68.8545302
9.203                0.932002941     -68.9616282
9.204                0.931838798     -69.0690027
9.205                0.931674137     -69.1766545
9.206                0.931508956     -69.2845847
9.207                0.931343255     -69.3927942
9.208                 0.93117703     -69.5012838
9.209                0.931010282     -69.6100545
9.21                 0.930843008     -69.7191073
9.211                0.930675207     -69.8284431
9.212                0.930506877     -69.9380628
9.213                0.930338017     -70.0479675
9.214                0.930168625      -70.158158
9.215                0.929998701     -70.2686353
9.216                0.929828242     -70.3794003
9.217                0.929657246     -70.4904541
9.218                0.929485713     -70.6017976
9.219                0.929313641     -70.7134317
9.22                 0.929141029     -70.8253575
9.221                0.928967874     -70.9375759
9.222                0.928794176     -71.0500878
9.223                0.928619933     -71.1628943
9.224                0.928445143     -71.2759963
9.225                0.928269805     -71.3893949
9.226                0.928093918      -71.503091
9.227                 0.92791748     -71.6170856
9.228                0.927740489     -71.7313797
9.229                0.927562945     -71.8459743
9.23                 0.927384845     -71.9608705
9.231                0.927206188     -72.0760691
9.232                0.927026973     -72.1915712
9.233                0.926847199     -72.3073779
9.234                0.926666862     -72.4234902
9.235                0.926485964      -72.539909
9.236                0.926304501     -72.6566354
9.237                0.926122472     -72.7736704
9.238                0.925939877      -72.891015
9.239                0.925756713     -73.0086703
9.24                 0.925572979     -73.1266373
9.241                0.925388673     -73.2449171
9.242                0.925203795     -73.3635106
9.243                0.925018343     -73.4824189
9.244                0.924832315     -73.6016431
9.245                 0.92464571     -73.7211842
9.246                0.924458526     -73.8410433
9.247                0.924270762     -73.9612214
9.248                0.924082418     -74.0817196
9.249                 0.92389349      -74.202539
9.25                 0.923703978     -74.3236805
9.251                0.923513881     -74.4451453
9.252                0.923323197     -74.5669345
9.253                0.923131925     -74.6890491
9.254                0.922940063     -74.8114902
9.255                 0.92274761     -74.9342589
9.256                0.922554564     -75.0573562
9.257                0.922360925     -75.1807833
9.258                0.922166691     -75.3045412
9.259                 0.92197186      -75.428631
9.26                 0.921776432     -75.5530539
9.261                0.921580404     -75.6778109
9.262                0.921383776     -75.8029031
9.263                0.921186547     -75.9283317
9.264                0.920988714     -76.0540977
9.265                0.920790276     -76.1802022
9.266                0.920591234     -76.3066464
9.267                0.920391584     -76.4334314
9.268                0.920191326     -76.5605583
9.269                0.919990458     -76.6880282
9.27                  0.91978898     -76.8158423
9.271                0.919586889     -76.9440017
9.272                0.919384185     -77.0725075
9.273                0.919180867     -77.2013608
9.274                0.918976933     -77.3305628
9.275                0.918772382     -77.4601146
9.276                0.918567213     -77.5900174
9.277                0.918361424     -77.7202724
9.278                0.918155015     -77.8508806
9.279                0.917947984     -77.9818432
9.28                  0.91774033     -78.1131614
9.281                0.917532052     -78.2448363
9.282                0.917323149     -78.3768692
9.283                0.917113619     -78.5092611
9.284                0.916903462     -78.6420132
9.285                0.916692676     -78.7751268
9.286                 0.91648126     -78.9086029
9.287                0.916269214     -79.0424427
9.288                0.916056535     -79.1766475
9.289                0.915843224     -79.3112184
9.29                 0.915629278     -79.4461567
9.291                0.915414698     -79.5814633
9.292                0.915199481     -79.7171397
9.293                0.914983627     -79.8531869
9.294                0.914767135     -79.9896062
9.295                0.914550003     -80.1263988
9.296                0.914332232     -80.2635658
9.297                0.914113819     -80.4011085
9.298                0.913894764     -80.5390281
9.299                0.913675067     -80.6773257
9.3                  0.913454725     -80.8160027
9.301                0.913233738     -80.9550601
9.302                0.913012106     -81.0944993
9.303                0.912789827     -81.2343214
9.304                0.912566901     -81.3745277
9.305                0.912343326     -81.5151193
9.306                0.912119102     -81.6560976
9.307                0.911894228     -81.7974638
9.308                0.911668704      -81.939219
9.309                0.911442528     -82.0813645
9.31                 0.911215699     -82.2239016
9.311                0.910988218     -82.3668315
9.312                0.910760082     -82.5101554
9.313                0.910531293     -82.6538746
9.314                0.910301848     -82.7979903
9.315                0.910071747     -82.9425038
9.316                 0.90984099     -83.0874163
9.317                0.909609575      -83.232729
9.318                0.909377503     -83.3784434
9.319                0.909144773     -83.5245605
9.32                 0.908911383     -83.6710816
9.321                0.908677334     -83.8180081
9.322                0.908442626     -83.9653411
9.323                0.908207257      -84.113082
9.324                0.907971226      -84.261232
9.325                0.907734535     -84.4097923
9.326                0.907497181     -84.5587644
9.327                0.907259166     -84.7081493
9.328                0.907020487     -84.8579485
9.329                0.906781146     -85.0081631
9.33                 0.906541141     -85.1587945
9.331                0.906300472     -85.3098439
9.332                 0.90605914     -85.4613127
9.333                0.905817143      -85.613202
9.334                0.905574481     -85.7655133
9.335                0.905331155     -85.9182478
9.336                0.905087164     -86.0714067
9.337                0.904842507     -86.2249914
9.338                0.904597186     -86.3790032
9.339                0.904351199     -86.5334433
9.34                 0.904104546     -86.6883131
9.341                0.903857228     -86.8436138
9.342                0.903609245     -86.9993468
9.343                0.903360595     -87.1555133
9.344                0.903111281     -87.3121147
9.345                  0.9028613     -87.4691523
9.346                0.902610654     -87.6266273
9.347                0.902359343     -87.7845411
9.348                0.902107367     -87.9428949
9.349                0.901854726     -88.1016902
9.35                  0.90160142     -88.2609281
9.351                0.901347449       -88.42061
9.352                0.901092814     -88.5807373
9.353                0.900837515     -88.7413111
9.354                0.900581552     -88.9023329
9.355                0.900324926      -89.063804
9.356                0.900067637     -89.2257256
9.357                0.899809686     -89.3880991
9.358                0.899551073     -89.5509258
9.359                0.899291798      -89.714207
9.36                 0.899031862      -89.877944
9.361                0.898771266     -90.0421382
9.362                 0.89851001     -90.2067908
9.363                0.898248095     -90.3719032
9.364                0.897985521     -90.5374767
9.365                 0.89772229     -90.7035126
9.366                0.897458402     -90.8700123
9.367                0.897193858      -91.036977
9.368                0.896928658      -91.204408
9.369                0.896662804     -91.3723068
9.37                 0.896396296     -91.5406746
9.371                0.896129136     -91.7095126
9.372                0.895861324     -91.8788224
9.373                0.895592862     -92.0486051
9.374                 0.89532375      -92.218862
9.375                 0.89505399     -92.3895946
9.376                0.894783583     -92.5608041
9.377                 0.89451253     -92.7324918
9.378                0.894240833      -92.904659
9.379                0.893968492     -93.0773071
9.38                 0.893695509     -93.2504374
9.381                0.893421885     -93.4240511
9.382                0.893147622     -93.5981497
9.383                0.892872722     -93.7727343
9.384                0.892597185     -93.9478064
9.385                0.892321014     -94.1233672
9.386                0.892044209      -94.299418
9.387                0.891766774     -94.4759602
9.388                0.891488708      -94.652995
9.389                0.891210015     -94.8305237
9.39                 0.890930696     -95.0085477
9.391                0.890650753     -95.1870682
9.392                0.890370188     -95.3660866
9.393                0.890089003     -95.5456041
9.394                0.889807199      -95.725622
9.395                0.889524779     -95.9061417
9.396                0.889241746     -96.0871643
