! TOUCHSTONE file generated by CST DESIGN STUDIO
! Date and time: Tue Feb  4 18:12:17 2025
! Project name: C:\Work\MatlabApps\UnitCellOptimizationMatlab\CST\unitcell.cst
! Tree item: Tasks\Sweep1\SPara1\S-Parameters
! Header version: 2024
! Port assignment regex: !\s*Touchstone port\s*([0-9]+)\s*=\s*(CST MWS port|CST DES external port|CST DES block port)\s*(.+)\s* \(\"(.*)\"\)(\s*mode\s*([0-9]+))?.*
! Touchstone port assignment:
! Touchstone port 1 = CST DES external port 1 ("")
# GHz S MA R 50
9                    0.924742449     -83.7431705
9.001                0.924528952     -83.8872218
9.002                0.924314803     -84.0316701
9.003                0.924100001     -84.1765168
9.004                0.923884545     -84.3217629
9.005                0.923668434     -84.4674097
9.006                0.923451666     -84.6134586
9.007                0.923234242     -84.7599107
9.008                 0.92301616     -84.9067674
9.009                 0.92279742     -85.0540297
9.01                  0.92257802     -85.2016991
9.011                0.922357961     -85.3497768
9.012                 0.92213724     -85.4982639
9.013                0.921915857     -85.6471619
9.014                0.921693813     -85.7964719
9.015                0.921471105     -85.9461952
9.016                0.921247733      -86.096333
9.017                0.921023697     -86.2468867
9.018                0.920798996     -86.3978575
9.019                0.920573629     -86.5492467
9.02                 0.920347596     -86.7010556
9.021                0.920120896     -86.8532853
9.022                0.919893528     -87.0059373
9.023                0.919665492     -87.1590127
9.024                0.919436788     -87.3125129
9.025                0.919207414     -87.4664392
9.026                0.918977371     -87.6207927
9.027                0.918746658     -87.7755748
9.028                0.918515275     -87.9307869
9.029                 0.91828322     -88.0864301
9.03                 0.918050495     -88.2425057
9.031                0.917817098     -88.3990151
9.032                0.917583029     -88.5559595
9.033                0.917348287     -88.7133402
9.034                0.917112874     -88.8711586
9.035                0.916876787     -89.0294158
9.036                0.916640028     -89.1881133
9.037                0.916402595     -89.3472522
9.038                0.916164489     -89.5068339
9.039                 0.91592571     -89.6668598
9.04                 0.915686257     -89.8273309
9.041                0.915446131     -89.9882488
9.042                0.915205331     -90.1496146
9.043                0.914963857     -90.3114297
9.044                0.914721709     -90.4736954
9.045                0.914478888      -90.636413
9.046                0.914235393     -90.7995837
9.047                0.913991225     -90.9632089
9.048                0.913746383     -91.1272898
9.049                0.913500868     -91.2918279
9.05                  0.91325468     -91.4568243
9.051                0.913007819     -91.6222804
9.052                0.912760286     -91.7881974
9.053                0.912512081     -91.9545768
9.054                0.912263203     -92.1214197
9.055                0.912013654     -92.2887275
9.056                0.911763434     -92.4565015
9.057                0.911512544      -92.624743
9.058                0.911260983     -92.7934532
9.059                0.911008752     -92.9626336
9.06                 0.910755853     -93.1322853
9.061                0.910502285     -93.3024098
9.062                0.910248049     -93.4730082
9.063                0.909993145     -93.6440819
9.064                0.909737575     -93.8156321
9.065                0.909481339     -93.9876603
9.066                0.909224439     -94.1601676
9.067                0.908966874     -94.3331554
9.068                0.908708645      -94.506625
9.069                0.908449754     -94.6805776
9.07                 0.908190202     -94.8550146
9.071                0.907929989     -95.0299373
9.072                0.907669117     -95.2053468
9.073                0.907407586     -95.3812446
9.074                0.907145398     -95.5576319
9.075                0.906882554       -95.73451
9.076                0.906619055     -95.9118801
9.077                0.906354902     -96.0897437
9.078                0.906090097     -96.2681018
9.079                0.905824641     -96.4469559
9.08                 0.905558535     -96.6263072
9.081                0.905291781     -96.8061569
9.082                 0.90502438     -96.9865064
9.083                0.904756334     -97.1673569
9.084                0.904487644     -97.3487096
9.085                0.904218313     -97.5305659
9.086                0.903948341     -97.7129271
9.087                0.903677731     -97.8957942
9.088                0.903406484     -98.0791687
9.089                0.903134601     -98.2630518
9.09                 0.902862086     -98.4474447
9.091                 0.90258894     -98.6323487
9.092                0.902315165      -98.817765
9.093                0.902040762     -99.0036949
9.094                0.901765735     -99.1901396
9.095                0.901490084     -99.3771003
9.096                0.901213814     -99.5645783
9.097                0.900936924     -99.7525748
9.098                0.900659419      -99.941091
9.099                  0.9003813     -100.130128
9.1                   0.90010257     -100.319688
9.101                0.899823231      -100.50977
9.102                0.899543287     -100.700378
9.103                0.899262738     -100.891511
9.104                0.898981589     -101.083171
9.105                0.898699841     -101.275359
9.106                0.898417499     -101.468077
9.107                0.898134563     -101.661325
9.108                0.897851039     -101.855105
9.109                0.897566927     -102.049417
9.11                 0.897282232     -102.244264
9.111                0.896996957     -102.439647
9.112                0.896711104     -102.635565
9.113                0.896424678     -102.832021
9.114                 0.89613768     -103.029016
9.115                0.895850116     -103.226551
9.116                0.895561987     -103.424627
9.117                0.895273298     -103.623244
9.118                0.894984052     -103.822405
9.119                0.894694253     -104.022111
9.12                 0.894403904     -104.222362
9.121                 0.89411301     -104.423159
9.122                0.893821573     -104.624505
9.123                0.893529599     -104.826399
9.124                 0.89323709     -105.028842
9.125                0.892944052     -105.231837
9.126                0.892650488     -105.435384
9.127                0.892356402     -105.639484
9.128                0.892061799     -105.844138
9.129                0.891766683     -106.049347
9.13                 0.891471058     -106.255112
9.131                0.891174929     -106.461435
9.132                0.890878301     -106.668316
9.133                0.890581178     -106.875756
9.134                0.890283564     -107.083756
9.135                0.889985465     -107.292318
9.136                0.889686886     -107.501442
9.137                0.889387831     -107.711129
9.138                0.889088306     -107.921381
9.139                0.888788315     -108.132197
9.14                 0.888487864      -108.34358
9.141                0.888186958      -108.55553
9.142                0.887885603     -108.768048
9.143                0.887583803     -108.981134
9.144                0.887281565     -109.194791
9.145                0.886978894     -109.409018
9.146                0.886675795     -109.623817
9.147                0.886372275     -109.839189
9.148                0.886068339     -110.055134
9.149                0.885763993     -110.271653
9.15                 0.885459244     -110.488747
9.151                0.885154096     -110.706417
9.152                0.884848557     -110.924664
9.153                0.884542633     -111.143489
9.154                 0.88423633     -111.362891
9.155                0.883929654     -111.582873
9.156                0.883622613     -111.803435
9.157                0.883315212     -112.024578
9.158                0.883007458     -112.246302
9.159                0.882699359     -112.468608
9.16                 0.882390921     -112.691497
9.161                 0.88208215      -112.91497
9.162                0.881773055     -113.139027
9.163                0.881463642     -113.363669
9.164                0.881153919     -113.588897
9.165                0.880843892     -113.814711
9.166                0.880533569     -114.041112
9.167                0.880222958       -114.2681
9.168                0.879912067     -114.495677
9.169                0.879600902     -114.723843
9.17                 0.879289472     -114.952598
9.171                0.878977785     -115.181943
9.172                0.878665849     -115.411878
9.173                0.878353671     -115.642405
9.174                 0.87804126     -115.873523
9.175                0.877728624     -116.105233
9.176                0.877415772     -116.337536
9.177                0.877102711     -116.570432
9.178                0.876789451     -116.803921
9.179                   0.876476     -117.038004
9.18                 0.876162367     -117.272682
9.181                0.875848561     -117.507954
9.182                 0.87553459     -117.743822
9.183                0.875220464     -117.980285
9.184                0.874906191     -118.217343
9.185                0.874591781     -118.454999
9.186                0.874277243      -118.69325
9.187                0.873962587     -118.932099
9.188                0.873647822     -119.171544
9.189                0.873332958     -119.411587
9.19                 0.873018004     -119.652227
9.191                 0.87270297     -119.893466
9.192                0.872387866     -120.135302
9.193                0.872072702     -120.377736
9.194                0.871757488     -120.620769
9.195                0.871442234     -120.864401
9.196                 0.87112695      -121.10863
9.197                0.870811648     -121.353459
9.198                0.870496336     -121.598887
9.199                0.870181027     -121.844913
9.2                   0.86986573     -122.091538
9.201                0.869550456     -122.338762
9.202                0.869235216     -122.586585
9.203                0.868920022     -122.835007
9.204                0.868604883     -123.084027
9.205                0.868289811     -123.333647
9.206                0.867974818     -123.583865
9.207                0.867659914     -123.834681
9.208                0.867345112     -124.086096
9.209                0.867030422     -124.338109
9.21                 0.866715857      -124.59072
9.211                0.866401427     -124.843929
9.212                0.866087145     -125.097735
9.213                0.865773023     -125.352139
9.214                0.865459072     -125.607139
9.215                0.865145305     -125.862737
9.216                0.864831733      -126.11893
9.217                 0.86451837      -126.37572
9.218                0.864205227     -126.633105
9.219                0.863892317     -126.891086
9.22                 0.863579652     -127.149661
9.221                0.863267245      -127.40883
9.222                0.862955109     -127.668593
9.223                0.862643257      -127.92895
9.224                  0.8623317     -128.189899
9.225                0.862020454      -128.45144
9.226                0.861709529     -128.713573
9.227                 0.86139894     -128.976297
9.228                  0.8610887     -129.239611
9.229                0.860778822     -129.503514
9.23                 0.860469319     -129.768007
9.231                0.860160206     -130.033087
9.232                0.859851495     -130.298755
9.233                  0.8595432     -130.565009
9.234                0.859235335     -130.831849
9.235                0.858927914     -131.099274
9.236                 0.85862095     -131.367283
9.237                0.858314458     -131.635875
9.238                0.858008452      -131.90505
9.239                0.857702946     -132.174805
9.24                 0.857397953      -132.44514
9.241                0.857093489     -132.716055
9.242                0.856789568     -132.987548
9.243                0.856486203     -133.259617
9.244                 0.85618341     -133.532263
9.245                0.855881203     -133.805483
9.246                0.855579597     -134.079276
9.247                0.855278606     -134.353642
9.248                0.854978246     -134.628579
9.249                0.854678531     -134.904086
9.25                 0.854379475     -135.180161
9.251                0.854081095     -135.456803
9.252                0.853783404     -135.734011
9.253                0.853486419     -136.011783
9.254                0.853190153     -136.290118
9.255                0.852894623     -136.569014
9.256                0.852599844      -136.84847
9.257                0.852305831     -137.128485
9.258                0.852012599     -137.409056
9.259                0.851720164     -137.690183
9.26                 0.851428541     -137.971862
9.261                0.851137746     -138.254094
9.262                0.850847795     -138.536876
9.263                0.850558702     -138.820206
9.264                0.850270484     -139.104083
9.265                0.849983157     -139.388504
9.266                0.849696736     -139.673469
9.267                0.849411236     -139.958974
9.268                0.849126674     -140.245019
9.269                0.848843066       -140.5316
9.27                 0.848560428     -140.818717
9.271                0.848278775     -141.106368
9.272                0.847998123     -141.394549
9.273                0.847718489     -141.683259
9.274                0.847439889     -141.972496
9.275                0.847162337     -142.262258
9.276                0.846885852     -142.552543
9.277                0.846610448     -142.843347
9.278                0.846336142      -143.13467
9.279                 0.84606295     -143.426509
9.28                 0.845790888     -143.718861
9.281                0.845519972     -144.011724
9.282                0.845250219     -144.305096
9.283                0.844981644     -144.598973
9.284                0.844714264     -144.893355
9.285                0.844448095     -145.188238
9.286                0.844183153     -145.483619
9.287                0.843919455     -145.779497
9.288                0.843657016     -146.075868
9.289                0.843395853     -146.372729
9.29                 0.843135982     -146.670079
9.291                0.842877419     -146.967914
9.292                 0.84262018     -147.266232
9.293                0.842364283     -147.565029
9.294                0.842109741     -147.864303
9.295                0.841856573     -148.164052
9.296                0.841604793     -148.464271
9.297                0.841354419     -148.764959
9.298                0.841105465     -149.066112
9.299                0.840857949     -149.367727
9.3                  0.840611886     -149.669801
9.301                0.840367292     -149.972331
9.302                0.840124183     -150.275315
9.303                0.839882575     -150.578747
9.304                0.839642484     -150.882627
9.305                0.839403925      -151.18695
9.306                0.839166915     -151.491713
9.307                 0.83893147     -151.796912
9.308                0.838697604     -152.102545
9.309                0.838465334     -152.408608
9.31                 0.838234675     -152.715098
9.311                0.838005643      -153.02201
9.312                0.837778253     -153.329343
9.313                0.837552521     -153.637091
9.314                0.837328462     -153.945253
9.315                0.837106091     -154.253823
9.316                0.836885423     -154.562799
9.317                0.836666475     -154.872176
9.318                 0.83644926     -155.181952
9.319                0.836233794     -155.492122
9.32                 0.836020091     -155.802682
9.321                0.835808168     -156.113629
9.322                0.835598037      -156.42496
9.323                0.835389715     -156.736669
9.324                0.835183215     -157.048754
9.325                0.834978553      -157.36121
9.326                0.834775742     -157.674033
9.327                0.834574796      -157.98722
9.328                0.834375731     -158.300766
9.329                 0.83417856     -158.614668
9.33                 0.833983297      -158.92892
9.331                0.833789957      -159.24352
9.332                0.833598552     -159.558463
9.333                0.833409096     -159.873745
9.334                0.833221604     -160.189361
9.335                0.833036089     -160.505307
9.336                0.832852563      -160.82158
9.337                 0.83267104     -161.138175
9.338                0.832491534     -161.455087
9.339                0.832314057     -161.772312
9.34                 0.832138622     -162.089846
9.341                0.831965241     -162.407684
9.342                0.831793928     -162.725822
9.343                0.831624695     -163.044256
9.344                0.831457553      -163.36298
9.345                0.831292516     -163.681991
9.346                0.831129595     -164.001284
9.347                0.830968802     -164.320853
9.348                0.830810149     -164.640696
9.349                0.830653647     -164.960807
9.35                 0.830499308     -165.281181
9.351                0.830347143     -165.601814
9.352                0.830197163       -165.9227
9.353                0.830049379     -166.243836
9.354                0.829903802     -166.565217
9.355                0.829760443     -166.886837
9.356                0.829619311     -167.208692
9.357                0.829480418     -167.530778
9.358                0.829343773     -167.853088
9.359                0.829209387     -168.175619
9.36                 0.829077269     -168.498366
9.361                0.828947428     -168.821323
9.362                0.828819875     -169.144486
9.363                0.828694618     -169.467849
9.364                0.828571667     -169.791409
9.365                 0.82845103     -170.115159
9.366                0.828332716     -170.439094
9.367                0.828216734     -170.763211
9.368                0.828103091     -171.087503
9.369                0.827991797     -171.411965
9.37                 0.827882859     -171.736594
9.371                0.827776285     -172.061382
9.372                0.827672082     -172.386326
9.373                0.827570258      -172.71142
9.374                 0.82747082      -173.03666
9.375                0.827373774     -173.362039
9.376                0.827279129     -173.687552
9.377                0.827186889     -174.013196
9.378                0.827097063     -174.338963
9.379                0.827009655      -174.66485
9.38                 0.826924672      -174.99085
9.381                0.826842119     -175.316959
9.382                0.826762002     -175.643172
9.383                0.826684327     -175.969482
9.384                0.826609098     -176.295886
9.385                0.826536321     -176.622377
9.386                   0.826466      -176.94895
9.387                 0.82639814     -177.275601
9.388                0.826332744     -177.602322
9.389                0.826269818     -177.929111
9.39                 0.826209364      -178.25596
9.391                0.826151387     -178.582865
9.392                0.826095889     -178.909821
9.393                0.826042875     -179.236821
9.394                0.825992347     -179.563862
9.395                0.825944308     -179.890936
9.396                 0.82589876       179.78196
