! TOUCHSTONE file generated by CST DESIGN STUDIO
! Date and time: Tue Feb  4 18:12:24 2025
! Project name: C:\Work\MatlabApps\UnitCellOptimizationMatlab\CST\unitcell.cst
! Tree item: Tasks\Sweep1\SPara1\S-Parameters
! Header version: 2024
! Port assignment regex: !\s*Touchstone port\s*([0-9]+)\s*=\s*(CST MWS port|CST DES external port|CST DES block port)\s*(.+)\s* \(\"(.*)\"\)(\s*mode\s*([0-9]+))?.*
! Touchstone port assignment:
! Touchstone port 1 = CST DES external port 1 ("")
# GHz S MA R 50
9                    0.947265902     -61.2068788
9.001                0.947142955      -61.292924
9.002                 0.94701962     -61.3791751
9.003                0.946895894     -61.4656328
9.004                0.946771777     -61.5522976
9.005                0.946647266     -61.6391704
9.006                0.946522362     -61.7262517
9.007                0.946397062     -61.8135422
9.008                0.946271365     -61.9010427
9.009                0.946145269     -61.9887538
9.01                 0.946018774     -62.0766763
9.011                0.945891879     -62.1648107
9.012                 0.94576458     -62.2531578
9.013                0.945636879     -62.3417183
9.014                0.945508772     -62.4304929
9.015                0.945380259     -62.5194823
9.016                0.945251338     -62.6086871
9.017                0.945122008     -62.6981082
9.018                0.944992267     -62.7877462
9.019                0.944862115     -62.8776018
9.02                 0.944731549     -62.9676757
9.021                0.944600569     -63.0579686
9.022                0.944469173     -63.1484813
9.023                0.944337359     -63.2392145
9.024                0.944205127      -63.330169
9.025                0.944072474     -63.4213453
9.026                  0.9439394     -63.5127443
9.027                0.943805903     -63.6043667
9.028                0.943671982     -63.6962132
9.029                0.943537635     -63.7882846
9.03                  0.94340286     -63.8805816
9.031                0.943267658      -63.973105
9.032                0.943132025     -64.0658554
9.033                 0.94299596     -64.1588337
9.034                0.942859463     -64.2520406
9.035                0.942722532     -64.3454768
9.036                0.942585165     -64.4391431
9.037                0.942447361     -64.5330402
9.038                0.942309118      -64.627169
9.039                0.942170436     -64.7215301
9.04                 0.942031312     -64.8161244
9.041                0.941891745     -64.9109526
9.042                0.941751734     -65.0060155
9.043                0.941611277     -65.1013139
9.044                0.941470373     -65.1968484
9.045                0.941329021       -65.29262
9.046                0.941187218     -65.3886294
9.047                0.941044964     -65.4848774
9.048                0.940902258     -65.5813647
9.049                0.940759096     -65.6780922
9.05                 0.940615479     -65.7750607
9.051                0.940471404     -65.8722709
9.052                0.940326871     -65.9697236
9.053                0.940181877     -66.0674197
9.054                0.940036422       -66.16536
9.055                0.939890504     -66.2635452
9.056                0.939744121     -66.3619761
9.057                0.939597271     -66.4606537
9.058                0.939449954     -66.5595787
9.059                0.939302169     -66.6587518
9.06                 0.939153912      -66.758174
9.061                0.939005184     -66.8578461
9.062                0.938855981     -66.9577689
9.063                0.938706304     -67.0579432
9.064                0.938556151     -67.1583698
9.065                0.938405519     -67.2590496
9.066                0.938254408     -67.3599835
9.067                0.938102817     -67.4611722
9.068                0.937950742     -67.5626166
9.069                0.937798184     -67.6643176
9.07                  0.93764514      -67.766276
9.071                0.937491609     -67.8684926
9.072                 0.93733759     -67.9709684
9.073                0.937183081     -68.0737041
9.074                0.937028081     -68.1767007
9.075                0.936872588      -68.279959
9.076                  0.9367166     -68.3834798
9.077                0.936560116     -68.4872641
9.078                0.936403135     -68.5913127
9.079                0.936245655     -68.6956264
9.08                 0.936087675     -68.8002063
9.081                0.935929192      -68.905053
9.082                0.935770206     -69.0101676
9.083                0.935610715      -69.115551
9.084                0.935450718     -69.2212039
9.085                0.935290213     -69.3271274
9.086                0.935129198     -69.4333222
9.087                0.934967673     -69.5397893
9.088                0.934805634     -69.6465297
9.089                0.934643082     -69.7535441
9.09                 0.934480015     -69.8608336
9.091                 0.93431643      -69.968399
9.092                0.934152327     -70.0762412
9.093                0.933987703     -70.1843612
9.094                0.933822559     -70.2927598
9.095                0.933656891     -70.4014381
9.096                0.933490699     -70.5103969
9.097                 0.93332398     -70.6196372
9.098                0.933156734     -70.7291598
9.099                0.932988959     -70.8389658
9.1                  0.932820653      -70.949056
9.101                0.932651816     -71.0594314
9.102                0.932482444      -71.170093
9.103                0.932312538     -71.2810417
9.104                0.932142095     -71.3922785
9.105                0.931971114     -71.5038042
9.106                0.931799593     -71.6156199
9.107                0.931627531     -71.7277265
9.108                0.931454927      -71.840125
9.109                0.931281779     -71.9528163
9.11                 0.931108085     -72.0658015
9.111                0.930933844     -72.1790814
9.112                0.930759054     -72.2926571
9.113                0.930583714     -72.4065295
9.114                0.930407823     -72.5206997
9.115                0.930231379     -72.6351685
9.116                 0.93005438     -72.7499371
9.117                0.929876826     -72.8650063
9.118                0.929698714     -72.9803772
9.119                0.929520043     -73.0960508
9.12                 0.929340811      -73.212028
9.121                0.929161018     -73.3283099
9.122                0.928980661     -73.4448974
9.123                 0.92879974     -73.5617917
9.124                0.928618252     -73.6789936
9.125                0.928436197     -73.7965043
9.126                0.928253573     -73.9143247
9.127                0.928070378     -74.0324558
9.128                0.927886611     -74.1508987
9.129                 0.92770227     -74.2696544
9.13                 0.927517354     -74.3887239
9.131                0.927331863     -74.5081082
9.132                0.927145793     -74.6278085
9.133                0.926959144     -74.7478257
9.134                0.926771915     -74.8681608
9.135                0.926584103      -74.988815
9.136                0.926395708     -75.1097892
9.137                0.926206728     -75.2310845
9.138                0.926017162      -75.352702
9.139                0.925827008     -75.4746428
9.14                 0.925636265     -75.5969078
9.141                0.925444932     -75.7194981
9.142                0.925253007     -75.8424149
9.143                0.925060488     -75.9656591
9.144                0.924867375     -76.0892319
9.145                0.924673667     -76.2131343
9.146                 0.92447936     -76.3373674
9.147                0.924284456     -76.4619323
9.148                0.924088951       -76.58683
9.149                0.923892845     -76.7120617
9.15                 0.923696136     -76.8376285
9.151                0.923498823     -76.9635313
9.152                0.923300905     -77.0897714
9.153                0.923102381     -77.2163499
9.154                0.922903248     -77.3432677
9.155                0.922703506     -77.4705261
9.156                0.922503154     -77.5981261
9.157                 0.92230219     -77.7260688
9.158                0.922100613     -77.8543554
9.159                0.921898422      -77.982987
9.16                 0.921695615     -78.1119646
9.161                0.921492192     -78.2412895
9.162                 0.92128815     -78.3709627
9.163                 0.92108349     -78.5009854
9.164                0.920878208     -78.6313587
9.165                0.920672306     -78.7620836
9.166                 0.92046578     -78.8931615
9.167                 0.92025863     -79.0245933
9.168                0.920050855     -79.1563803
9.169                0.919842454     -79.2885235
9.17                 0.919633425     -79.4210242
9.171                0.919423767     -79.5538834
9.172                 0.91921348     -79.6871024
9.173                0.919002561     -79.8206822
9.174                0.918791011     -79.9546241
9.175                0.918578827     -80.0889292
9.176                 0.91836601     -80.2235987
9.177                0.918152556     -80.3586336
9.178                0.917938467     -80.4940353
9.179                 0.91772374     -80.6298048
9.18                 0.917508375     -80.7659434
9.181                 0.91729237     -80.9024521
9.182                0.917075725     -81.0393323
9.183                0.916858438      -81.176585
9.184                0.916640508     -81.3142115
9.185                0.916421936     -81.4522129
9.186                0.916202719     -81.5905904
9.187                0.915982856     -81.7293453
9.188                0.915762348     -81.8684786
9.189                0.915541192     -82.0079917
9.19                 0.915319388     -82.1478857
9.191                0.915096935     -82.2881618
9.192                0.914873832     -82.4288212
9.193                0.914650079     -82.5698651
9.194                0.914425674     -82.7112947
9.195                0.914200617     -82.8531112
9.196                0.913974906     -82.9953159
9.197                0.913748542     -83.1379099
9.198                0.913521524     -83.2808946
9.199                0.913293849      -83.424271
9.2                  0.913065519     -83.5680404
9.201                0.912836532      -83.712204
9.202                0.912606887     -83.8567632
9.203                0.912376585      -84.001719
9.204                0.912145623     -84.1470727
9.205                0.911914002     -84.2928256
9.206                0.911681721     -84.4389788
9.207                0.911448779     -84.5855337
9.208                0.911215176     -84.7324914
9.209                0.910980911     -84.8798533
9.21                 0.910745983     -85.0276204
9.211                0.910510393     -85.1757942
9.212                 0.91027414     -85.3243757
9.213                0.910037223     -85.4733664
9.214                0.909799641     -85.6227674
9.215                0.909561395     -85.7725799
9.216                0.909322484     -85.9228053
9.217                0.909082908     -86.0734447
9.218                0.908842665     -86.2244995
9.219                0.908601757     -86.3759709
9.22                 0.908360182     -86.5278601
9.221                0.908117941     -86.6801685
9.222                0.907875032     -86.8328972
9.223                0.907631457     -86.9860475
9.224                0.907387214     -87.1396208
9.225                0.907142304     -87.2936182
9.226                0.906896726     -87.4480411
9.227                 0.90665048     -87.6028907
9.228                0.906403566     -87.7581682
9.229                0.906155984      -87.913875
9.23                 0.905907735     -88.0700123
9.231                0.905658817     -88.2265814
9.232                0.905409232     -88.3835836
9.233                0.905158978     -88.5410201
9.234                0.904908057     -88.6988922
9.235                0.904656468     -88.8572013
9.236                0.904404211     -89.0159485
9.237                0.904151287     -89.1751352
9.238                0.903897696     -89.3347626
9.239                0.903643438      -89.494832
9.24                 0.903388513     -89.6553447
9.241                0.903132921      -89.816302
9.242                0.902876664     -89.9777052
9.243                0.902619741     -90.1395555
9.244                0.902362152     -90.3018543
9.245                0.902103899     -90.4646028
9.246                0.901844981     -90.6278022
9.247                0.901585399      -90.791454
9.248                0.901325154     -90.9555593
9.249                0.901064246     -91.1201195
9.25                 0.900802676     -91.2851359
9.251                0.900540444     -91.4506097
9.252                0.900277552     -91.6165422
9.253                0.900013999     -91.7829347
9.254                0.899749787     -91.9497885
9.255                0.899484916     -92.1171049
9.256                0.899219387     -92.2848851
9.257                0.898953202     -92.4531305
9.258                 0.89868636     -92.6218423
9.259                0.898418864     -92.7910218
9.26                 0.898150714     -92.9606704
9.261                 0.89788191     -93.1307892
9.262                0.897612455     -93.3013796
9.263                0.897342349     -93.4724428
9.264                0.897071593     -93.6439802
9.265                0.896800188      -93.815993
9.266                0.896528137     -93.9884824
9.267                 0.89625544     -94.1614499
9.268                0.895982098     -94.3348966
9.269                0.895708113     -94.5088238
9.27                 0.895433486     -94.6832328
9.271                0.895158219     -94.8581249
9.272                0.894882314     -95.0335014
9.273                0.894605771     -95.2093635
9.274                0.894328593     -95.3857124
9.275                 0.89405078     -95.5625495
9.276                0.893772336     -95.7398761
9.277                0.893493261     -95.9176933
9.278                0.893213558     -96.0960025
9.279                0.892933228     -96.2748049
9.28                 0.892652273     -96.4541018
9.281                0.892370695     -96.6338944
9.282                0.892088497      -96.814184
9.283                0.891805679     -96.9949718
9.284                0.891522245     -97.1762592
9.285                0.891238197     -97.3580472
9.286                0.890953536     -97.5403372
9.287                0.890668266     -97.7231305
9.288                0.890382388     -97.9064282
9.289                0.890095904     -98.0902316
9.29                 0.889808818      -98.274542
9.291                0.889521132     -98.4593605
9.292                0.889232848     -98.6446884
9.293                0.888943968     -98.8305269
9.294                0.888654497     -99.0168772
9.295                0.888364436     -99.2037406
9.296                0.888073787     -99.3911183
9.297                0.887782555     -99.5790114
9.298                0.887490742     -99.7674212
9.299                0.887198351     -99.9563489
9.3                  0.886905384     -100.145796
9.301                0.886611846     -100.335763
9.302                0.886317738     -100.526251
9.303                0.886023065     -100.717262
9.304                 0.88572783     -100.908797
9.305                0.885432036     -101.100857
9.306                0.885135686     -101.293444
9.307                0.884838785     -101.486557
9.308                0.884541334     -101.680199
9.309                0.884243339     -101.874371
9.31                 0.883944803     -102.069073
9.311                0.883645729     -102.264308
9.312                0.883346121     -102.460075
9.313                0.883045984     -102.656377
9.314                0.882745321     -102.853214
9.315                0.882444136     -103.050588
9.316                0.882142433     -103.248499
9.317                0.881840217     -103.446949
9.318                0.881537492     -103.645939
9.319                0.881234261      -103.84547
9.32                  0.88093053     -104.045543
9.321                0.880626303     -104.246159
9.322                0.880321584     -104.447319
9.323                0.880016378     -104.649024
9.324                 0.87971069     -104.851276
9.325                0.879404524     -105.054074
9.326                0.879097885     -105.257422
9.327                0.878790779     -105.461319
9.328                0.878483209     -105.665766
9.329                0.878175182     -105.870765
9.33                 0.877866701     -106.076316
9.331                0.877557774     -106.282422
9.332                0.877248404     -106.489081
9.333                0.876938597     -106.696296
9.334                0.876628359     -106.904068
9.335                0.876317694     -107.112397
9.336                 0.87600661     -107.321285
9.337                 0.87569511     -107.530732
9.338                0.875383202     -107.740739
9.339                0.875070891     -107.951308
9.34                 0.874758183     -108.162439
9.341                0.874445084     -108.374134
9.342                  0.8741316     -108.586392
9.343                0.873817737     -108.799216
9.344                0.873503501     -109.012605
9.345                  0.8731889     -109.226561
9.346                0.872873938     -109.441085
9.347                0.872558624     -109.656177
9.348                0.872242962     -109.871839
9.349                0.871926961      -110.08807
9.35                 0.871610627     -110.304873
9.351                0.871293966     -110.522248
9.352                0.870976987     -110.740195
9.353                0.870659694     -110.958716
9.354                0.870342097     -111.177811
9.355                0.870024202     -111.397481
9.356                0.869706016     -111.617726
9.357                0.869387548     -111.838548
9.358                0.869068803     -112.059948
9.359                 0.86874979     -112.281925
9.36                 0.868430517     -112.504481
9.361                0.868110991     -112.727616
9.362                0.867791221     -112.951331
9.363                0.867471213     -113.175627
9.364                0.867150977     -113.400504
9.365                 0.86683052     -113.625963
9.366                0.866509851     -113.852005
9.367                0.866188977      -114.07863
9.368                0.865867908     -114.305838
9.369                0.865546651     -114.533631
9.37                 0.865225216     -114.762009
9.371                0.864903611     -114.990972
9.372                0.864581844     -115.220522
9.373                0.864259926     -115.450657
9.374                0.863937864      -115.68138
9.375                0.863615668      -115.91269
9.376                0.863293346     -116.144589
9.377                0.862970909     -116.377075
9.378                0.862648366     -116.610151
9.379                0.862325726     -116.843816
9.38                 0.862002998      -117.07807
9.381                0.861680192     -117.312915
9.382                0.861357319      -117.54835
9.383                0.861034387     -117.784375
9.384                0.860711407     -118.020992
9.385                0.860388388       -118.2582
9.386                0.860065342        -118.496
9.387                0.859742277     -118.734392
9.388                0.859419205     -118.973376
9.389                0.859096136     -119.212953
9.39                 0.858773081     -119.453122
9.391                0.858450049     -119.693884
9.392                0.858127052      -119.93524
9.393                  0.8578041     -120.177188
9.394                0.857481205      -120.41973
9.395                0.857158377     -120.662865
9.396                0.856835627     -120.906594
