! TOUCHSTONE file generated by CST DESIGN STUDIO
! Date and time: Tue Feb  4 15:57:27 2025
! Project name: C:\Work\MatlabApps\UnitCellOptimizationMatlab\CST\unitcell.cst
! Tree item: Tasks\Sweep1\SPara1\S-Parameters
! Header version: 2024
! Port assignment regex: !\s*Touchstone port\s*([0-9]+)\s*=\s*(CST MWS port|CST DES external port|CST DES block port)\s*(.+)\s* \(\"(.*)\"\)(\s*mode\s*([0-9]+))?.*
! Touchstone port assignment:
! Touchstone port 1 = CST DES external port 1 ("")
# GHz S MA R 50
9                    0.975893986     -66.3428937
9.001                0.975841467     -66.4414227
9.002                0.975788694     -66.5401955
9.003                0.975735666     -66.6392128
9.004                0.975682383     -66.7384755
9.005                0.975628843     -66.8379844
9.006                0.975575046     -66.9377401
9.007                0.975520991     -67.0377435
9.008                0.975466677     -67.1379954
9.009                0.975412102     -67.2384965
9.01                 0.975357267     -67.3392477
9.011                 0.97530217     -67.4402497
9.012                0.975246809     -67.5415034
9.013                0.975191185     -67.6430094
9.014                0.975135296     -67.7447687
9.015                0.975079142      -67.846782
9.016                0.975022721     -67.9490501
9.017                0.974966032     -68.0515739
9.018                0.974909075     -68.1543541
9.019                0.974851849     -68.2573916
9.02                 0.974794352     -68.3606871
9.021                0.974736584     -68.4642415
9.022                0.974678543     -68.5680556
9.023                 0.97462023     -68.6721303
9.024                0.974561643     -68.7764662
9.025                 0.97450278     -68.8810644
9.026                0.974443642     -68.9859256
9.027                0.974384226     -69.0910506
9.028                0.974324533     -69.1964403
9.029                0.974264562     -69.3020954
9.03                  0.97420431      -69.408017
9.031                0.974143778     -69.5142057
9.032                0.974082965     -69.6206625
9.033                0.974021869     -69.7273881
9.034                0.973960489     -69.8343835
9.035                0.973898825     -69.9416495
9.036                0.973836876     -70.0491869
9.037                0.973774641     -70.1569966
9.038                0.973712119     -70.2650795
9.039                0.973649308     -70.3734364
9.04                 0.973586209     -70.4820681
9.041                0.973522819     -70.5909757
9.042                0.973459139     -70.7001599
9.043                0.973395167     -70.8096215
9.044                0.973330902     -70.9193616
9.045                0.973266344     -71.0293809
9.046                0.973201491     -71.1396804
9.047                0.973136342     -71.2502608
9.048                0.973070897     -71.3611232
9.049                0.973005155     -71.4722684
9.05                 0.972939114     -71.5836973
9.051                0.972872774     -71.6954108
9.052                0.972806134     -71.8074097
9.053                0.972739193      -71.919695
9.054                 0.97267195     -72.0322677
9.055                0.972604404     -72.1451285
9.056                0.972536554     -72.2582784
9.057                0.972468399     -72.3717183
9.058                0.972399939     -72.4854491
9.059                0.972331172     -72.5994718
9.06                 0.972262097     -72.7137872
9.061                0.972192714     -72.8283963
9.062                0.972123021        -72.9433
9.063                0.972053019     -73.0584993
9.064                0.971982705      -73.173995
9.065                0.971912079      -73.289788
9.066                 0.97184114     -73.4058794
9.067                0.971769887     -73.5222701
9.068                0.971698319     -73.6389609
9.069                0.971626435     -73.7559529
9.07                 0.971554235     -73.8732469
9.071                0.971481717      -73.990844
9.072                0.971408881     -74.1087451
9.073                0.971335726     -74.2269511
9.074                 0.97126225     -74.3454629
9.075                0.971188453     -74.4642817
9.076                0.971114334     -74.5834082
9.077                0.971039892     -74.7028434
9.078                0.970965126     -74.8225884
9.079                0.970890036     -74.9426441
9.08                  0.97081462     -75.0630115
9.081                0.970738878     -75.1836914
9.082                0.970662808      -75.304685
9.083                 0.97058641     -75.4259932
9.084                0.970509683      -75.547617
9.085                0.970432626     -75.6695573
9.086                0.970355239     -75.7918151
9.087                0.970277519     -75.9143915
9.088                0.970199467     -76.0372874
9.089                0.970121082     -76.1605037
9.09                 0.970042362     -76.2840416
9.091                0.969963307      -76.407902
9.092                0.969883917     -76.5320859
9.093                0.969804189     -76.6565943
9.094                0.969724124     -76.7814281
9.095                 0.96964372     -76.9065885
9.096                0.969562977     -77.0320765
9.097                0.969481894     -77.1578929
9.098                 0.96940047     -77.2840389
9.099                0.969318704     -77.4105155
9.1                  0.969236595     -77.5373237
9.101                0.969154143     -77.6644644
9.102                0.969071347     -77.7919388
9.103                0.968988205     -77.9197479
9.104                0.968904718     -78.0478926
9.105                0.968820884     -78.1763741
9.106                0.968736702     -78.3051933
9.107                0.968652172     -78.4343513
9.108                0.968567293     -78.5638492
9.109                0.968482065     -78.6936879
9.11                 0.968396485     -78.8238685
9.111                0.968310554     -78.9543921
9.112                0.968224271     -79.0852596
9.113                0.968137635     -79.2164723
9.114                0.968050646      -79.348031
9.115                0.967963302     -79.4799369
9.116                0.967875602      -79.612191
9.117                0.967787547     -79.7447944
9.118                0.967699135     -79.8777481
9.119                0.967610366     -80.0110533
9.12                 0.967521238     -80.1447108
9.121                0.967431752      -80.278722
9.122                0.967341906     -80.4130877
9.123                0.967251699     -80.5478091
9.124                0.967161132     -80.6828872
9.125                0.967070203     -80.8183232
9.126                0.966978912      -80.954118
9.127                0.966887257     -81.0902729
9.128                0.966795239     -81.2267887
9.129                0.966702856     -81.3636668
9.13                 0.966610108      -81.500908
9.131                0.966516995     -81.6385136
9.132                0.966423515     -81.7764846
9.133                0.966329668     -81.9148221
9.134                0.966235453     -82.0535272
9.135                 0.96614087     -82.1926009
9.136                0.966045918     -82.3320445
9.137                0.965950596     -82.4718589
9.138                0.965854905     -82.6120453
9.139                0.965758842     -82.7526048
9.14                 0.965662408     -82.8935385
9.141                0.965565603     -83.0348475
9.142                0.965468424     -83.1765329
9.143                0.965370873     -83.3185957
9.144                0.965272948     -83.4610372
9.145                0.965174649     -83.6038585
9.146                0.965075975     -83.7470606
9.147                0.964976925     -83.8906446
9.148                  0.9648775     -84.0346118
9.149                0.964777699     -84.1789631
9.15                 0.964677521     -84.3236998
9.151                0.964576965     -84.4688229
9.152                0.964476032     -84.6143335
9.153                0.964374721     -84.7602329
9.154                 0.96427303     -84.9065221
9.155                0.964170961     -85.0532022
9.156                0.964068512     -85.2002744
9.157                0.963965683     -85.3477397
9.158                0.963862473     -85.4955994
9.159                0.963758882     -85.6438546
9.16                  0.96365491     -85.7925064
9.161                0.963550557     -85.9415559
9.162                0.963445821     -86.0910043
9.163                0.963340703     -86.2408526
9.164                0.963235202     -86.3911021
9.165                0.963129317     -86.5417539
9.166                 0.96302305     -86.6928091
9.167                0.962916398     -86.8442689
9.168                0.962809363     -86.9961343
9.169                0.962701942     -87.1484067
9.17                 0.962594137     -87.3010869
9.171                0.962485948     -87.4541764
9.172                0.962377372     -87.6076761
9.173                0.962268412     -87.7615872
9.174                0.962159065     -87.9159108
9.175                0.962049333     -88.0706482
9.176                0.961939214     -88.2258005
9.177                0.961828709     -88.3813687
9.178                0.961717817     -88.5373541
9.179                0.961606539     -88.6937578
9.18                 0.961494874      -88.850581
9.181                0.961382822     -89.0078247
9.182                0.961270382     -89.1654902
9.183                0.961157555     -89.3235786
9.184                0.961044341      -89.482091
9.185                 0.96093074     -89.6410287
9.186                0.960816751     -89.8003926
9.187                0.960702374     -89.9601841
9.188                 0.96058761     -90.1204042
9.189                0.960472458     -90.2810542
9.19                 0.960356919      -90.442135
9.191                0.960240992      -90.603648
9.192                0.960124677     -90.7655942
9.193                0.960007975     -90.9279748
9.194                0.959890885     -91.0907909
9.195                0.959773408     -91.2540437
9.196                0.959655544     -91.4177344
9.197                0.959537293      -91.581864
9.198                0.959418654     -91.7464338
9.199                0.959299629     -91.9114449
9.2                  0.959180217     -92.0768983
9.201                0.959060418     -92.2427954
9.202                0.958940233     -92.4091371
9.203                0.958819663     -92.5759247
9.204                0.958698706     -92.7431593
9.205                0.958577363     -92.9108421
9.206                0.958455636     -93.0789741
9.207                0.958333523     -93.2475565
9.208                0.958211026     -93.4165905
9.209                0.958088144     -93.5860771
9.21                 0.957964879     -93.7560176
9.211                 0.95784123     -93.9264131
9.212                0.957717198     -94.0972646
9.213                0.957592783     -94.2685733
9.214                0.957467985     -94.4403404
9.215                0.957342806      -94.612567
9.216                0.957217246     -94.7852542
9.217                0.957091305      -94.958403
9.218                0.956964983     -95.1320148
9.219                0.956838282     -95.3060905
9.22                 0.956711202     -95.4806312
9.221                0.956583743     -95.6556382
9.222                0.956455906     -95.8311125
9.223                0.956327692     -96.0070552
9.224                0.956199102     -96.1834674
9.225                0.956070136     -96.3603503
9.226                0.955940794     -96.5377049
9.227                0.955811078     -96.7155324
9.228                0.955680989     -96.8938337
9.229                0.955550526     -97.0726101
9.23                 0.955419692     -97.2518627
9.231                0.955288486     -97.4315924
9.232                0.955156911     -97.6118005
9.233                0.955024966     -97.7924879
9.234                0.954892652     -97.9736558
9.235                0.954759971     -98.1553052
9.236                0.954626923     -98.3374373
9.237                 0.95449351      -98.520053
9.238                0.954359733     -98.7031535
9.239                0.954225592     -98.8867397
9.24                 0.954091088     -99.0708129
9.241                0.953956224      -99.255374
9.242                0.953820999      -99.440424
9.243                0.953685416     -99.6259641
9.244                0.953549475     -99.8119952
9.245                0.953413178     -99.9985184
9.246                0.953276525     -100.185535
9.247                0.953139519     -100.373045
9.248                0.953002159     -100.561051
9.249                0.952864449     -100.749553
9.25                 0.952726389     -100.938552
9.251                0.952587981     -101.128049
9.252                0.952449225     -101.318046
9.253                0.952310125     -101.508543
9.254                 0.95217068     -101.699541
9.255                0.952030893     -101.891041
9.256                0.951890765     -102.083045
9.257                0.951750297     -102.275552
9.258                0.951609492     -102.468565
9.259                0.951468352     -102.662084
9.26                 0.951326877      -102.85611
9.261                0.951185069     -103.050644
9.262                0.951042931     -103.245687
9.263                0.950900464      -103.44124
9.264                 0.95075767     -103.637304
9.265                 0.95061455      -103.83388
9.266                0.950471108     -104.030968
9.267                0.950327344      -104.22857
9.268                0.950183261     -104.426687
9.269                 0.95003886     -104.625319
9.27                 0.949894144     -104.824467
9.271                0.949749115     -105.024133
9.272                0.949603775     -105.224316
9.273                0.949458127     -105.425019
9.274                0.949312171     -105.626241
9.275                0.949165911     -105.827985
9.276                0.949019349     -106.030249
9.277                0.948872487     -106.233037
9.278                0.948725327     -106.436347
9.279                0.948577873     -106.640181
9.28                 0.948430125     -106.844541
9.281                0.948282088     -107.049426
9.282                0.948133762     -107.254837
9.283                0.947985152     -107.460776
9.284                0.947836259     -107.667242
9.285                0.947687086     -107.874238
9.286                0.947537636     -108.081763
9.287                0.947387911     -108.289819
9.288                0.947237915     -108.498405
9.289                0.947087649     -108.707524
9.29                 0.946937117     -108.917174
9.291                0.946786322     -109.127359
9.292                0.946635266     -109.338077
9.293                0.946483953     -109.549329
9.294                0.946332386     -109.761118
9.295                0.946180567     -109.973442
9.296                  0.9460285     -110.186303
9.297                0.945876187     -110.399701
9.298                0.945723632     -110.613637
9.299                0.945570839     -110.828111
9.3                   0.94541781     -111.043125
9.301                0.945264549     -111.258679
9.302                0.945111058     -111.474773
9.303                0.944957343     -111.691408
9.304                0.944803405     -111.908585
9.305                0.944649248     -112.126304
9.306                0.944494876     -112.344565
9.307                0.944340293      -112.56337
9.308                0.944185502     -112.782718
9.309                0.944030507     -113.002611
9.31                  0.94387531     -113.223048
9.311                0.943719917      -113.44403
9.312                0.943564331     -113.665559
9.313                0.943408556     -113.887633
9.314                0.943252596     -114.110254
9.315                0.943096454     -114.333422
9.316                0.942940134     -114.557137
9.317                0.942783642       -114.7814
9.318                0.942626979     -115.006211
9.319                0.942470152     -115.231571
9.32                 0.942313164      -115.45748
9.321                0.942156019     -115.683938
9.322                0.941998721     -115.910946
9.323                0.941841275     -116.138504
9.324                0.941683685     -116.366611
9.325                0.941525956      -116.59527
9.326                0.941368091     -116.824479
9.327                0.941210096     -117.054239
9.328                0.941051975      -117.28455
9.329                0.940893733     -117.515413
9.33                 0.940735374     -117.746827
9.331                0.940576903     -117.978794
9.332                0.940418324     -118.211312
9.333                0.940259643     -118.444382
9.334                0.940100864     -118.678005
9.335                0.939941993      -118.91218
9.336                0.939783034     -119.146908
9.337                0.939623991     -119.382188
9.338                0.939464871     -119.618021
9.339                0.939305678     -119.854407
9.34                 0.939146417     -120.091345
9.341                0.938987094     -120.328836
9.342                0.938827714      -120.56688
9.343                0.938668282     -120.805477
9.344                0.938508803     -121.044626
9.345                0.938349282     -121.284328
9.346                0.938189726     -121.524582
9.347                 0.93803014     -121.765389
9.348                0.937870528     -122.006748
9.349                0.937710898     -122.248659
9.35                 0.937551253     -122.491122
9.351                0.937391601     -122.734137
9.352                0.937231946     -122.977703
9.353                0.937072295     -123.221821
9.354                0.936912653      -123.46649
9.355                0.936753026      -123.71171
9.356                 0.93659342      -123.95748
9.357                0.936433841     -124.203801
9.358                0.936274295     -124.450672
9.359                0.936114788     -124.698092
9.36                 0.935955326     -124.946062
9.361                0.935795915      -125.19458
9.362                0.935636562     -125.443647
9.363                0.935477272     -125.693262
9.364                0.935318053     -125.943424
9.365                0.935158909     -126.194133
9.366                0.934999848     -126.445389
9.367                0.934840877     -126.697191
9.368                   0.934682     -126.949538
9.369                0.934523226     -127.202431
9.37                  0.93436456     -127.455867
9.371                 0.93420601     -127.709848
9.372                0.934047581     -127.964371
9.373                0.933889281     -128.219437
9.374                0.933731116     -128.475044
9.375                0.933573093     -128.731192
9.376                0.933415218     -128.987881
9.377                  0.9332575     -129.245109
9.378                0.933099944     -129.502876
9.379                0.932942557      -129.76118
9.38                 0.932785347     -130.020022
9.381                 0.93262832     -130.279399
9.382                0.932471484     -130.539313
9.383                0.932314846      -130.79976
9.384                0.932158413     -131.060741
9.385                0.932002191     -131.322254
9.386                0.931846189     -131.584299
9.387                0.931690414     -131.846874
9.388                0.931534872     -132.109979
9.389                0.931379571     -132.373612
9.39                 0.931224519     -132.637772
9.391                0.931069723     -132.902459
9.392                 0.93091519      -133.16767
9.393                0.930760928     -133.433405
9.394                0.930606944     -133.699663
9.395                0.930453247     -133.966442
9.396                0.930299843     -134.233742
