! TOUCHSTONE file generated by CST DESIGN STUDIO
! Date and time: Tue Feb  4 15:57:22 2025
! Project name: C:\Work\MatlabApps\UnitCellOptimizationMatlab\CST\unitcell.cst
! Tree item: Tasks\Sweep1\SPara1\S-Parameters
! Header version: 2024
! Port assignment regex: !\s*Touchstone port\s*([0-9]+)\s*=\s*(CST MWS port|CST DES external port|CST DES block port)\s*(.+)\s* \(\"(.*)\"\)(\s*mode\s*([0-9]+))?.*
! Touchstone port assignment:
! Touchstone port 1 = CST DES external port 1 ("")
# GHz S MA R 50
9                    0.972391872     -74.6359031
9.001                0.972331755     -74.7540851
9.002                 0.97227136     -74.8725749
9.003                0.972210687     -74.9913734
9.004                0.972149735     -75.1104815
9.005                0.972088501     -75.2299003
9.006                0.972026986     -75.3496308
9.007                0.971965189     -75.4696738
9.008                0.971903107     -75.5900304
9.009                0.971840741     -75.7107016
9.01                 0.971778089     -75.8316883
9.011                0.971715151     -75.9529916
9.012                0.971651925     -76.0746123
9.013                0.971588409     -76.1965515
9.014                0.971524604     -76.3188103
9.015                0.971460509     -76.4413895
9.016                0.971396121     -76.5642902
9.017                0.971331441     -76.6875134
9.018                0.971266466     -76.8110601
9.019                0.971201197     -76.9349312
9.02                 0.971135632     -77.0591279
9.021                0.971069771     -77.1836511
9.022                0.971003611     -77.3085017
9.023                0.970937152      -77.433681
9.024                0.970870394     -77.5591897
9.025                0.970803334      -77.685029
9.026                0.970735973        -77.8112
9.027                0.970668309     -77.9377035
9.028                0.970600341     -78.0645406
9.029                0.970532068     -78.1917125
9.03                 0.970463489       -78.31922
9.031                0.970394603     -78.4470642
9.032                0.970325409     -78.5752462
9.033                0.970255907      -78.703767
9.034                0.970186094     -78.8326276
9.035                0.970115971     -78.9618291
9.036                0.970045536     -79.0913725
9.037                0.969974787     -79.2212589
9.038                0.969903726     -79.3514893
9.039                0.969832349     -79.4820647
9.04                 0.969760657     -79.6129863
9.041                0.969688647     -79.7442551
9.042                0.969616321      -79.875872
9.043                0.969543675     -80.0078383
9.044                 0.96947071     -80.1401549
9.045                0.969397424     -80.2728229
9.046                0.969323817     -80.4058433
9.047                0.969249887     -80.5392173
9.048                0.969175633     -80.6729459
9.049                0.969101055     -80.8070302
9.05                 0.969026152     -80.9414713
9.051                0.968950922     -81.0762701
9.052                0.968875365     -81.2114279
9.053                 0.96879948     -81.3469456
9.054                0.968723266     -81.4828244
9.055                0.968646721     -81.6190654
9.056                0.968569846     -81.7556695
9.057                0.968492639      -81.892638
9.058                0.968415099     -82.0299719
9.059                0.968337225     -82.1676723
9.06                 0.968259016     -82.3057402
9.061                0.968180472     -82.4441768
9.062                0.968101591     -82.5829832
9.063                0.968022373     -82.7221605
9.064                0.967942817     -82.8617097
9.065                0.967862921      -83.001632
9.066                0.967782685     -83.1419284
9.067                0.967702109     -83.2826001
9.068                0.967621191     -83.4236482
9.069                 0.96753993     -83.5650738
9.07                 0.967458325     -83.7068779
9.071                0.967376376     -83.8490618
9.072                0.967294082     -83.9916264
9.073                0.967211442      -84.134573
9.074                0.967128455     -84.2779026
9.075                 0.96704512     -84.4216164
9.076                0.966961437     -84.5657154
9.077                0.966877405     -84.7102008
9.078                0.966793022     -84.8550737
9.079                0.966708288     -85.0003353
9.08                 0.966623202     -85.1459865
9.081                0.966537764     -85.2920287
9.082                0.966451972     -85.4384628
9.083                0.966365827       -85.58529
9.084                0.966279326     -85.7325115
9.085                 0.96619247     -85.8801284
9.086                0.966105257     -86.0281417
9.087                0.966017687     -86.1765527
9.088                0.965929759     -86.3253625
9.089                0.965841473     -86.4745721
9.09                 0.965752827     -86.6241827
9.091                0.965663821     -86.7741956
9.092                0.965574454     -86.9246116
9.093                0.965484726     -87.0754322
9.094                0.965394636     -87.2266582
9.095                0.965304183      -87.378291
9.096                0.965213366     -87.5303316
9.097                0.965122185     -87.6827812
9.098                 0.96503064     -87.8356409
9.099                0.964938728     -87.9889118
9.1                  0.964846451     -88.1425951
9.101                0.964753807     -88.2966919
9.102                0.964660796     -88.4512034
9.103                0.964567417     -88.6061307
9.104                0.964473669      -88.761475
9.105                0.964379552     -88.9172373
9.106                0.964285066     -89.0734189
9.107                0.964190209     -89.2300208
9.108                0.964094982     -89.3870442
9.109                0.963999383     -89.5444903
9.11                 0.963903412     -89.7023602
9.111                0.963807069     -89.8606551
9.112                0.963710354      -90.019376
9.113                0.963613265     -90.1785241
9.114                0.963515802     -90.3381006
9.115                0.963417965     -90.4981066
9.116                0.963319753     -90.6585432
9.117                0.963221166     -90.8194116
9.118                0.963122203     -90.9807129
9.119                0.963022865     -91.1424483
9.12                  0.96292315     -91.3046189
9.121                0.962823058     -91.4672259
9.122                 0.96272259     -91.6302703
9.123                0.962621744     -91.7937533
9.124                 0.96252052     -91.9576761
9.125                0.962418918     -92.1220398
9.126                0.962316937     -92.2868455
9.127                0.962214578     -92.4520944
9.128                 0.96211184     -92.6177876
9.129                0.962008722     -92.7839262
9.13                 0.961905225     -92.9505113
9.131                0.961801348     -93.1175441
9.132                0.961697091     -93.2850258
9.133                0.961592454     -93.4529574
9.134                0.961487437       -93.62134
9.135                0.961382039     -93.7901749
9.136                0.961276261     -93.9594631
9.137                0.961170101     -94.1292057
9.138                0.961063561     -94.2994039
9.139                 0.96095664     -94.4700587
9.14                 0.960849337     -94.6411714
9.141                0.960741654     -94.8127429
9.142                0.960633589     -94.9847745
9.143                0.960525143     -95.1572672
9.144                0.960416316     -95.3302222
9.145                0.960307108     -95.5036405
9.146                0.960197518     -95.6775233
9.147                0.960087547     -95.8518716
9.148                0.959977195     -96.0266866
9.149                0.959866463     -96.2019693
9.15                 0.959755349     -96.3777209
9.151                0.959643855     -96.5539425
9.152                 0.95953198      -96.730635
9.153                0.959419725     -96.9077997
9.154                0.959307089     -97.0854376
9.155                0.959194074     -97.2635498
9.156                0.959080678     -97.4421373
9.157                0.958966904     -97.6212013
9.158                 0.95885275     -97.8007428
9.159                0.958738217     -97.9807629
9.16                 0.958623306     -98.1612626
9.161                0.958508017      -98.342243
9.162                0.958392349     -98.5237052
9.163                0.958276305     -98.7056502
9.164                0.958159883     -98.8880791
9.165                0.958043085     -99.0709929
9.166                 0.95792591     -99.2543926
9.167                0.957808361     -99.4382794
9.168                0.957690436     -99.6226542
9.169                0.957572136      -99.807518
9.17                 0.957453463      -99.992872
9.171                0.957334416     -100.178717
9.172                0.957214997     -100.365054
9.173                0.957095205     -100.551885
9.174                0.956975043     -100.739209
9.175                0.956854509     -100.927029
9.176                0.956733606     -101.115345
9.177                0.956612333     -101.304157
9.178                0.956490692     -101.493469
9.179                0.956368684     -101.683279
9.18                 0.956246309     -101.873589
9.181                0.956123567       -102.0644
9.182                0.956000461     -102.255714
9.183                0.955876991      -102.44753
9.184                0.955753158     -102.639851
9.185                0.955628963     -102.832676
9.186                0.955504407     -103.026007
9.187                0.955379491     -103.219845
9.188                0.955254216     -103.414191
9.189                0.955128583     -103.609045
9.19                 0.955002593     -103.804409
9.191                0.954876248     -104.000283
9.192                0.954749549     -104.196668
9.193                0.954622497     -104.393566
9.194                0.954495093     -104.590977
9.195                0.954367338     -104.788903
9.196                0.954239235     -104.987343
9.197                0.954110783     -105.186298
9.198                0.953981986     -105.385771
9.199                0.953852843     -105.585761
9.2                  0.953723357     -105.786269
9.201                0.953593529     -105.987297
9.202                0.953463361     -106.188844
9.203                0.953332854     -106.390913
9.204                 0.95320201     -106.593503
9.205                 0.95307083     -106.796615
9.206                0.952939316     -107.000251
9.207                 0.95280747     -107.204411
9.208                0.952675294     -107.409095
9.209                0.952542789     -107.614306
9.21                 0.952409958     -107.820042
9.211                0.952276801     -108.026306
9.212                0.952143322     -108.233097
9.213                0.952009521     -108.440418
9.214                0.951875402     -108.648267
9.215                0.951740965     -108.856647
9.216                0.951606213     -109.065557
9.217                0.951471149     -109.274999
9.218                0.951335774     -109.484972
9.219                 0.95120009     -109.695479
9.22                 0.951064099     -109.906519
9.221                0.950927805     -110.118093
9.222                0.950791209     -110.330202
9.223                0.950654313     -110.542846
9.224                 0.95051712     -110.756027
9.225                0.950379632     -110.969743
9.226                0.950241852     -111.183998
9.227                0.950103783     -111.398789
9.228                0.949965426      -111.61412
9.229                0.949826784     -111.829989
9.23                 0.949687861     -112.046397
9.231                0.949548658     -112.263346
9.232                0.949409178     -112.480835
9.233                0.949269425     -112.698866
9.234                  0.9491294     -112.917437
9.235                0.948989107     -113.136551
9.236                0.948848549     -113.356208
9.237                0.948707729     -113.576407
9.238                0.948566649      -113.79715
9.239                0.948425312     -114.018437
9.24                 0.948283722     -114.240267
9.241                0.948141882     -114.462643
9.242                0.947999795     -114.685564
9.243                0.947857464      -114.90903
9.244                0.947714892     -115.133042
9.245                0.947572082       -115.3576
9.246                0.947429039     -115.582705
9.247                0.947285764     -115.808357
9.248                0.947142263     -116.034556
9.249                0.946998538     -116.261302
9.25                 0.946854592     -116.488596
9.251                 0.94671043     -116.716438
9.252                0.946566054     -116.944828
9.253                0.946421469     -117.173767
9.254                0.946276679     -117.403254
9.255                0.946131686      -117.63329
9.256                0.945986495     -117.863876
9.257                 0.94584111      -118.09501
9.258                0.945695534     -118.326694
9.259                0.945549772     -118.558927
9.26                 0.945403827      -118.79171
9.261                0.945257703     -119.025043
9.262                0.945111406     -119.258926
9.263                0.944964938     -119.493358
9.264                0.944818303      -119.72834
9.265                0.944671507     -119.963873
9.266                0.944524554     -120.199955
9.267                0.944377447     -120.436587
9.268                0.944230191     -120.673769
9.269                0.944082791     -120.911501
9.27                 0.943935251     -121.149783
9.271                0.943787575     -121.388614
9.272                0.943639769     -121.627995
9.273                0.943491836     -121.867926
9.274                0.943343781     -122.108406
9.275                 0.94319561     -122.349435
9.276                0.943047327     -122.591013
9.277                0.942898936     -122.833141
9.278                0.942750443     -123.075816
9.279                0.942601853      -123.31904
9.28                  0.94245317     -123.562812
9.281                0.942304399     -123.807132
9.282                0.942155546        -124.052
9.283                0.942006616     -124.297415
9.284                0.941857613     -124.543376
9.285                0.941708544     -124.789885
9.286                0.941559412     -125.036939
9.287                0.941410225     -125.284539
9.288                0.941260986     -125.532684
9.289                0.941111702     -125.781374
9.29                 0.940962377     -126.030609
9.291                0.940813018     -126.280387
9.292                 0.94066363     -126.530709
9.293                0.940514218     -126.781574
9.294                0.940364788     -127.032981
9.295                0.940215346     -127.284929
9.296                0.940065898     -127.537419
9.297                0.939916449     -127.790449
9.298                0.939767005     -128.044019
9.299                0.939617572     -128.298128
9.3                  0.939468156     -128.552775
9.301                0.939318763      -128.80796
9.302                  0.9391694     -129.063682
9.303                0.939020071      -129.31994
9.304                0.938870783     -129.576734
9.305                0.938721543     -129.834062
9.306                0.938572356     -130.091924
9.307                0.938423228     -130.350318
9.308                0.938274167     -130.609245
9.309                0.938125179     -130.868703
9.31                 0.937976269      -131.12869
9.311                0.937827444     -131.389207
9.312                0.937678711     -131.650252
9.313                0.937530077     -131.911824
9.314                0.937381546     -132.173922
9.315                0.937233128     -132.436545
9.316                0.937084827     -132.699691
9.317                0.936936651     -132.963361
9.318                0.936788606     -133.227552
9.319                  0.9366407     -133.492264
9.32                 0.936492939     -133.757495
9.321                0.936345329     -134.023243
9.322                0.936197878     -134.289509
9.323                0.936050592      -134.55629
9.324                 0.93590348     -134.823585
9.325                0.935756546     -135.091393
9.326                  0.9356098     -135.359712
9.327                0.935463247     -135.628541
9.328                0.935316894     -135.897879
9.329                 0.93517075     -136.167724
9.33                 0.935024821     -136.438075
9.331                0.934879114      -136.70893
9.332                0.934733636     -136.980287
9.333                0.934588396     -137.252146
9.334                  0.9344434     -137.524504
9.335                0.934298655      -137.79736
9.336                0.934154169     -138.070713
9.337                0.934009949      -138.34456
9.338                0.933866003       -138.6189
9.339                0.933722338     -138.893731
9.34                 0.933578962     -139.169051
9.341                0.933435883     -139.444859
9.342                0.933293106     -139.721153
9.343                0.933150642     -139.997931
9.344                0.933008496     -140.275191
9.345                0.932866677     -140.552931
9.346                0.932725192      -140.83115
9.347                0.932584049     -141.109845
9.348                0.932443255     -141.389014
9.349                0.932302819     -141.668655
9.35                 0.932162748     -141.948767
9.351                 0.93202305     -142.229347
9.352                0.931883733     -142.510393
9.353                0.931744804     -142.791903
9.354                0.931606271     -143.073875
9.355                0.931468142     -143.356306
9.356                0.931330426     -143.639195
9.357                0.931193129     -143.922539
9.358                 0.93105626     -144.206336
9.359                0.930919826     -144.490584
9.36                 0.930783836     -144.775279
9.361                0.930648298     -145.060421
9.362                0.930513219     -145.346006
9.363                0.930378607     -145.632033
9.364                 0.93024447     -145.918497
9.365                0.930110817     -146.205398
9.366                0.929977655     -146.492733
9.367                0.929844992     -146.780499
9.368                0.929712836     -147.068693
9.369                0.929581196     -147.357313
9.37                 0.929450078     -147.646357
9.371                0.929319492     -147.935821
9.372                0.929189444     -148.225703
9.373                0.929059944        -148.516
9.374                0.928930999      -148.80671
9.375                0.928802617      -149.09783
9.376                0.928674806     -149.389356
9.377                0.928547574     -149.681287
9.378                0.928420929     -149.973618
9.379                0.928294878     -150.266349
9.38                 0.928169431     -150.559474
9.381                0.928044595     -150.852992
9.382                0.927920377       -151.1469
9.383                0.927796786     -151.441194
9.384                0.927673829     -151.735872
9.385                0.927551516      -152.03093
9.386                0.927429852     -152.326366
9.387                0.927308847     -152.622176
9.388                0.927188507     -152.918357
9.389                0.927068842     -153.214906
9.39                 0.926949858     -153.511819
9.391                0.926831564     -153.809094
9.392                0.926713967     -154.106728
9.393                0.926597076     -154.404716
9.394                0.926480897     -154.703057
9.395                0.926365438     -155.001745
9.396                0.926250708     -155.300779
