! TOUCHSTONE file generated by CST DESIGN STUDIO
! Date and time: Tue Feb  4 15:57:18 2025
! Project name: C:\Work\MatlabApps\UnitCellOptimizationMatlab\CST\unitcell.cst
! Tree item: Tasks\Sweep1\SPara1\S-Parameters
! Header version: 2024
! Port assignment regex: !\s*Touchstone port\s*([0-9]+)\s*=\s*(CST MWS port|CST DES external port|CST DES block port)\s*(.+)\s* \(\"(.*)\"\)(\s*mode\s*([0-9]+))?.*
! Touchstone port assignment:
! Touchstone port 1 = CST DES external port 1 ("")
# GHz S MA R 50
9                    0.968624528     -83.0086704
9.001                  0.9685609     -83.1484738
9.002                0.968496964     -83.2886552
9.003                0.968432722     -83.4292155
9.004                 0.96836817      -83.570156
9.005                0.968303308     -83.7114777
9.006                0.968238136     -83.8531818
9.007                0.968172652     -83.9952694
9.008                0.968106855     -84.1377416
9.009                0.968040745     -84.2805995
9.01                 0.967974319     -84.4238443
9.011                0.967907578     -84.5674771
9.012                 0.96784052     -84.7114989
9.013                0.967773145     -84.8559111
9.014                 0.96770545     -85.0007146
9.015                0.967637436     -85.1459106
9.016                0.967569102     -85.2915002
9.017                0.967500445     -85.4374846
9.018                0.967431467      -85.583865
9.019                0.967362164     -85.7306424
9.02                 0.967292537      -85.877818
9.021                0.967222585     -86.0253929
9.022                0.967152307     -86.1733683
9.023                0.967081701     -86.3217452
9.024                0.967010767      -86.470525
9.025                0.966939504     -86.6197086
9.026                0.966867911     -86.7692973
9.027                0.966795987     -86.9192922
9.028                0.966723731     -87.0696944
9.029                0.966651142      -87.220505
9.03                  0.96657822     -87.3717253
9.031                0.966504963     -87.5233564
9.032                0.966431371     -87.6753994
9.033                0.966357443     -87.8278555
9.034                0.966283178     -87.9807258
9.035                0.966208575     -88.1340114
9.036                0.966133633     -88.2877136
9.037                0.966058352     -88.4418335
9.038                 0.96598273     -88.5963722
9.039                0.965906767     -88.7513309
9.04                 0.965830462     -88.9067107
9.041                0.965753815     -89.0625128
9.042                0.965676823     -89.2187383
9.043                0.965599488     -89.3753885
9.044                0.965521807     -89.5324644
9.045                 0.96544378     -89.6899671
9.046                0.965365407      -89.847898
9.047                0.965286686      -90.006258
9.048                0.965207617     -90.1650484
9.049                0.965128199     -90.3242704
9.05                 0.965048432     -90.4839249
9.051                0.964968314     -90.6440133
9.052                0.964887846     -90.8045367
9.053                0.964807026     -90.9654962
9.054                0.964725853      -91.126893
9.055                0.964644328     -91.2887282
9.056                0.964562448      -91.451003
9.057                0.964480215     -91.6137186
9.058                0.964397627      -91.776876
9.059                0.964314683     -91.9404764
9.06                 0.964231383      -92.104521
9.061                0.964147726      -92.269011
9.062                0.964063712     -92.4339474
9.063                0.963979341     -92.5993314
9.064                 0.96389461     -92.7651642
9.065                0.963809521     -92.9314469
9.066                0.963724073     -93.0981807
9.067                0.963638264     -93.2653666
9.068                0.963552095     -93.4330059
9.069                0.963465565     -93.6010996
9.07                 0.963378673     -93.7696489
9.071                0.963291419      -93.938655
9.072                0.963203804      -94.108119
9.073                0.963115825      -94.278042
9.074                0.963027483     -94.4484251
9.075                0.962938777     -94.6192695
9.076                0.962849708     -94.7905763
9.077                0.962760274     -94.9623466
9.078                0.962670475     -95.1345815
9.079                0.962580311     -95.3072823
9.08                 0.962489782     -95.4804499
9.081                0.962398887     -95.6540855
9.082                0.962307626     -95.8281902
9.083                0.962215999     -96.0027652
9.084                0.962124005     -96.1778115
9.085                0.962031645     -96.3533303
9.086                0.961938917     -96.5293226
9.087                0.961845822     -96.7057896
9.088                 0.96175236     -96.8827323
9.089                 0.96165853     -97.0601519
9.09                 0.961564333     -97.2380495
9.091                0.961469767     -97.4164261
9.092                0.961374834     -97.5952828
9.093                0.961279532     -97.7746208
9.094                0.961183862      -97.954441
9.095                0.961087824     -98.1347446
9.096                0.960991418     -98.3155326
9.097                0.960894643     -98.4968062
9.098                0.960797501     -98.6785664
9.099                 0.96069999     -98.8608142
9.1                   0.96060211     -99.0435507
9.101                0.960503863      -99.226777
9.102                0.960405247     -99.4104941
9.103                0.960306264      -99.594703
9.104                0.960206912     -99.7794049
9.105                0.960107193     -99.9646007
9.106                0.960007106     -100.150291
9.107                0.959906652     -100.336478
9.108                0.959805831     -100.523162
9.109                0.959704643     -100.710344
9.11                 0.959603089     -100.898025
9.111                0.959501168     -101.086206
9.112                0.959398881     -101.274888
9.113                0.959296228     -101.464072
9.114                 0.95919321      -101.65376
9.115                0.959089827     -101.843951
9.116                0.958986079     -102.034648
9.117                0.958881968      -102.22585
9.118                0.958777493      -102.41756
9.119                0.958672654     -102.609777
9.12                 0.958567453     -102.802504
9.121                 0.95846189      -102.99574
9.122                0.958355965     -103.189487
9.123                0.958249679     -103.383746
9.124                0.958143033     -103.578518
9.125                0.958036028     -103.773803
9.126                0.957928663     -103.969603
9.127                 0.95782094     -104.165919
9.128                0.957712859      -104.36275
9.129                0.957604421       -104.5601
9.13                 0.957495628     -104.757967
9.131                0.957386479     -104.956353
9.132                0.957276976      -105.15526
9.133                0.957167119     -105.354687
9.134                0.957056909     -105.554636
9.135                0.956946348     -105.755108
9.136                0.956835436     -105.956102
9.137                0.956724175     -106.157622
9.138                0.956612564     -106.359666
9.139                0.956500606     -106.562236
9.14                 0.956388302     -106.765333
9.141                0.956275652     -106.968958
9.142                0.956162658     -107.173111
9.143                 0.95604932     -107.377793
9.144                0.955935641     -107.583005
9.145                0.955821621     -107.788747
9.146                0.955707262     -107.995021
9.147                0.955592565     -108.201828
9.148                0.955477531     -108.409167
9.149                0.955362162      -108.61704
9.15                 0.955246459     -108.825447
9.151                0.955130423     -109.034389
9.152                0.955014057     -109.243868
9.153                0.954897361     -109.453883
9.154                0.954780337     -109.664435
9.155                0.954662987     -109.875525
9.156                0.954545313     -110.087153
9.157                0.954427316     -110.299321
9.158                0.954308997     -110.512028
9.159                0.954190359     -110.725276
9.16                 0.954071403     -110.939065
9.161                0.953952131     -111.153396
9.162                0.953832546     -111.368269
9.163                0.953712648     -111.583685
9.164                 0.95359244     -111.799644
9.165                0.953471923     -112.016148
9.166                0.953351101     -112.233195
9.167                0.953229974     -112.450788
9.168                0.953108545     -112.668927
9.169                0.952986817     -112.887612
9.17                  0.95286479     -113.106843
9.171                0.952742468     -113.326621
9.172                0.952619853     -113.546947
9.173                0.952496946     -113.767821
9.174                0.952373751     -113.989244
9.175                0.952250269     -114.211215
9.176                0.952126504     -114.433736
9.177                0.952002457     -114.656806
9.178                0.951878131     -114.880427
9.179                0.951753529     -115.104598
9.18                 0.951628653     -115.329319
9.181                0.951503505     -115.554592
9.182                0.951378089     -115.780417
9.183                0.951252407     -116.006793
9.184                0.951126462     -116.233721
9.185                0.951000257     -116.461202
9.186                0.950873794     -116.689236
9.187                0.950747077     -116.917822
9.188                0.950620108     -117.146961
9.189                 0.95049289     -117.376654
9.19                 0.950365426     -117.606901
9.191                 0.95023772     -117.837701
9.192                0.950109774     -118.069055
9.193                0.949981592     -118.300963
9.194                0.949853177     -118.533426
9.195                0.949724532     -118.766442
9.196                 0.94959566     -119.000014
9.197                0.949466565     -119.234139
9.198                0.949337249      -119.46882
9.199                0.949207718     -119.704055
9.2                  0.949077973     -119.939844
9.201                0.948948018     -120.176189
9.202                0.948817858     -120.413088
9.203                0.948687495     -120.650541
9.204                0.948556934      -120.88855
9.205                0.948426177     -121.127112
9.206                0.948295229      -121.36623
9.207                0.948164094     -121.605902
9.208                0.948032774     -121.846127
9.209                0.947901275     -122.086908
9.21                 0.947769601     -122.328242
9.211                0.947637754     -122.570129
9.212                0.947505739     -122.812571
9.213                0.947373561     -123.055566
9.214                0.947241223     -123.299113
9.215                0.947108729     -123.543214
9.216                0.946976085     -123.787868
9.217                0.946843293     -124.033073
9.218                0.946710358     -124.278831
9.219                0.946577285      -124.52514
9.22                 0.946444078     -124.772001
9.221                0.946310742     -125.019412
9.222                0.946177281     -125.267374
9.223                0.946043699     -125.515886
9.224                0.945910001     -125.764947
9.225                0.945776193     -126.014558
9.226                0.945642277     -126.264717
9.227                 0.94550826     -126.515424
9.228                0.945374146     -126.766679
9.229                 0.94523994      -127.01848
9.23                 0.945105646     -127.270829
9.231                 0.94497127     -127.523723
9.232                0.944836817     -127.777162
9.233                0.944702291     -128.031145
9.234                0.944567698     -128.285672
9.235                0.944433043     -128.540743
9.236                0.944298331     -128.796356
9.237                0.944163567      -129.05251
9.238                0.944028756     -129.309205
9.239                0.943893904     -129.566441
9.24                 0.943759016     -129.824215
9.241                0.943624098     -130.082528
9.242                0.943489155     -130.341378
9.243                0.943354191     -130.600765
9.244                0.943219214     -130.860688
9.245                0.943084228     -131.121145
9.246                 0.94294924     -131.382136
9.247                0.942814254     -131.643659
9.248                0.942679276     -131.905714
9.249                0.942544313       -132.1683
9.25                 0.942409369     -132.431416
9.251                0.942274451     -132.695059
9.252                0.942139565     -132.959231
9.253                0.942004717     -133.223928
9.254                0.941869912      -133.48915
9.255                0.941735157     -133.754896
9.256                0.941600457     -134.021164
9.257                0.941465819     -134.287953
9.258                0.941331249     -134.555263
9.259                0.941196752     -134.823091
9.26                 0.941062336     -135.091436
9.261                0.940928006     -135.360297
9.262                0.940793769     -135.629672
9.263                0.940659631     -135.899561
9.264                0.940525599     -136.169961
9.265                0.940391678     -136.440871
9.266                0.940257875      -136.71229
9.267                0.940124197     -136.984215
9.268                 0.93999065     -137.256646
9.269                0.939857241     -137.529581
9.27                 0.939723977     -137.803018
9.271                0.939590863     -138.076956
9.272                0.939457907     -138.351392
9.273                0.939325115     -138.626325
9.274                0.939192494     -138.901754
9.275                0.939060051     -139.177677
9.276                0.938927792     -139.454091
9.277                0.938795725     -139.730995
9.278                0.938663856     -140.008388
9.279                0.938532192     -140.286266
9.28                  0.93840074     -140.564629
9.281                0.938269507     -140.843474
9.282                  0.9381385       -141.1228
9.283                0.938007725     -141.402603
9.284                0.937877191     -141.682884
9.285                0.937746903     -141.963638
9.286                0.937616869     -142.244865
9.287                0.937487097     -142.526561
9.288                0.937357593     -142.808726
9.289                0.937228364     -143.091356
9.29                 0.937099417      -143.37445
9.291                 0.93697076     -143.658005
9.292                  0.9368424     -143.942019
9.293                0.936714345      -144.22649
9.294                  0.9365866     -144.511415
9.295                0.936459175     -144.796792
9.296                0.936332075     -145.082618
9.297                0.936205308     -145.368892
9.298                0.936078882      -145.65561
9.299                0.935952804     -145.942771
9.3                  0.935827081     -146.230372
9.301                0.935701721     -146.518409
9.302                 0.93557673     -146.806881
9.303                0.935452117     -147.095786
9.304                0.935327889     -147.385119
9.305                0.935204053      -147.67488
9.306                0.935080616     -147.965064
9.307                0.934957587      -148.25567
9.308                0.934834972     -148.546695
9.309                0.934712778     -148.838135
9.31                 0.934591014     -149.129988
9.311                0.934469687     -149.422252
9.312                0.934348804     -149.714923
9.313                0.934228373     -150.007998
9.314                  0.9341084     -150.301475
9.315                0.933988895     -150.595351
9.316                0.933869863     -150.889622
9.317                0.933751313     -151.184285
9.318                0.933633252     -151.479339
9.319                0.933515687     -151.774778
9.32                 0.933398625     -152.070602
9.321                0.933282076     -152.366805
9.322                0.933166044     -152.663386
9.323                0.933050539     -152.960341
9.324                0.932935568     -153.257666
9.325                0.932821137     -153.555359
9.326                0.932707255     -153.853416
9.327                0.932593928     -154.151835
9.328                0.932481164     -154.450611
9.329                0.932368971     -154.749741
9.33                 0.932257356     -155.049222
9.331                0.932146325     -155.349051
9.332                0.932035887     -155.649225
9.333                0.931926049     -155.949738
9.334                0.931816817      -156.25059
9.335                  0.9317082     -156.551775
9.336                0.931600204      -156.85329
9.337                0.931492836     -157.155132
9.338                0.931386105     -157.457297
9.339                0.931280016     -157.759781
9.34                 0.931174577     -158.062582
9.341                0.931069795     -158.365694
9.342                0.930965678     -158.669115
9.343                0.930862232     -158.972841
9.344                0.930759463     -159.276869
9.345                0.930657381     -159.581193
9.346                 0.93055599     -159.885811
9.347                0.930455298     -160.190719
9.348                0.930355312     -160.495913
9.349                0.930256039      -160.80139
9.35                 0.930157485     -161.107144
9.351                0.930059658     -161.413173
9.352                0.929962564     -161.719472
9.353                0.929866209     -162.026038
9.354                0.929770601     -162.332866
9.355                0.929675745     -162.639953
9.356                0.929581649     -162.947295
9.357                0.929488319     -163.254887
9.358                0.929395761     -163.562726
9.359                0.929303982     -163.870807
9.36                 0.929212988     -164.179127
9.361                0.929122786     -164.487681
9.362                0.929033381     -164.796465
9.363                 0.92894478     -165.105475
9.364                0.928856989     -165.414707
9.365                0.928770014     -165.724156
9.366                0.928683862     -166.033819
9.367                0.928598537     -166.343692
9.368                0.928514047     -166.653769
9.369                0.928430397     -166.964048
9.37                 0.928347592     -167.274522
9.371                0.928265639     -167.585189
9.372                0.928184543     -167.896044
9.373                 0.92810431     -168.207083
9.374                0.928024945     -168.518301
9.375                0.927946454     -168.829693
9.376                0.927868843     -169.141257
9.377                0.927792116     -169.452986
9.378                0.927716279     -169.764877
9.379                0.927641338     -170.076926
9.38                 0.927567296     -170.389128
9.381                 0.92749416     -170.701478
9.382                0.927421935     -171.013972
9.383                0.927350625     -171.326606
9.384                0.927280235     -171.639375
9.385                0.927210771     -171.952274
9.386                0.927142236       -172.2653
9.387                0.927074636     -172.578447
9.388                0.927007975     -172.891712
9.389                0.926942257     -173.205089
9.39                 0.926877487     -173.518574
9.391                 0.92681367     -173.832163
9.392                0.926750809      -174.14585
9.393                 0.92668891     -174.459633
9.394                0.926627975     -174.773504
9.395                0.926568009     -175.087461
9.396                0.926509016     -175.401499
