! TOUCHSTONE file generated by CST DESIGN STUDIO
! Date and time: Tue Feb  4 15:57:30 2025
! Project name: C:\Work\MatlabApps\UnitCellOptimizationMatlab\CST\unitcell.cst
! Tree item: Tasks\Sweep1\SPara1\S-Parameters
! Header version: 2024
! Port assignment regex: !\s*Touchstone port\s*([0-9]+)\s*=\s*(CST MWS port|CST DES external port|CST DES block port)\s*(.+)\s* \(\"(.*)\"\)(\s*mode\s*([0-9]+))?.*
! Touchstone port assignment:
! Touchstone port 1 = CST DES external port 1 ("")
# GHz S MA R 50
9                       0.977977     -61.0432896
9.001                0.977926985     -61.1304255
9.002                 0.97787675     -61.2177665
9.003                0.977826295     -61.3053133
9.004                0.977775619     -61.3930665
9.005                 0.97772472     -61.4810267
9.006                  0.9776736     -61.5691948
9.007                0.977622256     -61.6575712
9.008                0.977570688     -61.7461567
9.009                0.977518896     -61.8349519
9.01                 0.977466879     -61.9239576
9.011                0.977414636     -62.0131743
9.012                0.977362166     -62.1026028
9.013                0.977309469     -62.1922437
9.014                0.977256545     -62.2820977
9.015                0.977203392     -62.3721656
9.016                0.977150009     -62.4624479
9.017                0.977096397     -62.5529453
9.018                0.977042554     -62.6436587
9.019                 0.97698848     -62.7345886
9.02                 0.976934174     -62.8257357
9.021                0.976879635     -62.9171007
9.022                0.976824863     -63.0086844
9.023                0.976769857     -63.1004875
9.024                0.976714616     -63.1925105
9.025                 0.97665914     -63.2847544
9.026                0.976603427     -63.3772196
9.027                0.976547478     -63.4699071
9.028                0.976491292     -63.5628174
9.029                0.976434867     -63.6559513
9.03                 0.976378203     -63.7493096
9.031                  0.9763213     -63.8428928
9.032                0.976264156     -63.9367019
9.033                0.976206772     -64.0307374
9.034                0.976149146     -64.1250001
9.035                0.976091277     -64.2194907
9.036                0.976033165     -64.3142101
9.037                0.975974809     -64.4091588
9.038                0.975916209     -64.5043377
9.039                0.975857364     -64.5997475
9.04                 0.975798272      -64.695389
9.041                0.975738934     -64.7912628
9.042                0.975679349     -64.8873697
9.043                0.975619515     -64.9837105
9.044                0.975559433      -65.080286
9.045                0.975499101     -65.1770968
9.046                0.975438519     -65.2741438
9.047                0.975377685     -65.3714276
9.048                  0.9753166     -65.4689492
9.049                0.975255263     -65.5667092
9.05                 0.975193672     -65.6647084
9.051                0.975131828     -65.7629476
9.052                0.975069729     -65.8614275
9.053                0.975007374      -65.960149
9.054                0.974944764     -66.0591128
9.055                0.974881897     -66.1583196
9.056                0.974818772     -66.2577704
9.057                0.974755389     -66.3574658
9.058                0.974691747     -66.4574066
9.059                0.974627845     -66.5575937
9.06                 0.974563683     -66.6580278
9.061                0.974499259     -66.7587098
9.062                0.974434574     -66.8596404
9.063                0.974369626     -66.9608204
9.064                0.974304414     -67.0622507
9.065                0.974238938     -67.1639321
9.066                0.974173198     -67.2658653
9.067                0.974107192     -67.3680511
9.068                0.974040919     -67.4704905
9.069                 0.97397438     -67.5731842
9.07                 0.973907572      -67.676133
9.071                0.973840496     -67.7793378
9.072                0.973773151     -67.8827993
9.073                0.973705535     -67.9865185
9.074                0.973637649     -68.0904961
9.075                0.973569491      -68.194733
9.076                0.973501061       -68.29923
9.077                0.973432358      -68.403988
9.078                0.973363381     -68.5090078
9.079                0.973294129     -68.6142902
9.08                 0.973224602     -68.7198361
9.081                0.973154799     -68.8256463
9.082                0.973084719     -68.9317218
9.083                0.973014362     -69.0380633
9.084                0.972943727     -69.1446717
9.085                0.972872812     -69.2515479
9.086                0.972801618     -69.3586928
9.087                0.972730143     -69.4661071
9.088                0.972658387     -69.5737919
9.089                0.972586349     -69.6817478
9.09                 0.972514028     -69.7899759
9.091                0.972441423     -69.8984771
9.092                0.972368535     -70.0072521
9.093                0.972295361     -70.1163018
9.094                0.972221902     -70.2256273
9.095                0.972148156     -70.3352292
9.096                0.972074122     -70.4451086
9.097                0.971999801     -70.5552664
9.098                0.971925191     -70.6657033
9.099                0.971850292     -70.7764204
9.1                  0.971775102     -70.8874186
9.101                0.971699621     -70.9986986
9.102                0.971623849     -71.1102615
9.103                0.971547784     -71.2221082
9.104                0.971471426     -71.3342395
9.105                0.971394773     -71.4466565
9.106                0.971317827     -71.5593599
9.107                0.971240584     -71.6723507
9.108                0.971163046       -71.78563
9.109                 0.97108521     -71.8991984
9.11                 0.971007077     -72.0130572
9.111                0.970928646      -72.127207
9.112                0.970849915     -72.2416489
9.113                0.970770885     -72.3563839
9.114                0.970691554     -72.4714128
9.115                0.970611921     -72.5867366
9.116                0.970531986     -72.7023562
9.117                0.970451749     -72.8182727
9.118                0.970371208     -72.9344869
9.119                0.970290363     -73.0509998
9.12                 0.970209212     -73.1678124
9.121                0.970127756     -73.2849256
9.122                0.970045994     -73.4023403
9.123                0.969963924     -73.5200577
9.124                0.969881546     -73.6380785
9.125                 0.96979886     -73.7564039
9.126                0.969715865     -73.8750347
9.127                0.969632559     -73.9939719
9.128                0.969548942     -74.1132166
9.129                0.969465014     -74.2327697
9.13                 0.969380774     -74.3526322
9.131                0.969296221      -74.472805
9.132                0.969211354     -74.5932892
9.133                0.969126173     -74.7140858
9.134                0.969040677     -74.8351957
9.135                0.968954865       -74.95662
9.136                0.968868736     -75.0783596
9.137                0.968782291     -75.2004156
9.138                0.968695527     -75.3227889
9.139                0.968608445     -75.4454806
9.14                 0.968521044     -75.5684917
9.141                0.968433323     -75.6918232
9.142                0.968345281     -75.8154761
9.143                0.968256919     -75.9394514
9.144                0.968168234     -76.0637502
9.145                0.968079226     -76.1883734
9.146                0.967989895     -76.3133222
9.147                 0.96790024     -76.4385975
9.148                0.967810261     -76.5642004
9.149                0.967719956     -76.6901318
9.15                 0.967629326     -76.8163929
9.151                0.967538368     -76.9429847
9.152                0.967447084     -77.0699082
9.153                0.967355471     -77.1971644
9.154                 0.96726353     -77.3247545
9.155                 0.96717126     -77.4526794
9.156                 0.96707866     -77.5809402
9.157                0.966985729     -77.7095381
9.158                0.966892467     -77.8384739
9.159                0.966798874     -77.9677488
9.16                 0.966704948     -78.0973639
9.161                0.966610689     -78.2273201
9.162                0.966516097     -78.3576187
9.163                0.966421171     -78.4882606
9.164                0.966325909     -78.6192469
9.165                0.966230313     -78.7505788
9.166                 0.96613438     -78.8822572
9.167                0.966038111     -79.0142832
9.168                0.965941505      -79.146658
9.169                0.965844561     -79.2793826
9.17                 0.965747278     -79.4124581
9.171                0.965649657     -79.5458855
9.172                0.965551696     -79.6796661
9.173                0.965453396     -79.8138008
9.174                0.965354755     -79.9482909
9.175                0.965255772     -80.0831372
9.176                0.965156449     -80.2183411
9.177                0.965056783     -80.3539035
9.178                0.964956774     -80.4898256
9.179                0.964856422     -80.6261084
9.18                 0.964755726     -80.7627532
9.181                0.964654687     -80.8997609
9.182                0.964553302     -81.0371327
9.183                0.964451572     -81.1748698
9.184                0.964349497     -81.3129732
9.185                0.964247075     -81.4514441
9.186                0.964144307     -81.5902835
9.187                0.964041191     -81.7294927
9.188                0.963937728     -81.8690727
9.189                0.963833917     -82.0090246
9.19                 0.963729758     -82.1493496
9.191                0.963625249     -82.2900489
9.192                0.963520391     -82.4311234
9.193                0.963415184     -82.5725745
9.194                0.963309626     -82.7144032
9.195                0.963203718     -82.8566106
9.196                0.963097458     -82.9991979
9.197                0.962990847     -83.1421663
9.198                0.962883885     -83.2855168
9.199                 0.96277657     -83.4292506
9.2                  0.962668903      -83.573369
9.201                0.962560883     -83.7178729
9.202                 0.96245251     -83.8627636
9.203                0.962343783     -84.0080422
9.204                0.962234703     -84.1537099
9.205                0.962125268     -84.2997679
9.206                0.962015479     -84.4462172
9.207                0.961905335      -84.593059
9.208                0.961794836     -84.7402946
9.209                0.961683982      -84.887925
9.21                 0.961572772     -85.0359514
9.211                0.961461207      -85.184375
9.212                0.961349285      -85.333197
9.213                0.961237007     -85.4824185
9.214                0.961124372     -85.6320406
9.215                0.961011381     -85.7820646
9.216                0.960898033     -85.9324916
9.217                0.960784328     -86.0833229
9.218                0.960670265     -86.2345594
9.219                0.960555845     -86.3862025
9.22                 0.960441067     -86.5382533
9.221                0.960325932      -86.690713
9.222                0.960210438     -86.8435828
9.223                0.960094587     -86.9968638
9.224                0.959978377     -87.1505572
9.225                 0.95986181     -87.3046642
9.226                0.959744884     -87.4591859
9.227                  0.9596276     -87.6141236
9.228                0.959509957     -87.7694784
9.229                0.959391956     -87.9252515
9.23                 0.959273596     -88.0814442
9.231                0.959154879     -88.2380574
9.232                0.959035802     -88.3950926
9.233                0.958916368     -88.5525508
9.234                0.958796575     -88.7104332
9.235                0.958676423      -88.868741
9.236                0.958555914     -89.0274753
9.237                0.958435046     -89.1866375
9.238                 0.95831382     -89.3462286
9.239                0.958192236     -89.5062499
9.24                 0.958070295     -89.6667024
9.241                0.957947995     -89.8275875
9.242                0.957825338     -89.9889063
9.243                0.957702324       -90.15066
9.244                0.957578953     -90.3128497
9.245                0.957455225     -90.4754767
9.246                 0.95733114     -90.6385421
9.247                0.957206698     -90.8020471
9.248                0.957081901     -90.9659929
9.249                0.956956747     -91.1303807
9.25                 0.956831238     -91.2952117
9.251                0.956705373      -91.460487
9.252                0.956579154     -91.6262079
9.253                 0.95645258     -91.7923755
9.254                0.956325651     -91.9589909
9.255                0.956198369     -92.1260554
9.256                0.956070733     -92.2935702
9.257                0.955942745     -92.4615364
9.258                0.955814403     -92.6299552
9.259                 0.95568571     -92.7988278
9.26                 0.955556665     -92.9681553
9.261                0.955427269      -93.137939
9.262                0.955297522       -93.30818
9.263                0.955167426     -93.4788794
9.264                 0.95503698     -93.6500385
9.265                0.954906185     -93.8216584
9.266                0.954775042     -93.9937403
9.267                0.954643551     -94.1662853
9.268                0.954511713     -94.3392946
9.269                0.954379529     -94.5127694
9.27                    0.954247     -94.6867108
9.271                0.954114126     -94.8611201
9.272                0.953980907     -95.0359982
9.273                0.953847346     -95.2113464
9.274                0.953713441     -95.3871659
9.275                0.953579196     -95.5634578
9.276                0.953444609     -95.7402232
9.277                0.953309682     -95.9174634
9.278                0.953174417     -96.0951793
9.279                0.953038813     -96.2733722
9.28                 0.952902872     -96.4520433
9.281                0.952766595     -96.6311935
9.282                0.952629982     -96.8108242
9.283                0.952493035     -96.9909363
9.284                0.952355756     -97.1715311
9.285                0.952218144     -97.3526097
9.286                0.952080201     -97.5341731
9.287                0.951941928     -97.7162225
9.288                0.951803327      -97.898759
9.289                0.951664397     -98.0817837
9.29                 0.951525142     -98.2652978
9.291                0.951385562     -98.4493022
9.292                0.951245658     -98.6337982
9.293                0.951105431     -98.8187868
9.294                0.950964883     -99.0042691
9.295                0.950824015     -99.1902462
9.296                0.950682829     -99.3767192
9.297                0.950541326     -99.5636891
9.298                0.950399507      -99.751157
9.299                0.950257374     -99.9391241
9.3                  0.950114928     -100.127591
9.301                0.949972172      -100.31656
9.302                0.949829105      -100.50603
9.303                0.949685731     -100.696004
9.304                0.949542051     -100.886483
9.305                0.949398066     -101.077467
9.306                0.949253778     -101.268957
9.307                0.949109188     -101.460955
9.308                  0.9489643     -101.653461
9.309                0.948819113     -101.846477
9.31                 0.948673631     -102.040003
9.311                0.948527854     -102.234041
9.312                0.948381786     -102.428592
9.313                0.948235427     -102.623656
9.314                 0.94808878     -102.819234
9.315                0.947941847     -103.015328
9.316                 0.94779463     -103.211939
9.317                 0.94764713     -103.409067
9.318                0.947499351     -103.606713
9.319                0.947351293     -103.804879
9.32                  0.94720296     -104.003565
9.321                0.947054353     -104.202773
9.322                0.946905475     -104.402502
9.323                0.946756328     -104.602755
9.324                0.946606914     -104.803532
9.325                0.946457235     -105.004834
9.326                0.946307295     -105.206662
9.327                0.946157095     -105.409016
9.328                0.946006638     -105.611898
9.329                0.945855927     -105.815309
9.33                 0.945704964     -106.019249
9.331                0.945553751      -106.22372
9.332                0.945402291     -106.428722
9.333                0.945250587     -106.634255
9.334                0.945098641     -106.840322
9.335                0.944946457     -107.046922
9.336                0.944794037     -107.254057
9.337                0.944641384     -107.461727
9.338                  0.9444885     -107.669933
9.339                0.944335389     -107.878676
9.34                 0.944182054     -108.087957
9.341                0.944028497     -108.297776
9.342                0.943874722     -108.508134
9.343                0.943720731     -108.719033
9.344                0.943566529     -108.930472
9.345                0.943412117     -109.142452
9.346                0.943257499     -109.354975
9.347                0.943102679     -109.568041
9.348                0.942947659      -109.78165
9.349                0.942792443     -109.995803
9.35                 0.942637034     -110.210502
9.351                0.942481437     -110.425746
9.352                0.942325653     -110.641537
9.353                0.942169687     -110.857874
9.354                0.942013542     -111.074759
9.355                0.941857222     -111.292192
9.356                0.941700731     -111.510174
9.357                0.941544071     -111.728705
9.358                0.941387248     -111.947787
9.359                0.941230264     -112.167419
9.36                 0.941073123     -112.387602
9.361                 0.94091583     -112.608336
9.362                0.940758388     -112.829623
9.363                0.940600801     -113.051463
9.364                0.940443073     -113.273855
9.365                0.940285209     -113.496802
9.366                0.940127211     -113.720302
9.367                0.939969085     -113.944358
9.368                0.939810835     -114.168968
9.369                0.939652464     -114.394134
9.37                 0.939493978     -114.619856
9.371                0.939335379     -114.846134
9.372                0.939176674     -115.072969
9.373                0.939017866     -115.300361
9.374                0.938858959     -115.528311
9.375                0.938699959     -115.756818
9.376                0.938540869     -115.985883
9.377                0.938381695     -116.215507
9.378                0.938222441      -116.44569
9.379                0.938063111     -116.676432
9.38                 0.937903711     -116.907733
9.381                0.937744245     -117.139594
9.382                0.937584718     -117.372015
9.383                0.937425135     -117.604995
9.384                0.937265501     -117.838536
9.385                0.937105821     -118.072637
9.386                  0.9369461     -118.307299
9.387                0.936786343     -118.542522
9.388                0.936626555     -118.778305
9.389                0.936466741     -119.014649
9.39                 0.936306908     -119.251554
9.391                0.936147059     -119.489021
9.392                  0.9359872     -119.727048
9.393                0.935827337     -119.965637
9.394                0.935667475     -120.204787
9.395                0.935507619     -120.444499
9.396                0.935347776     -120.684771
