! TOUCHSTONE file generated by CST DESIGN STUDIO
! Date and time: Tue Feb  4 17:06:59 2025
! Project name: C:\Work\MatlabApps\UnitCellOptimizationMatlab\CST\unitcell.cst
! Tree item: Tasks\Sweep1\SPara1\S-Parameters
! Header version: 2024
! Port assignment regex: !\s*Touchstone port\s*([0-9]+)\s*=\s*(CST MWS port|CST DES external port|CST DES block port)\s*(.+)\s* \(\"(.*)\"\)(\s*mode\s*([0-9]+))?.*
! Touchstone port assignment:
! Touchstone port 1 = CST DES external port 1 ("")
# GHz S MA R 50
9                    0.969643063     -49.6192045
9.001                0.969591519     -49.6823385
9.002                0.969539811     -49.7456046
9.003                0.969487938     -49.8090033
9.004                0.969435901     -49.8725351
9.005                0.969383698     -49.9362002
9.006                0.969331329     -49.9999991
9.007                0.969278794     -50.0639323
9.008                0.969226092         -50.128
9.009                0.969173221     -50.1922029
9.01                 0.969120183     -50.2565411
9.011                0.969066976     -50.3210152
9.012                  0.9690136     -50.3856256
9.013                0.968960053     -50.4503727
9.014                0.968906337      -50.515257
9.015                0.968852449     -50.5802787
9.016                0.968798389     -50.6454384
9.017                0.968744158     -50.7107365
9.018                0.968689753     -50.7761733
9.019                0.968635175     -50.8417495
9.02                 0.968580424     -50.9074652
9.021                0.968525498     -50.9733211
9.022                0.968470396     -51.0393174
9.023                 0.96841512     -51.1054547
9.024                0.968359666     -51.1717334
9.025                0.968304036     -51.2381539
9.026                0.968248229     -51.3047167
9.027                0.968192244     -51.3714222
9.028                0.968136079     -51.4382708
9.029                0.968079736     -51.5052629
9.03                 0.968023213     -51.5723991
9.031                0.967966509     -51.6396798
9.032                0.967909625     -51.7071054
9.033                0.967852558     -51.7746763
9.034                 0.96779531      -51.842393
9.035                0.967737879      -51.910256
9.036                0.967680264     -51.9782658
9.037                0.967622465     -52.0464227
9.038                0.967564481     -52.1147272
9.039                0.967506312     -52.1831798
9.04                 0.967447957     -52.2517809
9.041                0.967389416     -52.3205311
9.042                0.967330687     -52.3894307
9.043                 0.96727177     -52.4584803
9.044                0.967212665     -52.5276803
9.045                0.967153371     -52.5970311
9.046                0.967093887     -52.6665333
9.047                0.967034213     -52.7361873
9.048                0.966974348     -52.8059936
9.049                0.966914291     -52.8759527
9.05                 0.966854042      -52.946065
9.051                  0.9667936      -53.016331
9.052                0.966732964     -53.0867512
9.053                0.966672134     -53.1573261
9.054                0.966611109     -53.2280562
9.055                0.966549889     -53.2989419
9.056                0.966488472     -53.3699838
9.057                0.966426859     -53.4411823
9.058                0.966365048     -53.5125379
9.059                0.966303039     -53.5840511
9.06                 0.966240831     -53.6557225
9.061                0.966178423     -53.7275525
9.062                0.966115816     -53.7995415
9.063                0.966053007     -53.8716902
9.064                0.965989997      -53.943999
9.065                0.965926784     -54.0164684
9.066                0.965863369      -54.089099
9.067                 0.96579975     -54.1618911
9.068                0.965735927     -54.2348454
9.069                0.965671899     -54.3079624
9.07                 0.965607666     -54.3812425
9.071                0.965543226     -54.4546863
9.072                0.965478579     -54.5282942
9.073                0.965413724      -54.602067
9.074                0.965348661     -54.6760049
9.075                0.965283389     -54.7501086
9.076                0.965217906     -54.8243786
9.077                0.965152214     -54.8988154
9.078                 0.96508631     -54.9734195
9.079                0.965020194     -55.0481916
9.08                 0.964953866      -55.123132
9.081                0.964887324     -55.1982413
9.082                0.964820568     -55.2735202
9.083                0.964753598      -55.348969
9.084                0.964686411     -55.4245885
9.085                0.964619009      -55.500379
9.086                 0.96455139     -55.5763411
9.087                0.964483553     -55.6524755
9.088                0.964415497     -55.7287826
9.089                0.964347223     -55.8052629
9.09                 0.964278728     -55.8819171
9.091                0.964210013     -55.9587458
9.092                0.964141076     -56.0357493
9.093                0.964071918     -56.1129284
9.094                0.964002536     -56.1902836
9.095                0.963932931     -56.2678153
9.096                0.963863102     -56.3455243
9.097                0.963793047     -56.4234111
9.098                0.963722767     -56.5014762
9.099                 0.96365226     -56.5797202
9.1                  0.963581526     -56.6581437
9.101                0.963510564     -56.7367472
9.102                0.963439372     -56.8155314
9.103                0.963367952     -56.8944968
9.104                  0.9632963      -56.973644
9.105                0.963224418     -57.0529735
9.106                0.963152303     -57.1324861
9.107                0.963079956     -57.2121822
9.108                0.963007376     -57.2920624
9.109                0.962934561     -57.3721273
9.11                 0.962861511     -57.4523776
9.111                0.962788225     -57.5328139
9.112                0.962714703     -57.6134366
9.113                0.962640943     -57.6942465
9.114                0.962566945     -57.7752441
9.115                0.962492708     -57.8564301
9.116                0.962418231      -57.937805
9.117                0.962343514     -58.0193694
9.118                0.962268556      -58.101124
9.119                0.962193355     -58.1830694
9.12                 0.962117911     -58.2652062
9.121                0.962042223      -58.347535
9.122                0.961966291     -58.4300565
9.123                0.961890114     -58.5127712
9.124                 0.96181369     -58.5956798
9.125                0.961737019     -58.6787829
9.126                0.961660101     -58.7620811
9.127                0.961582934     -58.8455752
9.128                0.961505517     -58.9292656
9.129                 0.96142785     -59.0131531
9.13                 0.961349932     -59.0972383
9.131                0.961271762     -59.1815218
9.132                0.961193339     -59.2660043
9.133                0.961114663     -59.3506864
9.134                0.961035732     -59.4355688
9.135                0.960956546     -59.5206521
9.136                0.960877104      -59.605937
9.137                0.960797405     -59.6914241
9.138                0.960717448     -59.7771141
9.139                0.960637232     -59.8630076
9.14                 0.960556757     -59.9491054
9.141                0.960476022      -60.035408
9.142                0.960395025     -60.1219162
9.143                0.960313767     -60.2086306
9.144                0.960232245     -60.2955519
9.145                 0.96015046     -60.3826808
9.146                0.960068411     -60.4700179
9.147                0.959986095     -60.5575639
9.148                0.959903514     -60.6453195
9.149                0.959820665     -60.7332854
9.15                 0.959737548     -60.8214623
9.151                0.959654163     -60.9098508
9.152                0.959570507     -60.9984517
9.153                0.959486581     -61.0872657
9.154                0.959402384     -61.1762934
9.155                0.959317914     -61.2655356
9.156                 0.95923317     -61.3549929
9.157                0.959148153      -61.444666
9.158                0.959062861     -61.5345558
9.159                0.958977292     -61.6246627
9.16                 0.958891447     -61.7149877
9.161                0.958805324     -61.8055314
9.162                0.958718922     -61.8962945
9.163                0.958632241     -61.9872777
9.164                 0.95854528     -62.0784818
9.165                0.958458037     -62.1699075
9.166                0.958370513     -62.2615555
9.167                0.958282705     -62.3534265
9.168                0.958194613     -62.4455213
9.169                0.958106236     -62.5378407
9.17                 0.958017574     -62.6303852
9.171                0.957928624     -62.7231558
9.172                0.957839388     -62.8161531
9.173                0.957749862     -62.9093778
9.174                0.957660048     -63.0028308
9.175                0.957569943     -63.0965128
9.176                0.957479547     -63.1904245
9.177                0.957388858     -63.2845667
9.178                0.957297877     -63.3789401
9.179                0.957206601     -63.4735455
9.18                 0.957115031     -63.5683838
9.181                0.957023165     -63.6634555
9.182                0.956931002     -63.7587616
9.183                0.956838542     -63.8543027
9.184                0.956745783     -63.9500797
9.185                0.956652724     -64.0460933
9.186                0.956559365     -64.1423444
9.187                0.956465704     -64.2388336
9.188                0.956371742     -64.3355619
9.189                0.956277476     -64.4325299
9.19                 0.956182905     -64.5297384
9.191                 0.95608803     -64.6271884
9.192                0.955992849     -64.7248804
9.193                 0.95589736     -64.8228155
9.194                0.955801564     -64.9209943
9.195                0.955705459     -65.0194176
9.196                0.955609044     -65.1180863
9.197                0.955512319     -65.2170012
9.198                0.955415281     -65.3161631
9.199                0.955317931     -65.4155728
9.2                  0.955220268     -65.5152312
9.201                 0.95512229      -65.615139
9.202                0.955023996      -65.715297
9.203                0.954925386     -65.8157062
9.204                0.954826459     -65.9163673
9.205                0.954727213     -66.0172812
9.206                0.954627648     -66.1184486
9.207                0.954527763     -66.2198705
9.208                0.954427557     -66.3215477
9.209                0.954327028     -66.4234811
9.21                 0.954226177     -66.5256713
9.211                0.954125001     -66.6281195
9.212                  0.9540235     -66.7308263
9.213                0.953921674     -66.8337926
9.214                0.953819521     -66.9370193
9.215                0.953717039     -67.0405073
9.216                0.953614229     -67.1442574
9.217                0.953511089     -67.2482705
9.218                0.953407619     -67.3525474
9.219                0.953303817     -67.4570891
9.22                 0.953199682     -67.5618963
9.221                0.953095213     -67.6669701
9.222                 0.95299041     -67.7723112
9.223                0.952885272     -67.8779206
9.224                0.952779797     -67.9837991
9.225                0.952673984     -68.0899476
9.226                0.952567834     -68.1963671
9.227                0.952461343     -68.3030584
9.228                0.952354513     -68.4100223
9.229                0.952247341       -68.51726
9.23                 0.952139827     -68.6247721
9.231                 0.95203197     -68.7325597
9.232                0.951923769     -68.8406236
9.233                0.951815223     -68.9489647
9.234                 0.95170633     -69.0575841
9.235                0.951597091     -69.1664825
9.236                0.951487503     -69.2756609
9.237                0.951377567     -69.3851203
9.238                0.951267281     -69.4948616
9.239                0.951156644     -69.6048857
9.24                 0.951045655     -69.7151935
9.241                0.950934314     -69.8257859
9.242                0.950822619      -69.936664
9.243                0.950710569     -70.0478287
9.244                0.950598164     -70.1592808
9.245                0.950485402     -70.2710214
9.246                0.950372282     -70.3830514
9.247                0.950258805     -70.4953718
9.248                0.950144967     -70.6079835
9.249                 0.95003077     -70.7208874
9.25                 0.949916211     -70.8340846
9.251                0.949801291     -70.9475761
9.252                0.949686007     -71.0613627
9.253                0.949570359     -71.1754454
9.254                0.949454346     -71.2898253
9.255                0.949337967     -71.4045033
9.256                0.949221221     -71.5194804
9.257                0.949104107     -71.6347576
9.258                0.948986625     -71.7503358
9.259                0.948868773     -71.8662161
9.26                  0.94875055     -71.9823994
9.261                0.948631956     -72.0988868
9.262                 0.94851299     -72.2156792
9.263                 0.94839365     -72.3327777
9.264                0.948273936     -72.4501833
9.265                0.948153847     -72.5678968
9.266                0.948033382     -72.6859195
9.267                0.947912539     -72.8042523
9.268                0.947791319     -72.9228961
9.269                 0.94766972     -73.0418521
9.27                 0.947547742     -73.1611212
9.271                0.947425383     -73.2807046
9.272                0.947302642     -73.4006031
9.273                0.947179519     -73.5208178
9.274                0.947056013     -73.6413499
9.275                0.946932123     -73.7622002
9.276                0.946807848     -73.8833699
9.277                0.946683187       -74.00486
9.278                0.946558139     -74.1266715
9.279                0.946432703     -74.2488055
9.28                 0.946306879     -74.3712631
9.281                0.946180666     -74.4940452
9.282                0.946054063     -74.6171531
9.283                0.945927068     -74.7405876
9.284                0.945799682     -74.8643499
9.285                0.945671903     -74.9884411
9.286                 0.94554373     -75.1128622
9.287                0.945415163     -75.2376143
9.288                0.945286201     -75.3626985
9.289                0.945156842     -75.4881158
9.29                 0.945027087     -75.6138673
9.291                0.944896934     -75.7399542
9.292                0.944766383     -75.8663775
9.293                0.944635432     -75.9931382
9.294                0.944504081     -76.1202375
9.295                 0.94437233     -76.2476766
9.296                0.944240177     -76.3754564
9.297                0.944107621      -76.503578
9.298                0.943974662     -76.6320427
9.299                0.943841299     -76.7608514
9.3                  0.943707531     -76.8900054
9.301                0.943573358     -77.0195056
9.302                0.943438778     -77.1493533
9.303                0.943303792     -77.2795495
9.304                0.943168398     -77.4100954
9.305                0.943032595      -77.540992
9.306                0.942896383     -77.6722406
9.307                0.942759761     -77.8038422
9.308                0.942622729      -77.935798
9.309                0.942485285     -78.0681091
9.31                  0.94234743     -78.2007766
9.311                0.942209161     -78.3338018
9.312                0.942070479     -78.4671856
9.313                0.941931383     -78.6009293
9.314                0.941791873      -78.735034
9.315                0.941651947     -78.8695009
9.316                0.941511605     -79.0043311
9.317                0.941370847     -79.1395257
9.318                0.941229671      -79.275086
9.319                0.941088077      -79.411013
9.32                 0.940946065      -79.547308
9.321                0.940803634     -79.6839721
9.322                0.940660783     -79.8210065
9.323                0.940517512     -79.9584123
9.324                0.940373819     -80.0961908
9.325                0.940229706      -80.234343
9.326                0.940085171     -80.3728702
9.327                0.939940213     -80.5117736
9.328                0.939794832     -80.6510542
9.329                0.939649027     -80.7907134
9.33                 0.939502799     -80.9307522
9.331                0.939356146      -81.071172
9.332                0.939209068     -81.2119738
9.333                0.939061564     -81.3531589
9.334                0.938913635     -81.4947284
9.335                0.938765279     -81.6366836
9.336                0.938616496     -81.7790256
9.337                0.938467286     -81.9217557
9.338                0.938317648     -82.0648751
9.339                0.938167582     -82.2083849
9.34                 0.938017087     -82.3522863
9.341                0.937866164     -82.4965807
9.342                0.937714811     -82.6412691
9.343                0.937563029     -82.7863528
9.344                0.937410816     -82.9318331
9.345                0.937258174     -83.0777111
9.346                0.937105101      -83.223988
9.347                0.936951597     -83.3706651
9.348                0.936797662     -83.5177435
9.349                0.936643295     -83.6652246
9.35                 0.936488497     -83.8131095
9.351                0.936333266     -83.9613995
9.352                0.936177604     -84.1100958
9.353                0.936021509     -84.2591996
9.354                0.935864982     -84.4087122
9.355                0.935708022     -84.5586348
9.356                0.935550629     -84.7089686
9.357                0.935392803     -84.8597148
9.358                0.935234544     -85.0108748
9.359                0.935075851     -85.1624497
9.36                 0.934916725     -85.3144407
9.361                0.934757166     -85.4668492
9.362                0.934597173     -85.6196764
9.363                0.934436747     -85.7729235
9.364                0.934275887     -85.9265917
9.365                0.934114594     -86.0806824
9.366                0.933952866     -86.2351967
9.367                0.933790706     -86.3901359
9.368                0.933628112     -86.5455012
9.369                0.933465084      -86.701294
9.37                 0.933301623     -86.8575154
9.371                0.933137729     -87.0141667
9.372                0.932973402     -87.1712492
9.373                0.932808642     -87.3287641
9.374                0.932643449     -87.4867127
9.375                0.932477823     -87.6450962
9.376                0.932311765     -87.8039159
9.377                0.932145275     -87.9631731
9.378                0.931978353     -88.1228689
9.379                0.931810999     -88.2830047
9.38                 0.931643214     -88.4435818
9.381                0.931474998     -88.6046013
9.382                0.931306352     -88.7660646
9.383                0.931137275     -88.9279729
9.384                0.930967768     -89.0903274
9.385                0.930797832     -89.2531295
9.386                0.930627466     -89.4163803
9.387                0.930456672     -89.5800812
9.388                 0.93028545     -89.7442334
9.389                  0.9301138     -89.9088382
9.39                 0.929941724     -90.0738968
9.391                 0.92976922     -90.2394105
9.392                0.929596291     -90.4053806
9.393                0.929422937     -90.5718083
9.394                0.929249157     -90.7386948
9.395                0.929074954     -90.9060415
9.396                0.928900328     -91.0738496
