! TOUCHSTONE file generated by CST DESIGN STUDIO
! Date and time: Tue Feb  4 17:06:53 2025
! Project name: C:\Work\MatlabApps\UnitCellOptimizationMatlab\CST\unitcell.cst
! Tree item: Tasks\Sweep1\SPara1\S-Parameters
! Header version: 2024
! Port assignment regex: !\s*Touchstone port\s*([0-9]+)\s*=\s*(CST MWS port|CST DES external port|CST DES block port)\s*(.+)\s* \(\"(.*)\"\)(\s*mode\s*([0-9]+))?.*
! Touchstone port assignment:
! Touchstone port 1 = CST DES external port 1 ("")
# GHz S MA R 50
9                    0.965024602     -59.6770412
9.001                0.964952486     -59.7588204
9.002                 0.96488014     -59.8407891
9.003                0.964807562     -59.9229481
9.004                0.964734753     -60.0052978
9.005                0.964661711      -60.087839
9.006                0.964588435     -60.1705722
9.007                0.964514925      -60.253498
9.008                 0.96444118      -60.336617
9.009                0.964367199     -60.4199298
9.01                 0.964292981     -60.5034372
9.011                0.964218526     -60.5871395
9.012                0.964143833     -60.6710376
9.013                  0.9640689     -60.7551321
9.014                0.963993728     -60.8394234
9.015                0.963918315     -60.9239124
9.016                0.963842661     -61.0085995
9.017                0.963766765     -61.0934855
9.018                0.963690626     -61.1785709
9.019                0.963614243     -61.2638564
9.02                 0.963537616     -61.3493427
9.021                0.963460743     -61.4350303
9.022                0.963383624       -61.52092
9.023                0.963306258     -61.6070123
9.024                0.963228644      -61.693308
9.025                0.963150781     -61.7798076
9.026                0.963072669     -61.8665118
9.027                0.962994307     -61.9534213
9.028                0.962915694     -62.0405366
9.029                0.962836829     -62.1278586
9.03                 0.962757711     -62.2153878
9.031                 0.96267834     -62.3031249
9.032                0.962598715     -62.3910706
9.033                0.962518834     -62.4792255
9.034                0.962438697     -62.5675904
9.035                0.962358304     -62.6561657
9.036                0.962277653     -62.7449524
9.037                0.962196743     -62.8339509
9.038                0.962115574     -62.9231621
9.039                0.962034145     -63.0125866
9.04                 0.961952454      -63.102225
9.041                0.961870502     -63.1920781
9.042                0.961788288     -63.2821465
9.043                0.961705809      -63.372431
9.044                0.961623067     -63.4629322
9.045                0.961540059     -63.5536508
9.046                0.961456785     -63.6445875
9.047                0.961373244     -63.7357431
9.048                0.961289436     -63.8271182
9.049                0.961205358     -63.9187135
9.05                 0.961121012     -64.0105297
9.051                0.961036395     -64.1025677
9.052                0.960951506     -64.1948279
9.053                0.960866346     -64.2873113
9.054                0.960780913     -64.3800184
9.055                0.960695206       -64.47295
9.056                0.960609224     -64.5661069
9.057                0.960522967     -64.6594898
9.058                0.960436433     -64.7530993
9.059                0.960349622     -64.8469362
9.06                 0.960262533     -64.9410013
9.061                0.960175165     -65.0352953
9.062                0.960087517     -65.1298189
9.063                0.959999588     -65.2245729
9.064                0.959911378     -65.3195579
9.065                0.959822885     -65.4147749
9.066                0.959734109     -65.5102244
9.067                0.959645048     -65.6059072
9.068                0.959555703     -65.7018242
9.069                0.959466071      -65.797976
9.07                 0.959376152     -65.8943634
9.071                0.959285946     -65.9909871
9.072                0.959195451      -66.087848
9.073                0.959104666     -66.1849468
9.074                0.959013591     -66.2822843
9.075                0.958922224     -66.3798612
9.076                0.958830566     -66.4776783
9.077                0.958738614     -66.5757364
9.078                0.958646368     -66.6740362
9.079                0.958553827     -66.7725786
9.08                  0.95846099     -66.8713643
9.081                0.958367856     -66.9703941
9.082                0.958274425     -67.0696688
9.083                0.958180695     -67.1691892
9.084                0.958086666     -67.2689561
9.085                0.957992337     -67.3689702
9.086                0.957897706     -67.4692325
9.087                0.957802773     -67.5697435
9.088                0.957707537     -67.6705043
9.089                0.957611998     -67.7715156
9.09                 0.957516153     -67.8727781
9.091                0.957420003     -67.9742928
9.092                0.957323546     -68.0760603
9.093                0.957226781     -68.1780816
9.094                0.957129708     -68.2803575
9.095                0.957032326     -68.3828887
9.096                0.956934633     -68.4856762
9.097                0.956836629     -68.5887206
9.098                0.956738313      -68.692023
9.099                0.956639684      -68.795584
9.1                  0.956540741     -68.8994045
9.101                0.956441484     -69.0034855
9.102                 0.95634191     -69.1078276
9.103                 0.95624202     -69.2124318
9.104                0.956141813     -69.3172988
9.105                0.956041287     -69.4224296
9.106                0.955940441      -69.527825
9.107                0.955839276     -69.6334859
9.108                0.955737789     -69.7394131
9.109                 0.95563598     -69.8456074
9.11                 0.955533848     -69.9520697
9.111                0.955431392      -70.058801
9.112                0.955328611      -70.165802
9.113                0.955225505     -70.2730736
9.114                0.955122072     -70.3806168
9.115                0.955018311     -70.4884323
9.116                0.954914222     -70.5965211
9.117                0.954809804      -70.704884
9.118                0.954705055      -70.813522
9.119                0.954599975     -70.9224358
9.12                 0.954494563     -71.0316265
9.121                0.954388819     -71.1410948
9.122                 0.95428274     -71.2508417
9.123                0.954176326     -71.3608681
9.124                0.954069577     -71.4711749
9.125                0.953962491      -71.581763
9.126                0.953855068     -71.6926332
9.127                0.953747306     -71.8037866
9.128                0.953639205     -71.9152239
9.129                0.953530764     -72.0269462
9.13                 0.953421982     -72.1389544
9.131                0.953312857     -72.2512492
9.132                 0.95320339     -72.3638318
9.133                0.953093579     -72.4767029
9.134                0.952983424     -72.5898636
9.135                0.952872922     -72.7033148
9.136                0.952762075     -72.8170573
9.137                 0.95265088     -72.9310922
9.138                0.952539337     -73.0454203
9.139                0.952427445     -73.1600427
9.14                 0.952315203     -73.2749601
9.141                 0.95220261     -73.3901737
9.142                0.952089665     -73.5056843
9.143                0.951976368     -73.6214929
9.144                0.951862717     -73.7376005
9.145                0.951748712      -73.854008
9.146                0.951634351     -73.9707163
9.147                0.951519635     -74.0877265
9.148                0.951404562     -74.2050394
9.149                 0.95128913     -74.3226561
9.15                 0.951173341     -74.4405775
9.151                0.951057191     -74.5588047
9.152                0.950940682     -74.6773385
9.153                0.950823811     -74.7961799
9.154                0.950706578       -74.91533
9.155                0.950588982     -75.0347898
9.156                0.950471022     -75.1545601
9.157                0.950352698      -75.274642
9.158                0.950234008     -75.3950365
9.159                0.950114952     -75.5157446
9.16                 0.949995529     -75.6367672
9.161                0.949875738     -75.7581054
9.162                0.949755578     -75.8797602
9.163                0.949635049     -76.0017326
9.164                 0.94951415     -76.1240236
9.165                0.949392879     -76.2466341
9.166                0.949271236     -76.3695653
9.167                0.949149221     -76.4928181
9.168                0.949026832     -76.6163935
9.169                0.948904068     -76.7402926
9.17                 0.948780929     -76.8645164
9.171                0.948657415     -76.9890659
9.172                0.948533524     -77.1139421
9.173                0.948409255     -77.2391461
9.174                0.948284608     -77.3646789
9.175                0.948159582     -77.4905415
9.176                0.948034176      -77.616735
9.177                0.947908389     -77.7432604
9.178                0.947782221     -77.8701187
9.179                0.947655672      -77.997311
9.18                 0.947528739     -78.1248384
9.181                0.947401423     -78.2527019
9.182                0.947273723     -78.3809025
9.183                0.947145637     -78.5094414
9.184                0.947017166     -78.6383195
9.185                0.946888309     -78.7675379
9.186                0.946759064     -78.8970977
9.187                0.946629432     -79.0269999
9.188                0.946499411     -79.1572457
9.189                0.946369001      -79.287836
9.19                 0.946238202      -79.418772
9.191                0.946107011     -79.5500547
9.192                 0.94597543     -79.6816852
9.193                0.945843457     -79.8136646
9.194                0.945711091     -79.9459939
9.195                0.945578332     -80.0786743
9.196                0.945445179     -80.2117069
9.197                0.945311632     -80.3450926
9.198                 0.94517769     -80.4788327
9.199                0.945043352     -80.6129281
9.2                  0.944908618       -80.74738
9.201                0.944773487     -80.8821896
9.202                0.944637959     -81.0173578
9.203                0.944502033     -81.1528858
9.204                0.944365708     -81.2887747
9.205                0.944228984     -81.4250255
9.206                0.944091861     -81.5616395
9.207                0.943954337     -81.6986177
9.208                0.943816412     -81.8359612
9.209                0.943678087     -81.9736712
9.21                 0.943539359     -82.1117487
9.211                0.943400229     -82.2501948
9.212                0.943260696     -82.3890108
9.213                 0.94312076     -82.5281976
9.214                 0.94298042     -82.6677565
9.215                0.942839677     -82.8076885
9.216                0.942698528     -82.9479948
9.217                0.942556974     -83.0886765
9.218                0.942415015     -83.2297347
9.219                0.942272649     -83.3711706
9.22                 0.942129878     -83.5129853
9.221                0.941986699     -83.6551799
9.222                0.941843114     -83.7977556
9.223                 0.94169912     -83.9407135
9.224                0.941554719     -84.0840548
9.225                 0.94140991     -84.2277805
9.226                0.941264692     -84.3718919
9.227                0.941119065       -84.51639
9.228                0.940973029     -84.6612761
9.229                0.940826583     -84.8065513
9.23                 0.940679727     -84.9522167
9.231                0.940532461     -85.0982734
9.232                0.940384785     -85.2447227
9.233                0.940236699     -85.3915656
9.234                0.940088201     -85.5388034
9.235                0.939939292     -85.6864372
9.236                0.939789972     -85.8344681
9.237                0.939640241     -85.9828974
9.238                0.939490098     -86.1317261
9.239                0.939339543     -86.2809554
9.24                 0.939188576     -86.4305865
9.241                0.939037197     -86.5806206
9.242                0.938885405     -86.7310587
9.243                0.938733202     -86.8819022
9.244                0.938580586     -87.0331521
9.245                0.938427557     -87.1848096
9.246                0.938274116     -87.3368759
9.247                0.938120263     -87.4893522
9.248                0.937965997     -87.6422396
9.249                0.937811318     -87.7955393
9.25                 0.937656226     -87.9492524
9.251                0.937500723     -88.1033802
9.252                0.937344806     -88.2579238
9.253                0.937188477     -88.4128844
9.254                0.937031736     -88.5682631
9.255                0.936874583     -88.7240612
9.256                0.936717017     -88.8802797
9.257                 0.93655904       -89.03692
9.258                 0.93640065     -89.1939831
9.259                0.936241849     -89.3514703
9.26                 0.936082637     -89.5093826
9.261                0.935923013     -89.6677213
9.262                0.935762979     -89.8264877
9.263                0.935602534     -89.9856827
9.264                0.935441678     -90.1453077
9.265                0.935280412     -90.3053637
9.266                0.935118736      -90.465852
9.267                0.934956651     -90.6267738
9.268                0.934794157     -90.7881302
9.269                0.934631254     -90.9499224
9.27                 0.934467943     -91.1121516
9.271                0.934304224      -91.274819
9.272                0.934140097     -91.4379256
9.273                0.933975564     -91.6014728
9.274                0.933810624     -91.7654616
9.275                0.933645278     -91.9298933
9.276                0.933479527     -92.0947691
9.277                0.933313371       -92.26009
9.278                 0.93314681     -92.4258573
9.279                0.932979847     -92.5920722
9.28                  0.93281248     -92.7587357
9.281                0.932644711     -92.9258492
9.282                 0.93247654     -93.0934137
9.283                0.932307969     -93.2614304
9.284                0.932138998     -93.4299006
9.285                0.931969627     -93.5988252
9.286                0.931799857     -93.7682056
9.287                 0.93162969     -93.9380429
9.288                0.931459127     -94.1083382
9.289                0.931288167     -94.2790927
9.29                 0.931116812     -94.4503076
9.291                0.930945063      -94.621984
9.292                0.930772921     -94.7941231
9.293                0.930600387      -94.966726
9.294                0.930427462     -95.1397939
9.295                0.930254146     -95.3133279
9.296                0.930080442     -95.4873292
9.297                 0.92990635     -95.6617989
9.298                0.929731871     -95.8367381
9.299                0.929557006     -96.0121481
9.3                  0.929381758     -96.1880299
9.301                0.929206126     -96.3643848
9.302                0.929030112     -96.5412137
9.303                0.928853718     -96.7185179
9.304                0.928676944     -96.8962984
9.305                0.928499793     -97.0745565
9.306                0.928322265     -97.2532932
9.307                0.928144362     -97.4325096
9.308                0.927966086     -97.6122069
9.309                0.927787438     -97.7923862
9.31                 0.927608419     -97.9730486
9.311                0.927429031     -98.1541952
9.312                0.927249276     -98.3358271
9.313                0.927069155     -98.5179454
9.314                 0.92688867     -98.7005512
9.315                0.926707822     -98.8836456
9.316                0.926526614     -99.0672297
9.317                0.926345047     -99.2513045
9.318                0.926163124     -99.4358713
9.319                0.925980844     -99.6209309
9.32                 0.925798212     -99.8064846
9.321                0.925615229     -99.9925334
9.322                0.925431895     -100.179078
9.323                0.925248215      -100.36612
9.324                0.925064189     -100.553661
9.325                 0.92487982     -100.741701
9.326                 0.92469511     -100.930241
9.327                0.924510061     -101.119282
9.328                0.924324675     -101.308826
9.329                0.924138954     -101.498873
9.33                 0.923952901     -101.689425
9.331                0.923766518     -101.880483
9.332                0.923579808     -102.072047
9.333                0.923392772     -102.264118
9.334                0.923205414     -102.456699
9.335                0.923017735     -102.649788
9.336                0.922829739     -102.843388
9.337                0.922641427       -103.0375
9.338                0.922452803     -103.232125
9.339                0.922263869     -103.427262
9.34                 0.922074627     -103.622915
9.341                0.921885081     -103.819083
9.342                0.921695234     -104.015767
9.343                0.921505088     -104.212968
9.344                0.921314645     -104.410688
9.345                 0.92112391     -104.608927
9.346                0.920932885     -104.807686
9.347                0.920741572     -105.006966
9.348                0.920549976     -105.206769
9.349                0.920358099     -105.407094
9.35                 0.920165944     -105.607942
9.351                0.919973514     -105.809316
9.352                0.919780813     -106.011215
9.353                0.919587845     -106.213641
9.354                0.919394611     -106.416594
9.355                0.919201117     -106.620075
9.356                0.919007364     -106.824085
9.357                0.918813358     -107.028625
9.358                  0.9186191     -107.233695
9.359                0.918424596     -107.439297
9.36                 0.918229848     -107.645432
9.361                 0.91803486     -107.852099
9.362                0.917839636     -108.059301
9.363                 0.91764418     -108.267037
9.364                0.917448495     -108.475309
9.365                0.917252586     -108.684117
9.366                0.917056456     -108.893462
9.367                 0.91686011     -109.103344
9.368                0.916663551     -109.313766
9.369                0.916466783     -109.524726
9.37                 0.916269812     -109.736227
9.371                 0.91607264     -109.948268
9.372                0.915875273      -110.16085
9.373                0.915677714     -110.373975
9.374                0.915479968     -110.587642
9.375                0.915282039     -110.801852
9.376                0.915083932     -111.016607
9.377                0.914885652     -111.231906
9.378                0.914687202     -111.447751
9.379                0.914488588     -111.664141
9.38                 0.914289814     -111.881078
9.381                0.914090885     -112.098562
9.382                0.913891806     -112.316594
9.383                0.913692582     -112.535174
9.384                0.913493217     -112.754302
9.385                0.913293717      -112.97398
9.386                0.913094086     -113.194208
9.387                0.912894331     -113.414986
9.388                0.912694455     -113.636316
9.389                0.912494464     -113.858196
9.39                 0.912294363     -114.080628
9.391                0.912094158     -114.303613
9.392                0.911893854      -114.52715
9.393                0.911693457     -114.751241
9.394                0.911492971     -114.975885
9.395                0.911292403     -115.201083
9.396                0.911091758     -115.426835
