! TOUCHSTONE file generated by CST DESIGN STUDIO
! Date and time: Tue Feb  4 17:06:55 2025
! Project name: C:\Work\MatlabApps\UnitCellOptimizationMatlab\CST\unitcell.cst
! Tree item: Tasks\Sweep1\SPara1\S-Parameters
! Header version: 2024
! Port assignment regex: !\s*Touchstone port\s*([0-9]+)\s*=\s*(CST MWS port|CST DES external port|CST DES block port)\s*(.+)\s* \(\"(.*)\"\)(\s*mode\s*([0-9]+))?.*
! Touchstone port assignment:
! Touchstone port 1 = CST DES external port 1 ("")
# GHz S MA R 50
9                    0.966594499     -56.2354668
9.001                0.966529641     -56.3104275
9.002                0.966464576     -56.3855568
9.003                0.966399303     -56.4608551
9.004                0.966333822     -56.5363229
9.005                0.966268132     -56.6119608
9.006                0.966202233     -56.6877693
9.007                0.966136124      -56.763749
9.008                0.966069803     -56.8399004
9.009                0.966003271      -56.916224
9.01                 0.965936526     -56.9927204
9.011                0.965869568     -57.0693901
9.012                0.965802396     -57.1462337
9.013                 0.96573501     -57.2232516
9.014                0.965667408     -57.3004446
9.015                 0.96559959      -57.377813
9.016                0.965531556     -57.4553575
9.017                0.965463304     -57.5330786
9.018                0.965394834     -57.6109769
9.019                0.965326145     -57.6890529
9.02                 0.965257236     -57.7673072
9.021                0.965188107     -57.8457404
9.022                0.965118757      -57.924353
9.023                0.965049184     -58.0031455
9.024                 0.96497939     -58.0821187
9.025                0.964909371     -58.1612729
9.026                0.964839129     -58.2406089
9.027                0.964768662     -58.3201271
9.028                0.964697969     -58.3998282
9.029                 0.96462705     -58.4797128
9.03                 0.964555903     -58.5597813
9.031                0.964484529     -58.6400344
9.032                0.964412926     -58.7204728
9.033                0.964341094     -58.8010969
9.034                0.964269031     -58.8819074
9.035                0.964196738     -58.9629048
9.036                0.964124212     -59.0440898
9.037                0.964051455     -59.1254629
9.038                0.963978464     -59.2070247
9.039                0.963905239      -59.288776
9.04                 0.963831779     -59.3707171
9.041                0.963758083     -59.4528488
9.042                0.963684151     -59.5351717
9.043                0.963609982     -59.6176863
9.044                0.963535575     -59.7003934
9.045                 0.96346093     -59.7832934
9.046                0.963386044      -59.866387
9.047                0.963310919     -59.9496749
9.048                0.963235552     -60.0331576
9.049                0.963159944     -60.1168357
9.05                 0.963084092       -60.20071
9.051                0.963007997      -60.284781
9.052                0.962931658     -60.3690493
9.053                0.962855074     -60.4535157
9.054                0.962778244     -60.5381806
9.055                0.962701167     -60.6230448
9.056                0.962623842     -60.7081089
9.057                 0.96254627     -60.7933735
9.058                0.962468448     -60.8788393
9.059                0.962390375     -60.9645069
9.06                 0.962312053     -61.0503769
9.061                0.962233478     -61.1364501
9.062                0.962154651      -61.222727
9.063                0.962075571     -61.3092084
9.064                0.961996237     -61.3958948
9.065                0.961916647      -61.482787
9.066                0.961836802     -61.5698856
9.067                0.961756701     -61.6571912
9.068                0.961676342     -61.7447046
9.069                0.961595724     -61.8324263
9.07                 0.961514848     -61.9203571
9.071                0.961433711     -62.0084977
9.072                0.961352314     -62.0968486
9.073                0.961270655     -62.1854107
9.074                0.961188734     -62.2741845
9.075                0.961106549     -62.3631707
9.076                  0.9610241     -62.4523701
9.077                0.960941387     -62.5417833
9.078                0.960858407     -62.6314111
9.079                 0.96077516      -62.721254
9.08                 0.960691646     -62.8113128
9.081                0.960607864     -62.9015882
9.082                0.960523812     -62.9920809
9.083                 0.96043949     -63.0827916
9.084                0.960354897      -63.173721
9.085                0.960270032     -63.2648698
9.086                0.960184894     -63.3562388
9.087                0.960099482     -63.4478285
9.088                0.960013796     -63.5396398
9.089                0.959927835     -63.6316733
9.09                 0.959841597     -63.7239298
9.091                0.959755083       -63.81641
9.092                 0.95966829     -63.9091146
9.093                0.959581218     -64.0020444
9.094                0.959493867        -64.0952
9.095                0.959406234     -64.1885823
9.096                0.959318321     -64.2821918
9.097                0.959230125     -64.3760295
9.098                0.959141645     -64.4700959
9.099                0.959052882      -64.564392
9.1                  0.958963833     -64.6589183
9.101                0.958874498     -64.7536756
9.102                0.958784877     -64.8486648
9.103                0.958694968     -64.9438864
9.104                 0.95860477     -65.0393414
9.105                0.958514282     -65.1350305
9.106                0.958423504     -65.2309543
9.107                0.958332435     -65.3271137
9.108                0.958241073     -65.4235095
9.109                0.958149419     -65.5201424
9.11                  0.95805747     -65.6170131
9.111                0.957965226     -65.7141225
9.112                0.957872686     -65.8114713
9.113                 0.95777985     -65.9090604
9.114                0.957686716     -66.0068903
9.115                0.957593283     -66.1049621
9.116                0.957499551     -66.2032764
9.117                0.957405519      -66.301834
9.118                0.957311185     -66.4006358
9.119                0.957216549     -66.4996825
9.12                  0.95712161     -66.5989749
9.121                0.957026366     -66.6985138
9.122                0.956930818        -66.7983
9.123                0.956834964     -66.8983343
9.124                0.956738803     -66.9986176
9.125                0.956642334     -67.0991506
9.126                0.956545557     -67.1999341
9.127                 0.95644847      -67.300969
9.128                0.956351073     -67.4022561
9.129                0.956253364     -67.5037961
9.13                 0.956155343       -67.60559
9.131                0.956057009     -67.7076385
9.132                0.955958361     -67.8099425
9.133                0.955859397     -67.9125028
9.134                0.955760118     -68.0153202
9.135                0.955660521     -68.1183956
9.136                0.955560607     -68.2217298
9.137                0.955460374     -68.3253237
9.138                0.955359821      -68.429178
9.139                0.955258948     -68.5332937
9.14                 0.955157753     -68.6376716
9.141                0.955056236     -68.7423125
9.142                0.954954395     -68.8472173
9.143                 0.95485223     -68.9523868
9.144                 0.95474974      -69.057822
9.145                0.954646923     -69.1635237
9.146                 0.95454378     -69.2694927
9.147                0.954440308     -69.3757299
9.148                0.954336507     -69.4822362
9.149                0.954232377     -69.5890124
9.15                 0.954127916     -69.6960595
9.151                0.954023123     -69.8033783
9.152                0.953917997     -69.9109697
9.153                0.953812538     -70.0188346
9.154                0.953706744     -70.1269738
9.155                0.953600615     -70.2353883
9.156                 0.95349415      -70.344079
9.157                0.953387347     -70.4530467
9.158                0.953280207     -70.5622924
9.159                0.953172727     -70.6718169
9.16                 0.953064907     -70.7816211
9.161                0.952956746     -70.8917061
9.162                0.952848243     -71.0020726
9.163                0.952739398     -71.1127215
9.164                0.952630209     -71.2236539
9.165                0.952520675     -71.3348706
9.166                0.952410796     -71.4463726
9.167                 0.95230057     -71.5581607
9.168                0.952189997     -71.6702359
9.169                0.952079076     -71.7825991
9.17                 0.951967805     -71.8952513
9.171                0.951856185     -72.0081934
9.172                0.951744213     -72.1214263
9.173                 0.95163189     -72.2349509
9.174                0.951519214     -72.3487683
9.175                0.951406184     -72.4628793
9.176                  0.9512928      -72.577285
9.177                 0.95117906     -72.6919862
9.178                0.951064964     -72.8069839
9.179                 0.95095051     -72.9222791
9.18                 0.950835699     -73.0378727
9.181                0.950720528     -73.1537657
9.182                0.950604997      -73.269959
9.183                0.950489106     -73.3864537
9.184                0.950372853     -73.5032507
9.185                0.950256237     -73.6203509
9.186                0.950139258     -73.7377554
9.187                0.950021915     -73.8554651
9.188                0.949904206     -73.9734811
9.189                0.949786131     -74.0918042
9.19                 0.949667689     -74.2104355
9.191                 0.94954888      -74.329376
9.192                0.949429702     -74.4486266
9.193                0.949310154     -74.5681884
9.194                0.949190236     -74.6880624
9.195                0.949069947     -74.8082495
9.196                0.948949285     -74.9287508
9.197                0.948828251     -75.0495673
9.198                0.948706843     -75.1706999
9.199                 0.94858506     -75.2921498
9.2                  0.948462902     -75.4139178
9.201                0.948340368     -75.5360051
9.202                0.948217456     -75.6584126
9.203                0.948094167     -75.7811414
9.204                0.947970498     -75.9041925
9.205                0.947846451     -76.0275669
9.206                0.947722023     -76.1512656
9.207                0.947597213     -76.2752898
9.208                0.947472022     -76.3996403
9.209                0.947346448     -76.5243183
9.21                 0.947220491     -76.6493249
9.211                0.947094149     -76.7746609
9.212                0.946967422     -76.9003276
9.213                0.946840309     -77.0263259
9.214                0.946712809     -77.1526569
9.215                0.946584922     -77.2793216
9.216                0.946456647     -77.4063212
9.217                0.946327983     -77.5336566
9.218                0.946198929     -77.6613289
9.219                0.946069484     -77.7893393
9.22                 0.945939649     -77.9176886
9.221                0.945809421     -78.0463782
9.222                0.945678801     -78.1754089
9.223                0.945547788     -78.3047819
9.224                 0.94541638     -78.4344982
9.225                0.945284578      -78.564559
9.226                 0.94515238     -78.6949653
9.227                0.945019786     -78.8257182
9.228                0.944886795     -78.9568187
9.229                0.944753406     -79.0882681
9.23                  0.94461962     -79.2200673
9.231                0.944485434     -79.3522174
9.232                0.944350849     -79.4847197
9.233                0.944215864      -79.617575
9.234                0.944080477     -79.7507847
9.235                 0.94394469     -79.8843497
9.236                  0.9438085     -80.0182711
9.237                0.943671908     -80.1525501
9.238                0.943534912     -80.2871879
9.239                0.943397512     -80.4221854
9.24                 0.943259708     -80.5575438
9.241                0.943121498     -80.6932642
9.242                0.942982883     -80.8293478
9.243                0.942843862     -80.9657957
9.244                0.942704433     -81.1026089
9.245                0.942564598     -81.2397887
9.246                0.942424354     -81.3773361
9.247                0.942283702     -81.5152523
9.248                0.942142642     -81.6535384
9.249                0.942001171     -81.7921956
9.25                 0.941859291     -81.9312249
9.251                   0.941717     -82.0706275
9.252                0.941574298     -82.2104046
9.253                0.941431185     -82.3505573
9.254                 0.94128766     -82.4910867
9.255                0.941143723     -82.6319941
9.256                0.940999373     -82.7732804
9.257                 0.94085461      -82.914947
9.258                0.940709433     -83.0569949
9.259                0.940563842     -83.1994252
9.26                 0.940417837     -83.3422393
9.261                0.940271417     -83.4854381
9.262                0.940124582     -83.6290229
9.263                0.939977331     -83.7729948
9.264                0.939829665      -83.917355
9.265                0.939681583     -84.0621046
9.266                0.939533084     -84.2072449
9.267                0.939384168     -84.3527769
9.268                0.939234835     -84.4987019
9.269                0.939085085      -84.645021
9.27                 0.938934918     -84.7917354
9.271                0.938784332     -84.9388463
9.272                0.938633329     -85.0863548
9.273                0.938481907     -85.2342621
9.274                0.938330067     -85.3825694
9.275                0.938177808     -85.5312779
9.276                 0.93802513     -85.6803887
9.277                0.937872033     -85.8299031
9.278                0.937718518     -85.9798222
9.279                0.937564583     -86.1301472
9.28                 0.937410228     -86.2808792
9.281                0.937255454     -86.4320196
9.282                0.937100261     -86.5835694
9.283                0.936944648     -86.7355298
9.284                0.936788615     -86.8879021
9.285                0.936632163     -87.0406874
9.286                0.936475291     -87.1938869
9.287                0.936317999     -87.3475018
9.288                0.936160287     -87.5015333
9.289                0.936002156     -87.6559826
9.29                 0.935843606     -87.8108509
9.291                0.935684636     -87.9661394
9.292                0.935525246     -88.1218492
9.293                0.935365438     -88.2779816
9.294                 0.93520521     -88.4345378
9.295                0.935044563      -88.591519
9.296                0.934883498     -88.7489263
9.297                0.934722014      -88.906761
9.298                0.934560111     -89.0650243
9.299                0.934397791     -89.2237173
9.3                  0.934235052     -89.3828412
9.301                0.934071896     -89.5423974
9.302                0.933908323     -89.7023869
9.303                0.933744332     -89.8628109
9.304                0.933579925     -90.0236707
9.305                0.933415102     -90.1849675
9.306                0.933249863     -90.3467024
9.307                0.933084208     -90.5088767
9.308                0.932918138     -90.6714915
9.309                0.932751654     -90.8345481
9.31                 0.932584755     -90.9980476
9.311                0.932417443     -91.1619913
9.312                0.932249718     -91.3263804
9.313                0.932081581      -91.491216
9.314                0.931913031     -91.6564993
9.315                 0.93174407     -91.8222316
9.316                0.931574698     -91.9884141
9.317                0.931404916     -92.1550478
9.318                0.931234725     -92.3221341
9.319                0.931064125     -92.4896742
9.32                 0.930893117     -92.6576691
9.321                0.930721702     -92.8261201
9.322                 0.93054988     -92.9950285
9.323                0.930377653     -93.1643953
9.324                0.930205021     -93.3342218
9.325                0.930031985     -93.5045092
9.326                0.929858546     -93.6752587
9.327                0.929684705     -93.8464713
9.328                0.929510462     -94.0181484
9.329                 0.92933582     -94.1902911
9.33                 0.929160778     -94.3629006
9.331                0.928985338      -94.535978
9.332                0.928809501     -94.7095246
9.333                0.928633268     -94.8835415
9.334                 0.92845664     -95.0580298
9.335                0.928279618     -95.2329909
9.336                0.928102204     -95.4084257
9.337                0.927924398     -95.5843355
9.338                0.927746203     -95.7607215
9.339                0.927567619     -95.9375849
9.34                 0.927388647     -96.1149267
9.341                0.927209289     -96.2927481
9.342                0.927029546     -96.4710503
9.343                 0.92684942     -96.6498345
9.344                0.926668913     -96.8291017
9.345                0.926488024     -97.0088532
9.346                0.926306757     -97.1890901
9.347                0.926125113     -97.3698135
9.348                0.925943093     -97.5510246
9.349                0.925760699     -97.7327244
9.35                 0.925577932     -97.9149142
9.351                0.925394795      -98.097595
9.352                0.925211289     -98.2807681
9.353                0.925027415     -98.4644344
9.354                0.924843176     -98.6485951
9.355                0.924658573     -98.8332513
9.356                0.924473609     -99.0184042
9.357                0.924288285     -99.2040549
9.358                0.924102603     -99.3902043
9.359                0.923916565     -99.5768537
9.36                 0.923730173     -99.7640042
9.361                 0.92354343     -99.9516567
9.362                0.923356337     -100.139813
9.363                0.923168896     -100.328473
9.364                0.922981111     -100.517638
9.365                0.922792982      -100.70731
9.366                0.922604512     -100.897489
9.367                0.922415704     -101.088177
9.368                 0.92222656     -101.279374
9.369                0.922037082     -101.471083
9.37                 0.921847273     -101.663302
9.371                0.921657135     -101.856035
9.372                0.921466671     -102.049281
9.373                0.921275883     -102.243042
9.374                0.921084775     -102.437319
9.375                0.920893347     -102.632113
9.376                0.920701605     -102.827425
9.377                0.920509549     -103.023255
9.378                0.920317183     -103.219605
9.379                 0.92012451     -103.416476
9.38                 0.919931532     -103.613869
9.381                0.919738253     -103.811785
9.382                0.919544676     -104.010224
9.383                0.919350803     -104.209189
9.384                0.919156638     -104.408678
9.385                0.918962183     -104.608695
9.386                0.918767442     -104.809239
9.387                0.918572419     -105.010311
9.388                0.918377115     -105.211913
9.389                0.918181536     -105.414045
9.39                 0.917985684     -105.616709
9.391                0.917789562     -105.819905
9.392                0.917593174     -106.023633
9.393                0.917396523     -106.227896
9.394                0.917199614     -106.432693
9.395                0.917002449     -106.638026
9.396                0.916805032     -106.843896
