! TOUCHSTONE file generated by CST DESIGN STUDIO
! Date and time: Tue Feb  4 17:06:48 2025
! Project name: C:\Work\MatlabApps\UnitCellOptimizationMatlab\CST\unitcell.cst
! Tree item: Tasks\Sweep1\SPara1\S-Parameters
! Header version: 2024
! Port assignment regex: !\s*Touchstone port\s*([0-9]+)\s*=\s*(CST MWS port|CST DES external port|CST DES block port)\s*(.+)\s* \(\"(.*)\"\)(\s*mode\s*([0-9]+))?.*
! Touchstone port assignment:
! Touchstone port 1 = CST DES external port 1 ("")
# GHz S MA R 50
9                    0.961856156     -66.7620605
9.001                0.961768891     -66.8591019
9.002                0.961681348      -66.956381
9.003                0.961593526     -67.0538985
9.004                0.961505425     -67.1516554
9.005                0.961417043     -67.2496522
9.006                 0.96132838     -67.3478898
9.007                0.961239436      -67.446369
9.008                0.961150208     -67.5450906
9.009                0.961060696     -67.6440552
9.01                   0.9609709     -67.7432637
9.011                0.960880818     -67.8427169
9.012                0.960790449     -67.9424155
9.013                0.960699793     -68.0423604
9.014                0.960608849     -68.1425523
9.015                0.960517616      -68.242992
9.016                0.960426093     -68.3436803
9.017                0.960334279      -68.444618
9.018                0.960242173     -68.5458059
9.019                0.960149775     -68.6472448
9.02                 0.960057083     -68.7489355
9.021                0.959964097     -68.8508788
9.022                0.959870815     -68.9530755
9.023                0.959777238     -69.0555265
9.024                0.959683363     -69.1582325
9.025                0.959589191     -69.2611943
9.026                0.959494719     -69.3644128
9.027                0.959399948     -69.4678889
9.028                0.959304877     -69.5716232
9.029                0.959209504     -69.6756167
9.03                 0.959113828     -69.7798701
9.031                 0.95901785     -69.8843844
9.032                0.958921567     -69.9891603
9.033                0.958824979     -70.0941987
9.034                0.958728086     -70.1995004
9.035                0.958630885     -70.3050663
9.036                0.958533377     -70.4108971
9.037                0.958435561     -70.5169938
9.038                0.958337435     -70.6233572
9.039                0.958238999     -70.7299882
9.04                 0.958140251     -70.8368876
9.041                0.958041192     -70.9440562
9.042                0.957941819     -71.0514949
9.043                0.957842133     -71.1592047
9.044                0.957742132     -71.2671863
9.045                0.957641815     -71.3754406
9.046                0.957541182     -71.4839685
9.047                0.957440232     -71.5927708
9.048                0.957338963     -71.7018485
9.049                0.957237375     -71.8112025
9.05                 0.957135467     -71.9208335
9.051                0.957033238     -72.0307425
9.052                0.956930687     -72.1409303
9.053                0.956827813      -72.251398
9.054                0.956724616     -72.3621462
9.055                0.956621095     -72.4731761
9.056                0.956517248     -72.5844883
9.057                0.956413075     -72.6960839
9.058                0.956308575     -72.8079637
9.059                0.956203747     -72.9201287
9.06                  0.95609859     -73.0325797
9.061                0.955993104     -73.1453177
9.062                0.955887286     -73.2583436
9.063                0.955781138     -73.3716583
9.064                0.955674657     -73.4852626
9.065                0.955567843     -73.5991576
9.066                0.955460695     -73.7133442
9.067                0.955353212     -73.8278232
9.068                0.955245393     -73.9425956
9.069                0.955137238     -74.0576623
9.07                 0.955028745     -74.1730243
9.071                0.954919914     -74.2886826
9.072                0.954810743     -74.4046379
9.073                0.954701233     -74.5208914
9.074                0.954591382     -74.6374438
9.075                0.954481189     -74.7542963
9.076                0.954370653     -74.8714496
9.077                0.954259774     -74.9889049
9.078                 0.95414855     -75.1066629
9.079                0.954036982     -75.2247247
9.08                 0.953925067     -75.3430913
9.081                0.953812806     -75.4617636
9.082                0.953700197     -75.5807425
9.083                 0.95358724     -75.7000291
9.084                0.953473933     -75.8196243
9.085                0.953360276      -75.939529
9.086                0.953246268     -76.0597443
9.087                0.953131909     -76.1802711
9.088                0.953017197     -76.3011104
9.089                0.952902132     -76.4222633
9.09                 0.952786712     -76.5437305
9.091                0.952670937     -76.6655133
9.092                0.952554807     -76.7876124
9.093                 0.95243832      -76.910029
9.094                0.952321476     -77.0327641
9.095                0.952204273     -77.1558185
9.096                0.952086712     -77.2791934
9.097                0.951968791     -77.4028898
9.098                0.951850509     -77.5269085
9.099                0.951731866     -77.6512507
9.1                  0.951612861     -77.7759173
9.101                0.951493493     -77.9009094
9.102                0.951373761      -78.026228
9.103                0.951253666      -78.151874
9.104                0.951133205     -78.2778486
9.105                0.951012378     -78.4041527
9.106                0.950891185     -78.5307873
9.107                0.950769624     -78.6577535
9.108                0.950647695     -78.7850523
9.109                0.950525398     -78.9126848
9.11                  0.95040273     -79.0406519
9.111                0.950279693     -79.1689547
9.112                0.950156285     -79.2975943
9.113                0.950032505     -79.4265716
9.114                0.949908353     -79.5558877
9.115                0.949783828     -79.6855437
9.116                0.949658929     -79.8155406
9.117                0.949533655     -79.9458795
9.118                0.949408007     -80.0765614
9.119                0.949281983     -80.2075873
9.12                 0.949155582     -80.3389584
9.121                0.949028805     -80.4706756
9.122                0.948901649     -80.6027401
9.123                0.948774115     -80.7351528
9.124                0.948646203      -80.867915
9.125                 0.94851791     -81.0010275
9.126                0.948389238     -81.1344915
9.127                0.948260184     -81.2683081
9.128                0.948130749     -81.4024783
9.129                0.948000932     -81.5370032
9.13                 0.947870732     -81.6718839
9.131                0.947740149     -81.8071215
9.132                0.947609182      -81.942717
9.133                0.947477831     -82.0786715
9.134                0.947346095     -82.2149862
9.135                0.947213974      -82.351662
9.136                0.947081466     -82.4887001
9.137                0.946948572     -82.6261016
9.138                 0.94681529     -82.7638675
9.139                0.946681621      -82.901999
9.14                 0.946547564     -83.0404971
9.141                0.946413118      -83.179363
9.142                0.946278284     -83.3185977
9.143                0.946143059     -83.4582024
9.144                0.946007445     -83.5981781
9.145                 0.94587144     -83.7385259
9.146                0.945735044      -83.879247
9.147                0.945598256     -84.0203425
9.148                0.945461077     -84.1618135
9.149                0.945323506      -84.303661
9.15                 0.945185542     -84.4458862
9.151                0.945047185     -84.5884902
9.152                0.944908434     -84.7314742
9.153                 0.94476929     -84.8748392
9.154                0.944629751     -85.0185863
9.155                0.944489818     -85.1627167
9.156                 0.94434949     -85.3072315
9.157                0.944208767     -85.4521318
9.158                0.944067649     -85.5974188
9.159                0.943926134     -85.7430935
9.16                 0.943784224     -85.8891571
9.161                0.943641917     -86.0356108
9.162                0.943499214     -86.1824556
9.163                0.943356114     -86.3296926
9.164                0.943212616     -86.4773231
9.165                0.943068722     -86.6253481
9.166                0.942924429     -86.7737688
9.167                 0.94277974     -86.9225863
9.168                0.942634652     -87.0718017
9.169                0.942489166     -87.2214162
9.17                 0.942343282     -87.3714309
9.171                0.942196999      -87.521847
9.172                0.942050318     -87.6726655
9.173                0.941903239     -87.8238877
9.174                 0.94175576     -87.9755146
9.175                0.941607883     -88.1275475
9.176                0.941459607     -88.2799874
9.177                0.941310933     -88.4328355
9.178                0.941161859      -88.586093
9.179                0.941012387     -88.7397609
9.18                 0.940862515     -88.8938404
9.181                0.940712245     -89.0483327
9.182                0.940561575     -89.2032389
9.183                0.940410507     -89.3585602
9.184                0.940259041     -89.5142977
9.185                0.940107175     -89.6704525
9.186                0.939954911     -89.8270259
9.187                0.939802249     -89.9840188
9.188                0.939649189     -90.1414326
9.189                 0.93949573     -90.2992683
9.19                 0.939341873     -90.4575271
9.191                0.939187619     -90.6162101
9.192                0.939032967     -90.7753184
9.193                0.938877918     -90.9348533
9.194                0.938722472     -91.0948159
9.195                0.938566629     -91.2552073
9.196                 0.93841039     -91.4160286
9.197                0.938253755      -91.577281
9.198                0.938096724     -91.7389657
9.199                0.937939297     -91.9010838
9.2                  0.937781476     -92.0636365
9.201                 0.93762326     -92.2266248
9.202                 0.93746465     -92.3900499
9.203                0.937305646      -92.553913
9.204                0.937146249     -92.7182152
9.205                0.936986459     -92.8829577
9.206                0.936826277     -93.0481416
9.207                0.936665703     -93.2137679
9.208                0.936504738      -93.379838
9.209                0.936343382     -93.5463529
9.21                 0.936181637     -93.7133137
9.211                0.936019502     -93.8807216
9.212                0.935856978     -94.0485777
9.213                0.935694067     -94.2168831
9.214                0.935530768     -94.3856391
9.215                0.935367083     -94.5548466
9.216                0.935203012     -94.7245069
9.217                0.935038556      -94.894621
9.218                0.934873716     -95.0651901
9.219                0.934708492     -95.2362154
9.22                 0.934542886     -95.4076978
9.221                0.934376899     -95.5796386
9.222                0.934210531     -95.7520389
9.223                0.934043783     -95.9248998
9.224                0.933876656     -96.0982224
9.225                0.933709152     -96.2720077
9.226                0.933541271      -96.446257
9.227                0.933373014     -96.6209714
9.228                0.933204383     -96.7961518
9.229                0.933035378     -96.9717996
9.23                 0.932866001     -97.1479156
9.231                0.932696253     -97.3245011
9.232                0.932526135     -97.5015571
9.233                0.932355648     -97.6790847
9.234                0.932184794      -97.857085
9.235                0.932013574     -98.0355591
9.236                0.931841989     -98.2145081
9.237                 0.93167004     -98.3939331
9.238                 0.93149773     -98.5738351
9.239                0.931325059     -98.7542152
9.24                 0.931152029     -98.9350744
9.241                0.930978641     -99.1164139
9.242                0.930804897     -99.2982347
9.243                0.930630798     -99.4805379
9.244                0.930456347     -99.6633245
9.245                0.930281544     -99.8465956
9.246                0.930106392     -100.030352
9.247                0.929930891     -100.214595
9.248                0.929755044     -100.399326
9.249                0.929578853     -100.584545
9.25                 0.929402319     -100.770254
9.251                0.929225444     -100.956454
9.252                 0.92904823     -101.143146
9.253                0.928870679      -101.33033
9.254                0.928692793     -101.518008
9.255                0.928514574      -101.70618
9.256                0.928336024     -101.894849
9.257                0.928157144     -102.084014
9.258                0.927977938     -102.273677
9.259                0.927798407     -102.463838
9.26                 0.927618553       -102.6545
9.261                0.927438378     -102.845662
9.262                0.927257886     -103.037325
9.263                0.927077077     -103.229492
9.264                0.926895955     -103.422161
9.265                0.926714522     -103.615336
9.266                 0.92653278     -103.809016
9.267                0.926350731     -104.003202
9.268                0.926168379     -104.197895
9.269                0.925985726     -104.393097
9.27                 0.925802773     -104.588808
9.271                0.925619525      -104.78503
9.272                0.925435983     -104.981762
9.273                 0.92525215     -105.179006
9.274                0.925068029     -105.376763
9.275                0.924883623     -105.575033
9.276                0.924698935     -105.773818
9.277                0.924513967     -105.973119
9.278                0.924328723     -106.172936
9.279                0.924143205      -106.37327
9.28                 0.923957416     -106.574122
9.281                 0.92377136     -106.775493
9.282                 0.92358504     -106.977383
9.283                0.923398458     -107.179794
9.284                0.923211618     -107.382727
9.285                0.923024523     -107.586181
9.286                0.922837176     -107.790159
9.287                0.922649582      -107.99466
9.288                0.922461742     -108.199685
9.289                0.922273661     -108.405236
9.29                 0.922085342     -108.611313
9.291                0.921896789     -108.817917
9.292                0.921708005     -109.025048
9.293                0.921518993     -109.232708
9.294                0.921329758     -109.440896
9.295                0.921140303     -109.649614
9.296                0.920950632     -109.858863
9.297                0.920760749     -110.068642
9.298                0.920570657     -110.278954
9.299                0.920380361     -110.489797
9.3                  0.920189864     -110.701174
9.301                0.919999171     -110.913085
9.302                0.919808285      -111.12553
9.303                0.919617211      -111.33851
9.304                0.919425953     -111.552026
9.305                0.919234515     -111.766078
9.306                0.919042901     -111.980667
9.307                0.918851116     -112.195793
9.308                0.918659164     -112.411457
9.309                0.918467049      -112.62766
9.31                 0.918274776     -112.844402
9.311                 0.91808235     -113.061684
9.312                0.917889775     -113.279505
9.313                0.917697055     -113.497868
9.314                0.917504196     -113.716771
9.315                0.917311202     -113.936217
9.316                0.917118078     -114.156204
9.317                0.916924829     -114.376734
9.318                0.916731459     -114.597807
9.319                0.916537974     -114.819423
9.32                 0.916344379     -115.041584
9.321                0.916150678     -115.264288
9.322                0.915956877     -115.487537
9.323                0.915762981     -115.711332
9.324                0.915568996     -115.935671
9.325                0.915374926     -116.160557
9.326                0.915180777     -116.385988
9.327                0.914986554     -116.611966
9.328                0.914792263     -116.838491
9.329                0.914597909     -117.065562
9.33                 0.914403498     -117.293181
9.331                0.914209035     -117.521347
9.332                0.914014527     -117.750061
9.333                0.913819978     -117.979323
9.334                0.913625395     -118.209133
9.335                0.913430783     -118.439492
9.336                0.913236149     -118.670399
9.337                0.913041498     -118.901854
9.338                0.912846836     -119.133859
9.339                0.912652169     -119.366412
9.34                 0.912457504     -119.599515
9.341                0.912262847     -119.833166
9.342                0.912068203     -120.067367
9.343                 0.91187358     -120.302117
9.344                0.911678983     -120.537416
9.345                0.911484419     -120.773265
9.346                0.911289895     -121.009663
9.347                0.911095416      -121.24661
9.348                0.910900989     -121.484107
9.349                0.910706622     -121.722152
9.35                  0.91051232     -121.960747
9.351                0.910318091     -122.199891
9.352                0.910123941     -122.439583
9.353                0.909929877     -122.679825
9.354                0.909735905     -122.920615
9.355                0.909542034     -123.161953
9.356                 0.90934827      -123.40384
9.357                0.909154619     -123.646274
9.358                 0.90896109     -123.889257
9.359                0.908767689     -124.132787
9.36                 0.908574423     -124.376864
9.361                0.908381299     -124.621488
9.362                0.908188326     -124.866659
9.363                0.907995511     -125.112376
9.364                 0.90780286     -125.358639
9.365                0.907610381     -125.605448
9.366                0.907418082     -125.852802
9.367                 0.90722597       -126.1007
9.368                0.907034054     -126.349143
9.369                 0.90684234      -126.59813
9.37                 0.906650837      -126.84766
9.371                0.906459552     -127.097732
9.372                0.906268493     -127.348347
9.373                0.906077668     -127.599504
9.374                0.905887085     -127.851202
9.375                0.905696752      -128.10344
9.376                0.905506677     -128.356218
9.377                0.905316868     -128.609536
9.378                0.905127334     -128.863392
9.379                0.904938081     -129.117785
9.38                 0.904749119     -129.372716
9.381                0.904560456     -129.628184
9.382                  0.9043721     -129.884186
9.383                 0.90418406     -130.140724
9.384                0.903996344     -130.397796
9.385                 0.90380896       -130.6554
9.386                0.903621917     -130.913538
9.387                0.903435223     -131.172206
9.388                0.903248888     -131.431405
9.389                0.903062919     -131.691133
9.39                 0.902877326      -131.95139
9.391                0.902692117     -132.212174
9.392                  0.9025073     -132.473485
9.393                0.902322886     -132.735321
9.394                0.902138881     -132.997682
9.395                0.901955296     -133.260565
9.396                 0.90177214     -133.523971
