! TOUCHSTONE file generated by CST DESIGN STUDIO
! Date and time: Tue Feb  4 13:36:31 2025
! Project name: C:\Work\MatlabApps\UnitCellOptimizationMatlab\CST\unitcell.cst
! Tree item: Tasks\Sweep1\SPara1\S-Parameters
! Header version: 2024
! Port assignment regex: !\s*Touchstone port\s*([0-9]+)\s*=\s*(CST MWS port|CST DES external port|CST DES block port)\s*(.+)\s* \(\"(.*)\"\)(\s*mode\s*([0-9]+))?.*
! Touchstone port assignment:
! Touchstone port 1 = CST DES external port 1 ("")
# GHz S MA R 50
9                    0.977739675     -80.0674517
9.001                0.977682878     -80.1928774
9.002                0.977625913     -80.3186179
9.003                0.977568779     -80.4446741
9.004                0.977511476      -80.571047
9.005                0.977454004     -80.6977374
9.006                0.977396362     -80.8247463
9.007                0.977338551     -80.9520745
9.008                 0.97728057     -81.0797231
9.009                0.977222418      -81.207693
9.01                 0.977164095      -81.335985
9.011                0.977105602     -81.4646001
9.012                0.977046937     -81.5935392
9.013                0.976988101     -81.7228032
9.014                0.976929093     -81.8523932
9.015                0.976869912       -81.98231
9.016                 0.97681056     -82.1125545
9.017                0.976751034     -82.2431278
9.018                0.976691336     -82.3740306
9.019                0.976631464      -82.505264
9.02                 0.976571419      -82.636829
9.021                0.976511201     -82.7687264
9.022                0.976450808     -82.9009572
9.023                0.976390241     -83.0335223
9.024                0.976329499     -83.1664228
9.025                0.976268583     -83.2996595
9.026                0.976207492     -83.4332333
9.027                0.976146225     -83.5671453
9.028                0.976084783     -83.7013964
9.029                0.976023166     -83.8359876
9.03                 0.975961372     -83.9709198
9.031                0.975899402     -84.1061939
9.032                0.975837256     -84.2418109
9.033                0.975774933     -84.3777718
9.034                0.975712433     -84.5140775
9.035                0.975649757     -84.6507291
9.036                0.975586903     -84.7877273
9.037                0.975523871     -84.9250733
9.038                0.975460663      -85.062768
9.039                0.975397276     -85.2008124
9.04                 0.975333711     -85.3392073
9.041                0.975269968     -85.4779538
9.042                0.975206047     -85.6170529
9.043                0.975141947     -85.7565055
9.044                0.975077668     -85.8963126
9.045                 0.97501321     -86.0364752
9.046                0.974948574     -86.1769941
9.047                0.974883758     -86.3178705
9.048                0.974818763     -86.4591053
9.049                0.974753588     -86.6006994
9.05                 0.974688234     -86.7426538
9.051                  0.9746227     -86.8849696
9.052                0.974556986     -87.0276476
9.053                0.974491092     -87.1706889
9.054                0.974425018     -87.3140944
9.055                0.974358763     -87.4578651
9.056                0.974292329     -87.6020021
9.057                0.974225714     -87.7465062
9.058                0.974158918     -87.8913784
9.059                0.974091941     -88.0366198
9.06                 0.974024784     -88.1822313
9.061                0.973957446     -88.3282139
9.062                0.973889928     -88.4745685
9.063                0.973822228     -88.6212962
9.064                0.973754347      -88.768398
9.065                0.973686285     -88.9158748
9.066                0.973618043     -89.0637276
9.067                0.973549618     -89.2119573
9.068                0.973481013     -89.3605651
9.069                0.973412227     -89.5095518
9.07                 0.973343259     -89.6589184
9.071                 0.97327411      -89.808666
9.072                 0.97320478     -89.9587955
9.073                0.973135269     -90.1093079
9.074                0.973065576     -90.2602041
9.075                0.972995703     -90.4114852
9.076                0.972925648     -90.5631522
9.077                0.972855411     -90.7152059
9.078                0.972784994     -90.8676475
9.079                0.972714396     -91.0204779
9.08                 0.972643617      -91.173698
9.081                0.972572656     -91.3273089
9.082                0.972501515     -91.4813115
9.083                0.972430193     -91.6357069
9.084                 0.97235869     -91.7904959
9.085                0.972287007     -91.9456796
9.086                0.972215143      -92.101259
9.087                0.972143099      -92.257235
9.088                0.972070874     -92.4136087
9.089                0.971998469     -92.5703809
9.09                 0.971925884     -92.7275527
9.091                 0.97185312      -92.885125
9.092                0.971780175     -93.0430989
9.093                0.971707051     -93.2014752
9.094                0.971633748     -93.3602551
9.095                0.971560265     -93.5194393
9.096                0.971486603      -93.679029
9.097                0.971412763      -93.839025
9.098                0.971338743     -93.9994284
9.099                0.971264546     -94.1602401
9.1                   0.97119017     -94.3214611
9.101                0.971115616     -94.4830924
9.102                0.971040885     -94.6451348
9.103                0.970965976     -94.8075895
9.104                 0.97089089     -94.9704572
9.105                0.970815627     -95.1337391
9.106                0.970740187      -95.297436
9.107                0.970664572     -95.4615489
9.108                 0.97058878     -95.6260788
9.109                0.970512812     -95.7910266
9.11                  0.97043667     -95.9563932
9.111                0.970360352     -96.1221797
9.112                0.970283859     -96.2883869
9.113                0.970207193     -96.4550159
9.114                0.970130352     -96.6220674
9.115                0.970053338     -96.7895426
9.116                0.969976151     -96.9574422
9.117                0.969898791     -97.1257674
9.118                0.969821259     -97.2945189
9.119                0.969743555     -97.4636977
9.12                 0.969665679     -97.6333048
9.121                0.969587633     -97.8033411
9.122                0.969509416     -97.9738074
9.123                0.969431029     -98.1447048
9.124                0.969352473     -98.3160341
9.125                0.969273748     -98.4877963
9.126                0.969194854     -98.6599922
9.127                0.969115793     -98.8326228
9.128                0.969036564     -99.0056889
9.129                0.968957168     -99.1791916
9.13                 0.968877606     -99.3531316
9.131                0.968797878     -99.5275099
9.132                0.968717986     -99.7023274
9.133                0.968637929     -99.8775849
9.134                0.968557708     -100.053283
9.135                0.968477324     -100.229424
9.136                0.968396777     -100.406007
9.137                0.968316069     -100.583033
9.138                0.968235199     -100.760504
9.139                0.968154169      -100.93842
9.14                 0.968072979     -101.116783
9.141                0.967991631     -101.295592
9.142                0.967910124      -101.47485
9.143                0.967828459     -101.654556
9.144                0.967746638     -101.834712
9.145                0.967664661     -102.015318
9.146                0.967582528     -102.196375
9.147                0.967500242     -102.377885
9.148                0.967417801     -102.559847
9.149                0.967335208     -102.742263
9.15                 0.967252464     -102.925134
9.151                0.967169568      -103.10846
9.152                0.967086523     -103.292243
9.153                0.967003328     -103.476482
9.154                0.966919985     -103.661179
9.155                0.966836495     -103.846335
9.156                0.966752859      -104.03195
9.157                0.966669077     -104.218025
9.158                0.966585151     -104.404561
9.159                0.966501082     -104.591559
9.16                 0.966416871     -104.779019
9.161                0.966332518     -104.966942
9.162                0.966248025      -105.15533
9.163                0.966163394     -105.344182
9.164                0.966078624       -105.5335
9.165                0.965993717     -105.723284
9.166                0.965908675     -105.913534
9.167                0.965823498     -106.104253
9.168                0.965738188     -106.295439
9.169                0.965652745     -106.487095
9.17                 0.965567172     -106.679221
9.171                0.965481469     -106.871817
9.172                0.965395637     -107.064884
9.173                0.965309678     -107.258423
9.174                0.965223593     -107.452434
9.175                0.965137383     -107.646919
9.176                 0.96505105     -107.841878
9.177                0.964964594      -108.03731
9.178                0.964878019     -108.233219
9.179                0.964791323     -108.429602
9.18                  0.96470451     -108.626463
9.181                0.964617581       -108.8238
9.182                0.964530536     -109.021615
9.183                0.964443378     -109.219908
9.184                0.964356107      -109.41868
9.185                0.964268726     -109.617931
9.186                0.964181236     -109.817662
9.187                0.964093638     -110.017874
9.188                0.964005934     -110.218567
9.189                0.963918126     -110.419742
9.19                 0.963830215     -110.621398
9.191                0.963742202     -110.823538
9.192                 0.96365409     -111.026161
9.193                 0.96356588     -111.229267
9.194                0.963477573     -111.432858
9.195                0.963389172     -111.636934
9.196                0.963300678     -111.841495
9.197                0.963212093     -112.046541
9.198                0.963123419     -112.252074
9.199                0.963034657     -112.458094
9.2                  0.962945809       -112.6646
9.201                0.962856877     -112.871595
9.202                0.962767863     -113.079077
9.203                0.962678769     -113.287047
9.204                0.962589596     -113.495507
9.205                0.962500347     -113.704455
9.206                0.962411024     -113.913894
9.207                0.962321627     -114.123822
9.208                0.962232161      -114.33424
9.209                0.962142626     -114.545149
9.21                 0.962053024     -114.756549
9.211                0.961963358     -114.968441
9.212                0.961873629     -115.180824
9.213                 0.96178384     -115.393699
9.214                0.961693992     -115.607066
9.215                0.961604089     -115.820926
9.216                0.961514132     -116.035279
9.217                0.961424123     -116.250124
9.218                0.961334064     -116.465463
9.219                0.961243958     -116.681296
9.22                 0.961153807     -116.897622
9.221                0.961063613     -117.114442
9.222                0.960973379     -117.331756
9.223                0.960883106     -117.549564
9.224                0.960792798     -117.767867
9.225                0.960702456     -117.986665
9.226                0.960612083     -118.205957
9.227                0.960521682     -118.425745
9.228                0.960431254     -118.646027
9.229                0.960340802     -118.866804
9.23                 0.960250329     -119.088077
9.231                0.960159838     -119.309844
9.232                 0.96006933     -119.532107
9.233                0.959978808     -119.754866
9.234                0.959888275     -119.978119
9.235                0.959797734     -120.201868
9.236                0.959707186     -120.426113
9.237                0.959616636     -120.650853
9.238                0.959526085     -120.876088
9.239                0.959435535     -121.101818
9.24                 0.959344991     -121.328044
9.241                0.959254454     -121.554765
9.242                0.959163927      -121.78198
9.243                0.959073414     -122.009691
9.244                0.958982916     -122.237896
9.245                0.958892437     -122.466596
9.246                 0.95880198     -122.695791
9.247                0.958711547      -122.92548
9.248                0.958621141     -123.155663
9.249                0.958530766      -123.38634
9.25                 0.958440424      -123.61751
9.251                0.958350117     -123.849174
9.252                0.958259851     -124.081331
9.253                0.958169626     -124.313981
9.254                0.958079446     -124.547124
9.255                0.957989315     -124.780759
9.256                0.957899235     -125.014886
9.257                0.957809209     -125.249505
9.258                0.957719241     -125.484614
9.259                0.957629334     -125.720215
9.26                 0.957539491     -125.956306
9.261                0.957449714     -126.192888
9.262                0.957360008     -126.429958
9.263                0.957270376     -126.667518
9.264                 0.95718082     -126.905567
9.265                0.957091344     -127.144104
9.266                0.957001952     -127.383129
9.267                0.956912646     -127.622641
9.268                 0.95682343     -127.862639
9.269                0.956734308     -128.103123
9.27                 0.956645283     -128.344093
9.271                0.956556357     -128.585548
9.272                0.956467535     -128.827487
9.273                0.956378821      -129.06991
9.274                0.956290216     -129.312815
9.275                0.956201726     -129.556203
9.276                0.956113354     -129.800072
9.277                0.956025102     -130.044423
9.278                0.955936975     -130.289253
9.279                0.955848976     -130.534562
9.28                 0.955761109      -130.78035
9.281                0.955673377     -131.026616
9.282                0.955585784     -131.273359
9.283                0.955498333     -131.520577
9.284                0.955411029     -131.768271
9.285                0.955323875     -132.016439
9.286                0.955236875     -132.265081
9.287                0.955150032     -132.514195
9.288                0.955063349      -132.76378
9.289                0.954976832     -133.013836
9.29                 0.954890483     -133.264362
9.291                0.954804307     -133.515356
9.292                0.954718307     -133.766817
9.293                0.954632487     -134.018745
9.294                0.954546851     -134.271139
9.295                0.954461402     -134.523996
9.296                0.954376145     -134.777317
9.297                0.954291083     -135.031099
9.298                0.954206221     -135.285343
9.299                0.954121561     -135.540046
9.3                  0.954037109     -135.795207
9.301                0.953952868     -136.050826
9.302                0.953868842       -136.3069
9.303                0.953785035     -136.563429
9.304                0.953701451     -136.820412
9.305                0.953618093     -137.077846
9.306                0.953534967     -137.335731
9.307                0.953452076     -137.594065
9.308                0.953369423     -137.852847
9.309                0.953287014     -138.112076
9.31                 0.953204851      -138.37175
9.311                 0.95312294     -138.631867
9.312                0.953041284     -138.892426
9.313                0.952959887     -139.153426
9.314                0.952878753     -139.414864
9.315                0.952797887     -139.676741
9.316                0.952717292     -139.939053
9.317                0.952636973     -140.201799
9.318                0.952556933     -140.464978
9.319                0.952477178     -140.728589
9.32                  0.95239771     -140.992628
9.321                0.952318534     -141.257095
9.322                0.952239655     -141.521988
9.323                0.952161076     -141.787305
9.324                0.952082802     -142.053045
9.325                0.952004836     -142.319205
9.326                0.951927183     -142.585784
9.327                0.951849848      -142.85278
9.328                0.951772833     -143.120191
9.329                0.951696144     -143.388015
9.33                 0.951619785     -143.656251
9.331                0.951543759     -143.924896
9.332                0.951468071     -144.193948
9.333                0.951392725     -144.463406
9.334                0.951317726     -144.733267
9.335                0.951243076      -145.00353
9.336                0.951168782     -145.274192
9.337                0.951094846     -145.545251
9.338                0.951021274     -145.816705
9.339                0.950948068     -146.088553
9.34                 0.950875234     -146.360791
9.341                0.950802776     -146.633418
9.342                0.950730697     -146.906432
9.343                0.950659002     -147.179829
9.344                0.950587694     -147.453609
9.345                0.950516779     -147.727769
9.346                0.950446261     -148.002306
9.347                0.950376143     -148.277219
9.348                0.950306429     -148.552504
9.349                0.950237124      -148.82816
9.35                 0.950168232     -149.104184
9.351                0.950099756     -149.380573
9.352                0.950031702     -149.657326
9.353                0.949964073      -149.93444
9.354                0.949896873     -150.211912
9.355                0.949830107      -150.48974
9.356                0.949763777     -150.767922
9.357                0.949697889     -151.046454
9.358                0.949632447     -151.325334
9.359                0.949567454      -151.60456
9.36                 0.949502914     -151.884129
9.361                0.949438832     -152.164038
9.362                0.949375211     -152.444285
9.363                0.949312056     -152.724867
9.364                 0.94924937     -153.005781
9.365                0.949187157     -153.287025
9.366                0.949125421     -153.568596
9.367                0.949064167     -153.850491
9.368                0.949003397     -154.132707
9.369                0.948943117     -154.415242
9.37                 0.948883329     -154.698092
9.371                0.948824037     -154.981255
9.372                0.948765246     -155.264728
9.373                0.948706959     -155.548508
9.374                 0.94864918     -155.832592
9.375                0.948591912     -156.116977
9.376                 0.94853516     -156.401661
9.377                0.948478927     -156.686639
9.378                0.948423216      -156.97191
9.379                0.948368032      -157.25747
9.38                 0.948313378     -157.543316
9.381                0.948259257     -157.829445
9.382                0.948205673     -158.115854
9.383                 0.94815263     -158.402539
9.384                0.948100132     -158.689499
9.385                0.948048181     -158.976729
9.386                0.947996781     -159.264226
9.387                0.947945935     -159.551988
9.388                0.947895648     -159.840011
9.389                0.947845921     -160.128291
9.39                  0.94779676     -160.416826
9.391                0.947748166     -160.705612
9.392                0.947700144     -160.994646
9.393                0.947652696     -161.283925
9.394                0.947605826     -161.573446
9.395                0.947559537     -161.863204
9.396                0.947513832     -162.153197
