! TOUCHSTONE file generated by CST DESIGN STUDIO
! Date and time: Tue Feb  4 13:36:37 2025
! Project name: C:\Work\MatlabApps\UnitCellOptimizationMatlab\CST\unitcell.cst
! Tree item: Tasks\Sweep1\SPara1\S-Parameters
! Header version: 2024
! Port assignment regex: !\s*Touchstone port\s*([0-9]+)\s*=\s*(CST MWS port|CST DES external port|CST DES block port)\s*(.+)\s* \(\"(.*)\"\)(\s*mode\s*([0-9]+))?.*
! Touchstone port assignment:
! Touchstone port 1 = CST DES external port 1 ("")
# GHz S MA R 50
9                    0.978383897     -73.0313328
9.001                0.978332714      -73.139999
9.002                0.978281376      -73.248931
9.003                0.978229883     -73.3581295
9.004                0.978178234     -73.4675954
9.005                 0.97812643     -73.5773294
9.006                0.978074469     -73.6873324
9.007                0.978022351     -73.7976053
9.008                0.977970077     -73.9081487
9.009                0.977917645     -74.0189635
9.01                 0.977865055     -74.1300507
9.011                0.977812306     -74.2414108
9.012                  0.9777594     -74.3530449
9.013                0.977706334     -74.4649537
9.014                0.977653109     -74.5771381
9.015                0.977599724     -74.6895989
9.016                0.977546179     -74.8023369
9.017                0.977492473     -74.9153529
9.018                0.977438607     -75.0286479
9.019                0.977384579     -75.1422226
9.02                  0.97733039     -75.2560779
9.021                0.977276038     -75.3702146
9.022                0.977221525     -75.4846336
9.023                0.977166848     -75.5993357
9.024                0.977112008     -75.7143218
9.025                0.977057005     -75.8295927
9.026                0.977001838     -75.9451493
9.027                0.976946507     -76.0609924
9.028                0.976891011     -76.1771229
9.029                0.976835351     -76.2935417
9.03                 0.976779525     -76.4102497
9.031                0.976723533     -76.5272476
9.032                0.976667375     -76.6445364
9.033                0.976611051     -76.7621169
9.034                 0.97655456       -76.87999
9.035                0.976497902     -76.9981566
9.036                0.976441076     -77.1166175
9.037                0.976384083     -77.2353736
9.038                0.976326922     -77.3544259
9.039                0.976269592     -77.4737751
9.04                 0.976212093     -77.5934223
9.041                0.976154425     -77.7133681
9.042                0.976096587     -77.8336137
9.043                 0.97603858     -77.9541597
9.044                0.975980402     -78.0750072
9.045                0.975922054      -78.196157
9.046                0.975863535       -78.31761
9.047                0.975804844     -78.4393672
9.048                0.975745982     -78.5614293
9.049                0.975686948     -78.6837973
9.05                 0.975627742     -78.8064722
9.051                0.975568364     -78.9294548
9.052                0.975508812      -79.052746
9.053                0.975449088     -79.1763468
9.054                 0.97538919      -79.300258
9.055                0.975329118     -79.4244805
9.056                0.975268871     -79.5490153
9.057                0.975208451     -79.6738633
9.058                0.975147856     -79.7990255
9.059                0.975087085     -79.9245026
9.06                  0.97502614     -80.0502957
9.061                0.974965018     -80.1764057
9.062                0.974903721     -80.3028334
9.063                0.974842247     -80.4295799
9.064                0.974780597      -80.556646
9.065                 0.97471877     -80.6840327
9.066                0.974656766     -80.8117409
9.067                0.974594585     -80.9397716
9.068                0.974532226     -81.0681256
9.069                0.974469689      -81.196804
9.07                 0.974406973     -81.3258076
9.071                 0.97434408     -81.4551374
9.072                0.974281007     -81.5847943
9.073                0.974217755     -81.7147793
9.074                0.974154325     -81.8450934
9.075                0.974090714     -81.9757374
9.076                0.974026924     -82.1067123
9.077                0.973962954     -82.2380191
9.078                0.973898803     -82.3696587
9.079                0.973834472     -82.5016321
9.08                  0.97376996     -82.6339402
9.081                0.973705268      -82.766584
9.082                0.973640394     -82.8995644
9.083                0.973575338     -83.0328824
9.084                0.973510101      -83.166539
9.085                0.973444682     -83.3005351
9.086                0.973379081     -83.4348716
9.087                0.973313297     -83.5695496
9.088                0.973247331       -83.70457
9.089                0.973181182     -83.8399338
9.09                 0.973114851     -83.9756419
9.091                0.973048336     -84.1116954
9.092                0.972981638     -84.2480951
9.093                0.972914756      -84.384842
9.094                0.972847691     -84.5219372
9.095                0.972780442     -84.6593815
9.096                0.972713009     -84.7971761
9.097                0.972645391     -84.9353217
9.098                 0.97257759     -85.0738195
9.099                0.972509604     -85.2126704
9.1                  0.972441433     -85.3518754
9.101                0.972373077     -85.4914354
9.102                0.972304537     -85.6313515
9.103                0.972235811     -85.7716246
9.104                0.972166901     -85.9122557
9.105                0.972097805     -86.0532458
9.106                0.972028523     -86.1945958
9.107                0.971959056     -86.3363068
9.108                0.971889404     -86.4783798
9.109                0.971819565     -86.6208156
9.11                 0.971749541     -86.7636154
9.111                0.971679331     -86.9067801
9.112                0.971608935     -87.0503107
9.113                0.971538353     -87.1942082
9.114                0.971467585     -87.3384736
9.115                 0.97139663     -87.4831078
9.116                 0.97132549     -87.6281119
9.117                0.971254163     -87.7734868
9.118                0.971182649     -87.9192336
9.119                 0.97111095     -88.0653532
9.12                 0.971039064     -88.2118466
9.121                0.970966991     -88.3587148
9.122                0.970894732     -88.5059589
9.123                0.970822287     -88.6535798
9.124                0.970749655     -88.8015785
9.125                0.970676836      -88.949956
9.126                0.970603831     -89.0987133
9.127                 0.97053064     -89.2478513
9.128                0.970457263     -89.3973712
9.129                0.970383699     -89.5472739
9.13                 0.970309948     -89.6975603
9.131                0.970236012     -89.8482315
9.132                0.970161889     -89.9992885
9.133                 0.97008758     -90.1507322
9.134                0.970013085     -90.3025637
9.135                0.969938404      -90.454784
9.136                0.969863538      -90.607394
9.137                0.969788485     -90.7603948
9.138                0.969713247     -90.9137873
9.139                0.969637823     -91.0675726
9.14                 0.969562214     -91.2217515
9.141                0.969486419     -91.3763253
9.142                0.969410439     -91.5312947
9.143                0.969334275     -91.6866609
9.144                0.969257925     -91.8424247
9.145                0.969181391     -91.9985873
9.146                0.969104672     -92.1551495
9.147                0.969027769     -92.3121124
9.148                0.968950682      -92.469477
9.149                0.968873411     -92.6272443
9.15                 0.968795957     -92.7854152
9.151                0.968718319     -92.9439907
9.152                0.968640497     -93.1029719
9.153                0.968562493     -93.2623597
9.154                0.968484306      -93.422155
9.155                0.968405937     -93.5823589
9.156                0.968327385     -93.7429724
9.157                0.968248652     -93.9039965
9.158                0.968169737      -94.065432
9.159                0.968090641       -94.22728
9.16                 0.968011364     -94.3895416
9.161                0.967931906     -94.5522175
9.162                0.967852268     -94.7153089
9.163                 0.96777245     -94.8788167
9.164                0.967692453     -95.0427418
9.165                0.967612276     -95.2070853
9.166                0.967531921     -95.3718481
9.167                0.967451388     -95.5370312
9.168                0.967370676     -95.7026355
9.169                0.967289787      -95.868662
9.17                 0.967208721     -96.0351116
9.171                0.967127478     -96.2019854
9.172                0.967046059     -96.3692842
9.173                0.966964465     -96.5370091
9.174                0.966882695      -96.705161
9.175                 0.96680075     -96.8737407
9.176                0.966718631     -97.0427494
9.177                0.966636339     -97.2121879
9.178                0.966553874     -97.3820571
9.179                0.966471235      -97.552358
9.18                 0.966388425     -97.7230916
9.181                0.966305444     -97.8942588
9.182                0.966222291     -98.0658604
9.183                0.966138969     -98.2378975
9.184                0.966055477      -98.410371
9.185                0.965971815     -98.5832817
9.186                0.965887986     -98.7566307
9.187                0.965803989     -98.9304187
9.188                0.965719824     -99.1046468
9.189                0.965635494     -99.2793159
9.19                 0.965550998     -99.4544268
9.191                0.965466337     -99.6299804
9.192                0.965381511     -99.8059778
9.193                0.965296523     -99.9824196
9.194                0.965211372     -100.159307
9.195                0.965126059     -100.336641
9.196                0.965040585     -100.514421
9.197                 0.96495495      -100.69265
9.198                0.964869157     -100.871328
9.199                0.964783204     -101.050456
9.2                  0.964697094     -101.230035
9.201                0.964610827     -101.410065
9.202                0.964524404     -101.590547
9.203                0.964437826     -101.771483
9.204                0.964351094     -101.952873
9.205                0.964264209     -102.134718
9.206                0.964177172     -102.317019
9.207                0.964089983     -102.499777
9.208                0.964002644     -102.682992
9.209                0.963915156     -102.866665
9.21                  0.96382752     -103.050798
9.211                0.963739736     -103.235391
9.212                0.963651806     -103.420444
9.213                0.963563731     -103.605959
9.214                0.963475513     -103.791936
9.215                0.963387151     -103.978377
9.216                0.963298648     -104.165282
9.217                0.963210004     -104.352651
9.218                0.963121221     -104.540486
9.219                0.963032299     -104.728787
9.22                 0.962943241     -104.917556
9.221                0.962854046     -105.106792
9.222                0.962764717     -105.296497
9.223                0.962675255     -105.486671
9.224                0.962585661     -105.677316
9.225                0.962495936     -105.868431
9.226                0.962406082     -106.060018
9.227                  0.9623161     -106.252077
9.228                0.962225991     -106.444609
9.229                0.962135757     -106.637615
9.23                 0.962045398     -106.831095
9.231                0.961954918      -107.02505
9.232                0.961864316     -107.219481
9.233                0.961773595     -107.414389
9.234                0.961682755     -107.609774
9.235                0.961591799     -107.805637
9.236                0.961500728     -108.001978
9.237                0.961409543     -108.198798
9.238                0.961318246     -108.396098
9.239                0.961226839     -108.593879
9.24                 0.961135322      -108.79214
9.241                0.961043699     -108.990883
9.242                 0.96095197     -109.190109
9.243                0.960860137     -109.389817
9.244                0.960768202     -109.590009
9.245                0.960676167     -109.790685
9.246                0.960584032     -109.991845
9.247                0.960491801     -110.193491
9.248                0.960399474     -110.395622
9.249                0.960307054      -110.59824
9.25                 0.960214542     -110.801344
9.251                0.960121941     -111.004936
9.252                0.960029251     -111.209016
9.253                0.959936476     -111.413584
9.254                0.959843616     -111.618641
9.255                0.959750674     -111.824187
9.256                0.959657652     -112.030224
9.257                0.959564551      -112.23675
9.258                0.959471374     -112.443768
9.259                0.959378123     -112.651276
9.26                   0.9592848     -112.859276
9.261                0.959191406     -113.067769
9.262                0.959097945     -113.276754
9.263                0.959004417     -113.486232
9.264                0.958910826     -113.696203
9.265                0.958817173     -113.906668
9.266                 0.95872346     -114.117627
9.267                 0.95862969      -114.32908
9.268                0.958535865     -114.541028
9.269                0.958441988     -114.753472
9.27                  0.95834806     -114.966411
9.271                0.958254083     -115.179845
9.272                0.958160061     -115.393776
9.273                0.958065995     -115.608203
9.274                0.957971888     -115.823127
9.275                0.957877742     -116.038547
9.276                 0.95778356     -116.254465
9.277                0.957689344      -116.47088
9.278                0.957595096     -116.687793
9.279                 0.95750082     -116.905204
9.28                 0.957406517     -117.123113
9.281                0.957312191      -117.34152
9.282                0.957217843     -117.560425
9.283                0.957123476     -117.779829
9.284                0.957029093     -117.999732
9.285                0.956934697     -118.220134
9.286                 0.95684029     -118.441034
9.287                0.956745875     -118.662434
9.288                0.956651454     -118.884333
9.289                0.956557031     -119.106731
9.29                 0.956462608     -119.329629
9.291                0.956368188     -119.553026
9.292                0.956273773     -119.776922
9.293                0.956179368     -120.001318
9.294                0.956084973     -120.226213
9.295                0.955990593     -120.451608
9.296                 0.95589623     -120.677502
9.297                0.955801887     -120.903895
9.298                0.955707567     -121.130788
9.299                0.955613274      -121.35818
9.3                  0.955519009     -121.586071
9.301                0.955424777     -121.814461
9.302                 0.95533058      -122.04335
9.303                0.955236421     -122.272738
9.304                0.955142303     -122.502624
9.305                 0.95504823     -122.733009
9.306                0.954954205     -122.963892
9.307                 0.95486023     -123.195273
9.308                0.954766309     -123.427152
9.309                0.954672446     -123.659529
9.31                 0.954578643     -123.892403
9.311                0.954484904     -124.125774
9.312                0.954391232     -124.359642
9.313                0.954297631     -124.594007
9.314                0.954204103     -124.828867
9.315                0.954110652     -125.064224
9.316                0.954017282     -125.300076
9.317                0.953923995     -125.536423
9.318                0.953830796     -125.773265
9.319                0.953737688     -126.010601
9.32                 0.953644674      -126.24843
9.321                0.953551757     -126.486754
9.322                0.953458942      -126.72557
9.323                0.953366232     -126.964878
9.324                0.953273631     -127.204679
9.325                0.953181141     -127.444971
9.326                0.953088767     -127.685754
9.327                0.952996512     -127.927027
9.328                 0.95290438      -128.16879
9.329                0.952812375     -128.411042
9.33                   0.9527205     -128.653782
9.331                0.952628759      -128.89701
9.332                0.952537156     -129.140726
9.333                0.952445694     -129.384927
9.334                0.952354378     -129.629615
9.335                 0.95226321     -129.874788
9.336                0.952172196     -130.120445
9.337                0.952081339     -130.366585
9.338                0.951990642     -130.613209
9.339                0.951900109     -130.860314
9.34                 0.951809745       -131.1079
9.341                0.951719554     -131.355967
9.342                0.951629538     -131.604513
9.343                0.951539703     -131.853537
9.344                0.951450052      -132.10304
9.345                 0.95136059     -132.353018
9.346                0.951271319     -132.603473
9.347                0.951182245     -132.854402
9.348                0.951093371     -133.105805
9.349                0.951004702     -133.357681
9.35                 0.950916241     -133.610028
9.351                0.950827992     -133.862846
9.352                 0.95073996     -134.116134
9.353                0.950652149      -134.36989
9.354                0.950564563     -134.624113
9.355                0.950477206     -134.878802
9.356                0.950390082     -135.133956
9.357                0.950303196     -135.389574
9.358                0.950216551     -135.645655
9.359                0.950130152     -135.902196
9.36                 0.950044003     -136.159198
9.361                0.949958109     -136.416659
9.362                0.949872473     -136.674577
9.363                0.949787099     -136.932951
9.364                0.949701993     -137.191779
9.365                0.949617159     -137.451061
9.366                  0.9495326     -137.710795
9.367                0.949448321      -137.97098
9.368                0.949364326     -138.231613
9.369                 0.94928062     -138.492694
9.37                 0.949197207     -138.754221
9.371                0.949114091     -139.016193
9.372                0.949031277     -139.278607
9.373                0.948948769     -139.541463
9.374                0.948866571     -139.804759
9.375                0.948784689     -140.068493
9.376                0.948703125     -140.332664
9.377                0.948621885      -140.59727
9.378                0.948540973     -140.862308
9.379                0.948460393     -141.127779
9.38                  0.94838015     -141.393679
9.381                0.948300248     -141.660007
9.382                0.948220692     -141.926761
9.383                0.948141486      -142.19394
9.384                0.948062634     -142.461541
9.385                0.947984142     -142.729563
9.386                0.947906012     -142.998004
9.387                 0.94782825     -143.266862
9.388                0.947750861     -143.536134
9.389                0.947673848      -143.80582
9.39                 0.947597216     -144.075917
9.391                0.947520969     -144.346423
9.392                0.947445112     -144.617336
9.393                 0.94736965     -144.888654
9.394                0.947294586     -145.160375
9.395                0.947219926     -145.432497
9.396                0.947145673     -145.705017
