! TOUCHSTONE file generated by CST DESIGN STUDIO
! Date and time: Tue Feb  4 13:36:34 2025
! Project name: C:\Work\MatlabApps\UnitCellOptimizationMatlab\CST\unitcell.cst
! Tree item: Tasks\Sweep1\SPara1\S-Parameters
! Header version: 2024
! Port assignment regex: !\s*Touchstone port\s*([0-9]+)\s*=\s*(CST MWS port|CST DES external port|CST DES block port)\s*(.+)\s* \(\"(.*)\"\)(\s*mode\s*([0-9]+))?.*
! Touchstone port assignment:
! Touchstone port 1 = CST DES external port 1 ("")
# GHz S MA R 50
9                    0.978034355     -76.7375214
9.001                0.977980022     -76.8548339
9.002                0.977925528     -76.9724378
9.003                0.977870872     -77.0903338
9.004                0.977816053     -77.2085229
9.005                0.977761071     -77.3270058
9.006                0.977705927     -77.4457836
9.007                0.977650618      -77.564857
9.008                0.977595147     -77.6842269
9.009                 0.97753951     -77.8038942
9.01                  0.97748371     -77.9238599
9.011                0.977427744     -78.0441247
9.012                0.977371614     -78.1646896
9.013                0.977315317     -78.2855554
9.014                0.977258855      -78.406723
9.015                0.977202227     -78.5281934
9.016                0.977145432     -78.6499674
9.017                 0.97708847     -78.7720459
9.018                 0.97703134     -78.8944298
9.019                0.976974044       -79.01712
9.02                 0.976916579     -79.1401174
9.021                0.976858946     -79.2634229
9.022                0.976801144     -79.3870374
9.023                0.976743174     -79.5109619
9.024                0.976685034     -79.6351971
9.025                0.976626725     -79.7597441
9.026                0.976568246     -79.8846037
9.027                0.976509597     -80.0097769
9.028                0.976450777     -80.1352645
9.029                0.976391787     -80.2610675
9.03                 0.976332625     -80.3871868
9.031                0.976273292     -80.5136233
9.032                0.976213787      -80.640378
9.033                 0.97615411     -80.7674517
9.034                0.976094261     -80.8948454
9.035                 0.97603424       -81.02256
9.036                0.975974045     -81.1505964
9.037                0.975913677     -81.2789556
9.038                0.975853136     -81.4076385
9.039                0.975792421      -81.536646
9.04                 0.975731532     -81.6659791
9.041                0.975670469     -81.7956386
9.042                0.975609231     -81.9256257
9.043                0.975547818      -82.055941
9.044                 0.97548623     -82.1865857
9.045                0.975424467     -82.3175607
9.046                0.975362528     -82.4488668
9.047                0.975300414     -82.5805051
9.048                0.975238123     -82.7124764
9.049                0.975175655     -82.8447818
9.05                 0.975113011     -82.9774222
9.051                 0.97505019     -83.1103985
9.052                0.974987192     -83.2437117
9.053                0.974924017     -83.3773628
9.054                0.974860664     -83.5113526
9.055                0.974797133     -83.6456821
9.056                0.974733424     -83.7803524
9.057                0.974669537     -83.9153643
9.058                0.974605471     -84.0507189
9.059                0.974541227      -84.186417
9.06                 0.974476804     -84.3224597
9.061                0.974412202     -84.4588479
9.062                 0.97434742     -84.5955825
9.063                0.974282459     -84.7326646
9.064                0.974217318     -84.8700951
9.065                0.974151997      -85.007875
9.066                0.974086497     -85.1460051
9.067                0.974020816     -85.2844866
9.068                0.973954955     -85.4233204
9.069                0.973888913     -85.5625074
9.07                  0.97382269     -85.7020487
9.071                0.973756287     -85.8419451
9.072                0.973689702     -85.9821977
9.073                0.973622936     -86.1228075
9.074                0.973555989     -86.2637753
9.075                0.973488861     -86.4051023
9.076                0.973421551     -86.5467894
9.077                0.973354059     -86.6888374
9.078                0.973286386     -86.8312476
9.079                 0.97321853     -86.9740207
9.08                 0.973150493     -87.1171578
9.081                0.973082273     -87.2606599
9.082                0.973013871      -87.404528
9.083                0.972945287      -87.548763
9.084                0.972876521     -87.6933659
9.085                0.972807571     -87.8383378
9.086                 0.97273844     -87.9836795
9.087                0.972669126     -88.1293921
9.088                0.972599629     -88.2754765
9.089                0.972529949     -88.4219338
9.09                 0.972460087     -88.5687649
9.091                0.972390041     -88.7159708
9.092                0.972319813     -88.8635526
9.093                0.972249402     -89.0115111
9.094                0.972178808     -89.1598474
9.095                0.972108032     -89.3085625
9.096                0.972037072     -89.4576573
9.097                0.971965929     -89.6071328
9.098                0.971894604     -89.7569901
9.099                0.971823096     -89.9072301
9.1                  0.971751404     -90.0578537
9.101                 0.97167953     -90.2088621
9.102                0.971607474     -90.3602561
9.103                0.971535234     -90.5120368
9.104                0.971462812     -90.6642052
9.105                0.971390207     -90.8167621
9.106                 0.97131742     -90.9697087
9.107                 0.97124445     -91.1230459
9.108                0.971171298     -91.2767747
9.109                0.971097963     -91.4308961
9.11                 0.971024446      -91.585411
9.111                0.970950748     -91.7403205
9.112                0.970876867     -91.8956255
9.113                0.970802804      -92.051327
9.114                 0.97072856      -92.207426
9.115                0.970654135     -92.3639235
9.116                0.970579527     -92.5208204
9.117                0.970504739     -92.6781178
9.118                 0.97042977     -92.8358166
9.119                 0.97035462     -92.9939177
9.12                 0.970279289     -93.1524223
9.121                0.970203778     -93.3113312
9.122                0.970128086     -93.4706455
9.123                0.970052215      -93.630366
9.124                0.969976163     -93.7904938
9.125                0.969899932     -93.9510299
9.126                0.969823522     -94.1119752
9.127                0.969746933     -94.2733307
9.128                0.969670165     -94.4350973
9.129                0.969593219     -94.5972761
9.13                 0.969516094     -94.7598679
9.131                0.969438792     -94.9228738
9.132                0.969361312     -95.0862948
9.133                0.969283654     -95.2501317
9.134                 0.96920582     -95.4143855
9.135                 0.96912781     -95.5790573
9.136                0.969049623     -95.7441478
9.137                 0.96897126     -95.9096582
9.138                0.968892722     -96.0755894
9.139                0.968814009     -96.2419423
9.14                 0.968735121     -96.4087178
9.141                0.968656059     -96.5759169
9.142                0.968576823     -96.7435406
9.143                0.968497414     -96.9115898
9.144                0.968417832     -97.0800653
9.145                0.968338077     -97.2489683
9.146                0.968258151     -97.4182995
9.147                0.968178053       -97.58806
9.148                0.968097784     -97.7582507
9.149                0.968017345     -97.9288724
9.15                 0.967936735     -98.0999261
9.151                0.967855957     -98.2714128
9.152                0.967775009     -98.4433333
9.153                0.967693894     -98.6156886
9.154                 0.96761261     -98.7884795
9.155                 0.96753116     -98.9617071
9.156                0.967449543     -99.1353721
9.157                 0.96736776     -99.3094755
9.158                0.967285812     -99.4840182
9.159                0.967203699     -99.6590011
9.16                 0.967121423     -99.8344251
9.161                0.967038983     -100.010291
9.162                0.966956381       -100.1866
9.163                0.966873617     -100.363352
9.164                0.966790692      -100.54055
9.165                0.966707607     -100.718192
9.166                0.966624362     -100.896281
9.167                0.966540958     -101.074818
9.168                0.966457396     -101.253802
9.169                0.966373676     -101.433235
9.17                 0.966289801     -101.613118
9.171                0.966205769     -101.793452
9.172                0.966121583     -101.974237
9.173                0.966037243     -102.155475
9.174                 0.96595275     -102.337166
9.175                0.965868105      -102.51931
9.176                0.965783309      -102.70191
9.177                0.965698362     -102.884965
9.178                0.965613266     -103.068477
9.179                0.965528021     -103.252446
9.18                 0.965442629     -103.436873
9.181                0.965357091     -103.621759
9.182                0.965271407     -103.807105
9.183                0.965185578     -103.992911
9.184                0.965099607     -104.179178
9.185                0.965013492     -104.365908
9.186                0.964927237       -104.5531
9.187                0.964840842     -104.740756
9.188                0.964754307     -104.928876
9.189                0.964667635     -105.117461
9.19                 0.964580825     -105.306512
9.191                 0.96449388      -105.49603
9.192                0.964406801     -105.686015
9.193                0.964319589     -105.876468
9.194                0.964232244      -106.06739
9.195                0.964144769     -106.258781
9.196                0.964057164     -106.450643
9.197                0.963969431     -106.642975
9.198                0.963881571     -106.835779
9.199                0.963793586     -107.029056
9.2                  0.963705476     -107.222805
9.201                0.963617243     -107.417028
9.202                0.963528889     -107.611726
9.203                0.963440415     -107.806898
9.204                0.963351822     -108.002546
9.205                0.963263111      -108.19867
9.206                0.963174285     -108.395272
9.207                0.963085344      -108.59235
9.208                 0.96299629     -108.789908
9.209                0.962907125     -108.987943
9.21                  0.96281785     -109.186459
9.211                0.962728467     -109.385454
9.212                0.962638977      -109.58493
9.213                0.962549382     -109.784887
9.214                0.962459683     -109.985325
9.215                0.962369883     -110.186246
9.216                0.962279982      -110.38765
9.217                0.962189983     -110.589537
9.218                0.962099887     -110.791909
9.219                0.962009696     -110.994764
9.22                 0.961919411     -111.198105
9.221                0.961829035     -111.401931
9.222                0.961738568     -111.606244
9.223                0.961648014     -111.811042
9.224                0.961557374     -112.016328
9.225                0.961466649     -112.222101
9.226                0.961375842     -112.428362
9.227                0.961284954     -112.635111
9.228                0.961193988     -112.842349
9.229                0.961102945     -113.050077
9.23                 0.961011827     -113.258294
9.231                0.960920636        -113.467
9.232                0.960829374     -113.676198
9.233                0.960738044     -113.885886
9.234                0.960646647     -114.096065
9.235                0.960555185     -114.306736
9.236                0.960463661     -114.517899
9.237                0.960372077     -114.729554
9.238                0.960280434     -114.941702
9.239                0.960188735     -115.154342
9.24                 0.960096982     -115.367476
9.241                0.960005178     -115.581103
9.242                0.959913324     -115.795224
9.243                0.959821422     -116.009839
9.244                0.959729476     -116.224948
9.245                0.959637488     -116.440552
9.246                0.959545459     -116.656651
9.247                0.959453392     -116.873244
9.248                0.959361289     -117.090333
9.249                0.959269153     -117.307917
9.25                 0.959176987     -117.525996
9.251                0.959084792     -117.744572
9.252                0.958992572     -117.963643
9.253                0.958900328      -118.18321
9.254                0.958808063     -118.403273
9.255                0.958715781     -118.623833
9.256                0.958623482     -118.844889
9.257                 0.95853117     -119.066441
9.258                0.958438848      -119.28849
9.259                0.958346518     -119.511035
9.26                 0.958254183     -119.734077
9.261                0.958161845     -119.957615
9.262                0.958069507     -120.181651
9.263                0.957977172     -120.406182
9.264                0.957884843     -120.631211
9.265                0.957792523     -120.856736
9.266                0.957700213     -121.082757
9.267                0.957607918     -121.309275
9.268                 0.95751564     -121.536289
9.269                0.957423381     -121.763799
9.27                 0.957331146     -121.991806
9.271                0.957238935     -122.220309
9.272                0.957146754     -122.449307
9.273                0.957054604     -122.678801
9.274                0.956962488     -122.908791
9.275                 0.95687041     -123.139276
9.276                0.956778373     -123.370257
9.277                0.956686379     -123.601732
9.278                0.956594432     -123.833701
9.279                0.956502535     -124.066166
9.28                  0.95641069     -124.299124
9.281                0.956318902     -124.532576
9.282                0.956227173     -124.766522
9.283                0.956135507     -125.000961
9.284                0.956043906     -125.235892
9.285                0.955952375     -125.471316
9.286                0.955860915     -125.707233
9.287                0.955769531     -125.943641
9.288                0.955678226      -126.18054
9.289                0.955587003      -126.41793
9.29                 0.955495866      -126.65581
9.291                0.955404818      -126.89418
9.292                0.955313861      -127.13304
9.293                0.955223001     -127.372389
9.294                 0.95513224     -127.612225
9.295                0.955041581      -127.85255
9.296                0.954951029     -128.093362
9.297                0.954860586      -128.33466
9.298                0.954770256     -128.576445
9.299                0.954680043     -128.818715
9.3                  0.954589951      -129.06147
9.301                0.954499982     -129.304708
9.302                0.954410141     -129.548431
9.303                0.954320431     -129.792635
9.304                0.954230855     -130.037322
9.305                0.954141418      -130.28249
9.306                0.954052123     -130.528139
9.307                0.953962975     -130.774267
9.308                0.953873975     -131.020874
9.309                0.953785129     -131.267959
9.31                  0.95369644     -131.515521
9.311                0.953607912     -131.763559
9.312                0.953519549     -132.012073
9.313                0.953431354     -132.261061
9.314                0.953343332     -132.510523
9.315                0.953255485     -132.760457
9.316                0.953167819     -133.010863
9.317                0.953080337      -133.26174
9.318                0.952993042     -133.513086
9.319                 0.95290594       -133.7649
9.32                 0.952819033     -134.017183
9.321                0.952732326     -134.269931
9.322                0.952645822     -134.523145
9.323                0.952559527     -134.776823
9.324                0.952473442     -135.030964
9.325                0.952387574     -135.285566
9.326                0.952301925      -135.54063
9.327                  0.9522165     -135.796153
9.328                0.952131303     -136.052133
9.329                0.952046338     -136.308571
9.33                 0.951961608     -136.565465
9.331                0.951877119     -136.822812
9.332                0.951792874     -137.080613
9.333                0.951708877     -137.338865
9.334                0.951625132     -137.597567
9.335                0.951541644     -137.856719
9.336                0.951458417     -138.116317
9.337                0.951375455     -138.376362
9.338                0.951292762     -138.636851
9.339                0.951210341     -138.897783
9.34                 0.951128199     -139.159156
9.341                0.951046338      -139.42097
9.342                0.950964763     -139.683221
9.343                0.950883478      -139.94591
9.344                0.950802487     -140.209033
9.345                0.950721795      -140.47259
9.346                0.950641405     -140.736579
9.347                0.950561323     -141.000998
9.348                0.950481552     -141.265846
9.349                0.950402096      -141.53112
9.35                  0.95032296     -141.796819
9.351                0.950244149     -142.062942
9.352                0.950165665     -142.329486
9.353                0.950087514     -142.596449
9.354                  0.9500097      -142.86383
9.355                0.949932228     -143.131627
9.356                  0.9498551     -143.399838
9.357                0.949778323     -143.668461
9.358                0.949701899     -143.937494
9.359                0.949625834     -144.206935
9.36                 0.949550131     -144.476782
9.361                0.949474795     -144.747034
9.362                0.949399831     -145.017687
9.363                0.949325242     -145.288741
9.364                0.949251032     -145.560192
9.365                0.949177207     -145.832039
9.366                 0.94910377      -146.10428
9.367                0.949030725     -146.376912
9.368                0.948958077     -146.649934
9.369                0.948885831     -146.923342
9.37                 0.948813989     -147.197136
9.371                0.948742558     -147.471312
9.372                 0.94867154     -147.745869
9.373                 0.94860094     -148.020803
9.374                0.948530763     -148.296114
9.375                0.948461012     -148.571797
9.376                0.948391692     -148.847852
9.377                0.948322807     -149.124275
9.378                0.948254361     -149.401064
9.379                0.948186359     -149.678218
9.38                 0.948118804     -149.955732
9.381                0.948051701     -150.233605
9.382                0.947985053     -150.511835
9.383                0.947918866     -150.790418
9.384                0.947853143     -151.069352
9.385                0.947787888     -151.348635
9.386                0.947723106     -151.628264
9.387                  0.9476588     -151.908236
9.388                0.947594975     -152.188549
9.389                0.947531634       -152.4692
9.39                 0.947468782     -152.750186
9.391                0.947406422     -153.031505
9.392                0.947344559     -153.313154
9.393                0.947283197      -153.59513
9.394                 0.94722234      -153.87743
9.395                0.947161991     -154.160051
9.396                0.947102154     -154.442992
