! TOUCHSTONE file generated by CST DESIGN STUDIO
! Date and time: Tue Feb  4 13:36:42 2025
! Project name: C:\Work\MatlabApps\UnitCellOptimizationMatlab\CST\unitcell.cst
! Tree item: Tasks\Sweep1\SPara1\S-Parameters
! Header version: 2024
! Port assignment regex: !\s*Touchstone port\s*([0-9]+)\s*=\s*(CST MWS port|CST DES external port|CST DES block port)\s*(.+)\s* \(\"(.*)\"\)(\s*mode\s*([0-9]+))?.*
! Touchstone port assignment:
! Touchstone port 1 = CST DES external port 1 ("")
# GHz S MA R 50
9                     0.97898805     -67.0904883
9.001                0.978942118     -67.1861282
9.002                0.978896047     -67.2819952
9.003                0.978849836     -67.3780901
9.004                0.978803484     -67.4744136
9.005                0.978756992     -67.5709664
9.006                0.978710359     -67.6677491
9.007                0.978663585     -67.7647626
9.008                0.978616669     -67.8620074
9.009                0.978569611     -67.9594844
9.01                 0.978522411     -68.0571942
9.011                0.978475067     -68.1551375
9.012                 0.97842758     -68.2533152
9.013                0.978379949     -68.3517278
9.014                0.978332175     -68.4503762
9.015                0.978284255      -68.549261
9.016                0.978236191      -68.648383
9.017                0.978187981     -68.7477429
9.018                0.978139625     -68.8473415
9.019                0.978091123     -68.9471794
9.02                 0.978042475     -69.0472575
9.021                 0.97799368     -69.1475765
9.022                0.977944737      -69.248137
9.023                0.977895646       -69.34894
9.024                0.977846408      -69.449986
9.025                 0.97779702     -69.5512759
9.026                0.977747484     -69.6528104
9.027                0.977697798     -69.7545903
9.028                0.977647962     -69.8566162
9.029                0.977597976     -69.9588891
9.03                  0.97754784     -70.0614096
9.031                0.977497552     -70.1641785
9.032                0.977447113     -70.2671966
9.033                0.977396522     -70.3704646
9.034                0.977345779     -70.4739833
9.035                0.977294883     -70.5777535
9.036                0.977243834      -70.681776
9.037                0.977192632     -70.7860515
9.038                0.977141276     -70.8905808
9.039                0.977089765     -70.9953647
9.04                   0.9770381      -71.100404
9.041                 0.97698628     -71.2056994
9.042                0.976934304     -71.3112518
9.043                0.976882173     -71.4170619
9.044                0.976829885     -71.5231306
9.045                 0.97677744     -71.6294586
9.046                0.976724839     -71.7360467
9.047                 0.97667208     -71.8428958
9.048                0.976619163     -71.9500065
9.049                0.976566087     -72.0573799
9.05                 0.976512853     -72.1650165
9.051                 0.97645946     -72.2729173
9.052                0.976405908     -72.3810831
9.053                0.976352195     -72.4895146
9.054                0.976298323     -72.5982127
9.055                0.976244289     -72.7071782
9.056                0.976190095      -72.816412
9.057                0.976135739     -72.9259148
9.058                0.976081221     -73.0356874
9.059                0.976026541     -73.1457308
9.06                 0.975971698     -73.2560457
9.061                0.975916693     -73.3666329
9.062                0.975861524     -73.4774933
9.063                0.975806191     -73.5886278
9.064                0.975750694     -73.7000371
9.065                0.975695032     -73.8117221
9.066                0.975639205     -73.9236836
9.067                0.975583213     -74.0359226
9.068                0.975527055     -74.1484397
9.069                0.975470731      -74.261236
9.07                 0.975414241     -74.3743122
9.071                0.975357584     -74.4876691
9.072                0.975300759     -74.6013077
9.073                0.975243767     -74.7152288
9.074                0.975186606     -74.8294333
9.075                0.975129278      -74.943922
9.076                 0.97507178     -75.0586958
9.077                0.975014113     -75.1737555
9.078                0.974956277      -75.289102
9.079                0.974898271     -75.4047363
9.08                 0.974840095      -75.520659
9.081                0.974781748     -75.6368713
9.082                 0.97472323     -75.7533738
9.083                 0.97466454     -75.8701675
9.084                0.974605679     -75.9872533
9.085                0.974546646     -76.1046321
9.086                 0.97448744     -76.2223047
9.087                0.974428061      -76.340272
9.088                0.974368509      -76.458535
9.089                0.974308784     -76.5770944
9.09                 0.974248885     -76.6959513
9.091                0.974188811     -76.8151064
9.092                0.974128563     -76.9345608
9.093                 0.97406814     -77.0543152
9.094                0.974007542     -77.1743707
9.095                0.973946768     -77.2947281
9.096                0.973885818     -77.4153882
9.097                0.973824692     -77.5363521
9.098                0.973763389     -77.6576207
9.099                0.973701909     -77.7791947
9.1                  0.973640252     -77.9010753
9.101                0.973578417     -78.0232632
9.102                0.973516404     -78.1457593
9.103                0.973454213     -78.2685647
9.104                0.973391844     -78.3916803
9.105                0.973329295     -78.5151069
9.106                0.973266567     -78.6388455
9.107                0.973203659      -78.762897
9.108                0.973140572     -78.8872623
9.109                0.973077304     -79.0119424
9.11                 0.973013856     -79.1369382
9.111                0.972950227     -79.2622507
9.112                0.972886417     -79.3878808
9.113                0.972822425     -79.5138293
9.114                0.972758252     -79.6400974
9.115                0.972693896     -79.7666858
9.116                0.972629359     -79.8935957
9.117                0.972564639     -80.0208278
9.118                0.972499735     -80.1483831
9.119                0.972434649     -80.2762627
9.12                 0.972369379     -80.4044674
9.121                0.972303926     -80.5329982
9.122                0.972238289     -80.6618561
9.123                0.972172467      -80.791042
9.124                0.972106461     -80.9205569
9.125                 0.97204027     -81.0504018
9.126                0.971973894     -81.1805775
9.127                0.971907333     -81.3110851
9.128                0.971840586     -81.4419256
9.129                0.971773654     -81.5730999
9.13                 0.971706535     -81.7046089
9.131                 0.97163923     -81.8364537
9.132                0.971571739     -81.9686352
9.133                0.971504061     -82.1011544
9.134                0.971436196     -82.2340122
9.135                0.971368144     -82.3672097
9.136                0.971299905     -82.5007478
9.137                0.971231478     -82.6346276
9.138                0.971162863     -82.7688499
9.139                 0.97109406     -82.9034158
9.14                 0.971025069     -83.0383263
9.141                 0.97095589     -83.1735823
9.142                0.970886522     -83.3091848
9.143                0.970816965     -83.4451348
9.144                 0.97074722     -83.5814334
9.145                0.970677285     -83.7180814
9.146                0.970607161       -83.85508
9.147                0.970536848       -83.99243
9.148                0.970466345     -84.1301325
9.149                0.970395652     -84.2681886
9.15                 0.970324769      -84.406599
9.151                0.970253697      -84.545365
9.152                0.970182434     -84.6844874
9.153                0.970110981     -84.8239674
9.154                0.970039337     -84.9638058
9.155                0.969967503     -85.1040037
9.156                0.969895478      -85.244562
9.157                0.969823262     -85.3854819
9.158                0.969750856     -85.5267643
9.159                0.969678259     -85.6684102
9.16                  0.96960547     -85.8104206
9.161                 0.96953249     -85.9527966
9.162                 0.96945932     -86.0955391
9.163                0.969385957     -86.2386491
9.164                0.969312404     -86.3821277
9.165                0.969238659     -86.5259759
9.166                0.969164722     -86.6701947
9.167                0.969090595     -86.8147851
9.168                0.969016275     -86.9597481
9.169                0.968941764     -87.1050848
9.17                 0.968867061     -87.2507961
9.171                0.968792167      -87.396883
9.172                0.968717081     -87.5433467
9.173                0.968641804     -87.6901881
9.174                0.968566335     -87.8374082
9.175                0.968490674      -87.985008
9.176                0.968414822     -88.1329887
9.177                0.968338778     -88.2813511
9.178                0.968262542     -88.4300963
9.179                0.968186115     -88.5792253
9.18                 0.968109497     -88.7287392
9.181                0.968032687     -88.8786389
9.182                0.967955686     -89.0289256
9.183                0.967878494     -89.1796002
9.184                0.967801111     -89.3306637
9.185                0.967723536     -89.4821171
9.186                0.967645771     -89.6339615
9.187                0.967567815      -89.786198
9.188                0.967489668     -89.9388274
9.189                0.967411331      -90.091851
9.19                 0.967332803     -90.2452695
9.191                0.967254085     -90.3990842
9.192                0.967175176      -90.553296
9.193                0.967096078     -90.7079059
9.194                 0.96701679     -90.8629149
9.195                0.966937312     -91.0183242
9.196                0.966857645     -91.1741346
9.197                0.966777789     -91.3303472
9.198                0.966697744     -91.4869631
9.199                 0.96661751     -91.6439832
9.2                  0.966537087     -91.8014086
9.201                0.966456476     -91.9592403
9.202                0.966375677     -92.1174793
9.203                0.966294691     -92.2761266
9.204                0.966213517     -92.4351833
9.205                0.966132155     -92.5946502
9.206                0.966050607     -92.7545286
9.207                0.965968872     -92.9148193
9.208                0.965886951     -93.0755235
9.209                0.965804844      -93.236642
9.21                 0.965722551     -93.3981759
9.211                0.965640073     -93.5601262
9.212                0.965557411      -93.722494
9.213                0.965474563     -93.8852802
9.214                0.965391532     -94.0484858
9.215                0.965308317     -94.2121119
9.216                0.965224918     -94.3761594
9.217                0.965141337     -94.5406293
9.218                0.965057573     -94.7055227
9.219                0.964973628     -94.8708405
9.22                 0.964889501     -95.0365838
9.221                0.964805192     -95.2027534
9.222                0.964720703     -95.3693505
9.223                0.964636035      -95.536376
9.224                0.964551186     -95.7038309
9.225                0.964466159     -95.8717161
9.226                0.964380953     -96.0400327
9.227                0.964295569     -96.2087817
9.228                0.964210008      -96.377964
9.229                 0.96412427     -96.5475805
9.23                 0.964038356     -96.7176324
9.231                0.963952267     -96.8881205
9.232                0.963866002     -97.0590458
9.233                0.963779563     -97.2304093
9.234                0.963692951      -97.402212
9.235                0.963606165     -97.5744547
9.236                0.963519208     -97.7471386
9.237                0.963432078     -97.9202644
9.238                0.963344778     -98.0938333
9.239                0.963257308     -98.2678461
9.24                 0.963169668     -98.4423037
9.241                 0.96308186     -98.6172072
9.242                0.962993884     -98.7925574
9.243                 0.96290574     -98.9683553
9.244                0.962817431     -99.1446019
9.245                0.962728956     -99.3212981
9.246                0.962640316     -99.4984447
9.247                0.962551513     -99.6760427
9.248                0.962462547     -99.8540931
9.249                0.962373418     -100.032597
9.25                 0.962284129     -100.211555
9.251                0.962194679     -100.390967
9.252                 0.96210507     -100.570836
9.253                0.962015303     -100.751162
9.254                0.961925379     -100.931945
9.255                0.961835298     -101.113188
9.256                0.961745062     -101.294889
9.257                0.961654671     -101.477052
9.258                0.961564128     -101.659675
9.259                0.961473432     -101.842761
9.26                 0.961382585     -102.026309
9.261                0.961291588     -102.210322
9.262                0.961200442     -102.394799
9.263                0.961109148     -102.579742
9.264                0.961017708     -102.765152
9.265                0.960926122     -102.951029
9.266                0.960834392     -103.137374
9.267                0.960742519     -103.324188
9.268                0.960650504     -103.511472
9.269                0.960558348     -103.699226
9.27                 0.960466053     -103.887452
9.271                 0.96037362      -104.07615
9.272                 0.96028105     -104.265321
9.273                0.960188345     -104.454967
9.274                0.960095506     -104.645086
9.275                0.960002534     -104.835682
9.276                0.959909431     -105.026753
9.277                0.959816197     -105.218302
9.278                0.959722836     -105.410328
9.279                0.959629347     -105.602833
9.28                 0.959535733     -105.795817
9.281                0.959441995     -105.989281
9.282                0.959348134     -106.183226
9.283                0.959254152     -106.377652
9.284                 0.95916005      -106.57256
9.285                0.959065831     -106.767952
9.286                0.958971495     -106.963827
9.287                0.958877045     -107.160187
9.288                0.958782481     -107.357031
9.289                0.958687806     -107.554361
9.29                 0.958593022     -107.752178
9.291                0.958498129     -107.950482
9.292                 0.95840313     -108.149274
9.293                0.958308026     -108.348554
9.294                 0.95821282     -108.548323
9.295                0.958117513     -108.748581
9.296                0.958022106      -108.94933
9.297                0.957926603      -109.15057
9.298                0.957831003     -109.352302
9.299                0.957735311     -109.554526
9.3                  0.957639526     -109.757242
9.301                0.957543652     -109.960452
9.302                 0.95744769     -110.164155
9.303                0.957351642     -110.368354
9.304                0.957255511     -110.573047
9.305                0.957159298     -110.778236
9.306                0.957063005     -110.983921
9.307                0.956966634     -111.190102
9.308                0.956870188     -111.396781
9.309                0.956773668     -111.603957
9.31                 0.956677077     -111.811632
9.311                0.956580417     -112.019805
9.312                0.956483691     -112.228477
9.313                0.956386899     -112.437649
9.314                0.956290045     -112.647321
9.315                0.956193131     -112.857494
9.316                0.956096159     -113.068167
9.317                0.955999132     -113.279342
9.318                0.955902051     -113.491019
9.319                0.955804919     -113.703197
9.32                  0.95570774     -113.915879
9.321                0.955610514     -114.129063
9.322                0.955513244      -114.34275
9.323                0.955415934     -114.556941
9.324                0.955318584     -114.771636
9.325                0.955221199     -114.986836
9.326                 0.95512378      -115.20254
9.327                0.955026331     -115.418749
9.328                0.954928853     -115.635463
9.329                0.954831349     -115.852682
9.33                 0.954733822     -116.070408
9.331                0.954636275     -116.288639
9.332                 0.95453871     -116.507377
9.333                 0.95444113     -116.726621
9.334                0.954343538     -116.946371
9.335                0.954245936     -117.166629
9.336                0.954148328     -117.387393
9.337                0.954050716     -117.608665
9.338                0.953953103     -117.830444
9.339                0.953855492     -118.052731
9.34                 0.953757886     -118.275525
9.341                0.953660288     -118.498827
9.342                  0.9535627     -118.722637
9.343                0.953465127     -118.946955
9.344                0.953367569      -119.17178
9.345                0.953270032     -119.397114
9.346                0.953172518     -119.622956
9.347                0.953075029     -119.849306
9.348                 0.95297757     -120.076164
9.349                0.952880142      -120.30353
9.35                  0.95278275     -120.531404
9.351                0.952685397     -120.759786
9.352                0.952588085     -120.988677
9.353                0.952490819     -121.218075
9.354                  0.9523936      -121.44798
9.355                0.952296434     -121.678394
9.356                0.952199322     -121.909315
9.357                0.952102268     -122.140744
9.358                0.952005276     -122.372679
9.359                 0.95190835     -122.605122
9.36                 0.951811491     -122.838072
9.361                0.951714705     -123.071528
9.362                0.951617993     -123.305491
9.363                0.951521361      -123.53996
9.364                0.951424811     -123.774936
9.365                0.951328347     -124.010416
9.366                0.951231973     -124.246402
9.367                0.951135692     -124.482894
9.368                0.951039507     -124.719889
9.369                0.950943423      -124.95739
9.37                 0.950847443     -125.195394
9.371                 0.95075157     -125.433902
9.372                 0.95065581     -125.672913
9.373                0.950560164     -125.912427
9.374                0.950464637     -126.152443
9.375                0.950369233     -126.392961
9.376                0.950273956      -126.63398
9.377                0.950178809     -126.875501
9.378                0.950083797     -127.117521
9.379                0.949988922     -127.360042
9.38                  0.94989419     -127.603061
9.381                0.949799604      -127.84658
9.382                0.949705167     -128.090596
9.383                0.949610885      -128.33511
9.384                 0.94951676      -128.58012
9.385                0.949422798     -128.825627
9.386                0.949329001     -129.071629
9.387                0.949235374     -129.318125
9.388                0.949141922     -129.565116
9.389                0.949048648       -129.8126
9.39                 0.948955556     -130.060576
9.391                 0.94886265     -130.309044
9.392                0.948769936     -130.558003
9.393                0.948677416     -130.807452
9.394                0.948585095      -131.05739
9.395                0.948492977     -131.307816
9.396                0.948401067     -131.558729
