! TOUCHSTONE file generated by CST DESIGN STUDIO
! Date and time: Tue Feb  4 13:36:43 2025
! Project name: C:\Work\MatlabApps\UnitCellOptimizationMatlab\CST\unitcell.cst
! Tree item: Tasks\Sweep1\SPara1\S-Parameters
! Header version: 2024
! Port assignment regex: !\s*Touchstone port\s*([0-9]+)\s*=\s*(CST MWS port|CST DES external port|CST DES block port)\s*(.+)\s* \(\"(.*)\"\)(\s*mode\s*([0-9]+))?.*
! Touchstone port assignment:
! Touchstone port 1 = CST DES external port 1 ("")
# GHz S MA R 50
9                    0.979207212      -65.048575
9.001                0.979163104     -65.1399845
9.002                0.979118864     -65.2316086
9.003                 0.97907449     -65.3234482
9.004                0.979029983     -65.4155039
9.005                0.978985342     -65.5077764
9.006                0.978940566     -65.6002662
9.007                0.978895656     -65.6929742
9.008                 0.97885061     -65.7859009
9.009                0.978805429      -65.879047
9.01                 0.978760112     -65.9724133
9.011                0.978714658     -66.0660004
9.012                0.978669068      -66.159809
9.013                 0.97862334     -66.2538398
9.014                0.978577475     -66.3480934
9.015                0.978531472     -66.4425706
9.016                 0.97848533     -66.5372721
9.017                0.978439049     -66.6321984
9.018                 0.97839263     -66.7273505
9.019                 0.97834607     -66.8227289
9.02                 0.978299371     -66.9183343
9.021                0.978252531     -67.0141675
9.022                 0.97820555     -67.1102291
9.023                0.978158428     -67.2065199
9.024                0.978111164     -67.3030406
9.025                0.978063758     -67.3997918
9.026                 0.97801621     -67.4967744
9.027                0.977968518      -67.593989
9.028                0.977920684     -67.6914363
9.029                0.977872705      -67.789117
9.03                 0.977824583      -67.887032
9.031                0.977776316     -67.9851819
9.032                0.977727904     -68.0835674
9.033                0.977679346     -68.1821893
9.034                0.977630643     -68.2810482
9.035                0.977581794     -68.3801451
9.036                0.977532798     -68.4794804
9.037                0.977483655     -68.5790551
9.038                0.977434365     -68.6788699
9.039                0.977384926     -68.7789255
9.04                  0.97733534     -68.8792226
9.041                0.977285605      -68.979762
9.042                0.977235721     -69.0805444
9.043                0.977185687     -69.1815706
9.044                0.977135503     -69.2828414
9.045                0.977085169     -69.3843576
9.046                0.977034685     -69.4861197
9.047                0.976984049     -69.5881287
9.048                0.976933262     -69.6903854
9.049                0.976882322     -69.7928903
9.05                 0.976831231     -69.8956444
9.051                0.976779986     -69.9986484
9.052                0.976728589     -70.1019031
9.053                0.976677038     -70.2054093
9.054                0.976625332     -70.3091677
9.055                0.976573473     -70.4131791
9.056                0.976521458     -70.5174442
9.057                0.976469289      -70.621964
9.058                0.976416963     -70.7267392
9.059                0.976364482     -70.8317704
9.06                 0.976311844     -70.9370587
9.061                0.976259049     -71.0426047
9.062                0.976206097     -71.1484092
9.063                0.976152988     -71.2544731
9.064                 0.97609972     -71.3607971
9.065                0.976046293      -71.467382
9.066                0.975992708     -71.5742287
9.067                0.975938964      -71.681338
9.068                0.975885059     -71.7887106
9.069                0.975830995     -71.8963474
9.07                  0.97577677     -72.0042492
9.071                0.975722384     -72.1124168
9.072                0.975667837      -72.220851
9.073                0.975613128     -72.3295527
9.074                0.975558256     -72.4385226
9.075                0.975503223     -72.5477617
9.076                0.975448026     -72.6572706
9.077                0.975392666     -72.7670504
9.078                0.975337142     -72.8771017
9.079                0.975281454     -72.9874255
9.08                 0.975225602     -73.0980225
9.081                0.975169584     -73.2088936
9.082                0.975113401     -73.3200397
9.083                0.975057053     -73.4314616
9.084                0.975000538     -73.5431601
9.085                0.974943857     -73.6551361
9.086                0.974887009     -73.7673904
9.087                0.974829993     -73.8799239
9.088                 0.97477281     -73.9927375
9.089                0.974715459     -74.1058319
9.09                 0.974657939     -74.2192082
9.091                 0.97460025      -74.332867
9.092                0.974542393     -74.4468094
9.093                0.974484365     -74.5610361
9.094                0.974426168      -74.675548
9.095                  0.9743678      -74.790346
9.096                0.974309261      -74.905431
9.097                0.974250551     -75.0208038
9.098                 0.97419167     -75.1364654
9.099                0.974132617     -75.2524166
9.1                  0.974073391     -75.3686582
9.101                0.974013993     -75.4851912
9.102                0.973954422     -75.6020165
9.103                0.973894677     -75.7191349
9.104                0.973834759     -75.8365474
9.105                0.973774666     -75.9542548
9.106                0.973714399      -76.072258
9.107                0.973653957     -76.1905579
9.108                 0.97359334     -76.3091555
9.109                0.973532548     -76.4280516
9.11                 0.973471579     -76.5472471
9.111                0.973410434     -76.6667429
9.112                0.973349113       -76.78654
9.113                0.973287614     -76.9066392
9.114                0.973225938     -77.0270415
9.115                0.973164085     -77.1477478
9.116                0.973102053     -77.2687589
9.117                0.973039843     -77.3900759
9.118                0.972977454     -77.5116996
9.119                0.972914887      -77.633631
9.12                  0.97285214      -77.755871
9.121                0.972789213     -77.8784204
9.122                0.972726106     -78.0012803
9.123                0.972662819     -78.1244516
9.124                0.972599351     -78.2479351
9.125                0.972535702      -78.371732
9.126                0.972471871     -78.4958429
9.127                0.972407859      -78.620269
9.128                0.972343665     -78.7450112
9.129                0.972279289     -78.8700703
9.13                  0.97221473     -78.9954474
9.131                0.972149989     -79.1211433
9.132                0.972085064     -79.2471592
9.133                0.972019955     -79.3734957
9.134                0.971954663     -79.5001541
9.135                0.971889187     -79.6271351
9.136                0.971823526     -79.7544398
9.137                 0.97175768     -79.8820691
9.138                 0.97169165     -80.0100239
9.139                0.971625435     -80.1383053
9.14                 0.971559033     -80.2669142
9.141                0.971492447     -80.3958515
9.142                0.971425674     -80.5251183
9.143                0.971358714     -80.6547154
9.144                0.971291569      -80.784644
9.145                0.971224236     -80.9149048
9.146                0.971156716      -81.045499
9.147                0.971089009     -81.1764275
9.148                0.971021114     -81.3076912
9.149                0.970953032     -81.4392912
9.15                 0.970884761     -81.5712284
9.151                0.970816302     -81.7035038
9.152                0.970747655     -81.8361184
9.153                0.970678819     -81.9690732
9.154                0.970609794     -82.1023692
9.155                0.970540579     -82.2360073
9.156                0.970471175     -82.3699886
9.157                0.970401582      -82.504314
9.158                0.970331799     -82.6389846
9.159                0.970261825     -82.7740012
9.16                 0.970191662     -82.9093651
9.161                0.970121308      -83.045077
9.162                0.970050764      -83.181138
9.163                0.969980028     -83.3175492
9.164                0.969909102     -83.4543115
9.165                0.969837985      -83.591426
9.166                0.969766677     -83.7288935
9.167                0.969695177     -83.8667152
9.168                0.969623485     -84.0048921
9.169                0.969551602     -84.1434251
9.17                 0.969479527     -84.2823153
9.171                0.969407259     -84.4215637
9.172                  0.9693348     -84.5611713
9.173                0.969262149      -84.701139
9.174                0.969189305      -84.841468
9.175                0.969116268     -84.9821593
9.176                0.969043039     -85.1232138
9.177                0.968969618     -85.2646325
9.178                0.968896003     -85.4064166
9.179                0.968822196      -85.548567
9.18                 0.968748195     -85.6910847
9.181                0.968674002     -85.8339707
9.182                0.968599615     -85.9772262
9.183                0.968525036      -86.120852
9.184                0.968450263     -86.2648493
9.185                0.968375297      -86.409219
9.186                0.968300137     -86.5539622
9.187                0.968224784     -86.6990799
9.188                0.968149238     -86.8445732
9.189                0.968073499      -86.990443
9.19                 0.967997566     -87.1366904
9.191                0.967921439     -87.2833164
9.192                 0.96784512     -87.4303221
9.193                0.967768606     -87.5777084
9.194                  0.9676919     -87.7254765
9.195                   0.967615     -87.8736273
9.196                0.967537907     -88.0221619
9.197                 0.96746062     -88.1710813
9.198                0.967383141     -88.3203866
9.199                0.967305468     -88.4700787
9.2                  0.967227602     -88.6201588
9.201                0.967149543     -88.7706278
9.202                0.967071291     -88.9214868
9.203                0.966992846     -89.0727368
9.204                0.966914209     -89.2243788
9.205                0.966835379      -89.376414
9.206                0.966756356     -89.5288432
9.207                0.966677141     -89.6816677
9.208                0.966597734     -89.8348883
9.209                0.966518134     -89.9885061
9.21                 0.966438343     -90.1425222
9.211                 0.96635836     -90.2969376
9.212                0.966278185     -90.4517533
9.213                0.966197819     -90.6069704
9.214                0.966117261     -90.7625898
9.215                0.966036513     -90.9186128
9.216                0.965955573     -91.0750401
9.217                0.965874444      -91.231873
9.218                0.965793123     -91.3891124
9.219                0.965711613     -91.5467593
9.22                 0.965629913     -91.7048149
9.221                0.965548023       -91.86328
9.222                0.965465944     -92.0221559
9.223                0.965383676     -92.1814434
9.224                0.965301219     -92.3411436
9.225                0.965218574     -92.5012575
9.226                 0.96513574     -92.6617862
9.227                0.965052719     -92.8227307
9.228                0.964969511      -92.984092
9.229                0.964886115     -93.1458711
9.23                 0.964802533     -93.3080691
9.231                0.964718764      -93.470687
9.232                 0.96463481     -93.6337257
9.233                 0.96455067     -93.7971864
9.234                0.964466345       -93.96107
9.235                0.964381835     -94.1253776
9.236                0.964297141     -94.2901101
9.237                0.964212263     -94.4552686
9.238                0.964127202     -94.6208541
9.239                0.964041958     -94.7868676
9.24                 0.963956532       -94.95331
9.241                0.963870924     -95.1201825
9.242                0.963785134     -95.2874861
9.243                0.963699164     -95.4552216
9.244                0.963613014     -95.6233901
9.245                0.963526684     -95.7919927
9.246                0.963440174     -95.9610303
9.247                0.963353487     -96.1305038
9.248                0.963266621     -96.3004144
9.249                0.963179578      -96.470763
9.25                 0.963092359     -96.6415505
9.251                0.963004963      -96.812778
9.252                0.962917392     -96.9844464
9.253                0.962829646     -97.1565568
9.254                0.962741727       -97.32911
9.255                0.962653634     -97.5021071
9.256                0.962565368     -97.6755491
9.257                0.962476931     -97.8494369
9.258                0.962388322     -98.0237714
9.259                0.962299544     -98.1985537
9.26                 0.962210595     -98.3737846
9.261                0.962121478     -98.5494653
9.262                0.962032193     -98.7255965
9.263                0.961942741     -98.9021793
9.264                0.961853123     -99.0792146
9.265                0.961763339     -99.2567033
9.266                0.961673391     -99.4346464
9.267                0.961583279     -99.6130448
9.268                0.961493005     -99.7918994
9.269                0.961402568     -99.9712113
9.27                 0.961311971     -100.150981
9.271                0.961221214      -100.33121
9.272                0.961130298     -100.511899
9.273                0.961039225     -100.693049
9.274                0.960947994      -100.87466
9.275                0.960856608     -101.056734
9.276                0.960765067     -101.239272
9.277                0.960673372     -101.422274
9.278                0.960581524     -101.605741
9.279                0.960489525     -101.789675
9.28                 0.960397376     -101.974076
9.281                0.960305077     -102.158945
9.282                0.960212631     -102.344282
9.283                0.960120037     -102.530089
9.284                0.960027298     -102.716367
9.285                0.959934415     -102.903116
9.286                0.959841388     -103.090338
9.287                0.959748219     -103.278032
9.288                 0.95965491     -103.466201
9.289                0.959561461     -103.654844
9.29                 0.959467874     -103.843963
9.291                0.959374151     -104.033558
9.292                0.959280292     -104.223631
9.293                  0.9591863     -104.414181
9.294                0.959092174      -104.60521
9.295                0.958997918     -104.796719
9.296                0.958903532     -104.988709
9.297                0.958809018     -105.181179
9.298                0.958714377     -105.374132
9.299                 0.95861961     -105.567567
9.3                  0.958524721     -105.761486
9.301                0.958429709     -105.955889
9.302                0.958334576     -106.150777
9.303                0.958239325     -106.346151
9.304                0.958143956     -106.542011
9.305                0.958048471     -106.738359
9.306                0.957952873     -106.935194
9.307                0.957857162     -107.132518
9.308                 0.95776134     -107.330331
9.309                 0.95766541     -107.528635
9.31                 0.957569372     -107.727429
9.311                0.957473229     -107.926714
9.312                0.957376982     -108.126491
9.313                0.957280634     -108.326762
9.314                0.957184186     -108.527525
9.315                0.957087639     -108.728783
9.316                0.956990997     -108.930535
9.317                 0.95689426     -109.132782
9.318                0.956797431     -109.335526
9.319                0.956700511     -109.538765
9.32                 0.956603504     -109.742502
9.321                0.956506409     -109.946737
9.322                0.956409231      -110.15147
9.323                 0.95631197     -110.356702
9.324                0.956214629     -110.562433
9.325                 0.95611721     -110.768664
9.326                0.956019715     -110.975395
9.327                0.955922147     -111.182628
9.328                0.955824506     -111.390362
9.329                0.955726796     -111.598598
9.33                  0.95562902     -111.807337
9.331                0.955531178     -112.016578
9.332                0.955433273     -112.226324
9.333                0.955335309     -112.436573
9.334                0.955237286     -112.647327
9.335                0.955139208     -112.858585
9.336                0.955041076     -113.070349
9.337                0.954942894     -113.282618
9.338                0.954844663     -113.495394
9.339                0.954746386     -113.708676
9.34                 0.954648066     -113.922466
9.341                0.954549705     -114.136762
9.342                0.954451306     -114.351566
9.343                0.954352871     -114.566879
9.344                0.954254402     -114.782699
9.345                0.954155903     -114.999028
9.346                0.954057376     -115.215867
9.347                0.953958823     -115.433214
9.348                0.953860248     -115.651071
9.349                0.953761653     -115.869438
9.35                 0.953663041     -116.088315
9.351                0.953564415     -116.307703
9.352                0.953465777     -116.527601
9.353                 0.95336713     -116.748009
9.354                0.953268477     -116.968929
9.355                0.953169821      -117.19036
9.356                0.953071166     -117.412303
9.357                0.952972513     -117.634757
9.358                0.952873865     -117.857723
9.359                0.952775227       -118.0812
9.36                   0.9526766      -118.30519
9.361                0.952577989     -118.529691
9.362                0.952479395     -118.754705
9.363                0.952380822     -118.980231
9.364                0.952282273     -119.206269
9.365                0.952183751      -119.43282
9.366                 0.95208526     -119.659883
9.367                0.951986802     -119.887458
9.368                0.951888382     -120.115546
9.369                0.951790001     -120.344146
9.37                 0.951691664     -120.573258
9.371                0.951593373     -120.802883
9.372                0.951495133      -121.03302
9.373                0.951396946     -121.263669
9.374                0.951298815      -121.49483
9.375                0.951200745     -121.726503
9.376                0.951102738     -121.958687
9.377                0.951004799     -122.191383
9.378                0.950906929     -122.424591
9.379                0.950809134      -122.65831
9.38                 0.950711417      -122.89254
9.381                0.950613781     -123.127281
9.382                0.950516229     -123.362532
9.383                0.950418766     -123.598294
9.384                0.950321395     -123.834565
9.385                0.950224119     -124.071347
9.386                0.950126943     -124.308638
9.387                 0.95002987     -124.546438
9.388                0.949932904     -124.784747
9.389                0.949836048     -125.023564
9.39                 0.949739307     -125.262889
9.391                0.949642684     -125.502722
9.392                0.949546183     -125.743062
9.393                0.949449808     -125.983909
9.394                0.949353562     -126.225261
9.395                0.949257451      -126.46712
9.396                0.949161476     -126.709484
