! TOUCHSTONE file generated by CST DESIGN STUDIO
! Date and time: Tue Feb  4 13:36:33 2025
! Project name: C:\Work\MatlabApps\UnitCellOptimizationMatlab\CST\unitcell.cst
! Tree item: Tasks\Sweep1\SPara1\S-Parameters
! Header version: 2024
! Port assignment regex: !\s*Touchstone port\s*([0-9]+)\s*=\s*(CST MWS port|CST DES external port|CST DES block port)\s*(.+)\s* \(\"(.*)\"\)(\s*mode\s*([0-9]+))?.*
! Touchstone port assignment:
! Touchstone port 1 = CST DES external port 1 ("")
# GHz S MA R 50
9                    0.977879056     -78.4657855
9.001                0.977823405     -78.5872674
9.002                0.977767588     -78.7090528
9.003                0.977711607     -78.8311426
9.004                0.977655459     -78.9535377
9.005                0.977599145     -79.0762389
9.006                0.977542665     -79.1992471
9.007                0.977486018     -79.3225633
9.008                0.977429204     -79.4461884
9.009                0.977372223     -79.5701232
9.01                 0.977315074     -79.6943687
9.011                0.977257756     -79.8189257
9.012                0.977200271     -79.9437952
9.013                0.977142616     -80.0689781
9.014                0.977084793     -80.1944753
9.015                  0.9770268     -80.3202878
9.016                0.976968638     -80.4464163
9.017                0.976910305     -80.5728619
9.018                0.976851803     -80.6996254
9.019                 0.97679313     -80.8267079
9.02                 0.976734285     -80.9541101
9.021                 0.97667527     -81.0818331
9.022                0.976616084     -81.2098778
9.023                0.976556725      -81.338245
9.024                0.976497195     -81.4669357
9.025                0.976437492     -81.5959509
9.026                0.976377617     -81.7252915
9.027                0.976317568     -81.8549584
9.028                0.976257347     -81.9849525
9.029                0.976196952     -82.1152748
9.03                 0.976136383     -82.2459262
9.031                0.976075641     -82.3769077
9.032                0.976014724     -82.5082202
9.033                0.975953633     -82.6398646
9.034                0.975892367      -82.771842
9.035                0.975830926     -82.9041531
9.036                0.975769309     -83.0367991
9.037                0.975707517     -83.1697808
9.038                 0.97564555     -83.3030991
9.039                0.975583406     -83.4367551
9.04                 0.975521086     -83.5707497
9.041                 0.97545859     -83.7050838
9.042                0.975395917     -83.8397584
9.043                0.975333067     -83.9747744
9.044                 0.97527004     -84.1101329
9.045                0.975206835     -84.2458347
9.046                0.975143453     -84.3818809
9.047                0.975079894     -84.5182723
9.048                0.975016156       -84.65501
9.049                 0.97495224     -84.7920949
9.05                 0.974888145     -84.9295279
9.051                0.974823873     -85.0673101
9.052                0.974759421     -85.2054425
9.053                 0.97469479     -85.3439258
9.054                0.974629981     -85.4827613
9.055                0.974564992     -85.6219497
9.056                0.974499823     -85.7614921
9.057                0.974434475     -85.9013895
9.058                0.974368947     -86.0416428
9.059                0.974303239      -86.182253
9.06                 0.974237352     -86.3232211
9.061                0.974171284     -86.4645481
9.062                0.974105035     -86.6062348
9.063                0.974038606     -86.7482824
9.064                0.973971997     -86.8906917
9.065                0.973905207     -87.0334638
9.066                0.973838236     -87.1765997
9.067                0.973771084     -87.3201002
9.068                 0.97370375     -87.4639665
9.069                0.973636236     -87.6081994
9.07                 0.973568541     -87.7527999
9.071                0.973500664     -87.8977691
9.072                0.973432606      -88.043108
9.073                0.973364366     -88.1888174
9.074                0.973295945     -88.3348984
9.075                0.973227342      -88.481352
9.076                0.973158557     -88.6281791
9.077                0.973089591     -88.7753808
9.078                0.973020443     -88.9229579
9.079                0.972951113     -89.0709116
9.08                 0.972881601     -89.2192428
9.081                0.972811907     -89.3679524
9.082                0.972742032     -89.5170415
9.083                0.972671975     -89.6665111
9.084                0.972601735      -89.816362
9.085                0.972531314     -89.9665954
9.086                0.972460711     -90.1172122
9.087                0.972389926     -90.2682133
9.088                 0.97231896     -90.4195998
9.089                0.972247811     -90.5713727
9.09                 0.972176481     -90.7235329
9.091                0.972104969     -90.8760814
9.092                0.972033276     -91.0290192
9.093                0.971961401     -91.1823473
9.094                0.971889345     -91.3360667
9.095                0.971817107     -91.4901784
9.096                0.971744687     -91.6446832
9.097                0.971672087     -91.7995823
9.098                0.971599305     -91.9548766
9.099                0.971526343      -92.110567
9.1                    0.9714532     -92.2666547
9.101                0.971379876     -92.4231404
9.102                0.971306371     -92.5800253
9.103                0.971232686     -92.7373102
9.104                 0.97115882     -92.8949963
9.105                0.971084775     -93.0530844
9.106                0.971010549     -93.2115755
9.107                0.970936144     -93.3704706
9.108                0.970861559     -93.5297707
9.109                0.970786795     -93.6894767
9.11                 0.970711852     -93.8495896
9.111                 0.97063673     -94.0101105
9.112                0.970561429     -94.1710401
9.113                 0.97048595     -94.3323796
9.114                0.970410293     -94.4941299
9.115                0.970334458     -94.6562919
9.116                0.970258445     -94.8188667
9.117                0.970182255     -94.9818551
9.118                0.970105887     -95.1452582
9.119                0.970029343     -95.3090768
9.12                 0.969952623      -95.473312
9.121                0.969875727     -95.6379647
9.122                0.969798655     -95.8030359
9.123                0.969721407     -95.9685265
9.124                0.969643985     -96.1344374
9.125                0.969566387     -96.3007697
9.126                0.969488616     -96.4675242
9.127                0.969410671     -96.6347019
9.128                0.969332552     -96.8023037
9.129                 0.96925426     -96.9703306
9.13                 0.969175796     -97.1387835
9.131                0.969097159     -97.3076634
9.132                0.969018351     -97.4769711
9.133                0.968939371     -97.6467077
9.134                0.968860221     -97.8168739
9.135                0.968780901     -97.9874709
9.136                 0.96870141     -98.1584994
9.137                0.968621751     -98.3299604
9.138                0.968541923     -98.5018548
9.139                0.968461927     -98.6741835
9.14                 0.968381763     -98.8469475
9.141                0.968301432     -99.0201476
9.142                0.968220934     -99.1937847
9.143                0.968140271     -99.3678598
9.144                0.968059443     -99.5423738
9.145                 0.96797845     -99.7173274
9.146                0.967897293     -99.8927217
9.147                0.967815972     -100.068557
9.148                 0.96773449     -100.244836
9.149                0.967652845     -100.421557
9.15                 0.967571039     -100.598723
9.151                0.967489072     -100.776333
9.152                0.967406945      -100.95439
9.153                 0.96732466     -101.132893
9.154                0.967242216     -101.311844
9.155                0.967159614     -101.491243
9.156                0.967076856     -101.671092
9.157                0.966993942      -101.85139
9.158                0.966910873      -102.03214
9.159                0.966827649     -102.213342
9.16                 0.966744272     -102.394996
9.161                0.966660742     -102.577104
9.162                 0.96657706     -102.759666
9.163                0.966493228     -102.942683
9.164                0.966409246     -103.126156
9.165                0.966325114     -103.310086
9.166                0.966240835     -103.494474
9.167                0.966156409      -103.67932
9.168                0.966071836     -103.864625
9.169                0.965987118      -104.05039
9.17                 0.965902257     -104.236615
9.171                0.965817252     -104.423302
9.172                0.965732105     -104.610452
9.173                0.965646817     -104.798064
9.174                0.965561389     -104.986141
9.175                0.965475822     -105.174681
9.176                0.965390118     -105.363688
9.177                0.965304277      -105.55316
9.178                0.965218301     -105.743099
9.179                 0.96513219     -105.933505
9.18                 0.965045947      -106.12438
9.181                0.964959571     -106.315723
9.182                0.964873065     -106.507536
9.183                 0.96478643      -106.69982
9.184                0.964699666     -106.892574
9.185                0.964612776     -107.085801
9.186                 0.96452576     -107.279499
9.187                0.964438619     -107.473671
9.188                0.964351356     -107.668317
9.189                0.964263972     -107.863437
9.19                 0.964176467     -108.059032
9.191                0.964088843     -108.255102
9.192                0.964001102     -108.451649
9.193                0.963913246     -108.648673
9.194                0.963825274     -108.846175
9.195                 0.96373719     -109.044154
9.196                0.963648994     -109.242613
9.197                0.963560688     -109.441551
9.198                0.963472274     -109.640968
9.199                0.963383753     -109.840867
9.2                  0.963295126     -110.041246
9.201                0.963206396     -110.242107
9.202                0.963117564     -110.443451
9.203                0.963028631     -110.645277
9.204                  0.9629396     -110.847586
9.205                0.962850471      -111.05038
9.206                0.962761247     -111.253657
9.207                0.962671929      -111.45742
9.208                0.962582519     -111.661668
9.209                0.962493019     -111.866401
9.21                  0.96240343     -112.071621
9.211                0.962313755     -112.277328
9.212                0.962223995     -112.483522
9.213                0.962134152     -112.690203
9.214                0.962044228     -112.897373
9.215                0.961954225     -113.105031
9.216                0.961864145     -113.313178
9.217                0.961773989     -113.521815
9.218                 0.96168376     -113.730941
9.219                0.961593459     -113.940558
9.22                  0.96150309     -114.150665
9.221                0.961412652     -114.361262
9.222                 0.96132215     -114.572351
9.223                0.961231584     -114.783932
9.224                0.961140957     -114.996004
9.225                0.961050272     -115.208568
9.226                0.960959529     -115.421625
9.227                0.960868732     -115.635175
9.228                0.960777882     -115.849218
9.229                0.960686981     -116.063754
9.23                 0.960596033     -116.278784
9.231                0.960505039     -116.494307
9.232                0.960414001     -116.710325
9.233                0.960322922     -116.926836
9.234                0.960231805     -117.143843
9.235                 0.96014065     -117.361343
9.236                0.960049462     -117.579339
9.237                0.959958241      -117.79783
9.238                0.959866991     -118.016815
9.239                0.959775715     -118.236296
9.24                 0.959684413     -118.456273
9.241                 0.95959309     -118.676745
9.242                0.959501748     -118.897712
9.243                0.959410388     -119.119175
9.244                0.959319014     -119.341134
9.245                0.959227628     -119.563589
9.246                0.959136233     -119.786539
9.247                0.959044832     -120.009985
9.248                0.958953426     -120.233927
9.249                0.958862019     -120.458365
9.25                 0.958770614     -120.683299
9.251                0.958679213     -120.908729
9.252                0.958587819     -121.134654
9.253                0.958496434     -121.361075
9.254                0.958405063     -121.587991
9.255                0.958313706     -121.815403
9.256                0.958222367     -122.043311
9.257                 0.95813105     -122.271713
9.258                0.958039756     -122.500611
9.259                 0.95794849     -122.730004
9.26                 0.957857253     -122.959891
9.261                0.957766048     -123.190273
9.262                 0.95767488     -123.421149
9.263                 0.95758375     -123.652519
9.264                0.957492661     -123.884383
9.265                0.957401618     -124.116741
9.266                0.957310622     -124.349592
9.267                0.957219678     -124.582936
9.268                0.957128787     -124.816773
9.269                0.957037953     -125.051102
9.27                  0.95694718     -125.285924
9.271                0.956856471     -125.521236
9.272                0.956765828      -125.75704
9.273                0.956675255     -125.993335
9.274                0.956584755     -126.230121
9.275                0.956494332     -126.467396
9.276                0.956403989     -126.705161
9.277                0.956313728     -126.943415
9.278                0.956223554     -127.182158
9.279                 0.95613347     -127.421388
9.28                  0.95604348     -127.661106
9.281                0.955953585     -127.901311
9.282                0.955863791     -128.142003
9.283                  0.9557741      -128.38318
9.284                0.955684516     -128.624842
9.285                0.955595043     -128.866989
9.286                0.955505683      -129.10962
9.287                0.955416441     -129.352734
9.288                 0.95532732     -129.596331
9.289                0.955238324      -129.84041
9.29                 0.955149456     -130.084969
9.291                0.955060719     -130.330009
9.292                0.954972118     -130.575529
9.293                0.954883656     -130.821527
9.294                0.954795336     -131.068004
9.295                0.954707163     -131.314957
9.296                 0.95461914     -131.562387
9.297                0.954531271     -131.810292
9.298                 0.95444356     -132.058672
9.299                 0.95435601     -132.307526
9.3                  0.954268624     -132.556852
9.301                0.954181408      -132.80665
9.302                0.954094365     -133.056918
9.303                0.954007498     -133.307657
9.304                0.953920811     -133.558864
9.305                0.953834309     -133.810538
9.306                0.953747994      -134.06268
9.307                0.953661872     -134.315287
9.308                0.953575945     -134.568358
9.309                0.953490219     -134.821893
9.31                 0.953404696     -135.075889
9.311                0.953319381     -135.330347
9.312                0.953234277     -135.585265
9.313                0.953149389     -135.840641
9.314                0.953064721     -136.096474
9.315                0.952980277     -136.352763
9.316                 0.95289606     -136.609507
9.317                0.952812074     -136.866705
9.318                0.952728325     -137.124355
9.319                0.952644815     -137.382455
9.32                  0.95256155     -137.641005
9.321                0.952478532     -137.900002
9.322                0.952395766     -138.159447
9.323                0.952313257     -138.419336
9.324                0.952231008     -138.679669
9.325                0.952149023     -138.940444
9.326                0.952067306      -139.20166
9.327                0.951985863     -139.463315
9.328                0.951904696     -139.725407
9.329                 0.95182381     -139.987935
9.33                 0.951743209     -140.250898
9.331                0.951662898     -140.514293
9.332                 0.95158288     -140.778119
9.333                0.951503159     -141.042375
9.334                0.951423741     -141.307058
9.335                0.951344628     -141.572167
9.336                0.951265826       -141.8377
9.337                0.951187338     -142.103656
9.338                0.951109169     -142.370032
9.339                0.951031323     -142.636827
9.34                 0.950953804     -142.904039
9.341                0.950876617     -143.171666
9.342                0.950799765     -143.439706
9.343                0.950723252     -143.708157
9.344                0.950647084     -143.977017
9.345                0.950571264     -144.246285
9.346                0.950495796     -144.515958
9.347                0.950420685     -144.786035
9.348                0.950345936     -145.056512
9.349                0.950271551     -145.327389
9.35                 0.950197535     -145.598663
9.351                0.950123894     -145.870332
9.352                 0.95005063     -146.142394
9.353                0.949977748     -146.414847
9.354                0.949905252     -146.687688
9.355                0.949833147     -146.960915
9.356                0.949761436     -147.234527
9.357                0.949690125      -147.50852
9.358                0.949619216     -147.782893
9.359                0.949548715     -148.057644
9.36                 0.949478625     -148.332769
9.361                0.949408951     -148.608267
9.362                0.949339697     -148.884135
9.363                0.949270867     -149.160371
9.364                0.949202464     -149.436972
9.365                0.949134494     -149.713937
9.366                0.949066961     -149.991262
9.367                0.948999868     -150.268945
9.368                0.948933219     -150.546983
9.369                0.948867019     -150.825375
9.37                 0.948801272     -151.104117
9.371                0.948735982     -151.383207
9.372                0.948671153     -151.662642
9.373                0.948606789      -151.94242
9.374                0.948542893     -152.222538
9.375                0.948479471     -152.502993
9.376                0.948416526     -152.783782
9.377                0.948354062     -153.064904
9.378                0.948292082     -153.346355
9.379                0.948230592     -153.628132
9.38                 0.948169594     -153.910233
9.381                0.948109094     -154.192655
9.382                0.948049093     -154.475395
9.383                0.947989598      -154.75845
9.384                 0.94793061     -155.041817
9.385                0.947872135     -155.325494
9.386                0.947814176     -155.609477
9.387                0.947756737     -155.893764
9.388                0.947699821     -156.178351
9.389                0.947643432     -156.463236
9.39                 0.947587575     -156.748416
9.391                0.947532252     -157.033887
9.392                0.947477467     -157.319647
9.393                0.947423225     -157.605693
9.394                0.947369528     -157.892021
9.395                 0.94731638     -158.178628
9.396                0.947263785     -158.465512
