! TOUCHSTONE file generated by CST DESIGN STUDIO
! Date and time: Tue Feb  4 14:40:34 2025
! Project name: C:\Work\MatlabApps\UnitCellOptimizationMatlab\CST\unitcell.cst
! Tree item: Tasks\Sweep1\SPara1\S-Parameters
! Header version: 2024
! Port assignment regex: !\s*Touchstone port\s*([0-9]+)\s*=\s*(CST MWS port|CST DES external port|CST DES block port)\s*(.+)\s* \(\"(.*)\"\)(\s*mode\s*([0-9]+))?.*
! Touchstone port assignment:
! Touchstone port 1 = CST DES external port 1 ("")
# GHz S MA R 50
9                    0.849497339      13.8932527
9.001                 0.84992613      13.8156772
9.002                0.850352756      13.7383141
9.003                0.850777231      13.6611621
9.004                0.851199568      13.5842202
9.005                0.851619782       13.507487
9.006                0.852037884      13.4309614
9.007                0.852453889      13.3546423
9.008                 0.85286781      13.2785284
9.009                0.853279659      13.2026186
9.01                 0.853689451      13.1269118
9.011                0.854097196      13.0514069
9.012                 0.85450291      12.9761026
9.013                0.854906603      12.9009978
9.014                0.855308289      12.8260915
9.015                 0.85570798      12.7513824
9.016                0.856105689      12.6768696
9.017                0.856501427      12.6025518
9.018                0.856895208      12.5284281
9.019                0.857287043      12.4544972
9.02                 0.857676943      12.3807581
9.021                0.858064922      12.3072098
9.022                0.858450991      12.2338511
9.023                0.858835161       12.160681
9.024                0.859217445      12.0876984
9.025                0.859597853      12.0149022
9.026                0.859976397      11.9422915
9.027                 0.86035309      11.8698651
9.028                0.860727941      11.7976221
9.029                0.861100962      11.7255614
9.03                 0.861472164      11.6536819
9.031                0.861841559      11.5819827
9.032                0.862209157      11.5104628
9.033                0.862574969      11.4391211
9.034                0.862939005      11.3679566
9.035                0.863301277      11.2969683
9.036                0.863661796      11.2261553
9.037                0.864020571      11.1555166
9.038                0.864377613      11.0850511
9.039                0.864732932       11.014758
9.04                 0.865086539      10.9446362
9.041                0.865438444      10.8746848
9.042                0.865788657      10.8049028
9.043                0.866137188      10.7352893
9.044                0.866484047      10.6658433
9.045                0.866829245      10.5965639
9.046                 0.86717279      10.5274502
9.047                0.867514692      10.4585012
9.048                0.867854962       10.389716
9.049                0.868193608      10.3210937
9.05                 0.868530641      10.2526334
9.051                 0.86886607      10.1843341
9.052                0.869199903       10.116195
9.053                0.869532151      10.0482153
9.054                0.869862823      9.98039385
9.055                0.870191928      9.91272994
9.056                0.870519475      9.84522266
9.057                0.870845473      9.77787112
9.058                 0.87116993      9.71067446
9.059                0.871492857      9.64363182
9.06                 0.871814261      9.57674232
9.061                0.872134152      9.51000513
9.062                0.872452538      9.44341938
9.063                0.872769428      9.37698424
9.064                 0.87308483      9.31069886
9.065                0.873398753      9.24456241
9.066                0.873711206      9.17857407
9.067                0.874022196      9.11273299
9.068                0.874331732      9.04703837
9.069                0.874639823      8.98148939
9.07                 0.874946476      8.91608524
9.071                  0.8752517      8.85082511
9.072                0.875555502       8.7857082
9.073                0.875857892      8.72073371
9.074                0.876158876      8.65590086
9.075                0.876458463      8.59120885
9.076                 0.87675666       8.5266569
9.077                0.877053475      8.46224423
9.078                0.877348917      8.39797008
9.079                0.877642992      8.33383366
9.08                 0.877935709      8.26983421
9.081                0.878227075      8.20597098
9.082                0.878517097       8.1422432
9.083                0.878805783      8.07865013
9.084                 0.87909314      8.01519102
9.085                0.879379176      7.95186512
9.086                0.879663899      7.88867169
9.087                0.879947314         7.82561
9.088                 0.88022943      7.76267932
9.089                0.880510253      7.69987891
9.09                 0.880789791      7.63720807
9.091                0.881068051      7.57466606
9.092                 0.88134504      7.51225218
9.093                0.881620765      7.44996571
9.094                0.881895232      7.38780595
9.095                0.882168448      7.32577219
9.096                0.882440421      7.26386373
9.097                0.882711158      7.20207989
9.098                0.882980663      7.14041997
9.099                0.883248946      7.07888327
9.1                  0.883516011      7.01746913
9.101                0.883781867      6.95617685
9.102                0.884046518      6.89500577
9.103                0.884309972      6.83395521
9.104                0.884572236      6.77302449
9.105                0.884833315      6.71221297
9.106                0.885093215      6.65151997
9.107                0.885351944      6.59094484
9.108                0.885609508      6.53048693
9.109                0.885865912      6.47014557
9.11                 0.886121164      6.40992014
9.111                0.886375268      6.34980998
9.112                0.886628232      6.28981445
9.113                0.886880061      6.22993292
9.114                0.887130761      6.17016475
9.115                0.887380338      6.11050931
9.116                0.887628799      6.05096598
9.117                0.887876149      5.99153414
9.118                0.888122393      5.93221316
9.119                0.888367539      5.87300243
9.12                 0.888611591      5.81390134
9.121                0.888854555      5.75490927
9.122                0.889096438      5.69602561
9.123                0.889337244      5.63724978
9.124                0.889576979      5.57858115
9.125                 0.88981565      5.52001915
9.126                0.890053261      5.46156316
9.127                0.890289817      5.40321261
9.128                0.890525326      5.34496691
9.129                0.890759791      5.28682546
9.13                 0.890993219      5.22878769
9.131                0.891225615      5.17085302
9.132                0.891456983      5.11302087
9.133                 0.89168733      5.05529067
9.134                0.891916661      4.99766186
9.135                0.892144981      4.94013385
9.136                0.892372295      4.88270609
9.137                0.892598608      4.82537802
9.138                0.892823925      4.76814908
9.139                0.893048252      4.71101871
9.14                 0.893271594      4.65398636
9.141                0.893493956      4.59705148
9.142                0.893715342      4.54021353
9.143                0.893935757      4.48347195
9.144                0.894155208      4.42682621
9.145                0.894373697      4.37027576
9.146                0.894591231      4.31382008
9.147                0.894807815      4.25745862
9.148                0.895023452      4.20119086
9.149                0.895238148      4.14501627
9.15                 0.895451908      4.08893431
9.151                0.895664736      4.03294448
9.152                0.895876638      3.97704624
9.153                0.896087616      3.92123907
9.154                0.896297678      3.86552247
9.155                0.896506826      3.80989592
9.156                0.896715065      3.75435891
9.157                0.896922401      3.69891093
9.158                0.897128837      3.64355147
9.159                0.897334378      3.58828004
9.16                 0.897539029      3.53309612
9.161                0.897742793      3.47799922
9.162                0.897945676      3.42298885
9.163                0.898147682      3.36806451
9.164                0.898348815      3.31322571
9.165                0.898549079      3.25847196
9.166                0.898748479      3.20380277
9.167                0.898947019      3.14921766
9.168                0.899144703      3.09471614
9.169                0.899341535      3.04029774
9.17                  0.89953752      2.98596198
9.171                0.899732662      2.93170838
9.172                0.899926965      2.87753647
9.173                0.900120433      2.82344577
9.174                 0.90031307      2.76943582
9.175                 0.90050488      2.71550616
9.176                0.900695867      2.66165631
9.177                0.900886036      2.60788581
9.178                 0.90107539       2.5541942
9.179                0.901263932      2.50058103
9.18                 0.901451668      2.44704584
9.181                0.901638601      2.39358817
9.182                0.901824735      2.34020757
9.183                0.902010074      2.28690359
9.184                0.902194621      2.23367578
9.185                0.902378381       2.1805237
9.186                0.902561356       2.1274469
9.187                0.902743552      2.07444494
9.188                0.902924972      2.02151738
9.189                0.903105619      1.96866378
9.19                 0.903285497       1.9158837
9.191                0.903464609      1.86317671
9.192                0.903642961      1.81054238
9.193                0.903820554      1.75798027
9.194                0.903997393      1.70548996
9.195                0.904173482      1.65307102
9.196                0.904348823      1.60072303
9.197                 0.90452342      1.54844556
9.198                0.904697278      1.49623818
9.199                0.904870399      1.44410049
9.2                  0.905042787      1.39203205
9.201                0.905214445      1.34003247
9.202                0.905385377      1.28810131
9.203                0.905555586      1.23623817
9.204                0.905725075      1.18444264
9.205                0.905893849      1.13271431
9.206                 0.90606191      1.08105277
9.207                0.906229262      1.02945762
9.208                0.906395907     0.977928442
9.209                 0.90656185     0.926464847
9.21                 0.906727093      0.87506643
9.211                0.906891641     0.823732792
9.212                0.907055495     0.772463536
9.213                0.907218659     0.721258266
9.214                0.907381137     0.670116587
9.215                0.907542931     0.619038108
9.216                0.907704045     0.568022437
9.217                0.907864482     0.517069185
9.218                0.908024245     0.466177964
9.219                0.908183337     0.415348388
9.22                 0.908341761     0.364580073
9.221                0.908499521     0.313872634
9.222                0.908656618     0.263225691
9.223                0.908813057     0.212638864
9.224                 0.90896884     0.162111774
9.225                0.909123971     0.111644043
9.226                0.909278452    0.0612352973
9.227                0.909432286    0.0108851615
9.228                0.909585476   -0.0394067366
9.229                0.909738025   -0.0896407681
9.23                 0.909889936    -0.139817303
9.231                0.910041212    -0.189936709
9.232                0.910191855    -0.239999354
9.233                 0.91034187    -0.290005602
9.234                0.910491257    -0.339955818
9.235                0.910640021    -0.389850365
9.236                0.910788164    -0.439689604
9.237                0.910935688    -0.489473893
9.238                0.911082597    -0.539203594
9.239                0.911228893    -0.588879061
9.24                  0.91137458    -0.638500651
9.241                0.911519659    -0.688068719
9.242                0.911664133    -0.737583618
9.243                0.911808005    -0.787045699
9.244                0.911951279    -0.836455313
9.245                0.912093955     -0.88581281
9.246                0.912236038    -0.935118536
9.247                0.912377529     -0.98437284
9.248                0.912518432     -1.03357607
9.249                0.912658748     -1.08272856
9.25                 0.912798481     -1.13183066
9.251                0.912937633     -1.18088271
9.252                0.913076206     -1.22988505
9.253                0.913214204     -1.27883803
9.254                0.913351627     -1.32774197
9.255                 0.91348848     -1.37659722
9.256                0.913624765     -1.42540411
9.257                0.913760483     -1.47416297
9.258                0.913895638     -1.52287414
9.259                0.914030232     -1.57153795
9.26                 0.914164267     -1.62015474
9.261                0.914297746     -1.66872482
9.262                0.914430671     -1.71724853
9.263                0.914563045      -1.7657262
9.264                0.914694869     -1.81415815
9.265                0.914826146     -1.86254471
9.266                0.914956879     -1.91088621
9.267                 0.91508707     -1.95918295
9.268                0.915216722     -2.00743528
9.269                0.915345835      -2.0556435
9.27                 0.915474414     -2.10380794
9.271                0.915602459     -2.15192891
9.272                0.915729974     -2.20000674
9.273                 0.91585696     -2.24804174
9.274                 0.91598342     -2.29603422
9.275                0.916109356      -2.3439845
9.276                 0.91623477      -2.3918929
9.277                0.916359665     -2.43975972
9.278                0.916484042     -2.48758527
9.279                0.916607904     -2.53536987
9.28                 0.916731253     -2.58311383
9.281                0.916854091     -2.63081745
9.282                 0.91697642     -2.67848105
9.283                0.917098242     -2.72610492
9.284                 0.91721956     -2.77368937
9.285                0.917340375     -2.82123471
9.286                0.917460689     -2.86874124
9.287                0.917580506     -2.91620927
9.288                0.917699825     -2.96363908
9.289                0.917818651       -3.011031
9.29                 0.917936985      -3.0583853
9.291                0.918054828      -3.1057023
9.292                0.918172183     -3.15298229
9.293                0.918289051     -3.20022557
9.294                0.918405436     -3.24743243
9.295                0.918521338     -3.29460317
9.296                 0.91863676     -3.34173809
9.297                0.918751703     -3.38883746
9.298                 0.91886617      -3.4359016
9.299                0.918980162     -3.48293079
9.3                  0.919093682     -3.52992531
9.301                0.919206732     -3.57688547
9.302                0.919319312     -3.62381155
9.303                0.919431426     -3.67070383
9.304                0.919543074     -3.71756261
9.305                0.919654259     -3.76438816
9.306                0.919764983     -3.81118079
9.307                0.919875248     -3.85794076
9.308                0.919985055     -3.90466837
9.309                0.920094406      -3.9513639
9.31                 0.920203302     -3.99802763
9.311                0.920311747     -4.04465983
9.312                0.920419741     -4.09126081
9.313                0.920527287     -4.13783082
9.314                0.920634386     -4.18437016
9.315                0.920741039     -4.23087909
9.316                0.920847249      -4.2773579
9.317                0.920953017     -4.32380687
9.318                0.921058346     -4.37022627
9.319                0.921163236     -4.41661638
9.32                  0.92126769     -4.46297746
9.321                0.921371709      -4.5093098
9.322                0.921475294     -4.55561367
9.323                0.921578448     -4.60188934
9.324                0.921681173     -4.64813708
9.325                0.921783469     -4.69435716
9.326                0.921885339     -4.74054985
9.327                0.921986784     -4.78671543
9.328                0.922087805     -4.83285416
9.329                0.922188405     -4.87896631
9.33                 0.922288585     -4.92505215
9.331                0.922388347     -4.97111194
9.332                0.922487691     -5.01714596
9.333                0.922586621     -5.06315446
9.334                0.922685137     -5.10913771
9.335                 0.92278324     -5.15509597
9.336                0.922880933     -5.20102952
9.337                0.922978218      -5.2469386
9.338                0.923075094      -5.2928235
9.339                0.923171565     -5.33868445
9.34                 0.923267631     -5.38452174
9.341                0.923363294     -5.43033561
9.342                0.923458556     -5.47612632
9.343                0.923553418     -5.52189415
9.344                0.923647882     -5.56763933
9.345                0.923741948     -5.61336215
9.346                0.923835619     -5.65906284
9.347                0.923928896     -5.70474166
9.348                0.924021781     -5.75039889
9.349                0.924114274     -5.79603475
9.35                 0.924206377     -5.84164953
9.351                0.924298092     -5.88724346
9.352                0.924389421      -5.9328168
9.353                0.924480364     -5.97836981
9.354                0.924570922     -6.02390274
9.355                0.924661098     -6.06941584
9.356                0.924750893     -6.11490935
9.357                0.924840308     -6.16038355
9.358                0.924929344     -6.20583866
9.359                0.925018003     -6.25127495
9.36                 0.925106286     -6.29669267
9.361                0.925194195     -6.34209205
9.362                0.925281731     -6.38747336
9.363                0.925368894     -6.43283684
9.364                0.925455688     -6.47818273
9.365                0.925542112     -6.52351129
9.366                0.925628168     -6.56882275
9.367                0.925713857     -6.61411738
9.368                0.925799181      -6.6593954
9.369                0.925884141     -6.70465707
9.37                 0.925968739     -6.74990263
9.371                0.926052975     -6.79513233
9.372                 0.92613685     -6.84034641
9.373                0.926220367     -6.88554511
9.374                0.926303526     -6.93072867
9.375                0.926386328     -6.97589734
9.376                0.926468775     -7.02105136
9.377                0.926550869     -7.06619096
9.378                0.926632609      -7.1113164
9.379                0.926713998     -7.15642791
9.38                 0.926795036     -7.20152574
9.381                0.926875725     -7.24661011
9.382                0.926956066     -7.29168127
9.383                0.927036061     -7.33673947
9.384                0.927115709     -7.38178493
9.385                0.927195014     -7.42681789
9.386                0.927273975      -7.4718386
9.387                0.927352593     -7.51684729
9.388                0.927430871     -7.56184419
9.389                0.927508809     -7.60682955
9.39                 0.927586408      -7.6518036
9.391                0.927663669     -7.69676657
9.392                0.927740594      -7.7417187
9.393                0.927817184     -7.78666022
9.394                0.927893439     -7.83159138
9.395                0.927969361     -7.87651239
9.396                0.928044951     -7.92142351
