! TOUCHSTONE file generated by CST DESIGN STUDIO
! Date and time: Tue Feb  4 14:40:39 2025
! Project name: C:\Work\MatlabApps\UnitCellOptimizationMatlab\CST\unitcell.cst
! Tree item: Tasks\Sweep1\SPara1\S-Parameters
! Header version: 2024
! Port assignment regex: !\s*Touchstone port\s*([0-9]+)\s*=\s*(CST MWS port|CST DES external port|CST DES block port)\s*(.+)\s* \(\"(.*)\"\)(\s*mode\s*([0-9]+))?.*
! Touchstone port assignment:
! Touchstone port 1 = CST DES external port 1 ("")
# GHz S MA R 50
9                    0.219501074     -169.157079
9.001                0.218063997     -170.172004
9.002                0.216667811     -171.197474
9.003                0.215313413     -172.233358
9.004                 0.21400169     -173.279503
9.005                 0.21273352     -174.335732
9.006                0.211509767     -175.401852
9.007                0.210331279     -176.477643
9.008                0.209198888     -177.562864
9.009                0.208113406     -178.657252
9.01                 0.207075621     -179.760521
9.011                0.206086298      179.127639
9.012                0.205146174      178.007559
9.013                0.204255958      176.879596
9.014                0.203416325      175.744126
9.015                0.202627918      174.601548
9.016                0.201891341      173.452283
9.017                0.201207161      172.296771
9.018                0.200575903      171.135473
9.019                 0.19999805      169.968868
9.02                 0.199474038      168.797452
9.021                0.199004259      167.621737
9.022                0.198589054      166.442249
9.023                0.198228715       165.25953
9.024                0.197923482      164.074128
9.025                0.197673544      162.886606
9.026                0.197479036       161.69753
9.027                0.197340039      160.507475
9.028                0.197256579      159.317018
9.029                0.197228629      158.126739
9.03                 0.197256105      156.937217
9.031                0.197338871      155.749027
9.032                0.197476736      154.562744
9.033                0.197669455      153.378933
9.034                0.197916733      152.198152
9.035                0.198218221      151.020949
9.036                0.198573522      149.847861
9.037                 0.19898219       148.67941
9.038                0.199443734      147.516105
9.039                0.199957615      146.358438
9.04                 0.200523254      145.206882
9.041                 0.20114003      144.061893
9.042                0.201807285      142.923906
9.043                0.202524323      141.793336
9.044                0.203290416      140.670576
9.045                0.204104803      139.555997
9.046                0.204966695      138.449948
9.047                0.205875278      137.352756
9.048                0.206829711      136.264723
9.049                0.207829135       135.18613
9.05                 0.208872669      134.117233
9.051                0.209959419      133.058267
9.052                0.211088473      132.009444
9.053                 0.21225891      130.970954
9.054                0.213469797      129.942965
9.055                0.214720196      128.925625
9.056                0.216009162      127.919061
9.057                0.217335746      126.923379
9.058                0.218698997      125.938668
9.059                0.220097967      124.964999
9.06                 0.221531706      124.002423
9.061                0.222999269      123.050976
9.062                0.224499715      122.110679
9.063                0.226032111      121.181537
9.064                0.227595527       120.26354
9.065                0.229189046      119.356667
9.066                0.230811757      118.460884
9.067                0.232462762      117.576144
9.068                 0.23414117       116.70239
9.069                0.235846107      115.839555
9.07                 0.237576709      114.987565
9.071                0.239332123      114.146333
9.072                0.241111514      113.315769
9.073                0.242914058      112.495774
9.074                0.244738947      111.686241
9.075                0.246585387       110.88706
9.076                0.248452599      110.098114
9.077                0.250339819      109.319284
9.078                  0.2522463      108.550444
9.079                0.254171308      107.791465
9.08                 0.256114127      107.042218
9.081                0.258074054      106.302568
9.082                0.260050403       105.57238
9.083                0.262042504      104.851516
9.084                  0.2640497      104.139837
9.085                0.266071353      103.437204
9.086                0.268106836      102.743476
9.087                 0.27015554      102.058512
9.088                0.272216869      101.382171
9.089                0.274290242      100.714312
9.09                 0.276375094      100.054796
9.091                0.278470871      99.4034814
9.092                0.280577036      98.7602298
9.093                0.282693064      98.1249027
9.094                0.284818443      97.4973632
9.095                0.286952677      96.8774753
9.096                 0.28909528      96.2651044
9.097                0.291245779      95.6601175
9.098                0.293403715      95.0623829
9.099                 0.29556864      94.4717709
9.1                  0.297740118      93.8881532
9.101                0.299917725      93.3114035
9.102                0.302101048      92.7413971
9.103                0.304289686      92.1780116
9.104                0.306483248      91.6211261
9.105                0.308681352      91.0706219
9.106                0.310883631      90.5263822
9.107                0.313089722      89.9882923
9.108                0.315299278      89.4562395
9.109                0.317511956      88.9301131
9.11                 0.319727426      88.4098043
9.111                0.321945367      87.8952066
9.112                0.324165465      87.3862153
9.113                0.326387415      86.8827279
9.114                0.328610922      86.3846438
9.115                0.330835698      85.8918643
9.116                0.333061463      85.4042929
9.117                0.335287945       84.921835
9.118                 0.33751488      84.4443978
9.119                0.339742011      83.9718905
9.12                 0.341969089      83.5042243
9.121                 0.34419587       83.041312
9.122                0.346422119      82.5830684
9.123                0.348647606      82.1294102
9.124                0.350872109      81.6802558
9.125                0.353095412      81.2355253
9.126                0.355317303      80.7951404
9.127                0.357537579      80.3590249
9.128                0.359756042      79.9271038
9.129                0.361972497       79.499304
9.13                  0.36418676      79.0755539
9.131                0.366398646      78.6557835
9.132                0.368607981      78.2399244
9.133                0.370814591      77.8279096
9.134                0.373018312      77.4196735
9.135                 0.37521898      77.0151521
9.136                0.377416439      76.6142828
9.137                0.379610538      76.2170042
9.138                0.381801126      75.8232565
9.139                0.383988062      75.4329811
9.14                 0.386171206      75.0461206
9.141                0.388350423      74.6626189
9.142                0.390525582      74.2824214
9.143                0.392696555      73.9054742
9.144                 0.39486322       73.531725
9.145                0.397025456      73.1611226
9.146                0.399183148      72.7936166
9.147                0.401336184      72.4291581
9.148                0.403484454       72.067699
9.149                0.405627854      71.7091924
9.15                  0.40776628      71.3535923
9.151                0.409899634      71.0008537
9.152                 0.41202782      70.6509327
9.153                0.414150745      70.3037863
9.154                0.416268319      69.9593723
9.155                0.418380456      69.6176495
9.156                0.420487071      69.2785776
9.157                0.422588083      68.9421171
9.158                0.424683414      68.6082294
9.159                0.426772987      68.2768767
9.16                 0.428856729      67.9480219
9.161                0.430934569      67.6216288
9.162                0.433006439       67.297662
9.163                0.435072272      66.9760866
9.164                0.437132005      66.6568688
9.165                0.439185577      66.3399751
9.166                0.441232928      66.0253729
9.167                0.443274001      65.7130303
9.168                0.445308741       65.402916
9.169                0.447337096      65.0949993
9.17                 0.449359014      64.7892502
9.171                0.451374446      64.4856393
9.172                0.453383346      64.1841376
9.173                0.455385669       63.884717
9.174                0.457381371      63.5873497
9.175                0.459370411      63.2920086
9.176                0.461352749      62.9986672
9.177                0.463328347      62.7072992
9.178                0.465297169      62.4178791
9.179                 0.46725918      62.1303819
9.18                 0.469214347      61.8447829
9.181                0.471162639      61.5610581
9.182                0.473104024      61.2791838
9.183                0.475038476      60.9991367
9.184                0.476965966      60.7208942
9.185                0.478886469       60.444434
9.186                0.480799961       60.169734
9.187                0.482706418      59.8967729
9.188                 0.48460582      59.6255294
9.189                0.486498145       59.355983
9.19                 0.488383374      59.0881134
9.191                 0.49026149      58.8219004
9.192                0.492132476      58.5573247
9.193                0.493996316      58.2943669
9.194                0.495852996      58.0330082
9.195                0.497702503      57.7732301
9.196                0.499544824      57.5150143
9.197                0.501379949       57.258343
9.198                0.503207867      57.0031986
9.199                0.505028569      56.7495638
9.2                  0.506842047      56.4974217
9.201                0.508648293      56.2467557
9.202                0.510447303      55.9975493
9.203                 0.51223907      55.7497865
9.204                 0.51402359      55.5034515
9.205                 0.51580086      55.2585287
9.206                0.517570877      55.0150029
9.207                0.519333639       54.772859
9.208                0.521089145      54.5320823
9.209                0.522837395      54.2926582
9.21                 0.524578389      54.0545725
9.211                 0.52631213      53.8178111
9.212                0.528038618      53.5823602
9.213                0.529757857      53.3482062
9.214                0.531469851      53.1153357
9.215                0.533174602      52.8837356
9.216                0.534872118      52.6533929
9.217                0.536562401      52.4242949
9.218                 0.53824546       52.196429
9.219                0.539921301      51.9697829
9.22                  0.54158993      51.7443445
9.221                0.543251357      51.5201018
9.222                0.544905589       51.297043
9.223                0.546552635      51.0751565
9.224                0.548192506      50.8544309
9.225                0.549825211      50.6348549
9.226                0.551450761      50.4164175
9.227                0.553069167      50.1991078
9.228                0.554680441       49.982915
9.229                0.556284595      49.7678286
9.23                 0.557881641       49.553838
9.231                0.559471593      49.3409331
9.232                0.561054465      49.1291037
9.233                0.562630269      48.9183397
9.234                 0.56419902      48.7086315
9.235                0.565760734      48.4999692
9.236                0.567315424      48.2923433
9.237                0.568863108      48.0857444
9.238                  0.5704038      47.8801632
9.239                0.571937516      47.6755905
9.24                 0.573464274      47.4720173
9.241                0.574984091      47.2694347
9.242                0.576496983      47.0678339
9.243                0.578002968      46.8672062
9.244                0.579502064      46.6675431
9.245                0.580994289      46.4688361
9.246                0.582479662      46.2710769
9.247                0.583958201      46.0742573
9.248                0.585429926      45.8783693
9.249                0.586894855      45.6834047
9.25                 0.588353009      45.4893557
9.251                0.589804407      45.2962145
9.252                0.591249069      45.1039735
9.253                0.592687016       44.912625
9.254                0.594118268      44.7221615
9.255                0.595542845      44.5325756
9.256                0.596960769      44.3438602
9.257                 0.59837206      44.1560078
9.258                0.599776741      43.9690114
9.259                0.601174832       43.782864
9.26                 0.602566355      43.5975587
9.261                0.603951333      43.4130884
9.262                0.605329787      43.2294466
9.263                0.606701739      43.0466265
9.264                0.608067212      42.8646214
9.265                0.609426228      42.6834248
9.266                 0.61077881      42.5030304
9.267                0.612124981      42.3234316
9.268                0.613464763      42.1446222
9.269                 0.61479818       41.966596
9.27                 0.616125255      41.7893467
9.271                 0.61744601      41.6128684
9.272                0.618760471      41.4371549
9.273                0.620068659      41.2622004
9.274                0.621370599       41.087999
9.275                0.622666314      40.9145448
9.276                0.623955827      40.7418321
9.277                0.625239164      40.5698552
9.278                0.626516348      40.3986085
9.279                0.627787402      40.2280865
9.28                 0.629052352      40.0582836
9.281                 0.63031122      39.8891943
9.282                0.631564032      39.7208135
9.283                0.632810811      39.5531356
9.284                0.634051581      39.3861554
9.285                0.635286369      39.2198678
9.286                0.636515196      39.0542676
9.287                0.637738089      38.8893497
9.288                0.638955071       38.725109
9.289                0.640166168      38.5615406
9.29                 0.641371403      38.3986396
9.291                0.642570801       38.236401
9.292                0.643764388        38.07482
9.293                0.644952186      37.9138918
9.294                0.646134222      37.7536118
9.295                 0.64731052      37.5939751
9.296                0.648481104      37.4349772
9.297                0.649645999      37.2766135
9.298                 0.65080523      37.1188795
9.299                0.651958822      36.9617706
9.3                  0.653106799      36.8052823
9.301                0.654249186      36.6494104
9.302                0.655386007      36.4941503
9.303                0.656517287      36.3394978
9.304                0.657643052      36.1854487
9.305                0.658763325      36.0319985
9.306                0.659878131      35.8791433
9.307                0.660987495      35.7268787
9.308                0.662091441      35.5752007
9.309                0.663189994      35.4241052
9.31                 0.664283179      35.2735882
9.311                 0.66537102      35.1236456
9.312                0.666453541      34.9742735
9.313                0.667530767       34.825468
9.314                0.668602722      34.6772251
9.315                0.669669431       34.529541
9.316                0.670730917       34.382412
9.317                0.671787207      34.2358341
9.318                0.672838322      34.0898037
9.319                0.673884289       33.944317
9.32                  0.67492513      33.7993704
9.321                 0.67596087      33.6549602
9.322                0.676991533      33.5110828
9.323                0.678017144      33.3677346
9.324                0.679037725       33.224912
9.325                0.680053302      33.0826115
9.326                0.681063897      32.9408297
9.327                0.682069535      32.7995631
9.328                 0.68307024      32.6588083
9.329                0.684066034      32.5185618
9.33                 0.685056942      32.3788202
9.331                0.686042988      32.2395803
9.332                0.687024194      32.1008388
9.333                0.688000584      31.9625923
9.334                0.688972182      31.8248376
9.335                0.689939011      31.6875714
9.336                0.690901093      31.5507907
9.337                0.691858453      31.4144921
9.338                0.692811114      31.2786725
9.339                0.693759098      31.1433289
9.34                 0.694702428      31.0084581
9.341                0.695641127      30.8740571
9.342                0.696575219      30.7401228
9.343                0.697504725      30.6066522
9.344                0.698429669      30.4736424
9.345                0.699350073      30.3410902
9.346                0.700265959      30.2089929
9.347                0.701177351      30.0773474
9.348                0.702084269      29.9461509
9.349                0.702986738      29.8154005
9.35                 0.703884778      29.6850934
9.351                0.704778412      29.5552267
9.352                0.705667662      29.4257976
9.353                 0.70655255      29.2968033
9.354                0.707433098      29.1682412
9.355                0.708309328      29.0401083
9.356                0.709181261      28.9124021
9.357                0.710048919      28.7851198
9.358                0.710912323      28.6582588
9.359                0.711771495      28.5318164
9.36                 0.712626457      28.4057899
9.361                 0.71347723      28.2801767
9.362                0.714323834      28.1549744
9.363                0.715166291      28.0301802
9.364                0.716004622      27.9057916
9.365                0.716838849      27.7818061
9.366                0.717668991      27.6582212
9.367                 0.71849507      27.5350343
9.368                0.719317106      27.4122431
9.369                 0.72013512       27.289845
9.37                 0.720949132      27.1678376
9.371                0.721759163      27.0462185
9.372                0.722565233      26.9249853
9.373                0.723367363      26.8041355
9.374                0.724165573      26.6836669
9.375                0.724959882       26.563577
9.376                 0.72575031      26.4438636
9.377                0.726536879      26.3245243
9.378                0.727319606      26.2055568
9.379                0.728098513      26.0869588
9.38                 0.728873618      25.9687281
9.381                0.729644942      25.8508624
9.382                0.730412503      25.7333595
9.383                0.731176321      25.6162172
9.384                0.731936415      25.4994332
9.385                0.732692805      25.3830054
9.386                 0.73344551      25.2669316
9.387                0.734194548      25.1512096
9.388                0.734939939      25.0358374
9.389                  0.7356817      24.9208127
9.39                 0.736419852      24.8061335
9.391                0.737154413      24.6917976
9.392                0.737885401      24.5778031
9.393                0.738612834      24.4641478
9.394                0.739336731      24.3508296
9.395                0.740057111      24.2378466
9.396                0.740773991      24.1251967
