! TOUCHSTONE file generated by CST DESIGN STUDIO
! Date and time: Tue Feb  4 14:40:37 2025
! Project name: C:\Work\MatlabApps\UnitCellOptimizationMatlab\CST\unitcell.cst
! Tree item: Tasks\Sweep1\SPara1\S-Parameters
! Header version: 2024
! Port assignment regex: !\s*Touchstone port\s*([0-9]+)\s*=\s*(CST MWS port|CST DES external port|CST DES block port)\s*(.+)\s* \(\"(.*)\"\)(\s*mode\s*([0-9]+))?.*
! Touchstone port assignment:
! Touchstone port 1 = CST DES external port 1 ("")
# GHz S MA R 50
9                    0.470788555      59.8708934
9.001                0.472928247      59.5902276
9.002                0.475059396      59.3114474
9.003                0.477181981      59.0345278
9.004                0.479295982      58.7594445
9.005                0.481401381      58.4861735
9.006                0.483498161      58.2146913
9.007                0.485586306      57.9449751
9.008                0.487665803      57.6770023
9.009                 0.48973664      57.4107509
9.01                 0.491798804      57.1461995
9.011                0.493852286      56.8833268
9.012                0.495897078      56.6221122
9.013                0.497933172      56.3625353
9.014                0.499960562      56.1045764
9.015                0.501979243      55.8482158
9.016                0.503989211      55.5934346
9.017                0.505990463      55.3402139
9.018                0.507982998      55.0885354
9.019                0.509966816       54.838381
9.02                 0.511941916      54.5897331
9.021                  0.5139083      54.3425743
9.022                0.515865971      54.0968877
9.023                0.517814932      53.8526565
9.024                0.519755188      53.6098642
9.025                0.521686744      53.3684949
9.026                0.523609606      53.1285328
9.027                0.525523781      52.8899622
9.028                0.527429277      52.6527681
9.029                0.529326103      52.4169353
9.03                 0.531214269      52.1824494
9.031                0.533093784      51.9492957
9.032                 0.53496466      51.7174601
9.033                0.536826908      51.4869288
9.034                0.538680542       51.257688
9.035                0.540525574      51.0297242
9.036                0.542362019      50.8030243
9.037                 0.54418989      50.5775752
9.038                0.546009204      50.3533641
9.039                0.547819975      50.1303785
9.04                 0.549622221       49.908606
9.041                0.551415959      49.6880345
9.042                0.553201206       49.468652
9.043                 0.55497798      49.2504467
9.044                  0.5567463      49.0334071
9.045                0.558506185      48.8175217
9.046                0.560257656      48.6027794
9.047                0.562000732      48.3891691
9.048                0.563735434        48.17668
9.049                0.565461784      47.9653013
9.05                 0.567179802      47.7550226
9.051                0.568889512      47.5458335
9.052                0.570590936      47.3377238
9.053                0.572284096      47.1306834
9.054                0.573969017      46.9247025
9.055                0.575645721      46.7197712
9.056                0.577314233      46.5158799
9.057                0.578974577      46.3130193
9.058                0.580626779        46.11118
9.059                0.582270864      45.9103527
9.06                 0.583906856      45.7105285
9.061                0.585534782      45.5116983
9.062                0.587154668      45.3138534
9.063                 0.58876654      45.1169851
9.064                0.590370425      44.9210849
9.065                0.591966351      44.7261442
9.066                0.593554344      44.5321549
9.067                0.595134431      44.3391086
9.068                0.596706641      44.1469973
9.069                0.598271002      43.9558129
9.07                 0.599827541      43.7655477
9.071                0.601376288      43.5761938
9.072                0.602917271      43.3877436
9.073                0.604450518      43.2001894
9.074                0.605976059      43.0135239
9.075                0.607493923      42.8277395
9.076                0.609004139      42.6428292
9.077                0.610506738      42.4587856
9.078                0.612001748      42.2756017
9.079                0.613489199      42.0932705
9.08                 0.614969122      41.9117851
9.081                0.616441547      41.7311385
9.082                0.617906504      41.5513242
9.083                0.619364023      41.3723353
9.084                0.620814135      41.1941654
9.085                0.622256871      41.0168079
9.086                0.623692261      40.8402565
9.087                0.625120336      40.6645047
9.088                0.626541128      40.4895463
9.089                0.627954666      40.3153751
9.09                 0.629360983       40.141985
9.091                0.630760109      39.9693699
9.092                0.632152075      39.7975238
9.093                0.633536914      39.6264409
9.094                0.634914655      39.4561153
9.095                0.636285332      39.2865412
9.096                0.637648974      39.1177129
9.097                0.639005614      38.9496248
9.098                0.640355284      38.7822712
9.099                0.641698014      38.6156467
9.1                  0.643033836      38.4497458
9.101                0.644362782      38.2845631
9.102                0.645684883      38.1200933
9.103                0.647000172       37.956331
9.104                0.648308679       37.793271
9.105                0.649610437      37.6309083
9.106                0.650905477      37.4692376
9.107                0.652193831      37.3082539
9.108                 0.65347553      37.1479522
9.109                0.654750606      36.9883275
9.11                  0.65601909       36.829375
9.111                0.657281015      36.6710898
9.112                0.658536411      36.5134671
9.113                0.659785311      36.3565021
9.114                0.661027745      36.2001901
9.115                0.662263746      36.0445266
9.116                0.663493345      35.8895068
9.117                0.664716573      35.7351262
9.118                0.665933461      35.5813803
9.119                0.667144041      35.4282647
9.12                 0.668348344      35.2757748
9.121                0.669546402      35.1239064
9.122                0.670738245      34.9726551
9.123                0.671923904      34.8220165
9.124                0.673103412      34.6719865
9.125                0.674276798      34.5225607
9.126                0.675444093      34.3737351
9.127                 0.67660533      34.2255055
9.128                0.677760537      34.0778678
9.129                0.678909747       33.930818
9.13                 0.680052989       33.784352
9.131                0.681190294      33.6384658
9.132                0.682321694      33.4931555
9.133                0.683447217      33.3484173
9.134                0.684566895      33.2042471
9.135                0.685680758      33.0606413
9.136                0.686788837      32.9175959
9.137                 0.68789116      32.7751073
9.138                0.688987758      32.6331716
9.139                0.690078662      32.4917853
9.14                   0.6911639      32.3509446
9.141                0.692243504      32.2106459
9.142                0.693317501      32.0708855
9.143                0.694385923      31.9316601
9.144                0.695448798      31.7929659
9.145                0.696506155      31.6547994
9.146                0.697558025      31.5171573
9.147                0.698604436      31.3800361
9.148                0.699645417      31.2434323
9.149                0.700680997      31.1073426
9.15                 0.701711206      30.9717636
9.151                0.702736071       30.836692
9.152                0.703755622      30.7021245
9.153                0.704769887      30.5680578
9.154                0.705778894      30.4344886
9.155                0.706782672      30.3014139
9.156                0.707781249      30.1688302
9.157                0.708774653      30.0367346
9.158                0.709762913      29.9051239
9.159                0.710746055      29.7739949
9.16                 0.711724108      29.6433445
9.161                  0.7126971      29.5131698
9.162                0.713665057      29.3834677
9.163                0.714628009      29.2542351
9.164                 0.71558598      29.1254691
9.165                   0.716539      28.9971668
9.166                0.717487095      28.8693251
9.167                0.718430292      28.7419412
9.168                0.719368617      28.6150122
9.169                0.720302099      28.4885352
9.17                 0.721230762      28.3625073
9.171                0.722154635      28.2369258
9.172                0.723073742      28.1117879
9.173                0.723988111      27.9870908
9.174                0.724897767      27.8628316
9.175                0.725802737      27.7390078
9.176                0.726703046      27.6156165
9.177                 0.72759872      27.4926551
9.178                0.728489785      27.3701209
9.179                0.729376267      27.2480113
9.18                  0.73025819      27.1263236
9.181                0.731135581      27.0050552
9.182                0.732008464      26.8842036
9.183                0.732876864      26.7637661
9.184                0.733740807      26.6437402
9.185                0.734600316      26.5241234
9.186                0.735455417      26.4049132
9.187                0.736306135       26.286107
9.188                0.737152493      26.1677025
9.189                0.737994517      26.0496971
9.19                  0.73883223      25.9320884
9.191                0.739665656       25.814874
9.192                0.740494819      25.6980514
9.193                0.741319744      25.5816184
9.194                0.742140454      25.4655725
9.195                0.742956972      25.3499114
9.196                0.743769322      25.2346328
9.197                0.744577527      25.1197342
9.198                0.745381611      25.0052136
9.199                0.746181596      24.8910685
9.2                  0.746977506      24.7772966
9.201                0.747769363      24.6638959
9.202                0.748557191      24.5508639
9.203                0.749341011      24.4381985
9.204                0.750120847      24.3258976
9.205                 0.75089672      24.2139588
9.206                0.751668654      24.1023801
9.207                0.752436669      23.9911593
9.208                0.753200789      23.8802942
9.209                0.753961034      23.7697828
9.21                 0.754717428      23.6596228
9.211                 0.75546999      23.5498123
9.212                0.756218744      23.4403492
9.213                 0.75696371      23.3312313
9.214                 0.75770491      23.2224566
9.215                0.758442365      23.1140231
9.216                0.759176096      23.0059288
9.217                0.759906123      22.8981717
9.218                0.760632469      22.7907497
9.219                0.761355153       22.683661
9.22                 0.762074196      22.5769034
9.221                0.762789618      22.4704751
9.222                0.763501441      22.3643741
9.223                0.764209684      22.2585985
9.224                0.764914367      22.1531465
9.225                 0.76561551       22.048016
9.226                0.766313134      21.9432051
9.227                0.767007258      21.8387122
9.228                0.767697902      21.7345351
9.229                0.768385085      21.6306722
9.23                 0.769068826      21.5271215
9.231                0.769749147      21.4238813
9.232                0.770426064      21.3209497
9.233                0.771099598       21.218325
9.234                0.771769767      21.1160052
9.235                0.772436591      21.0139888
9.236                0.773100089      20.9122738
9.237                0.773760278      20.8108586
9.238                0.774417177      20.7097413
9.239                0.775070806      20.6089204
9.24                 0.775721182      20.5083939
9.241                0.776368324      20.4081603
9.242                0.777012249      20.3082179
9.243                0.777652976      20.2085648
9.244                0.778290523      20.1091996
9.245                0.778924908      20.0101205
9.246                0.779556147      19.9113258
9.247                 0.78018426      19.8128139
9.248                0.780809263      19.7145832
9.249                0.781431174      19.6166321
9.25                  0.78205001      19.5189589
9.251                0.782665788       19.421562
9.252                0.783278526      19.3244399
9.253                 0.78388824      19.2275909
9.254                0.784494947      19.1310136
9.255                0.785098665      19.0347062
9.256                0.785699409      18.9386674
9.257                0.786297197      18.8428955
9.258                0.786892044      18.7473889
9.259                0.787483968      18.6521463
9.26                 0.788072984       18.557166
9.261                0.788659109      18.4624466
9.262                0.789242359      18.3679866
9.263                 0.78982275      18.2737844
9.264                0.790400297      18.1798386
9.265                0.790975017      18.0861478
9.266                0.791546926      17.9927104
9.267                0.792116038      17.8995251
9.268                 0.79268237      17.8065904
9.269                0.793245936      17.7139048
9.27                 0.793806753      17.6214669
9.271                0.794364835      17.5292754
9.272                0.794920198      17.4373288
9.273                0.795472856      17.3456257
9.274                0.796022825      17.2541647
9.275                0.796570119      17.1629445
9.276                0.797114754      17.0719637
9.277                0.797656743      16.9812209
9.278                0.798196102      16.8907147
9.279                0.798732845      16.8004438
9.28                 0.799266986      16.7104069
9.281                 0.79979854      16.6206027
9.282                0.800327521      16.5310298
9.283                0.800853944      16.4416868
9.284                0.801377821      16.3525726
9.285                0.801899168      16.2636858
9.286                0.802417998       16.175025
9.287                0.802934324      16.0865891
9.288                0.803448162      15.9983767
9.289                0.803959523      15.9103866
9.29                 0.804468423      15.8226175
9.291                0.804974874      15.7350682
9.292                0.805478889      15.6477374
9.293                0.805980483      15.5606238
9.294                0.806479668      15.4737263
9.295                0.806976457      15.3870436
9.296                0.807470863      15.3005745
9.297                  0.8079629      15.2143177
9.298                 0.80845258      15.1282722
9.299                0.808939917      15.0424366
9.3                  0.809424922      14.9568098
9.301                0.809907609      14.8713906
9.302                 0.81038799      14.7861778
9.303                0.810866077      14.7011703
9.304                0.811341884      14.6163669
9.305                0.811815422      14.5317664
9.306                0.812286703      14.4473678
9.307                 0.81275574      14.3631697
9.308                0.813222546      14.2791712
9.309                0.813687131       14.195371
9.31                 0.814149508      14.1117681
9.311                 0.81460969      14.0283613
9.312                0.815067686      13.9451496
9.313                0.815523511      13.8621317
9.314                0.815977174      13.7793067
9.315                0.816428688      13.6966734
9.316                0.816878065      13.6142307
9.317                0.817325315      13.5319776
9.318                 0.81777045      13.4499129
9.319                0.818213481      13.3680357
9.32                 0.818654421      13.2863448
9.321                0.819093278      13.2048392
9.322                0.819530066      13.1235178
9.323                0.819964795      13.0423796
9.324                0.820397476      12.9614236
9.325                0.820828119      12.8806487
9.326                0.821256737      12.8000539
9.327                0.821683338      12.7196381
9.328                0.822107935      12.6394004
9.329                0.822530537      12.5593397
9.33                 0.822951156       12.479455
9.331                0.823369801      12.3997454
9.332                0.823786484      12.3202097
9.333                0.824201214      12.2408472
9.334                0.824614002      12.1616566
9.335                0.825024859      12.0826372
9.336                0.825433793      12.0037878
9.337                0.825840816      11.9251076
9.338                0.826245937      11.8465955
9.339                0.826649167      11.7682507
9.34                 0.827050515      11.6900721
9.341                0.827449991      11.6120588
9.342                0.827847605      11.5342098
9.343                0.828243367      11.4565243
9.344                0.828637287      11.3790012
9.345                0.829029373      11.3016397
9.346                0.829419636      11.2244388
9.347                0.829808085      11.1473977
9.348                0.830194729      11.0705153
9.349                0.830579579      10.9937908
9.35                 0.830962642      10.9172233
9.351                0.831343929      10.8408119
9.352                0.831723449      10.7645557
9.353                 0.83210121      10.6884537
9.354                0.832477223      10.6125052
9.355                0.832851495      10.5367091
9.356                0.833224036      10.4610647
9.357                0.833594855      10.3855711
9.358                 0.83396396      10.3102274
9.359                0.834331361      10.2350327
9.36                 0.834697067      10.1599862
9.361                0.835061085       10.085087
9.362                0.835423425      10.0103343
9.363                0.835784095      9.93572725
9.364                0.836143104      9.86126494
9.365                0.836500459      9.78694657
9.366                0.836856171      9.71277131
9.367                0.837210246      9.63873832
9.368                0.837562694      9.56484678
9.369                0.837913523      9.49109588
9.37                  0.83826274      9.41748478
9.371                0.838610354      9.34401267
9.372                0.838956374      9.27067876
9.373                0.839300806      9.19748222
9.374                 0.83964366      9.12442227
9.375                0.839984943      9.05149809
9.376                0.840324663       8.9787089
9.377                0.840662828      8.90605391
9.378                0.840999446      8.83353232
9.379                0.841334524      8.76114336
9.38                 0.841668071      8.68888626
9.381                0.842000094      8.61676022
9.382                  0.8423306      8.54476449
9.383                0.842659597      8.47289829
9.384                0.842987094      8.40116086
9.385                0.843313096      8.32955145
9.386                0.843637612      8.25806929
9.387                0.843960649      8.18671363
9.388                0.844282215      8.11548372
9.389                0.844602316      8.04437881
9.39                  0.84492096      7.97339818
9.391                0.845238155      7.90254106
9.392                0.845553907      7.83180674
9.393                0.845868223      7.76119447
9.394                0.846181111      7.69070354
9.395                0.846492577      7.62033321
9.396                0.846802629      7.55008276
