! TOUCHSTONE file generated by CST DESIGN STUDIO
! Date and time: Tue Feb  4 14:40:40 2025
! Project name: C:\Work\MatlabApps\UnitCellOptimizationMatlab\CST\unitcell.cst
! Tree item: Tasks\Sweep1\SPara1\S-Parameters
! Header version: 2024
! Port assignment regex: !\s*Touchstone port\s*([0-9]+)\s*=\s*(CST MWS port|CST DES external port|CST DES block port)\s*(.+)\s* \(\"(.*)\"\)(\s*mode\s*([0-9]+))?.*
! Touchstone port assignment:
! Touchstone port 1 = CST DES external port 1 ("")
# GHz S MA R 50
9                    0.612916349     -93.6512618
9.001                0.611182487      -93.894494
9.002                0.609441587     -94.1389206
9.003                0.607693653     -94.3845511
9.004                0.605938692     -94.6313951
9.005                0.604176713     -94.8794626
9.006                0.602407724     -95.1287634
9.007                0.600631735     -95.3793076
9.008                0.598848755     -95.6311056
9.009                0.597058796     -95.8841676
9.01                  0.59526187     -96.1385043
9.011                0.593457989     -96.3941261
9.012                0.591647168     -96.6510441
9.013                0.589829421     -96.9092691
9.014                0.588004765     -97.1688123
9.015                0.586173215     -97.4296849
9.016                 0.58433479     -97.6918985
9.017                0.582489507     -97.9554645
9.018                0.580637388     -98.2203948
9.019                0.578778452     -98.4867013
9.02                 0.576912721     -98.7543961
9.021                0.575040218     -99.0234915
9.022                0.573160967     -99.2940001
9.023                0.571274994     -99.5659344
9.024                0.569382323     -99.8393074
9.025                0.567482983     -100.114132
9.026                0.565577003     -100.390421
9.027                0.563664411     -100.668189
9.028                0.561745239     -100.947449
9.029                0.559819519     -101.228215
9.03                 0.557887284       -101.5105
9.031                0.555948568      -101.79432
9.032                0.554003409     -102.079688
9.033                0.552051843      -102.36662
9.034                0.550093908      -102.65513
9.035                0.548129646     -102.945233
9.036                0.546159096     -103.236946
9.037                0.544182302     -103.530283
9.038                0.542199308      -103.82526
9.039                 0.54021016     -104.121894
9.04                 0.538214905     -104.420202
9.041                0.536213591     -104.720198
9.042                0.534206269     -105.021902
9.043                 0.53219299      -105.32533
9.044                0.530173808     -105.630499
9.045                0.528148777     -105.937427
9.046                0.526117955     -106.246132
9.047                0.524081399     -106.556633
9.048                0.522039169     -106.868949
9.049                0.519991326     -107.183097
9.05                 0.517937935     -107.499098
9.051                 0.51587906     -107.816972
9.052                0.513814769     -108.136737
9.053                0.511745129     -108.458415
9.054                0.509670212     -108.782025
9.055                 0.50759009      -109.10759
9.056                0.505504837     -109.435129
9.057                 0.50341453     -109.764665
9.058                0.501319248     -110.096221
9.059                 0.49921907     -110.429817
9.06                 0.497114079     -110.765477
9.061                0.495004359     -111.103224
9.062                0.492889998     -111.443081
9.063                0.490771084     -111.785073
9.064                0.488647707     -112.129224
9.065                0.486519962     -112.475558
9.066                0.484387943     -112.824101
9.067                0.482251749     -113.174878
9.068                0.480111479     -113.527915
9.069                0.477967235     -113.883239
9.07                 0.475819124     -114.240876
9.071                0.473667251     -114.600854
9.072                0.471511728     -114.963201
9.073                0.469352665     -115.327945
9.074                0.467190179     -115.695114
9.075                0.465024386     -116.064738
9.076                0.462855407     -116.436847
9.077                0.460683365     -116.811471
9.078                0.458508385     -117.188641
9.079                0.456330596     -117.568387
9.08                 0.454150129     -117.950742
9.081                0.451967118     -118.335738
9.082                  0.4497817     -118.723408
9.083                0.447594015     -119.113786
9.084                0.445404207     -119.506904
9.085                0.443212421     -119.902798
9.086                0.441018806     -120.301503
9.087                0.438823516     -120.703054
9.088                0.436626706     -121.107488
9.089                0.434428534     -121.514842
9.09                 0.432229163     -121.925152
9.091                0.430028759     -122.338458
9.092                0.427827491     -122.754796
9.093                0.425625531     -123.174208
9.094                0.423423055     -123.596732
9.095                0.421220244     -124.022409
9.096                0.419017281      -124.45128
9.097                0.416814352     -124.883387
9.098                0.414611649     -125.318772
9.099                0.412409367     -125.757478
9.1                  0.410207704     -126.199549
9.101                0.408006863     -126.645029
9.102                0.405807051     -127.093962
9.103                0.403608478     -127.546395
9.104                 0.40141136     -128.002373
9.105                0.399215915     -128.461943
9.106                0.397022367     -128.925153
9.107                0.394830944     -129.392051
9.108                0.392641878     -129.862685
9.109                0.390455406     -130.337104
9.11                 0.388271768     -130.815358
9.111                0.386091211     -131.297499
9.112                0.383913986     -131.783576
9.113                0.381740346     -132.273642
9.114                0.379570553     -132.767749
9.115                0.377404872      -133.26595
9.116                0.375243572     -133.768297
9.117                0.373086927     -134.274845
9.118                0.370935219     -134.785647
9.119                0.368788731      -135.30076
9.12                 0.366647755     -135.820237
9.121                0.364512585     -136.344135
9.122                0.362383522      -136.87251
9.123                0.360260873     -137.405418
9.124                0.358144948     -137.942916
9.125                0.356036065     -138.485061
9.126                0.353934546      -139.03191
9.127                0.351840719      -139.58352
9.128                0.349754918      -140.13995
9.129                0.347677483     -140.701257
9.13                 0.345608757     -141.267499
9.131                0.343549092     -141.838734
9.132                0.341498845     -142.415019
9.133                0.339458377     -142.996413
9.134                0.337428057     -143.582971
9.135                0.335408259     -144.174753
9.136                0.333399361     -144.771814
9.137                0.331401751     -145.374212
9.138                0.329415819     -145.982001
9.139                0.327441962     -146.595237
9.14                 0.325480583     -147.213974
9.141                0.323532092     -147.838267
9.142                0.321596903     -148.468168
9.143                0.319675435     -149.103729
9.144                0.317768116     -149.745001
9.145                0.315875376     -150.392032
9.146                0.313997653     -151.044871
9.147                0.312135388     -151.703564
9.148                 0.31028903     -152.368157
9.149                0.308459032      -153.03869
9.15                 0.306645851     -153.715207
9.151                0.304849951     -154.397745
9.152                  0.3030718      -155.08634
9.153                0.301311869     -155.781028
9.154                0.299570635     -156.481838
9.155                0.297848581       -157.1888
9.156                0.296146189     -157.901939
9.157                 0.29446395     -158.621277
9.158                0.292802356     -159.346833
9.159                0.291161901     -160.078623
9.16                 0.289543084     -160.816658
9.161                0.287946406     -161.560946
9.162                 0.28637237     -162.311489
9.163                0.284821481     -163.068287
9.164                0.283294245     -163.831335
9.165                 0.28179117     -164.600621
9.166                0.280312763     -165.376131
9.167                0.278859533     -166.157843
9.168                0.277431988     -166.945732
9.169                0.276030634     -167.739766
9.17                 0.274655977     -168.539907
9.171                 0.27330852     -169.346113
9.172                0.271988766     -170.158332
9.173                0.270697211      -170.97651
9.174                 0.26943435     -171.800584
9.175                0.268200674     -172.630484
9.176                0.266996666     -173.466135
9.177                0.265822807     -174.307454
9.178                 0.26467957     -175.154351
9.179                 0.26356742     -176.006729
9.18                 0.262486816     -176.864483
9.181                0.261438206     -177.727501
9.182                0.260422033     -178.595666
9.183                0.259438725      -179.46885
9.184                0.258488703       179.65308
9.185                0.257572375      178.770266
9.186                0.256690136      177.882855
9.187                0.255842371      176.991004
9.188                0.255029448      176.094875
9.189                0.254251722      175.194638
9.19                 0.253509533      174.290469
9.191                0.252803204      173.382553
9.192                0.252133043       172.47108
9.193                0.251499339      171.556245
9.194                0.250902366      170.638251
9.195                0.250342376      169.717307
9.196                0.249819605      168.793625
9.197                0.249334266      167.867426
9.198                0.248886556      166.938932
9.199                0.248476648      166.008373
9.2                  0.248104695      165.075979
9.201                0.247770829      164.141988
9.202                0.247475161      163.206639
9.203                0.247217777      162.270173
9.204                0.246998745      161.332835
9.205                0.246818106      160.394871
9.206                0.246675881      159.456529
9.207                0.246572069      158.518058
9.208                0.246506643      157.579707
9.209                0.246479557      156.641724
9.21                 0.246490739      155.704359
9.211                0.246540097      154.767858
9.212                0.246627516      153.832468
9.213                0.246752858      152.898434
9.214                0.246915963      151.965996
9.215                0.247116652      151.035393
9.216                0.247354721       150.10686
9.217                 0.24762995      149.180631
9.218                0.247942095       148.25693
9.219                0.248290893      147.335983
9.22                 0.248676063      146.418007
9.221                0.249097306      145.503214
9.222                0.249554303      144.591812
9.223                0.250046719      143.684003
9.224                0.250574202      142.779981
9.225                0.251136386      141.879935
9.226                0.251732886      140.984048
9.227                0.252363307      140.092496
9.228                0.253027237      139.205446
9.229                0.253724253      138.323061
9.23                  0.25445392      137.445494
9.231                0.255215789      136.572893
9.232                0.256009405      135.705397
9.233                0.256834299      134.843138
9.234                0.257689996      133.986242
9.235                 0.25857601      133.134826
9.236                0.259491851      132.288999
9.237                 0.26043702      131.448865
9.238                0.261411012       130.61452
9.239                0.262413319       129.78605
9.24                 0.263443424      128.963539
9.241                0.264500812      128.147059
9.242                 0.26558496      127.336679
9.243                0.266695345       126.53246
9.244                0.267831442      125.734455
9.245                0.268992724      124.942713
9.246                0.270178663      124.157276
9.247                0.271388732      123.378178
9.248                0.272622404      122.605452
9.249                0.273879152      121.839119
9.25                 0.275158453      121.079201
9.251                0.276459782      120.325709
9.252                0.277782619      119.578654
9.253                0.279126447      118.838039
9.254                 0.28049075      118.103863
9.255                0.281875017      117.376121
9.256                0.283278741      116.654804
9.257                0.284701418      115.939899
9.258                0.286142549      115.231389
9.259                 0.28760164      114.529253
9.26                 0.289078202      113.833467
9.261                0.290571749      113.144003
9.262                0.292081804      112.460833
9.263                0.293607894      111.783922
9.264                 0.29514955      111.113235
9.265                 0.29670631      110.448734
9.266                0.298277721      109.790378
9.267                0.299863331      109.138125
9.268                0.301462699      108.491931
9.269                0.303075387      107.851747
9.27                 0.304700965      107.217528
9.271                0.306339009      106.589222
9.272                0.307989102      105.966779
9.273                0.309650833      105.350147
9.274                0.311323799      104.739272
9.275                0.313007603      104.134099
9.276                0.314701852      103.534573
9.277                0.316406165      102.940638
9.278                0.318120163      102.352236
9.279                0.319843476      101.769311
9.28                 0.321575739      101.191803
9.281                0.323316597      100.619655
9.282                0.325065697      100.052807
9.283                0.326822695      99.4912008
9.284                0.328587255      98.9347761
9.285                0.330359044      98.3834736
9.286                0.332137737      97.8372338
9.287                0.333923016      97.2959971
9.288                0.335714569      96.7597039
9.289                 0.33751209      96.2282948
9.29                 0.339315278      95.7017105
9.291                 0.34112384       95.179892
9.292                0.342937487      94.6627804
9.293                0.344755937      94.1503171
9.294                0.346578915       93.642444
9.295                 0.34840615      93.1391032
9.296                0.350237377      92.6402372
9.297                0.352072337       92.145789
9.298                0.353910776      91.6557019
9.299                0.355752445        91.16992
9.3                  0.357597103      90.6883875
9.301                 0.35944451      90.2110494
9.302                0.361294436      89.7378511
9.303                0.363146651      89.2687385
9.304                0.365000935      88.8036581
9.305                0.366857069      88.3425573
9.306                0.368714841      87.8853835
9.307                0.370574042      87.4320852
9.308                 0.37243447      86.9826112
9.309                0.374295927      86.5369112
9.31                 0.376158217      86.0949352
9.311                0.378021151      85.6566341
9.312                0.379884544      85.2219592
9.313                0.381748215      84.7908626
9.314                0.383611987      84.3632971
9.315                0.385475687      83.9392159
9.316                0.387339146      83.5185729
9.317                  0.3892022      83.1013229
9.318                0.391064688       82.687421
9.319                0.392926452      82.2768232
9.32                 0.394787339      81.8694858
9.321                  0.3966472      81.4653661
9.322                0.398505889      81.0644218
9.323                0.400363262      80.6666113
9.324                0.402219181      80.2718935
9.325                 0.40407351      79.8802282
9.326                0.405926116      79.4915755
9.327                0.407776872      79.1058963
9.328                0.409625649       78.723152
9.329                0.411472327      78.3433045
9.33                 0.413316784      77.9663166
9.331                0.415158905      77.5921513
9.332                0.416998575      77.2207724
9.333                0.418835684      76.8521443
9.334                0.420670123      76.4862318
9.335                0.422501787      76.1230004
9.336                0.424330574      75.7624159
9.337                0.426156384      75.4044451
9.338                0.427979119      75.0490548
9.339                0.429798684      74.6962126
9.34                 0.431614988      74.3458867
9.341                0.433427941      73.9980456
9.342                0.435237455      73.6526584
9.343                0.437043444      73.3096947
9.344                0.438845828      72.9691246
9.345                0.440644524      72.6309186
9.346                0.442439455      72.2950478
9.347                0.444230545      71.9614836
9.348                0.446017719       71.630198
9.349                0.447800906      71.3011633
9.35                 0.449580037      70.9743525
9.351                0.451355043      70.6497388
9.352                0.453125858      70.3272958
9.353                0.454892418      70.0069977
9.354                0.456654662      69.6888191
9.355                 0.45841253      69.3727349
9.356                0.460165962      69.0587204
9.357                0.461914902      68.7467513
9.358                0.463659296      68.4368038
9.359                0.465399089      68.1288544
9.36                 0.467134232        67.82288
9.361                0.468864672      67.5188577
9.362                0.470590363      67.2167652
9.363                0.472311258      66.9165805
9.364                 0.47402731      66.6182818
9.365                0.475738478      66.3218478
9.366                0.477444717      66.0272575
9.367                0.479145988      65.7344901
9.368                 0.48084225      65.4435253
9.369                0.482533467      65.1543431
9.37                   0.4842196      64.8669238
9.371                0.485900616      64.5812478
9.372                0.487576479       64.297296
9.373                0.489247156      64.0150497
9.374                0.490912617      63.7344902
9.375                0.492572831      63.4555993
9.376                0.494227769      63.1783591
9.377                0.495877402      62.9027518
9.378                0.497521704      62.6287599
9.379                0.499160648      62.3563664
9.38                 0.500794211      62.0855542
9.381                0.502422369      61.8163068
9.382                0.504045099      61.5486077
9.383                0.505662379      61.2824407
9.384                 0.50727419        61.01779
9.385                 0.50888051      60.7546398
9.386                0.510481323      60.4929747
9.387                 0.51207661      60.2327795
9.388                0.513666354      59.9740392
9.389                 0.51525054       59.716739
9.39                 0.516829153      59.4608643
9.391                0.518402179      59.2064007
9.392                0.519969603      58.9533342
9.393                0.521531415      58.7016508
9.394                0.523087603      58.4513368
9.395                0.524638154      58.2023786
9.396                0.526183061      57.9547628
