! TOUCHSTONE file generated by CST DESIGN STUDIO
! Date and time: Tue Feb  4 17:14:58 2025
! Project name: C:\Work\MatlabApps\UnitCellOptimizationMatlab\CST\unitcell.cst
! Tree item: Tasks\Sweep1\SPara1\S-Parameters
! Header version: 2024
! Port assignment regex: !\s*Touchstone port\s*([0-9]+)\s*=\s*(CST MWS port|CST DES external port|CST DES block port)\s*(.+)\s* \(\"(.*)\"\)(\s*mode\s*([0-9]+))?.*
! Touchstone port assignment:
! Touchstone port 1 = CST DES external port 1 ("")
# GHz S MA R 50
9                    0.964822063     -63.4294239
9.001                  0.9647441     -63.5187407
9.002                0.964665899     -63.6082698
9.003                0.964587457     -63.6980121
9.004                0.964508776     -63.7879681
9.005                0.964429853     -63.8781385
9.006                0.964350688      -63.968524
9.007                0.964271281     -64.0591254
9.008                 0.96419163     -64.1499432
9.009                0.964111735     -64.2409782
9.01                 0.964031594      -64.332231
9.011                0.963951208     -64.4237024
9.012                0.963870575     -64.5153931
9.013                0.963789695     -64.6073037
9.014                0.963708567      -64.699435
9.015                0.963627189     -64.7917876
9.016                0.963545562     -64.8843623
9.017                0.963463684     -64.9771597
9.018                0.963381555     -65.0701806
9.019                0.963299173     -65.1634257
9.02                 0.963216539     -65.2568958
9.021                0.963133651     -65.3505914
9.022                0.963050508     -65.4445134
9.023                 0.96296711     -65.5386624
9.024                0.962883455     -65.6330393
9.025                0.962799544     -65.7276446
9.026                0.962715374     -65.8224792
9.027                0.962630947     -65.9175438
9.028                0.962546259     -66.0128391
9.029                0.962461312     -66.1083658
9.03                 0.962376103     -66.2041247
9.031                0.962290633     -66.3001166
9.032                  0.9622049     -66.3963421
9.033                0.962118903     -66.4928021
9.034                0.962032642     -66.5894972
9.035                0.961946116     -66.6864282
9.036                0.961859325     -66.7835959
9.037                0.961772266      -66.881001
9.038                 0.96168494     -66.9786443
9.039                0.961597345     -67.0765266
9.04                 0.961509481     -67.1746486
9.041                0.961421348      -67.273011
9.042                0.961332943     -67.3716147
9.043                0.961244267     -67.4704605
9.044                0.961155318      -67.569549
9.045                0.961066096     -67.6688811
9.046                  0.9609766     -67.7684575
9.047                0.960886828      -67.868279
9.048                0.960796781     -67.9683465
9.049                0.960706458     -68.0686607
9.05                 0.960615857     -68.1692223
9.051                0.960524978     -68.2700323
9.052                0.960433819     -68.3710913
9.053                0.960342381     -68.4724002
9.054                0.960250662     -68.5739597
9.055                0.960158661     -68.6757707
9.056                0.960066378      -68.777834
9.057                0.959973812     -68.8801503
9.058                0.959880962     -68.9827206
9.059                0.959787826     -69.0855455
9.06                 0.959694405      -69.188626
9.061                0.959600698     -69.2919628
9.062                0.959506703     -69.3955567
9.063                 0.95941242     -69.4994087
9.064                0.959317847     -69.6035194
9.065                0.959222985     -69.7078897
9.066                0.959127832     -69.8125205
9.067                0.959032388     -69.9174126
9.068                0.958936651     -70.0225668
9.069                0.958840621     -70.1279839
9.07                 0.958744297     -70.2336648
9.071                0.958647678     -70.3396104
9.072                0.958550764     -70.4458215
9.073                0.958453552     -70.5522989
9.074                0.958356044     -70.6590435
9.075                0.958258237     -70.7660561
9.076                0.958160131     -70.8733376
9.077                0.958061725     -70.9808888
9.078                0.957963019     -71.0887107
9.079                0.957864011      -71.196804
9.08                 0.957764701     -71.3051697
9.081                0.957665088     -71.4138086
9.082                 0.95756517     -71.5227215
9.083                0.957464948     -71.6319094
9.084                 0.95736442     -71.7413732
9.085                0.957263586     -71.8511136
9.086                0.957162444     -71.9611316
9.087                0.957060994     -72.0714281
9.088                0.956959235     -72.1820039
9.089                0.956857167       -72.29286
9.09                 0.956754788     -72.4039972
9.091                0.956652097     -72.5154165
9.092                0.956549094     -72.6271187
9.093                0.956445779     -72.7391047
9.094                0.956342149     -72.8513754
9.095                0.956238205     -72.9639318
9.096                0.956133945     -73.0767747
9.097                0.956029369     -73.1899051
9.098                0.955924476     -73.3033238
9.099                0.955819265     -73.4170318
9.1                  0.955713735       -73.53103
9.101                0.955607885     -73.6453193
9.102                0.955501716     -73.7599007
9.103                0.955395225      -73.874775
9.104                0.955288413     -73.9899432
9.105                0.955181277     -74.1054062
9.106                0.955073818      -74.221165
9.107                0.954966035     -74.3372205
9.108                0.954857927     -74.4535736
9.109                0.954749493     -74.5702253
9.11                 0.954640732     -74.6871765
9.111                0.954531644     -74.8044281
9.112                0.954422228     -74.9219812
9.113                0.954312482     -75.0398366
9.114                0.954202407     -75.1579953
9.115                0.954092001     -75.2764583
9.116                0.953981264     -75.3952265
9.117                0.953870195     -75.5143009
9.118                0.953758793     -75.6336825
9.119                0.953647058     -75.7533721
9.12                 0.953534988     -75.8733709
9.121                0.953422583     -75.9936797
9.122                0.953309842     -76.1142995
9.123                0.953196764     -76.2352314
9.124                0.953083349     -76.3564762
9.125                0.952969596      -76.478035
9.126                0.952855504     -76.5999087
9.127                0.952741073     -76.7220984
9.128                0.952626301      -76.844605
9.129                0.952511188     -76.9674295
9.13                 0.952395734     -77.0905729
9.131                0.952279937     -77.2140362
9.132                0.952163797     -77.3378204
9.133                0.952047313     -77.4619265
9.134                0.951930484     -77.5863555
9.135                 0.95181331     -77.7111084
9.136                 0.95169579     -77.8361862
9.137                0.951577923       -77.96159
9.138                0.951459709     -78.0873207
9.139                0.951341147     -78.2133793
9.14                 0.951222236      -78.339767
9.141                0.951102976     -78.4664846
9.142                0.950983366     -78.5935332
9.143                0.950863405     -78.7209138
9.144                0.950743092     -78.8486275
9.145                0.950622428     -78.9766753
9.146                0.950501411     -79.1050583
9.147                 0.95038004     -79.2337774
9.148                0.950258316     -79.3628336
9.149                0.950136236     -79.4922281
9.15                 0.950013802     -79.6219619
9.151                0.949891012      -79.752036
9.152                0.949767865     -79.8824514
9.153                0.949644362     -80.0132092
9.154                0.949520501     -80.1443105
9.155                0.949396281     -80.2757563
9.156                0.949271703     -80.4075476
9.157                0.949146765     -80.5396855
9.158                0.949021467     -80.6721711
9.159                0.948895809     -80.8050055
9.16                  0.94876979     -80.9381896
9.161                0.948643409     -81.0717245
9.162                0.948516666     -81.2056114
9.163                 0.94838956     -81.3398513
9.164                0.948262091     -81.4744452
9.165                0.948134258     -81.6093942
9.166                0.948006061     -81.7446995
9.167                  0.9478775      -81.880362
9.168                0.947748573     -82.0163828
9.169                 0.94761928     -82.1527631
9.17                 0.947489621     -82.2895039
9.171                0.947359595     -82.4266063
9.172                0.947229202     -82.5640713
9.173                0.947098442     -82.7019001
9.174                0.946967313     -82.8400938
9.175                0.946835816     -82.9786534
9.176                0.946703951     -83.1175801
9.177                0.946571716     -83.2568749
9.178                0.946439111     -83.3965389
9.179                0.946306136     -83.5365732
9.18                 0.946172791     -83.6769789
9.181                0.946039074     -83.8177572
9.182                0.945904987     -83.9589091
9.183                0.945770528     -84.1004357
9.184                0.945635697     -84.2423381
9.185                0.945500494     -84.3846175
9.186                0.945364918     -84.5272749
9.187                 0.94522897     -84.6703115
9.188                0.945092648     -84.8137284
9.189                0.944955953     -84.9575266
9.19                 0.944818884     -85.1017073
9.191                0.944681441     -85.2462716
9.192                0.944543624     -85.3912207
9.193                0.944405433     -85.5365556
9.194                0.944266867     -85.6822774
9.195                0.944127926     -85.8283873
9.196                0.943988609     -85.9748865
9.197                0.943848918     -86.1217759
9.198                0.943708851     -86.2690568
9.199                0.943568408     -86.4167303
9.2                   0.94342759     -86.5647975
9.201                0.943286396     -86.7132595
9.202                0.943144826     -86.8621175
9.203                0.943002879     -87.0113725
9.204                0.942860557     -87.1610258
9.205                0.942717858     -87.3110784
9.206                0.942574783     -87.4615315
9.207                0.942431331     -87.6123862
9.208                0.942287503     -87.7636437
9.209                0.942143298      -87.915305
9.21                 0.941998717     -88.0673713
9.211                 0.94185376     -88.2198438
9.212                0.941708426     -88.3727235
9.213                0.941562716     -88.5260117
9.214                0.941416629     -88.6797095
9.215                0.941270167     -88.8338179
9.216                0.941123328     -88.9883382
9.217                0.940976113     -89.1432714
9.218                0.940828522     -89.2986187
9.219                0.940680556     -89.4543813
9.22                 0.940532214     -89.6105603
9.221                0.940383496     -89.7671568
9.222                0.940234403      -89.924172
9.223                0.940084936      -90.081607
9.224                0.939935093     -90.2394629
9.225                0.939784877     -90.3977409
9.226                0.939634285     -90.5564421
9.227                 0.93948332     -90.7155677
9.228                0.939331982     -90.8751188
9.229                 0.93918027     -91.0350966
9.23                 0.939028185     -91.1955021
9.231                0.938875728     -91.3563366
9.232                0.938722898     -91.5176011
9.233                0.938569697     -91.6792968
9.234                0.938416124     -91.8414249
9.235                0.938262181     -92.0039864
9.236                0.938107867     -92.1669825
9.237                0.937953183     -92.3304144
9.238                 0.93779813     -92.4942832
9.239                0.937642708       -92.65859
9.24                 0.937486918     -92.8233359
9.241                 0.93733076     -92.9885221
9.242                0.937174236     -93.1541497
9.243                0.937017344     -93.3202199
9.244                0.936860087     -93.4867338
9.245                0.936702465     -93.6536924
9.246                0.936544478      -93.821097
9.247                0.936386128     -93.9889486
9.248                0.936227414     -94.1572484
9.249                0.936068339     -94.3259976
9.25                 0.935908902     -94.4951971
9.251                0.935749105     -94.6648482
9.252                0.935588948      -94.834952
9.253                0.935428432     -95.0055095
9.254                0.935267559      -95.176522
9.255                0.935106328     -95.3479904
9.256                0.934944741      -95.519916
9.257                0.934782799     -95.6922998
9.258                0.934620504      -95.865143
9.259                0.934457855     -96.0384466
9.26                 0.934294854     -96.2122118
9.261                0.934131503     -96.3864396
9.262                0.933967801     -96.5611312
9.263                0.933803751     -96.7362876
9.264                0.933639354     -96.9119099
9.265                0.933474611     -97.0879993
9.266                0.933309522     -97.2645568
9.267                 0.93314409     -97.4415836
9.268                0.932978315     -97.6190806
9.269                  0.9328122     -97.7970489
9.27                 0.932645744     -97.9754898
9.271                0.932478951     -98.1544041
9.272                 0.93231182     -98.3337931
9.273                0.932144354     -98.5136577
9.274                0.931976553      -98.693999
9.275                0.931808421     -98.8748181
9.276                0.931639957      -99.056116
9.277                0.931471164     -99.2378939
9.278                0.931302043     -99.4201527
9.279                0.931132596     -99.6028935
9.28                 0.930962824     -99.7861173
9.281                 0.93079273     -99.9698252
9.282                0.930622315     -100.154018
9.283                 0.93045158     -100.338697
9.284                0.930280528     -100.523864
9.285                 0.93010916     -100.709518
9.286                0.929937479     -100.895662
9.287                0.929765486     -101.082296
9.288                0.929593183     -101.269421
9.289                0.929420572     -101.457038
9.29                 0.929247655     -101.645149
9.291                0.929074434     -101.833753
9.292                0.928900912     -102.022853
9.293                 0.92872709     -102.212449
9.294                0.928552971     -102.402543
9.295                0.928378556     -102.593134
9.296                0.928203848     -102.784225
9.297                 0.92802885     -102.975815
9.298                0.927853564     -103.167907
9.299                0.927677991       -103.3605
9.3                  0.927502135     -103.553597
9.301                0.927325997     -103.747197
9.302                0.927149581     -103.941302
9.303                0.926972889     -104.135913
9.304                0.926795923      -104.33103
9.305                0.926618686     -104.526655
9.306                0.926441181     -104.722788
9.307                 0.92626341      -104.91943
9.308                0.926085376     -105.116583
9.309                0.925907082     -105.314247
9.31                 0.925728531     -105.512423
9.311                0.925549724     -105.711111
9.312                0.925370667     -105.910314
9.313                 0.92519136     -106.110031
9.314                0.925011808     -106.310263
9.315                0.924832013     -106.511011
9.316                0.924651978     -106.712277
9.317                0.924471707      -106.91406
9.318                0.924291202     -107.116362
9.319                0.924110467     -107.319184
9.32                 0.923929505     -107.522526
9.321                 0.92374832     -107.726389
9.322                0.923566914     -107.930774
9.323                0.923385291     -108.135681
9.324                0.923203454     -108.341112
9.325                0.923021407     -108.547067
9.326                0.922839154     -108.753547
9.327                0.922656698     -108.960552
9.328                0.922474042     -109.168084
9.329                0.922291191     -109.376143
9.33                 0.922108147      -109.58473
9.331                0.921924915     -109.793845
9.332                0.921741499     -110.003489
9.333                0.921557902     -110.213663
9.334                0.921374128     -110.424367
9.335                0.921190181     -110.635603
9.336                0.921006066      -110.84737
9.337                0.920821785      -111.05967
9.338                0.920637344     -111.272503
9.339                0.920452747     -111.485869
9.34                 0.920267996      -111.69977
9.341                0.920083098     -111.914205
9.342                0.919898056     -112.129176
9.343                0.919712874     -112.344682
9.344                0.919527557     -112.560726
9.345                 0.91934211     -112.777306
9.346                0.919156536     -112.994423
9.347                 0.91897084     -113.212079
9.348                0.918785028     -113.430273
9.349                0.918599103     -113.649007
9.35                  0.91841307     -113.868279
9.351                0.918226934     -114.088092
9.352                  0.9180407     -114.308445
9.353                0.917854372     -114.529339
9.354                0.917667956     -114.750775
9.355                0.917481456     -114.972752
9.356                0.917294878     -115.195271
9.357                0.917108226     -115.418332
9.358                0.916921506     -115.641936
9.359                0.916734723     -115.866084
9.36                 0.916547881     -116.090775
9.361                0.916360987     -116.316009
9.362                0.916174045     -116.541788
9.363                0.915987062     -116.768111
9.364                0.915800041     -116.994979
9.365                 0.91561299     -117.222392
9.366                0.915425912      -117.45035
9.367                0.915238815     -117.678853
9.368                0.915051703     -117.907902
9.369                0.914864583     -118.137497
9.37                 0.914677459     -118.367638
9.371                0.914490338     -118.598325
9.372                0.914303226     -118.829558
9.373                0.914116128     -119.061338
9.374                0.913929051     -119.293664
9.375                   0.913742     -119.526537
9.376                0.913554982     -119.759957
9.377                0.913368002     -119.993923
9.378                0.913181068     -120.228437
9.379                0.912994184     -120.463497
9.38                 0.912807357     -120.699103
9.381                0.912620594     -120.935257
9.382                0.912433901     -121.171958
9.383                0.912247285     -121.409205
9.384                0.912060751     -121.646999
9.385                0.911874307      -121.88534
9.386                0.911687959     -122.124227
9.387                0.911501713      -122.36366
9.388                0.911315577      -122.60364
9.389                0.911129556     -122.844165
9.39                 0.910943659     -123.085237
9.391                0.910757891     -123.326854
9.392                 0.91057226     -123.569017
9.393                0.910386773     -123.811725
9.394                0.910201436     -124.054978
9.395                0.910016257     -124.298776
9.396                0.909831242     -124.543118
