! TOUCHSTONE file generated by CST DESIGN STUDIO
! Date and time: Tue Feb  4 17:15:00 2025
! Project name: C:\Work\MatlabApps\UnitCellOptimizationMatlab\CST\unitcell.cst
! Tree item: Tasks\Sweep1\SPara1\S-Parameters
! Header version: 2024
! Port assignment regex: !\s*Touchstone port\s*([0-9]+)\s*=\s*(CST MWS port|CST DES external port|CST DES block port)\s*(.+)\s* \(\"(.*)\"\)(\s*mode\s*([0-9]+))?.*
! Touchstone port assignment:
! Touchstone port 1 = CST DES external port 1 ("")
# GHz S MA R 50
9                    0.966115771     -60.0425246
9.001                0.966044676     -60.1247409
9.002                0.965973364     -60.2071477
9.003                0.965901833     -60.2897457
9.004                0.965830084     -60.3725353
9.005                0.965758115     -60.4555173
9.006                0.965685926     -60.5386921
9.007                0.965613515     -60.6220605
9.008                0.965540883     -60.7056231
9.009                0.965468028     -60.7893804
9.01                  0.96539495      -60.873333
9.011                0.965321648     -60.9574817
9.012                0.965248121     -61.0418269
9.013                0.965174369     -61.1263694
9.014                0.965100391     -61.2111098
9.015                0.965026185     -61.2960486
9.016                0.964951751     -61.3811866
9.017                 0.96487709     -61.4665243
9.018                0.964802198     -61.5520624
9.019                0.964727077     -61.6378015
9.02                 0.964651725     -61.7237422
9.021                0.964576142     -61.8098853
9.022                0.964500326     -61.8962313
9.023                0.964424277     -61.9827809
9.024                0.964347994     -62.0695347
9.025                0.964271477     -62.1564934
9.026                0.964194724     -62.2436576
9.027                0.964117735     -62.3310281
9.028                 0.96404051     -62.4186053
9.029                0.963963046     -62.5063901
9.03                 0.963885344      -62.594383
9.031                0.963807403     -62.6825848
9.032                0.963729222     -62.7709961
9.033                  0.9636508     -62.8596175
9.034                0.963572136     -62.9484497
9.035                0.963493231     -63.0374935
9.036                0.963414082     -63.1267494
9.037                0.963334689     -63.2162182
9.038                0.963255051     -63.3059005
9.039                0.963175168     -63.3957971
9.04                 0.963095038     -63.4859085
9.041                0.963014662     -63.5762356
9.042                0.962934037     -63.6667789
9.043                0.962853164     -63.7575392
9.044                0.962772042     -63.8485171
9.045                0.962690669     -63.9397134
9.046                0.962609045     -64.0311287
9.047                0.962527169     -64.1227639
9.048                0.962445041     -64.2146194
9.049                0.962362659     -64.3066962
9.05                 0.962280022     -64.3989948
9.051                0.962197131     -64.4915159
9.052                0.962113984     -64.5842604
9.053                 0.96203058     -64.6772289
9.054                0.961946918     -64.7704221
9.055                0.961862998     -64.8638408
9.056                0.961778819     -64.9574857
9.057                 0.96169438     -65.0513574
9.058                0.961609681     -65.1454568
9.059                0.961524719     -65.2397845
9.06                 0.961439496     -65.3343413
9.061                0.961354009     -65.4291279
9.062                0.961268258      -65.524145
9.063                0.961182242     -65.6193935
9.064                 0.96109596      -65.714874
9.065                0.961009412     -65.8105873
9.066                0.960922596     -65.9065341
9.067                0.960835512     -66.0027152
9.068                 0.96074816     -66.0991313
9.069                0.960660537     -66.1957832
9.07                 0.960572644     -66.2926716
9.071                0.960484479     -66.3897974
9.072                0.960396042     -66.4871612
9.073                0.960307332     -66.5847638
9.074                0.960218347     -66.6826061
9.075                0.960129088     -66.7806887
9.076                0.960039554     -66.8790124
9.077                0.959949742      -66.977578
9.078                0.959859654     -67.0763863
9.079                0.959769287     -67.1754381
9.08                 0.959678641     -67.2747342
9.081                0.959587715     -67.3742753
9.082                0.959496509     -67.4740622
9.083                0.959405021     -67.5740957
9.084                0.959313251     -67.6743766
9.085                0.959221197     -67.7749057
9.086                 0.95912886     -67.8756838
9.087                0.959036237     -67.9767117
9.088                0.958943329     -68.0779902
9.089                0.958850134     -68.1795201
9.09                 0.958756652     -68.2813022
9.091                0.958662882     -68.3833373
9.092                0.958568822     -68.4856263
9.093                0.958474472       -68.58817
9.094                0.958379832      -68.690969
9.095                  0.9582849     -68.7940244
9.096                0.958189675     -68.8973369
9.097                0.958094157     -69.0009074
9.098                0.957998345     -69.1047366
9.099                0.957902238     -69.2088254
9.1                  0.957805835     -69.3131746
9.101                0.957709135     -69.4177851
9.102                0.957612138     -69.5226578
9.103                0.957514842     -69.6277933
9.104                0.957417247     -69.7331927
9.105                0.957319351     -69.8388567
9.106                0.957221155     -69.9447862
9.107                0.957122657     -70.0509821
9.108                0.957023857     -70.1574451
9.109                0.956924752     -70.2641762
9.11                 0.956825344     -70.3711763
9.111                 0.95672563     -70.4784461
9.112                 0.95662561     -70.5859865
9.113                0.956525284     -70.6937985
9.114                0.956424649     -70.8018828
9.115                0.956323706     -70.9102404
9.116                0.956222454     -71.0188722
9.117                0.956120891     -71.1277789
9.118                0.956019018     -71.2369616
9.119                0.955916832      -71.346421
9.12                 0.955814334     -71.4561581
9.121                0.955711522     -71.5661738
9.122                0.955608395     -71.6764689
9.123                0.955504954     -71.7870443
9.124                0.955401196      -71.897901
9.125                0.955297121     -72.0090398
9.126                0.955192729     -72.1204617
9.127                0.955088017     -72.2321675
9.128                0.954982987     -72.3441581
9.129                0.954877636     -72.4564346
9.13                 0.954771964     -72.5689977
9.131                 0.95466597     -72.6818484
9.132                0.954559654     -72.7949876
9.133                0.954453014     -72.9084162
9.134                0.954346049     -73.0221352
9.135                0.954238759     -73.1361455
9.136                0.954131144      -73.250448
9.137                0.954023201     -73.3650436
9.138                0.953914931     -73.4799333
9.139                0.953806332     -73.5951181
9.14                 0.953697404     -73.7105988
9.141                0.953588146     -73.8263764
9.142                0.953478557     -73.9424518
9.143                0.953368637      -74.058826
9.144                0.953258384        -74.1755
9.145                0.953147797     -74.2924746
9.146                0.953036877     -74.4097509
9.147                0.952925622     -74.5273298
9.148                0.952814031     -74.6452123
9.149                0.952702103     -74.7633993
9.15                 0.952589839     -74.8818918
9.151                0.952477236     -75.0006908
9.152                0.952364295     -75.1197972
9.153                0.952251014      -75.239212
9.154                0.952137392     -75.3589362
9.155                 0.95202343     -75.4789707
9.156                0.951909125     -75.5993166
9.157                0.951794478     -75.7199748
9.158                0.951679488     -75.8409464
9.159                0.951564154     -75.9622322
9.16                 0.951448474     -76.0838333
9.161                0.951332449     -76.2057508
9.162                0.951216078     -76.3279855
9.163                0.951099359     -76.4505385
9.164                0.950982292     -76.5734107
9.165                0.950864877     -76.6966033
9.166                0.950747113     -76.8201172
9.167                0.950628998     -76.9439533
9.168                0.950510533     -77.0681128
9.169                0.950391716     -77.1925966
9.17                 0.950272547     -77.3174058
9.171                0.950153025     -77.4425413
9.172                 0.95003315     -77.5680042
9.173                 0.94991292     -77.6937956
9.174                0.949792335     -77.8199163
9.175                0.949671394     -77.9463676
9.176                0.949550098     -78.0731503
9.177                0.949428444     -78.2002656
9.178                0.949306432     -78.3277144
9.179                0.949184062     -78.4554978
9.18                 0.949061333     -78.5836169
9.181                0.948938244     -78.7120726
9.182                0.948814794     -78.8408661
9.183                0.948690984     -78.9699984
9.184                0.948566812     -79.0994705
9.185                0.948442278     -79.2292835
9.186                0.948317381     -79.3594384
9.187                0.948192121     -79.4899364
9.188                0.948066496     -79.6207783
9.189                0.947940507     -79.7519654
9.19                 0.947814152     -79.8834987
9.191                0.947687432     -80.0153792
9.192                0.947560345      -80.147608
9.193                0.947432891     -80.2801862
9.194                0.947305069     -80.4131149
9.195                0.947176879     -80.5463951
9.196                 0.94704832     -80.6800278
9.197                0.946919393     -80.8140143
9.198                0.946790095     -80.9483556
9.199                0.946660427     -81.0830526
9.2                  0.946530388     -81.2181067
9.201                0.946399977     -81.3535187
9.202                0.946269195     -81.4892898
9.203                 0.94613804     -81.6254212
9.204                0.946006513     -81.7619138
9.205                0.945874612     -81.8987688
9.206                0.945742337     -82.0359873
9.207                0.945609688     -82.1735704
9.208                0.945476664     -82.3115192
9.209                0.945343265     -82.4498347
9.21                  0.94520949     -82.5885182
9.211                0.945075339     -82.7275706
9.212                0.944940812     -82.8669932
9.213                0.944805908     -83.0067869
9.214                0.944670627      -83.146953
9.215                0.944534968     -83.2874925
9.216                0.944398931     -83.4284066
9.217                0.944262515     -83.5696963
9.218                0.944125721     -83.7113629
9.219                0.943988548     -83.8534073
9.22                 0.943850995     -83.9958308
9.221                0.943713063     -84.1386344
9.222                 0.94357475     -84.2818193
9.223                0.943436058     -84.4253867
9.224                0.943296984     -84.5693375
9.225                 0.94315753      -84.713673
9.226                0.943017695     -84.8583943
9.227                0.942877478     -85.0035026
9.228                 0.94273688     -85.1489989
9.229                  0.9425959     -85.2948843
9.23                 0.942454537     -85.4411602
9.231                0.942312793     -85.5878274
9.232                0.942170666     -85.7348873
9.233                0.942028157      -85.882341
9.234                0.941885264     -86.0301895
9.235                0.941741989      -86.178434
9.236                0.941598331     -86.3270758
9.237                 0.94145429     -86.4761158
9.238                0.941309866     -86.6255553
9.239                0.941165058     -86.7753955
9.24                 0.941019867     -86.9256373
9.241                0.940874292     -87.0762821
9.242                0.940728334      -87.227331
9.243                0.940581993      -87.378785
9.244                0.940435268     -87.5306454
9.245                0.940288159     -87.6829133
9.246                0.940140667     -87.8355899
9.247                0.939992792     -87.9886763
9.248                0.939844533     -88.1421736
9.249                0.939695891     -88.2960831
9.25                 0.939546866     -88.4504058
9.251                0.939397458      -88.605143
9.252                0.939247667     -88.7602958
9.253                0.939097493     -88.9158653
9.254                0.938946936     -89.0718527
9.255                0.938795997     -89.2282592
9.256                0.938644676     -89.3850859
9.257                0.938492972      -89.542334
9.258                0.938340887     -89.7000046
9.259                 0.93818842     -89.8580989
9.26                 0.938035572      -90.016618
9.261                0.937882343     -90.1755632
9.262                0.937728733     -90.3349355
9.263                0.937574743     -90.4947362
9.264                0.937420372     -90.6549663
9.265                0.937265623      -90.815627
9.266                0.937110493     -90.9767196
9.267                0.936954986     -91.1382451
9.268                0.936799099     -91.3002047
9.269                0.936642835     -91.4625996
9.27                 0.936486193     -91.6254309
9.271                0.936329175     -91.7886998
9.272                 0.93617178     -91.9524074
9.273                0.936014009      -92.116555
9.274                0.935855863     -92.2811435
9.275                0.935697342     -92.4461743
9.276                0.935538447     -92.6116484
9.277                0.935379178      -92.777567
9.278                0.935219537     -92.9439312
9.279                0.935059524     -93.1107423
9.28                 0.934899139     -93.2780013
9.281                0.934738383     -93.4457094
9.282                0.934577258     -93.6138677
9.283                0.934415763     -93.7824775
9.284                  0.9342539     -93.9515397
9.285                 0.93409167     -94.1210557
9.286                0.933929073     -94.2910264
9.287                 0.93376611     -94.4614531
9.288                0.933602782     -94.6323369
9.289                0.933439091     -94.8036789
9.29                 0.933275036     -94.9754803
9.291                 0.93311062     -95.1477421
9.292                0.932945843     -95.3204656
9.293                0.932780706     -95.4936519
9.294                 0.93261521      -95.667302
9.295                0.932449356     -95.8414171
9.296                0.932283146     -96.0159983
9.297                 0.93211658     -96.1910468
9.298                0.931949661     -96.3665637
9.299                0.931782388       -96.54255
9.3                  0.931614763     -96.7190069
9.301                0.931446789     -96.8959355
9.302                0.931278465     -97.0733369
9.303                0.931109793     -97.2512122
9.304                0.930940775     -97.4295625
9.305                0.930771411      -97.608389
9.306                0.930601705     -97.7876926
9.307                0.930431656     -97.9674745
9.308                0.930261266     -98.1477359
9.309                0.930090538     -98.3284777
9.31                 0.929919472      -98.509701
9.311                 0.92974807      -98.691407
9.312                0.929576334     -98.8735967
9.313                0.929404265     -99.0562711
9.314                0.929231866     -99.2394314
9.315                0.929059137     -99.4230787
9.316                0.928886081     -99.6072139
9.317                0.928712699     -99.7918381
9.318                0.928538993     -99.9769524
9.319                0.928364966     -100.162558
9.32                 0.928190618     -100.348655
9.321                0.928015953     -100.535246
9.322                0.927840972     -100.722331
9.323                0.927665676     -100.909912
9.324                0.927490069     -101.097988
9.325                0.927314151     -101.286562
9.326                0.927137926     -101.475634
9.327                0.926961396     -101.665206
9.328                0.926784562     -101.855278
9.329                0.926607427     -102.045851
9.33                 0.926429993     -102.236927
9.331                0.926252263     -102.428506
9.332                0.926074238     -102.620589
9.333                0.925895922     -102.813177
9.334                0.925717316     -103.006272
9.335                0.925538424     -103.199874
9.336                0.925359247     -103.393984
9.337                0.925179789     -103.588603
9.338                0.925000052     -103.783733
9.339                0.924820038     -103.979373
9.34                  0.92463975     -104.175525
9.341                0.924459191      -104.37219
9.342                0.924278364     -104.569369
9.343                0.924097272     -104.767063
9.344                0.923915917     -104.965272
9.345                0.923734302     -105.163998
9.346                0.923552431     -105.363241
9.347                0.923370305     -105.563003
9.348                0.923187929     -105.763283
9.349                0.923005306     -105.964084
9.35                 0.922822438     -106.165405
9.351                0.922639328     -106.367248
9.352                0.922455981     -106.569614
9.353                0.922272399     -106.772503
9.354                0.922088585     -106.975917
9.355                0.921904542     -107.179855
9.356                0.921720276     -107.384319
9.357                0.921535787      -107.58931
9.358                0.921351081     -107.794829
9.359                0.921166161     -108.000875
9.36                 0.920981029     -108.207451
9.361                0.920795691     -108.414556
9.362                0.920610149     -108.622192
9.363                0.920424408     -108.830359
9.364                0.920238471     -109.039059
9.365                0.920052341     -109.248291
9.366                0.919866024     -109.458056
9.367                0.919679522     -109.668355
9.368                 0.91949284      -109.87919
9.369                0.919305981      -110.09056
9.37                 0.919118951     -110.302466
9.371                0.918931752     -110.514909
9.372                0.918744389     -110.727889
9.373                0.918556867     -110.941407
9.374                0.918369189     -111.155465
9.375                0.918181361     -111.370061
9.376                0.917993385     -111.585198
9.377                0.917805268     -111.800875
9.378                0.917617012     -112.017094
9.379                0.917428624     -112.233854
9.38                 0.917240106     -112.451157
9.381                0.917051465     -112.669002
9.382                0.916862704     -112.887391
9.383                0.916673829     -113.106323
9.384                0.916484844       -113.3258
9.385                0.916295755     -113.545822
9.386                0.916106565     -113.766389
9.387                 0.91591728     -113.987502
9.388                0.915727905     -114.209161
9.389                0.915538445     -114.431367
9.39                 0.915348905      -114.65412
9.391                0.915159291     -114.877421
9.392                0.914969607      -115.10127
9.393                0.914779858     -115.325666
9.394                0.914590051     -115.550612
9.395                0.914400191     -115.776107
9.396                0.914210282     -116.002151
