! TOUCHSTONE file generated by CST DESIGN STUDIO
! Date and time: Tue Feb  4 17:15:06 2025
! Project name: C:\Work\MatlabApps\UnitCellOptimizationMatlab\CST\unitcell.cst
! Tree item: Tasks\Sweep1\SPara1\S-Parameters
! Header version: 2024
! Port assignment regex: !\s*Touchstone port\s*([0-9]+)\s*=\s*(CST MWS port|CST DES external port|CST DES block port)\s*(.+)\s* \(\"(.*)\"\)(\s*mode\s*([0-9]+))?.*
! Touchstone port assignment:
! Touchstone port 1 = CST DES external port 1 ("")
# GHz S MA R 50
9                    0.969980215     -50.2401817
9.001                0.969928506     -50.3042695
9.002                 0.96987664     -50.3684922
9.003                0.969824615     -50.4328502
9.004                0.969772432      -50.497344
9.005                 0.96972009     -50.5619739
9.006                0.969667589     -50.6267403
9.007                0.969614928     -50.6916438
9.008                0.969562106     -50.7566846
9.009                0.969509122     -50.8218633
9.01                 0.969455978     -50.8871803
9.011                 0.96940267     -50.9526358
9.012                0.969349201     -51.0182305
9.013                0.969295567     -51.0839647
9.014                 0.96924177     -51.1498389
9.015                0.969187809     -51.2158534
9.016                0.969133682     -51.2820087
9.017                 0.96907939     -51.3483053
9.018                0.969024932     -51.4147435
9.019                0.968970307     -51.4813239
9.02                 0.968915515     -51.5480468
9.021                0.968860555     -51.6149126
9.022                0.968805426     -51.6819219
9.023                0.968750129     -51.7490751
9.024                0.968694662     -51.8163726
9.025                0.968639025     -51.8838148
9.026                0.968583217     -51.9514023
9.027                0.968527238     -52.0191354
9.028                0.968471086     -52.0870146
9.029                0.968414763     -52.1550404
9.03                 0.968358266     -52.2232131
9.031                0.968301596     -52.2915333
9.032                0.968244752     -52.3600015
9.033                0.968187732      -52.428618
9.034                0.968130538     -52.4973834
9.035                0.968073167     -52.5662981
9.036                 0.96801562     -52.6353625
9.037                0.967957895     -52.7045771
9.038                0.967899993     -52.7739425
9.039                0.967841912      -52.843459
9.04                 0.967783652     -52.9131272
9.041                0.967725212     -52.9829475
9.042                0.967666592     -53.0529203
9.043                0.967607792     -53.1230462
9.044                 0.96754881     -53.1933257
9.045                0.967489645     -53.2637591
9.046                0.967430298     -53.3343471
9.047                0.967370768       -53.40509
9.048                0.967311054     -53.4759884
9.049                0.967251155     -53.5470427
9.05                  0.96719107     -53.6182535
9.051                  0.9671308     -53.6896212
9.052                0.967070344     -53.7611463
9.053                  0.9670097     -53.8328293
9.054                0.966948869     -53.9046708
9.055                0.966887849     -53.9766711
9.056                 0.96682664     -54.0488308
9.057                0.966765241     -54.1211505
9.058                0.966703653     -54.1936305
9.059                0.966641873     -54.2662715
9.06                 0.966579901     -54.3390738
9.061                0.966517737     -54.4120381
9.062                0.966455381     -54.4851648
9.063                 0.96639283     -54.5584544
9.064                0.966330086     -54.6319076
9.065                0.966267146     -54.7055246
9.066                0.966204011     -54.7793062
9.067                 0.96614068     -54.8532528
9.068                0.966077151     -54.9273649
9.069                0.966013426      -55.001643
9.07                 0.965949502     -55.0760877
9.071                0.965885379     -55.1506996
9.072                0.965821056      -55.225479
9.073                0.965756533     -55.3004267
9.074                 0.96569181      -55.375543
9.075                0.965626884     -55.4508285
9.076                0.965561756     -55.5262838
9.077                0.965496426     -55.6019095
9.078                0.965430891     -55.6777059
9.079                0.965365153     -55.7536738
9.08                 0.965299209     -55.8298135
9.081                0.965233059     -55.9061258
9.082                0.965166703     -55.9826111
9.083                 0.96510014     -56.0592699
9.084                0.965033369     -56.1361029
9.085                 0.96496639     -56.2131106
9.086                0.964899201     -56.2902935
9.087                0.964831802     -56.3676522
9.088                0.964764192     -56.4451872
9.089                0.964696372     -56.5228992
9.09                 0.964628339     -56.6007887
9.091                0.964560093     -56.6788562
9.092                0.964491634     -56.7571023
9.093                 0.96442296     -56.8355276
9.094                0.964354071     -56.9141327
9.095                0.964284967     -56.9929181
9.096                0.964215647     -57.0718844
9.097                0.964146109     -57.1510322
9.098                0.964076353     -57.2303621
9.099                0.964006379     -57.3098747
9.1                  0.963936185     -57.3895705
9.101                0.963865771     -57.4694501
9.102                0.963795137     -57.5495142
9.103                0.963724281     -57.6297632
9.104                0.963653202     -57.7101979
9.105                0.963581901     -57.7908187
9.106                0.963510376     -57.8716264
9.107                0.963438626     -57.9526215
9.108                0.963366651     -58.0338045
9.109                 0.96329445     -58.1151762
9.11                 0.963222022     -58.1967371
9.111                0.963149366     -58.2784878
9.112                0.963076482     -58.3604289
9.113                0.963003369     -58.4425611
9.114                0.962930027      -58.524885
9.115                0.962856453     -58.6074011
9.116                0.962782648     -58.6901102
9.117                0.962708612     -58.7730127
9.118                0.962634342     -58.8561095
9.119                0.962559838      -58.939401
9.12                   0.9624851     -59.0228879
9.121                0.962410127     -59.1065708
9.122                0.962334918     -59.1904504
9.123                0.962259472     -59.2745273
9.124                0.962183788     -59.3588022
9.125                0.962107866     -59.4432756
9.126                0.962031705     -59.5279483
9.127                0.961955304     -59.6128209
9.128                0.961878662      -59.697894
9.129                0.961801778     -59.7831682
9.13                 0.961724653     -59.8686443
9.131                0.961647284     -59.9543228
9.132                0.961569671     -60.0402045
9.133                0.961491813       -60.12629
9.134                 0.96141371       -60.21258
9.135                0.961335361      -60.299075
9.136                0.961256764     -60.3857759
9.137                0.961177919     -60.4726832
9.138                0.961098826     -60.5597977
9.139                0.961019483     -60.6471199
9.14                  0.96093989     -60.7346506
9.141                0.960860045     -60.8223905
9.142                0.960779949     -60.9103403
9.143                0.960699599     -60.9985005
9.144                0.960618996     -61.0868719
9.145                0.960538138     -61.1754553
9.146                0.960457025     -61.2642512
9.147                0.960375656     -61.3532604
9.148                 0.96029403     -61.4424836
9.149                0.960212146     -61.5319215
9.15                 0.960130004     -61.6215747
9.151                0.960047602      -61.711444
9.152                0.959964939     -61.8015301
9.153                0.959882016     -61.8918337
9.154                 0.95979883     -61.9823555
9.155                0.959715382     -62.0730962
9.156                 0.95963167     -62.1640566
9.157                0.959547693     -62.2552372
9.158                0.959463451      -62.346639
9.159                0.959378943     -62.4382625
9.16                 0.959294168     -62.5301086
9.161                0.959209125     -62.6221779
9.162                0.959123813     -62.7144712
9.163                0.959038231     -62.8069892
9.164                0.958952379     -62.8997326
9.165                0.958866256     -62.9927022
9.166                 0.95877986     -63.0858988
9.167                0.958693192      -63.179323
9.168                0.958606249     -63.2729756
9.169                0.958519032     -63.3668574
9.17                 0.958431539     -63.4609692
9.171                0.958343769     -63.5553115
9.172                0.958255722     -63.6498854
9.173                0.958167397     -63.7446914
9.174                0.958078793     -63.8397303
9.175                0.957989908      -63.935003
9.176                0.957900743     -64.0305101
9.177                0.957811296     -64.1262525
9.178                0.957721567      -64.222231
9.179                0.957631554     -64.3184462
9.18                 0.957541256      -64.414899
9.181                0.957450674     -64.5115902
9.182                0.957359805     -64.6085205
9.183                0.957268649     -64.7056907
9.184                0.957177205     -64.8031017
9.185                0.957085473     -64.9007541
9.186                0.956993451     -64.9986489
9.187                0.956901138     -65.0967867
9.188                0.956808534     -65.1951685
9.189                0.956715637      -65.293795
9.19                 0.956622448     -65.3926669
9.191                0.956528964     -65.4917852
9.192                0.956435185     -65.5911506
9.193                 0.95634111      -65.690764
9.194                0.956246739     -65.7906261
9.195                 0.95615207     -65.8907378
9.196                0.956057102     -65.9910999
9.197                0.955961835     -66.0917132
9.198                0.955866267     -66.1925785
9.199                0.955770399     -66.2936967
9.2                  0.955674228     -66.3950687
9.201                0.955577754     -66.4966952
9.202                0.955480976      -66.598577
9.203                0.955383893     -66.7007151
9.204                0.955286505     -66.8031103
9.205                 0.95518881     -66.9057634
9.206                0.955090807     -67.0086752
9.207                0.954992496     -67.1118467
9.208                0.954893876     -67.2152786
9.209                0.954794945     -67.3189719
9.21                 0.954695704     -67.4229273
9.211                 0.95459615     -67.5271459
9.212                0.954496283     -67.6316283
9.213                0.954396103     -67.7363756
9.214                0.954295607     -67.8413885
9.215                0.954194796     -67.9466679
9.216                0.954093669     -68.0522148
9.217                0.953992224     -68.1580299
9.218                0.953890461     -68.2641143
9.219                0.953788378     -68.3704687
9.22                 0.953685976      -68.477094
9.221                0.953583252     -68.5839913
9.222                0.953480207     -68.6911612
9.223                0.953376838     -68.7986048
9.224                0.953273146      -68.906323
9.225                0.953169129     -69.0143166
9.226                0.953064787     -69.1225866
9.227                0.952960118     -69.2311338
9.228                0.952855122     -69.3399592
9.229                0.952749798     -69.4490637
9.23                 0.952644144     -69.5584482
9.231                0.952538161     -69.6681137
9.232                0.952431846      -69.778061
9.233                  0.9523252     -69.8882911
9.234                0.952218221     -69.9988049
9.235                0.952110908     -70.1096033
9.236                0.952003261     -70.2206873
9.237                0.951895279     -70.3320579
9.238                 0.95178696     -70.4437159
9.239                0.951678304     -70.5556623
9.24                 0.951569311     -70.6678981
9.241                0.951459978     -70.7804242
9.242                0.951350305     -70.8932415
9.243                0.951240292     -71.0063511
9.244                0.951129937     -71.1197538
9.245                 0.95101924     -71.2334507
9.246                0.950908199     -71.3474427
9.247                0.950796814     -71.4617307
9.248                0.950685084     -71.5763158
9.249                0.950573008     -71.6911988
9.25                 0.950460585     -71.8063809
9.251                0.950347815      -71.921863
9.252                0.950234696     -72.0376459
9.253                0.950121228     -72.1537309
9.254                0.950007409     -72.2701187
9.255                0.949893239     -72.3868105
9.256                0.949778717     -72.5038071
9.257                0.949663843     -72.6211097
9.258                0.949548615     -72.7387192
9.259                0.949433032     -72.8566366
9.26                 0.949317093     -72.9748629
9.261                0.949200799     -73.0933991
9.262                0.949084147     -73.2122463
9.263                0.948967138     -73.3314054
9.264                0.948849769     -73.4508774
9.265                0.948732041     -73.5706635
9.266                0.948613953     -73.6907645
9.267                0.948495504     -73.8111816
9.268                0.948376692     -73.9319158
9.269                0.948257518      -74.052968
9.27                 0.948137979     -74.1743394
9.271                0.948018077     -74.2960309
9.272                0.947897809     -74.4180436
9.273                0.947777175     -74.5403786
9.274                0.947656173     -74.6630369
9.275                0.947534805     -74.7860195
9.276                0.947413067     -74.9093275
9.277                0.947290961      -75.032962
9.278                0.947168484     -75.1569239
9.279                0.947045637     -75.2812144
9.28                 0.946922418     -75.4058346
9.281                0.946798826     -75.5307854
9.282                0.946674861      -75.656068
9.283                0.946550523     -75.7816834
9.284                 0.94642581     -75.9076327
9.285                0.946300721      -76.033917
9.286                0.946175256     -76.1605374
9.287                0.946049414     -76.2874949
9.288                0.945923195     -76.4147906
9.289                0.945796597     -76.5424257
9.29                  0.94566962     -76.6704011
9.291                0.945542264      -76.798718
9.292                0.945414526     -76.9273776
9.293                0.945286408     -77.0563808
9.294                0.945157908     -77.1857288
9.295                0.945029025     -77.3154227
9.296                0.944899758     -77.4454636
9.297                0.944770108     -77.5758526
9.298                0.944640073     -77.7065908
9.299                0.944509653     -77.8376794
9.3                  0.944378847     -77.9691194
9.301                0.944247654     -78.1009119
9.302                0.944116074     -78.2330582
9.303                0.943984106     -78.3655593
9.304                0.943851749     -78.4984163
9.305                0.943719004     -78.6316304
9.306                0.943585868     -78.7652027
9.307                0.943452342     -78.8991344
9.308                0.943318425     -79.0334265
9.309                0.943184117     -79.1680802
9.31                 0.943049416     -79.3030967
9.311                0.942914323     -79.4384771
9.312                0.942778837     -79.5742225
9.313                0.942642956     -79.7103341
9.314                0.942506681     -79.8468131
9.315                0.942370012     -79.9836606
9.316                0.942232946     -80.1208777
9.317                0.942095485     -80.2584657
9.318                0.941957627     -80.3964256
9.319                0.941819373     -80.5347587
9.32                 0.941680721      -80.673466
9.321                 0.94154167     -80.8125489
9.322                0.941402222     -80.9520083
9.323                0.941262374     -81.0918456
9.324                0.941122128     -81.2320619
9.325                0.940981481     -81.3726584
9.326                0.940840434     -81.5136362
9.327                0.940698987     -81.6549965
9.328                0.940557138     -81.7967405
9.329                0.940414888     -81.9388694
9.33                 0.940272237     -82.0813844
9.331                0.940129183     -82.2242866
9.332                0.939985727     -82.3675773
9.333                0.939841867     -82.5112577
9.334                0.939697605     -82.6553289
9.335                0.939552939     -82.7997921
9.336                0.939407869     -82.9446486
9.337                0.939262395     -83.0898995
9.338                0.939116517      -83.235546
9.339                0.938970233     -83.3815894
9.34                 0.938823545     -83.5280308
9.341                0.938676452     -83.6748715
9.342                0.938528953     -83.8221127
9.343                0.938381049     -83.9697555
9.344                0.938232739     -84.1178012
9.345                0.938084023      -84.266251
9.346                  0.9379349     -84.4151062
9.347                0.937785372     -84.5643678
9.348                0.937635437     -84.7140372
9.349                0.937485095     -84.8641156
9.35                 0.937334346     -85.0146042
9.351                0.937183191     -85.1655042
9.352                0.937031629     -85.3168168
9.353                 0.93687966     -85.4685433
9.354                0.936727284     -85.6206849
9.355                  0.9365745     -85.7732428
9.356                 0.93642131     -85.9262182
9.357                0.936267713     -86.0796124
9.358                0.936113709     -86.2334266
9.359                0.935959298     -86.3876621
9.36                  0.93580448       -86.54232
9.361                0.935649255     -86.6974017
9.362                0.935493623     -86.8529082
9.363                0.935337585      -87.008841
9.364                 0.93518114     -87.1652011
9.365                0.935024289     -87.3219899
9.366                0.934867032     -87.4792086
9.367                0.934709369     -87.6368584
9.368                  0.9345513     -87.7949406
9.369                0.934392825     -87.9534564
9.37                 0.934233945      -88.112407
9.371                0.934074661     -88.2717938
9.372                0.933914971     -88.4316178
9.373                0.933754877     -88.5918804
9.374                0.933594379     -88.7525829
9.375                0.933433478     -88.9137264
9.376                0.933272173     -89.0753121
9.377                0.933110465     -89.2373415
9.378                0.932948355     -89.3998156
9.379                0.932785842     -89.5627357
9.38                 0.932622928     -89.7261031
9.381                0.932459613     -89.8899191
9.382                0.932295898     -90.0541848
9.383                0.932131782     -90.2189014
9.384                0.931967267     -90.3840704
9.385                0.931802353     -90.5496928
9.386                 0.93163704     -90.7157699
9.387                0.931471331      -90.882303
9.388                0.931305224     -91.0492933
9.389                0.931138721     -91.2167421
9.39                 0.930971822     -91.3846505
9.391                0.930804528     -91.5530199
9.392                0.930636841     -91.7218515
9.393                 0.93046876     -91.8911464
9.394                0.930300287      -92.060906
9.395                0.930131422     -92.2311315
9.396                0.929962166     -92.4018241
