! TOUCHSTONE file generated by CST DESIGN STUDIO
! Date and time: Tue Feb  4 17:15:04 2025
! Project name: C:\Work\MatlabApps\UnitCellOptimizationMatlab\CST\unitcell.cst
! Tree item: Tasks\Sweep1\SPara1\S-Parameters
! Header version: 2024
! Port assignment regex: !\s*Touchstone port\s*([0-9]+)\s*=\s*(CST MWS port|CST DES external port|CST DES block port)\s*(.+)\s* \(\"(.*)\"\)(\s*mode\s*([0-9]+))?.*
! Touchstone port assignment:
! Touchstone port 1 = CST DES external port 1 ("")
# GHz S MA R 50
9                    0.968704754     -53.4361281
9.001                0.968646748     -53.5057245
9.002                0.968588566     -53.5754725
9.003                0.968530207     -53.6453727
9.004                0.968471672     -53.7154256
9.005                0.968412959     -53.7856315
9.006                0.968354067      -53.855991
9.007                0.968294997     -53.9265046
9.008                0.968235747     -53.9971727
9.009                0.968176317     -54.0679958
9.01                 0.968116706     -54.1389744
9.011                0.968056914      -54.210109
9.012                 0.96799694        -54.2814
9.013                0.967936783      -54.352848
9.014                0.967876443     -54.4244534
9.015                0.967815919     -54.4962167
9.016                0.967755211     -54.5681385
9.017                0.967694317     -54.6402191
9.018                0.967633238     -54.7124592
9.019                0.967571972     -54.7848591
9.02                 0.967510519     -54.8574195
9.021                0.967448879     -54.9301407
9.022                0.967387051     -55.0030234
9.023                0.967325033     -55.0760679
9.024                0.967262826     -55.1492749
9.025                0.967200428     -55.2226447
9.026                 0.96713784      -55.296178
9.027                 0.96707506     -55.3698753
9.028                0.967012088      -55.443737
9.029                0.966948923     -55.5177636
9.03                 0.966885565     -55.5919557
9.031                0.966822012     -55.6663139
9.032                0.966758265     -55.7408385
9.033                0.966694322     -55.8155302
9.034                0.966630183     -55.8903895
9.035                0.966565847     -55.9654168
9.036                0.966501314     -56.0406128
9.037                0.966436582     -56.1159779
9.038                0.966371652     -56.1915128
9.039                0.966306522     -56.2672178
9.04                 0.966241192     -56.3430936
9.041                0.966175661     -56.4191407
9.042                0.966109929     -56.4953596
9.043                0.966043994     -56.5717509
9.044                0.965977856     -56.6483151
9.045                0.965911515     -56.7250528
9.046                0.965844969     -56.8019644
9.047                0.965778219     -56.8790507
9.048                0.965711262     -56.9563121
9.049                  0.9656441     -57.0337491
9.05                  0.96557673     -57.1113623
9.051                0.965509152     -57.1891524
9.052                0.965441366     -57.2671197
9.053                0.965373371      -57.345265
9.054                0.965305166     -57.4235887
9.055                 0.96523675     -57.5020915
9.056                0.965168123     -57.5807738
9.057                0.965099284     -57.6596364
9.058                0.965030232     -57.7386796
9.059                0.964960966     -57.8179042
9.06                 0.964891487     -57.8973107
9.061                0.964821792     -57.9768996
9.062                0.964751882     -58.0566716
9.063                0.964681756     -58.1366272
9.064                0.964611412      -58.216767
9.065                0.964540851     -58.2970917
9.066                0.964470071     -58.3776017
9.067                0.964399072     -58.4582977
9.068                0.964327852     -58.5391802
9.069                0.964256412       -58.62025
9.07                 0.964184751     -58.7015075
9.071                0.964112867     -58.7829533
9.072                0.964040761     -58.8645882
9.073                 0.96396843     -58.9464126
9.074                0.963895875     -59.0284271
9.075                0.963823095     -59.1106325
9.076                0.963750089     -59.1930292
9.077                0.963676856      -59.275618
9.078                0.963603396     -59.3583993
9.079                0.963529707     -59.4413739
9.08                  0.96345579     -59.5245424
9.081                0.963381643     -59.6079053
9.082                0.963307265     -59.6914633
9.083                0.963232656     -59.7752171
9.084                0.963157815     -59.8591672
9.085                0.963082741     -59.9433143
9.086                0.963007433      -60.027659
9.087                0.962931891     -60.1122019
9.088                0.962856114     -60.1969437
9.089                0.962780101     -60.2818851
9.09                 0.962703851     -60.3670266
9.091                0.962627364     -60.4523689
9.092                0.962550639     -60.5379127
9.093                0.962473674     -60.6236585
9.094                 0.96239647     -60.7096072
9.095                0.962319025     -60.7957592
9.096                0.962241338     -60.8821153
9.097                 0.96216341     -60.9686761
9.098                0.962085238     -61.0554423
9.099                0.962006823     -61.1424145
9.1                  0.961928163     -61.2295934
9.101                0.961849258     -61.3169797
9.102                0.961770106      -61.404574
9.103                0.961690708     -61.4923771
9.104                0.961611061     -61.5803895
9.105                0.961531166      -61.668612
9.106                0.961451022     -61.7570452
9.107                0.961370627     -61.8456898
9.108                0.961289982     -61.9345466
9.109                0.961209084     -62.0236161
9.11                 0.961127934     -62.1128991
9.111                0.961046531     -62.2023963
9.112                0.960964873     -62.2921083
9.113                 0.96088296     -62.3820359
9.114                0.960800791     -62.4721797
9.115                0.960718365     -62.5625405
9.116                0.960635682      -62.653119
9.117                 0.96055274     -62.7439158
9.118                0.960469539     -62.8349317
9.119                0.960386078     -62.9261673
9.12                 0.960302357     -63.0176235
9.121                0.960218373     -63.1093008
9.122                0.960134127     -63.2012001
9.123                0.960049617      -63.293322
9.124                0.959964843     -63.3856673
9.125                0.959879804     -63.4782367
9.126                  0.9597945     -63.5710309
9.127                0.959708928     -63.6640506
9.128                0.959623089     -63.7572966
9.129                0.959536981     -63.8507697
9.13                 0.959450604     -63.9444705
9.131                0.959363957     -64.0383998
9.132                0.959277039     -64.1325583
9.133                 0.95918985     -64.2269468
9.134                0.959102387      -64.321566
9.135                0.959014651     -64.4164168
9.136                 0.95892664     -64.5114997
9.137                0.958838355     -64.6068157
9.138                0.958749793     -64.7023653
9.139                0.958660954     -64.7981495
9.14                 0.958571838      -64.894169
9.141                0.958482442     -64.9904245
9.142                0.958392767     -65.0869168
9.143                0.958302812     -65.1836467
9.144                0.958212576      -65.280615
9.145                0.958122057     -65.3778223
9.146                0.958031256     -65.4752696
9.147                 0.95794017     -65.5729575
9.148                  0.9578488      -65.670887
9.149                0.957757144     -65.7690587
9.15                 0.957665202     -65.8674734
9.151                0.957572972      -65.966132
9.152                0.957480455     -66.0650352
9.153                0.957387648     -66.1641838
9.154                0.957294551     -66.2635787
9.155                0.957201163     -66.3632206
9.156                0.957107484     -66.4631104
9.157                0.957013512     -66.5632488
9.158                0.956919247     -66.6636367
9.159                0.956824687     -66.7642748
9.16                 0.956729833      -66.865164
9.161                0.956634682     -66.9663052
9.162                0.956539234     -67.0676991
9.163                0.956443488     -67.1693465
9.164                0.956347444     -67.2712483
9.165                  0.9562511     -67.3734053
9.166                0.956154456     -67.4758184
9.167                 0.95605751     -67.5784884
9.168                0.955960262      -67.681416
9.169                0.955862711     -67.7846023
9.17                 0.955764856     -67.8880479
9.171                0.955666696     -67.9917538
9.172                0.955568231     -68.0957208
9.173                0.955469458     -68.1999497
9.174                0.955370379     -68.3044415
9.175                0.955270991     -68.4091969
9.176                0.955171293     -68.5142168
9.177                0.955071286     -68.6195021
9.178                0.954970967     -68.7250537
9.179                0.954870337     -68.8308723
9.18                 0.954769394      -68.936959
9.181                0.954668137     -69.0433145
9.182                0.954566565     -69.1499398
9.183                0.954464679     -69.2568357
9.184                0.954362475     -69.3640031
9.185                0.954259955     -69.4714429
9.186                0.954157117      -69.579156
9.187                0.954053959     -69.6871432
9.188                0.953950482     -69.7954055
9.189                0.953846684     -69.9039437
9.19                 0.953742565     -70.0127588
9.191                0.953638123     -70.1218517
9.192                0.953533358     -70.2312232
9.193                0.953428268     -70.3408743
9.194                0.953322854     -70.4508059
9.195                0.953217114     -70.5610188
9.196                0.953111046     -70.6715141
9.197                0.953004652     -70.7822926
9.198                0.952897928     -70.8933552
9.199                0.952790875     -71.0047029
9.2                  0.952683492     -71.1163366
9.201                0.952575778     -71.2282573
9.202                0.952467731     -71.3404658
9.203                0.952359352     -71.4529631
9.204                0.952250639     -71.5657501
9.205                0.952141592     -71.6788278
9.206                0.952032209     -71.7921971
9.207                0.951922489      -71.905859
9.208                0.951812433     -72.0198144
9.209                0.951702038     -72.1340643
9.21                 0.951591305     -72.2486096
9.211                0.951480232     -72.3634513
9.212                0.951368818     -72.4785903
9.213                0.951257063     -72.5940277
9.214                0.951144966     -72.7097643
9.215                0.951032525     -72.8258011
9.216                0.950919741     -72.9421392
9.217                0.950806611     -73.0587794
9.218                0.950693137     -73.1757228
9.219                0.950579315     -73.2929704
9.22                 0.950465147     -73.4105231
9.221                 0.95035063     -73.5283819
9.222                0.950235765     -73.6465478
9.223                0.950120549     -73.7650218
9.224                0.950004983     -73.8838049
9.225                0.949889066     -74.0028981
9.226                0.949772797     -74.1223023
9.227                0.949656174     -74.2420187
9.228                0.949539198     -74.3620481
9.229                0.949421867     -74.4823917
9.23                 0.949304181     -74.6030503
9.231                0.949186139     -74.7240251
9.232                0.949067739      -74.845317
9.233                0.948948982     -74.9669271
9.234                0.948829866     -75.0888564
9.235                0.948710391     -75.2111058
9.236                0.948590556     -75.3336765
9.237                 0.94847036     -75.4565695
9.238                0.948349802     -75.5797858
9.239                0.948228882     -75.7033264
9.24                 0.948107599     -75.8271923
9.241                0.947985951     -75.9513847
9.242                0.947863939     -76.0759045
9.243                0.947741562     -76.2007529
9.244                0.947618818     -76.3259307
9.245                0.947495708     -76.4514392
9.246                 0.94737223     -76.5772793
9.247                0.947248383     -76.7034522
9.248                0.947124168     -76.8299588
9.249                0.946999582     -76.9568002
9.25                 0.946874627     -77.0839775
9.251                0.946749299     -77.2114918
9.252                  0.9466236     -77.3393441
9.253                0.946497529     -77.4675356
9.254                0.946371084     -77.5960672
9.255                0.946244265       -77.72494
9.256                0.946117071     -77.8541552
9.257                0.945989503     -77.9837138
9.258                0.945861558     -78.1136169
9.259                0.945733236     -78.2438656
9.26                 0.945604537      -78.374461
9.261                0.945475461     -78.5054041
9.262                0.945346006     -78.6366962
9.263                0.945216171     -78.7683381
9.264                0.945085957     -78.9003312
9.265                0.944955362     -79.0326764
9.266                0.944824386     -79.1653748
9.267                0.944693029     -79.2984277
9.268                0.944561289      -79.431836
9.269                0.944429167     -79.5656009
9.27                 0.944296661     -79.6997236
9.271                0.944163771      -79.834205
9.272                0.944030497     -79.9690464
9.273                0.943896838     -80.1042489
9.274                0.943762793     -80.2398135
9.275                0.943628362     -80.3757415
9.276                0.943493544     -80.5120339
9.277                0.943358339     -80.6486919
9.278                0.943222746     -80.7857166
9.279                0.943086765     -80.9231091
9.28                 0.942950396     -81.0608706
9.281                0.942813637     -81.1990022
9.282                0.942676489     -81.3375051
9.283                 0.94253895     -81.4763803
9.284                0.942401021     -81.6156291
9.285                0.942262702     -81.7552526
9.286                 0.94212399     -81.8952519
9.287                0.941984887     -82.0356282
9.288                0.941845392     -82.1763826
9.289                0.941705504     -82.3175164
9.29                 0.941565223     -82.4590305
9.291                0.941424548     -82.6009263
9.292                 0.94128348     -82.7432049
9.293                0.941142018     -82.8858674
9.294                0.941000162      -83.028915
9.295                 0.94085791     -83.1723488
9.296                0.940715264     -83.3161701
9.297                0.940572222     -83.4603799
9.298                0.940428784     -83.6049796
9.299                0.940284951     -83.7499701
9.3                  0.940140721     -83.8953528
9.301                0.939996095     -84.0411288
9.302                0.939851072     -84.1872993
9.303                0.939705652     -84.3338654
9.304                0.939559836     -84.4808283
9.305                0.939413621     -84.6281893
9.306                 0.93926701     -84.7759494
9.307                    0.93912     -84.9241099
9.308                0.938972593      -85.072672
9.309                0.938824788     -85.2216368
9.31                 0.938676585     -85.3710056
9.311                0.938527983     -85.5207795
9.312                0.938378983     -85.6709598
9.313                0.938229585     -85.8215476
9.314                0.938079788      -85.972544
9.315                0.937929593     -86.1239504
9.316                0.937778999     -86.2757679
9.317                0.937628007     -86.4279977
9.318                0.937476617      -86.580641
9.319                0.937324827      -86.733699
9.32                  0.93717264     -86.8871729
9.321                0.937020053     -87.0410639
9.322                0.936867069     -87.1953732
9.323                0.936713686      -87.350102
9.324                0.936559905     -87.5052516
9.325                0.936405726      -87.660823
9.326                0.936251149     -87.8168176
9.327                0.936096175     -87.9732365
9.328                0.935940803     -88.1300809
9.329                0.935785033      -88.287352
9.33                 0.935628867     -88.4450512
9.331                0.935472303     -88.6031794
9.332                0.935315343     -88.7617381
9.333                0.935157986     -88.9207283
9.334                0.935000234     -89.0801512
9.335                0.934842086     -89.2400082
9.336                0.934683542     -89.4003004
9.337                0.934524603      -89.561029
9.338                 0.93436527     -89.7221952
9.339                0.934205542     -89.8838002
9.34                 0.934045421     -90.0458453
9.341                0.933884906     -90.2083316
9.342                0.933723999     -90.3712604
9.343                0.933562699     -90.5346328
9.344                0.933401007     -90.6984501
9.345                0.933238924     -90.8627135
9.346                 0.93307645     -91.0274242
9.347                0.932913586     -91.1925834
9.348                0.932750332     -91.3581923
9.349                0.932586689     -91.5242521
9.35                 0.932422658      -91.690764
9.351                 0.93225824     -91.8577292
9.352                0.932093435      -92.025149
9.353                0.931928243     -92.1930245
9.354                0.931762666      -92.361357
9.355                0.931596705     -92.5301475
9.356                 0.93143036     -92.6993975
9.357                0.931263632     -92.8691079
9.358                0.931096522     -93.0392801
9.359                 0.93092903     -93.2099152
9.36                 0.930761159     -93.3810145
9.361                0.930592908     -93.5525791
9.362                0.930424279     -93.7246102
9.363                0.930255273      -93.897109
9.364                 0.93008589     -94.0700767
9.365                0.929916132     -94.2435145
9.366                0.929746001     -94.4174236
9.367                0.929575496     -94.5918051
9.368                0.929404619     -94.7666603
9.369                0.929233372     -94.9419903
9.37                 0.929061755     -95.1177963
9.371                0.928889771     -95.2940794
9.372                0.928717419      -95.470841
9.373                0.928544702      -95.648082
9.374                 0.92837162     -95.8258038
9.375                0.928198176     -96.0040074
9.376                 0.92802437      -96.182694
9.377                0.927850205     -96.3618648
9.378                 0.92767568      -96.541521
9.379                0.927500799     -96.7216637
9.38                 0.927325562      -96.902294
9.381                0.927149972     -97.0834131
9.382                0.926974029     -97.2650222
9.383                0.926797735     -97.4471224
9.384                0.926621093     -97.6297149
9.385                0.926444103     -97.8128007
9.386                0.926266767      -97.996381
9.387                0.926089088     -98.1804569
9.388                0.925911067     -98.3650296
9.389                0.925732706     -98.5501002
9.39                 0.925554007     -98.7356698
9.391                0.925374971     -98.9217396
9.392                0.925195602     -99.1083105
9.393                  0.9250159     -99.2953838
9.394                0.924835868     -99.4829606
9.395                0.924655507     -99.6710418
9.396                0.924474821     -99.8596287
