! TOUCHSTONE file generated by CST DESIGN STUDIO
! Date and time: Tue Feb  4 12:20:46 2025
! Project name: C:\Work\MatlabApps\UnitCellOptimizationMatlab\CST\unitcell.cst
! Tree item: Tasks\Sweep1\SPara1\S-Parameters
! Header version: 2024
! Port assignment regex: !\s*Touchstone port\s*([0-9]+)\s*=\s*(CST MWS port|CST DES external port|CST DES block port)\s*(.+)\s* \(\"(.*)\"\)(\s*mode\s*([0-9]+))?.*
! Touchstone port assignment:
! Touchstone port 1 = CST DES external port 1 ("")
# GHz S MA R 50
9                    0.989254998     -76.8243683
9.001                 0.98922913     -76.9396443
9.002                0.989203186     -77.0552002
9.003                0.989177164     -77.1710368
9.004                0.989151065     -77.2871549
9.005                0.989124889     -77.4035554
9.006                0.989098635     -77.5202389
9.007                0.989072304     -77.6372065
9.008                0.989045895     -77.7544588
9.009                0.989019408     -77.8719968
9.01                 0.988992843     -77.9898212
9.011                  0.9889662     -78.1079328
9.012                0.988939478     -78.2263325
9.013                0.988912678     -78.3450212
9.014                0.988885799     -78.4639995
9.015                0.988858841     -78.5832685
9.016                0.988831805     -78.7028289
9.017                0.988804689     -78.8226815
9.018                0.988777493     -78.9428272
9.019                0.988750218     -79.0632669
9.02                 0.988722864     -79.1840013
9.021                0.988695429     -79.3050313
9.022                0.988667915     -79.4263578
9.023                0.988640321     -79.5479815
9.024                0.988612646     -79.6699034
9.025                0.988584891     -79.7921243
9.026                0.988557056     -79.9146451
9.027                 0.98852914     -80.0374666
9.028                0.988501143     -80.1605896
9.029                0.988473065      -80.284015
9.03                 0.988444906     -80.4077437
9.031                0.988416665     -80.5317765
9.032                0.988388344     -80.6561143
9.033                 0.98835994     -80.7807579
9.034                0.988331455     -80.9057082
9.035                0.988302889     -81.0309661
9.036                 0.98827424     -81.1565325
9.037                 0.98824551     -81.2824082
9.038                0.988216697      -81.408594
9.039                0.988187802     -81.5350909
9.04                 0.988158824     -81.6618997
9.041                0.988129764     -81.7890212
9.042                0.988100621     -81.9164565
9.043                0.988071395     -82.0442063
9.044                0.988042086     -82.1722715
9.045                0.988012695      -82.300653
9.046                 0.98798322     -82.4293516
9.047                0.987953662     -82.5583684
9.048                 0.98792402      -82.687704
9.049                0.987894295     -82.8173595
9.05                 0.987864486     -82.9473357
9.051                0.987834593     -83.0776335
9.052                0.987804617     -83.2082537
9.053                0.987774556     -83.3391974
9.054                0.987744412     -83.4704653
9.055                0.987714183     -83.6020583
9.056                 0.98768387     -83.7339774
9.057                0.987653473     -83.8662234
9.058                0.987622991     -83.9987972
9.059                0.987592424     -84.1316998
9.06                 0.987561773      -84.264932
9.061                0.987531037     -84.3984947
9.062                0.987500216     -84.5323888
9.063                0.987469311     -84.6666152
9.064                 0.98743832     -84.8011749
9.065                0.987407244     -84.9360686
9.066                0.987376082     -85.0712974
9.067                0.987344836     -85.2068621
9.068                0.987313504     -85.3427637
9.069                0.987282087     -85.4790029
9.07                 0.987250584     -85.6155808
9.071                0.987218995     -85.7524983
9.072                0.987187321     -85.8897561
9.073                0.987155561     -86.0273554
9.074                0.987123716     -86.1652969
9.075                0.987091784     -86.3035816
9.076                0.987059767     -86.4422104
9.077                0.987027663     -86.5811842
9.078                0.986995474     -86.7205039
9.079                0.986963198     -86.8601704
9.08                 0.986930836     -87.0001846
9.081                0.986898388     -87.1405475
9.082                0.986865854       -87.28126
9.083                0.986833233     -87.4223229
9.084                0.986800527     -87.5637373
9.085                0.986767733     -87.7055039
9.086                0.986734854     -87.8476238
9.087                0.986701888     -87.9900978
9.088                0.986668835     -88.1329268
9.089                0.986635696     -88.2761119
9.09                 0.986602471     -88.4196538
9.091                0.986569159     -88.5635535
9.092                 0.98653576      -88.707812
9.093                0.986502275     -88.8524301
9.094                0.986468704     -88.9974087
9.095                0.986435045     -89.1427489
9.096                0.986401301     -89.2884514
9.097                0.986367469     -89.4345173
9.098                0.986333551     -89.5809474
9.099                0.986299547     -89.7277426
9.1                  0.986265455     -89.8749039
9.101                0.986231278     -90.0224322
9.102                0.986197013     -90.1703284
9.103                0.986162663     -90.3185935
9.104                0.986128225     -90.4672282
9.105                0.986093702     -90.6162337
9.106                0.986059091     -90.7656107
9.107                0.986024395     -90.9153602
9.108                0.985989612     -91.0654831
9.109                0.985954742     -91.2159804
9.11                 0.985919787     -91.3668529
9.111                0.985884745     -91.5181015
9.112                0.985849617     -91.6697273
9.113                0.985814402      -91.821731
9.114                0.985779102     -91.9741136
9.115                0.985743716     -92.1268761
9.116                0.985708243     -92.2800192
9.117                0.985672685      -92.433544
9.118                0.985637041     -92.5874514
9.119                0.985601311     -92.7417422
9.12                 0.985565496     -92.8964174
9.121                0.985529595     -93.0514779
9.122                0.985493608     -93.2069246
9.123                0.985457537     -93.3627583
9.124                 0.98542138     -93.5189801
9.125                0.985385137     -93.6755907
9.126                 0.98534881     -93.8325912
9.127                0.985312398     -93.9899824
9.128                0.985275901     -94.1477652
9.129                0.985239319     -94.3059405
9.13                 0.985202653     -94.4645092
9.131                0.985165902     -94.6234722
9.132                0.985129067     -94.7828305
9.133                0.985092148     -94.9425848
9.134                0.985055144     -95.1027361
9.135                0.985018057     -95.2632853
9.136                0.984980886     -95.4242333
9.137                0.984943632     -95.5855809
9.138                0.984906294     -95.7473291
9.139                0.984868873     -95.9094787
9.14                 0.984831369     -96.0720306
9.141                0.984793783     -96.2349857
9.142                0.984756113     -96.3983449
9.143                0.984718361      -96.562109
9.144                0.984680527      -96.726279
9.145                0.984642611     -96.8908556
9.146                0.984604613     -97.0558398
9.147                0.984566533     -97.2212325
9.148                0.984528372     -97.3870344
9.149                 0.98449013     -97.5532465
9.15                 0.984451807     -97.7198696
9.151                0.984413403     -97.8869046
9.152                0.984374918     -98.0543524
9.153                0.984336354     -98.2222137
9.154                0.984297709     -98.3904895
9.155                0.984258985     -98.5591805
9.156                0.984220181     -98.7282877
9.157                0.984181298     -98.8978119
9.158                0.984142337     -99.0677539
9.159                0.984103296     -99.2381145
9.16                 0.984064178     -99.4088946
9.161                0.984024981      -99.580095
9.162                0.983985707     -99.7517166
9.163                0.983946355     -99.9237601
9.164                0.983906927     -100.096226
9.165                0.983867421     -100.269116
9.166                0.983827839     -100.442431
9.167                0.983788181      -100.61617
9.168                0.983748448     -100.790336
9.169                0.983708639     -100.964928
9.17                 0.983668755     -101.139948
9.171                0.983628796     -101.315397
9.172                0.983588763     -101.491274
9.173                0.983548656     -101.667582
9.174                0.983508476     -101.844321
9.175                0.983468222     -102.021491
9.176                0.983427896     -102.199093
9.177                0.983387498     -102.377128
9.178                0.983347027     -102.555598
9.179                0.983306486     -102.734502
9.18                 0.983265873     -102.913841
9.181                0.983225189     -103.093616
9.182                0.983184436     -103.273829
9.183                0.983143613     -103.454479
9.184                 0.98310272     -103.635567
9.185                0.983061759     -103.817095
9.186                0.983020729     -103.999062
9.187                0.982979632      -104.18147
9.188                0.982938467     -104.364319
9.189                0.982897236      -104.54761
9.19                 0.982855938     -104.731344
9.191                0.982814575     -104.915521
9.192                0.982773146     -105.100142
9.193                0.982731652     -105.285208
9.194                0.982690094     -105.470719
9.195                0.982648473     -105.656677
9.196                0.982606789     -105.843081
9.197                0.982565042     -106.029933
9.198                0.982523233     -106.217233
9.199                0.982481362     -106.404982
9.2                  0.982439431      -106.59318
9.201                 0.98239744     -106.781828
9.202                0.982355389     -106.970927
9.203                 0.98231328     -107.160477
9.204                0.982271112     -107.350479
9.205                0.982228886     -107.540934
9.206                0.982186603     -107.731842
9.207                0.982144264     -107.923204
9.208                0.982101869      -108.11502
9.209                0.982059419     -108.307291
9.21                 0.982016915     -108.500017
9.211                0.981974357       -108.6932
9.212                0.981931746     -108.886839
9.213                0.981889082     -109.080936
9.214                0.981846367      -109.27549
9.215                0.981803602     -109.470502
9.216                0.981760786     -109.665974
9.217                0.981717921     -109.861905
9.218                0.981675007     -110.058295
9.219                0.981632045     -110.255147
9.22                 0.981589036     -110.452459
9.221                0.981545981     -110.650232
9.222                0.981502881     -110.848467
9.223                0.981459736     -111.047165
9.224                0.981416547     -111.246325
9.225                0.981373315     -111.445949
9.226                 0.98133004     -111.646037
9.227                0.981286725     -111.846588
9.228                0.981243368     -112.047605
9.229                0.981199972     -112.249086
9.23                 0.981156538     -112.451033
9.231                0.981113065     -112.653445
9.232                0.981069556     -112.856324
9.233                 0.98102601     -113.059669
9.234                0.980982429     -113.263482
9.235                0.980938814     -113.467761
9.236                0.980895165     -113.672509
9.237                0.980851484     -113.877724
9.238                0.980807771     -114.083408
9.239                0.980764028     -114.289561
9.24                 0.980720256     -114.496182
9.241                0.980676455     -114.703273
9.242                0.980632626     -114.910834
9.243                0.980588771     -115.118864
9.244                0.980544891     -115.327365
9.245                0.980500986     -115.536336
9.246                0.980457057     -115.745778
9.247                0.980413106      -115.95569
9.248                0.980369134     -116.166074
9.249                0.980325141     -116.376929
9.25                 0.980281129     -116.588256
9.251                0.980237099     -116.800055
9.252                0.980193053     -117.012325
9.253                 0.98014899     -117.225067
9.254                0.980104912     -117.438282
9.255                0.980060821     -117.651969
9.256                0.980016717     -117.866129
9.257                0.979972602     -118.080761
9.258                0.979928477     -118.295866
9.259                0.979884343     -118.511444
9.26                 0.979840201     -118.727495
9.261                0.979796052     -118.944019
9.262                0.979751898     -119.161015
9.263                 0.97970774     -119.378485
9.264                0.979663579     -119.596428
9.265                0.979619416     -119.814844
9.266                0.979575253     -120.033734
9.267                 0.97953109     -120.253096
9.268                 0.97948693     -120.472932
9.269                0.979442773      -120.69324
9.27                  0.97939862     -120.914022
9.271                0.979354474     -121.135276
9.272                0.979310335     -121.357003
9.273                0.979266204     -121.579203
9.274                0.979222083     -121.801876
9.275                0.979177974     -122.025021
9.276                0.979133878     -122.248639
9.277                0.979089795     -122.472728
9.278                0.979045728      -122.69729
9.279                0.979001677     -122.922324
9.28                 0.978957645     -123.147829
9.281                0.978913633     -123.373806
9.282                0.978869641     -123.600254
9.283                0.978825672     -123.827173
9.284                0.978781727     -124.054563
9.285                0.978737808     -124.282423
9.286                0.978693915     -124.510753
9.287                 0.97865005     -124.739553
9.288                0.978606216     -124.968823
9.289                0.978562412     -125.198561
9.29                 0.978518642     -125.428769
9.291                0.978474906     -125.659445
9.292                0.978431205     -125.890589
9.293                0.978387542       -126.1222
9.294                0.978343919     -126.354279
9.295                0.978300335     -126.586825
9.296                0.978256794     -126.819837
9.297                0.978213296     -127.053315
9.298                0.978169844     -127.287258
9.299                0.978126439     -127.521666
9.3                  0.978083082     -127.756538
9.301                0.978039775     -127.991874
9.302                0.977996519     -128.227674
9.303                0.977953318     -128.463935
9.304                0.977910171     -128.700659
9.305                0.977867081     -128.937845
9.306                0.977824049     -129.175491
9.307                0.977781077     -129.413597
9.308                0.977738167     -129.652163
9.309                 0.97769532     -129.891187
9.31                 0.977652538      -130.13067
9.311                0.977609823      -130.37061
9.312                0.977567177     -130.611007
9.313                0.977524601     -130.851859
9.314                0.977482097     -131.093166
9.315                0.977439667     -131.334928
9.316                0.977397312     -131.577143
9.317                0.977355034     -131.819811
9.318                0.977312836     -132.062931
9.319                0.977270718     -132.306501
9.32                 0.977228683     -132.550521
9.321                0.977186732     -132.794991
9.322                0.977144867     -133.039908
9.323                0.977103091     -133.285273
9.324                0.977061404     -133.531084
9.325                0.977019809      -133.77734
9.326                0.976978307     -134.024041
9.327                0.976936901     -134.271184
9.328                0.976895592      -134.51877
9.329                0.976854382     -134.766797
9.33                 0.976813273     -135.015263
9.331                0.976772266     -135.264169
9.332                0.976731364     -135.513512
9.333                0.976690569     -135.763292
9.334                0.976649882     -136.013507
9.335                0.976609306     -136.264156
9.336                0.976568841     -136.515238
9.337                0.976528491     -136.766752
9.338                0.976488257     -137.018697
9.339                0.976448141      -137.27107
9.34                 0.976408144     -137.523872
9.341                 0.97636827       -137.7771
9.342                0.976328519     -138.030753
9.343                0.976288893     -138.284831
9.344                0.976249396      -138.53933
9.345                0.976210027     -138.794251
9.346                0.976170791     -139.049591
9.347                0.976131687      -139.30535
9.348                 0.97609272     -139.561526
9.349                0.976053889     -139.818116
9.35                 0.976015198     -140.075121
9.351                0.975976648     -140.332537
9.352                0.975938241     -140.590364
9.353                 0.97589998     -140.848601
9.354                0.975861866     -141.107245
9.355                0.975823901     -141.366294
9.356                0.975786087     -141.625748
9.357                0.975748426     -141.885605
9.358                 0.97571092     -142.145862
9.359                0.975673572     -142.406519
9.36                 0.975636383     -142.667573
9.361                0.975599354     -142.929023
9.362                0.975562489     -143.190867
9.363                0.975525789     -143.453103
9.364                0.975489256     -143.715729
9.365                0.975452892     -143.978744
9.366                0.975416699     -144.242146
9.367                0.975380679     -144.505932
9.368                0.975344834     -144.770101
9.369                0.975309167     -145.034652
9.37                 0.975273678     -145.299581
9.371                 0.97523837     -145.564887
9.372                0.975203245     -145.830569
9.373                0.975168306     -146.096623
9.374                0.975133553     -146.363049
9.375                0.975098989     -146.629843
9.376                0.975064616     -146.897005
9.377                0.975030436     -147.164531
9.378                0.974996451      -147.43242
9.379                0.974962663      -147.70067
9.38                 0.974929074     -147.969278
9.381                0.974895685     -148.238243
9.382                0.974862499     -148.507561
9.383                0.974829518     -148.777231
9.384                0.974796744     -149.047251
9.385                0.974764178     -149.317619
9.386                0.974731823     -149.588331
9.387                 0.97469968     -149.859386
9.388                0.974667752     -150.130782
9.389                 0.97463604     -150.402515
9.39                 0.974604547     -150.674585
9.391                0.974573273     -150.946988
9.392                0.974542222     -151.219721
9.393                0.974511395     -151.492783
9.394                0.974480794     -151.766171
9.395                0.974450421     -152.039883
9.396                0.974420277     -152.313916
