! TOUCHSTONE file generated by CST DESIGN STUDIO
! Date and time: Tue Feb  4 14:06:47 2025
! Project name: C:\Work\MatlabApps\UnitCellOptimizationMatlab\CST\unitcell.cst
! Tree item: Tasks\Sweep1\SPara1\S-Parameters
! Header version: 2024
! Port assignment regex: !\s*Touchstone port\s*([0-9]+)\s*=\s*(CST MWS port|CST DES external port|CST DES block port)\s*(.+)\s* \(\"(.*)\"\)(\s*mode\s*([0-9]+))?.*
! Touchstone port assignment:
! Touchstone port 1 = CST DES external port 1 ("")
# GHz S MA R 50
9                    0.977577277     -76.9165183
9.001                0.977521754     -77.0344472
9.002                0.977466063     -77.1526695
9.003                0.977410205      -77.271186
9.004                0.977354179     -77.3899977
9.005                0.977297984     -77.5091053
9.006                 0.97724162     -77.6285099
9.007                0.977185087     -77.7482122
9.008                0.977128384     -77.8682131
9.009                0.977071511     -77.9885136
9.01                 0.977014468     -78.1091145
9.011                0.976957255     -78.2300167
9.012                 0.97689987     -78.3512211
9.013                0.976842315     -78.4727287
9.014                0.976784587     -78.5945402
9.015                0.976726687     -78.7166565
9.016                0.976668616     -78.8390787
9.017                0.976610371     -78.9618076
9.018                0.976551953      -79.084844
9.019                0.976493362      -79.208189
9.02                 0.976434598     -79.3318433
9.021                0.976375659      -79.455808
9.022                0.976316546     -79.5800839
9.023                0.976257258     -79.7046719
9.024                0.976197795      -79.829573
9.025                0.976138157      -79.954788
9.026                0.976078343     -80.0803179
9.027                0.976018353     -80.2061636
9.028                0.975958187      -80.332326
9.029                0.975897845      -80.458806
9.03                 0.975837325     -80.5856047
9.031                0.975776629     -80.7127228
9.032                0.975715754     -80.8401613
9.033                0.975654702     -80.9679212
9.034                0.975593472     -81.0960033
9.035                0.975532064     -81.2244087
9.036                0.975470476     -81.3531382
9.037                 0.97540871     -81.4821928
9.038                0.975346765     -81.6115734
9.039                 0.97528464      -81.741281
9.04                 0.975222335     -81.8713165
9.041                 0.97515985     -82.0016808
9.042                0.975097185     -82.1323749
9.043                0.975034339     -82.2633997
9.044                0.974971312     -82.3947562
9.045                0.974908104     -82.5264453
9.046                0.974844714      -82.658468
9.047                0.974781143     -82.7908253
9.048                 0.97471739      -82.923518
9.049                0.974653455     -83.0565471
9.05                 0.974589337     -83.1899137
9.051                0.974525037     -83.3236186
9.052                0.974460554     -83.4576627
9.053                0.974395887     -83.5920472
9.054                0.974331038     -83.7267729
9.055                0.974266004     -83.8618407
9.056                0.974200787     -83.9972517
9.057                0.974135386     -84.1330069
9.058                0.974069801     -84.2691071
9.059                0.974004031     -84.4055533
9.06                 0.973938077     -84.5423466
9.061                0.973871938     -84.6794878
9.062                0.973805613     -84.8169781
9.063                0.973739104     -84.9548182
9.064                0.973672409     -85.0930092
9.065                0.973605529     -85.2315521
9.066                0.973538462     -85.3704479
9.067                 0.97347121     -85.5096975
9.068                0.973403772     -85.6493019
9.069                0.973336148     -85.7892621
9.07                 0.973268337      -85.929579
9.071                 0.97320034     -86.0702536
9.072                0.973132156      -86.211287
9.073                0.973063785     -86.3526801
9.074                0.972995227     -86.4944339
9.075                0.972926482     -86.6365493
9.076                 0.97285755     -86.7790274
9.077                0.972788431     -86.9218691
9.078                0.972719124     -87.0650754
9.079                0.972649629     -87.2086474
9.08                 0.972579947     -87.3525859
9.081                0.972510078      -87.496892
9.082                 0.97244002     -87.6415667
9.083                0.972369775     -87.7866109
9.084                0.972299341     -87.9320257
9.085                 0.97222872      -88.077812
9.086                 0.97215791     -88.2239708
9.087                0.972086913     -88.3705031
9.088                0.972015727       -88.51741
9.089                0.971944353     -88.6646923
9.09                 0.971872791     -88.8123511
9.091                 0.97180104     -88.9603874
9.092                0.971729101     -89.1088021
9.093                0.971656974     -89.2575964
9.094                0.971584658      -89.406771
9.095                0.971512154     -89.5563271
9.096                0.971439462     -89.7062657
9.097                0.971366582     -89.8565877
9.098                0.971293513     -90.0072941
9.099                0.971220256     -90.1583859
9.1                  0.971146811     -90.3098641
9.101                0.971073178     -90.4617297
9.102                0.970999356     -90.6139837
9.103                0.970925347     -90.7666271
9.104                0.970851149     -90.9196608
9.105                0.970776764     -91.0730859
9.106                0.970702191     -91.2269034
9.107                 0.97062743     -91.3811142
9.108                0.970552482     -91.5357194
9.109                0.970477346     -91.6907198
9.11                 0.970402023     -91.8461166
9.111                0.970326513     -92.0019107
9.112                0.970250815     -92.1581031
9.113                0.970174931     -92.3146947
9.114                 0.97009886     -92.4716866
9.115                0.970022602     -92.6290798
9.116                0.969946158     -92.7868752
9.117                0.969869528     -92.9450738
9.118                0.969792711     -93.1036766
9.119                0.969715709     -93.2626846
9.12                 0.969638521     -93.4220988
9.121                0.969561148     -93.5819201
9.122                0.969483589     -93.7421495
9.123                0.969405846     -93.9027881
9.124                0.969327918     -94.0638367
9.125                0.969249806     -94.2252964
9.126                0.969171509     -94.3871681
9.127                0.969093029     -94.5494528
9.128                0.969014365     -94.7121515
9.129                0.968935519     -94.8752651
9.13                 0.968856489     -95.0387946
9.131                0.968777276      -95.202741
9.132                0.968697882     -95.3671053
9.133                0.968618305     -95.5318884
9.134                0.968538547     -95.6970912
9.135                0.968458608     -95.8627148
9.136                0.968378489       -96.02876
9.137                0.968298189     -96.1952279
9.138                0.968217709     -96.3621194
9.139                0.968137049     -96.5294354
9.14                 0.968056211      -96.697177
9.141                0.967975194     -96.8653449
9.142                0.967893998     -97.0339403
9.143                0.967812625      -97.202964
9.144                0.967731075      -97.372417
9.145                0.967649349     -97.5423002
9.146                0.967567446     -97.7126145
9.147                0.967485367     -97.8833609
9.148                0.967403114     -98.0545403
9.149                0.967320686     -98.2261537
9.15                 0.967238084     -98.3982019
9.151                0.967155308     -98.5706858
9.152                 0.96707236     -98.7436065
9.153                0.966989239     -98.9169648
9.154                0.966905947     -99.0907616
9.155                0.966822484     -99.2649979
9.156                0.966738851     -99.4396745
9.157                0.966655048     -99.6147923
9.158                0.966571076     -99.7903523
9.159                0.966486936     -99.9663553
9.16                 0.966402629     -100.142802
9.161                0.966318154     -100.319694
9.162                0.966233513     -100.497031
9.163                0.966148708     -100.674816
9.164                0.966063737     -100.853047
9.165                0.965978603     -101.031727
9.166                0.965893306     -101.210856
9.167                0.965807846     -101.390435
9.168                0.965722225     -101.570465
9.169                0.965636444     -101.750947
9.17                 0.965550503     -101.931881
9.171                0.965464404     -102.113269
9.172                0.965378146     -102.295111
9.173                0.965291732     -102.477408
9.174                0.965205161     -102.660162
9.175                0.965118435     -102.843372
9.176                0.965031556      -103.02704
9.177                0.964944523     -103.211166
9.178                0.964857338     -103.395751
9.179                0.964770001     -103.580797
9.18                 0.964682515     -103.766304
9.181                 0.96459488     -103.952272
9.182                0.964507096     -104.138702
9.183                0.964419166     -104.325596
9.184                 0.96433109     -104.512954
9.185                0.964242869     -104.700777
9.186                0.964154505     -104.889065
9.187                0.964065998     -105.077819
9.188                 0.96397735     -105.267041
9.189                0.963888562      -105.45673
9.19                 0.963799635     -105.646889
9.191                 0.96371057     -105.837516
9.192                0.963621369     -106.028613
9.193                0.963532033     -106.220182
9.194                0.963442563     -106.412221
9.195                0.963352961     -106.604733
9.196                0.963263227     -106.797718
9.197                0.963173364     -106.991176
9.198                0.963083372     -107.185109
9.199                0.962993253     -107.379517
9.2                  0.962903008       -107.5744
9.201                0.962812639      -107.76976
9.202                0.962722147     -107.965596
9.203                0.962631534      -108.16191
9.204                0.962540801     -108.358703
9.205                 0.96244995     -108.555974
9.206                0.962358981     -108.753725
9.207                0.962267898     -108.951956
9.208                  0.9621767     -109.150668
9.209                0.962085391     -109.349861
9.21                 0.961993971     -109.549537
9.211                0.961902442     -109.749694
9.212                0.961810806     -109.950335
9.213                0.961719064      -110.15146
9.214                0.961627218     -110.353069
9.215                 0.96153527     -110.555162
9.216                0.961443222     -110.757741
9.217                0.961351075     -110.960806
9.218                0.961258831     -111.164357
9.219                0.961166492     -111.368396
9.22                  0.96107406     -111.572921
9.221                0.960981536     -111.777935
9.222                0.960888922     -111.983437
9.223                0.960796222     -112.189428
9.224                0.960703435     -112.395908
9.225                0.960610564     -112.602878
9.226                0.960517612     -112.810338
9.227                 0.96042458     -113.018289
9.228                0.960331469     -113.226731
9.229                0.960238283     -113.435664
9.23                 0.960145024      -113.64509
9.231                0.960051692     -113.855007
9.232                0.959958291     -114.065418
9.233                0.959864823     -114.276321
9.234                0.959771289     -114.487718
9.235                0.959677692     -114.699609
9.236                0.959584034     -114.911993
9.237                0.959490317     -115.124872
9.238                0.959396544     -115.338246
9.239                0.959302716     -115.552115
9.24                 0.959208836     -115.766479
9.241                0.959114907     -115.981339
9.242                0.959020931     -116.196694
9.243                0.958926909     -116.412546
9.244                0.958832845     -116.628894
9.245                0.958738741     -116.845738
9.246                0.958644599     -117.063079
9.247                0.958550421     -117.280917
9.248                0.958456211     -117.499253
9.249                0.958361971     -117.718085
9.25                 0.958267703     -117.937415
9.251                0.958173409     -118.157243
9.252                0.958079093     -118.377568
9.253                0.957984757     -118.598391
9.254                0.957890403     -118.819712
9.255                0.957796035     -119.041531
9.256                0.957701655     -119.263848
9.257                0.957607265     -119.486664
9.258                0.957512868     -119.709977
9.259                0.957418468     -119.933789
9.26                 0.957324066     -120.158099
9.261                0.957229666     -120.382907
9.262                 0.95713527     -120.608214
9.263                0.957040882     -120.834018
9.264                0.956946504     -121.060321
9.265                0.956852139     -121.287122
9.266                 0.95675779     -121.514421
9.267                 0.95666346     -121.742217
9.268                0.956569151     -121.970512
9.269                0.956474868     -122.199304
9.27                 0.956380612     -122.428594
9.271                0.956286388     -122.658381
9.272                0.956192197     -122.888666
9.273                0.956098044     -123.119447
9.274                 0.95600393     -123.350725
9.275                 0.95590986       -123.5825
9.276                0.955815837     -123.814771
9.277                0.955721863     -124.047538
9.278                0.955627942     -124.280801
9.279                0.955534077      -124.51456
9.28                 0.955440271     -124.748813
9.281                0.955346528     -124.983562
9.282                0.955252851     -125.218805
9.283                0.955159244     -125.454542
9.284                0.955065709     -125.690773
9.285                0.954972249     -125.927498
9.286                 0.95487887     -126.164715
9.287                0.954785573     -126.402425
9.288                0.954692362     -126.640627
9.289                0.954599241      -126.87932
9.29                 0.954506213     -127.118505
9.291                0.954413281      -127.35818
9.292                 0.95432045     -127.598345
9.293                0.954227723        -127.839
9.294                0.954135103     -128.080143
9.295                0.954042594     -128.321775
9.296                0.953950199     -128.563895
9.297                0.953857923     -128.806502
9.298                0.953765768     -129.049595
9.299                0.953673739     -129.293174
9.3                  0.953581839     -129.537239
9.301                0.953490072     -129.781787
9.302                0.953398442     -130.026819
9.303                0.953306952     -130.272334
9.304                0.953215606     -130.518332
9.305                0.953124408      -130.76481
9.306                0.953033362     -131.011769
9.307                0.952942472     -131.259208
9.308                0.952851742     -131.507126
9.309                0.952761174     -131.755522
9.31                 0.952670774     -132.004395
9.311                0.952580546     -132.253744
9.312                0.952490492     -132.503568
9.313                0.952400617     -132.753866
9.314                0.952310926     -133.004638
9.315                0.952221422     -133.255882
9.316                0.952132108     -133.507598
9.317                 0.95204299     -133.759783
9.318                0.951954071     -134.012438
9.319                0.951865355     -134.265561
9.32                 0.951776846      -134.51915
9.321                0.951688549     -134.773206
9.322                0.951600467     -135.027726
9.323                0.951512605      -135.28271
9.324                0.951424966     -135.538156
9.325                0.951337555     -135.794063
9.326                0.951250376      -136.05043
9.327                0.951163434     -136.307256
9.328                0.951076731     -136.564538
9.329                0.950990273     -136.822277
9.33                 0.950904064      -137.08047
9.331                0.950818108     -137.339117
9.332                0.950732409     -137.598215
9.333                0.950646972     -137.857764
9.334                  0.9505618     -138.117762
9.335                0.950476898     -138.378207
9.336                0.950392271     -138.639099
9.337                0.950307922     -138.900435
9.338                0.950223856     -139.162214
9.339                0.950140077     -139.424435
9.34                 0.950056589     -139.687095
9.341                0.949973397     -139.950194
9.342                0.949890506      -140.21373
9.343                0.949807919     -140.477701
9.344                 0.94972564     -140.742105
9.345                0.949643675     -141.006941
9.346                0.949562028     -141.272207
9.347                0.949480702     -141.537901
9.348                0.949399703     -141.804022
9.349                0.949319034     -142.070568
9.35                   0.9492387     -142.337536
9.351                0.949158706     -142.604926
9.352                0.949079055     -142.872735
9.353                0.948999753     -143.140961
9.354                0.948920803     -143.409602
9.355                 0.94884221     -143.678658
9.356                0.948763979     -143.948124
9.357                0.948686113     -144.218001
9.358                0.948608617     -144.488285
9.359                0.948531496     -144.758974
9.36                 0.948454754     -145.030068
9.361                0.948378395     -145.301562
9.362                0.948302424     -145.573456
9.363                0.948226845     -145.845747
9.364                0.948151663     -146.118433
9.365                0.948076881     -146.391513
9.366                0.948002505     -146.664982
9.367                0.947928538     -146.938841
9.368                0.947854985     -147.213085
9.369                0.947781851     -147.487714
9.37                 0.947709139     -147.762725
9.371                0.947636854     -148.038114
9.372                0.947565001     -148.313881
9.373                0.947493584     -148.590023
9.374                0.947422606     -148.866537
9.375                0.947352073      -149.14342
9.376                0.947281989     -149.420672
9.377                0.947212357     -149.698288
9.378                0.947143183     -149.976267
9.379                0.947074471     -150.254606
9.38                 0.947006224     -150.533302
9.381                0.946938447     -150.812353
9.382                0.946871144     -151.091757
9.383                0.946804321     -151.371511
9.384                0.946737979     -151.651611
9.385                0.946672125     -151.932057
9.386                0.946606762     -152.212844
9.387                0.946541893      -152.49397
9.388                0.946477525     -152.775433
9.389                 0.94641366     -153.057229
9.39                 0.946350302     -153.339357
9.391                0.946287456     -153.621813
9.392                0.946225126     -153.904594
9.393                0.946163316     -154.187698
9.394                0.946102029     -154.471121
9.395                0.946041271     -154.754862
9.396                0.945981044     -155.038916
