! TOUCHSTONE file generated by CST DESIGN STUDIO
! Date and time: Tue Feb  4 14:06:50 2025
! Project name: C:\Work\MatlabApps\UnitCellOptimizationMatlab\CST\unitcell.cst
! Tree item: Tasks\Sweep1\SPara1\S-Parameters
! Header version: 2024
! Port assignment regex: !\s*Touchstone port\s*([0-9]+)\s*=\s*(CST MWS port|CST DES external port|CST DES block port)\s*(.+)\s* \(\"(.*)\"\)(\s*mode\s*([0-9]+))?.*
! Touchstone port assignment:
! Touchstone port 1 = CST DES external port 1 ("")
# GHz S MA R 50
9                    0.977963721     -73.1320563
9.001                 0.97791132     -73.2410879
9.002                 0.97785876     -73.3503869
9.003                0.977806042     -73.4599539
9.004                0.977753165     -73.5697898
9.005                0.977700128     -73.6798954
9.006                0.977646932     -73.7902715
9.007                0.977593576      -73.900919
9.008                0.977540059     -74.0118387
9.009                0.977486382     -74.1230313
9.01                 0.977432543     -74.2344978
9.011                0.977378542     -74.3462389
9.012                0.977324379     -74.4582555
9.013                0.977270054     -74.5705485
9.014                0.977215566     -74.6831186
9.015                0.977160915     -74.7959667
9.016                  0.9771061     -74.9090936
9.017                0.977051121     -75.0225002
9.018                0.976995978     -75.1361873
9.019                0.976940669     -75.2501557
9.02                 0.976885196     -75.3644064
9.021                0.976829557     -75.4789402
9.022                0.976773752     -75.5937578
9.023                0.976717781     -75.7088603
9.024                0.976661643     -75.8242483
9.025                0.976605338     -75.9399229
9.026                0.976548865     -76.0558848
9.027                0.976492225     -76.1721349
9.028                0.976435416     -76.2886741
9.029                0.976378439     -76.4055033
9.03                 0.976321293     -76.5226232
9.031                0.976263977     -76.6400349
9.032                0.976206492     -76.7577391
9.033                0.976148836     -76.8757367
9.034                0.976091011     -76.9940287
9.035                0.976033014     -77.1126158
9.036                0.975974846      -77.231499
9.037                0.975916507     -77.3506792
9.038                0.975857996     -77.4701572
9.039                0.975799312      -77.589934
9.04                 0.975740456     -77.7100103
9.041                0.975681427     -77.8303872
9.042                0.975622224     -77.9510655
9.043                0.975562848     -78.0720461
9.044                0.975503298     -78.1933299
9.045                0.975443574     -78.3149178
9.046                0.975383675     -78.4368106
9.047                  0.9753236     -78.5590094
9.048                0.975263351      -78.681515
9.049                0.975202926     -78.8043283
9.05                 0.975142324     -78.9274503
9.051                0.975081546     -79.0508817
9.052                0.975020592     -79.1746237
9.053                 0.97495946     -79.2986769
9.054                0.974898151     -79.4230425
9.055                0.974836665     -79.5477213
9.056                   0.974775     -79.6727141
9.057                0.974713157     -79.7980221
9.058                0.974651135      -79.923646
9.059                0.974588935     -80.0495867
9.06                 0.974526555     -80.1758453
9.061                0.974463995     -80.3024227
9.062                0.974401256     -80.4293197
9.063                0.974338336     -80.5565373
9.064                0.974275236     -80.6840765
9.065                0.974211955     -80.8119381
9.066                0.974148493     -80.9401232
9.067                 0.97408485     -81.0686326
9.068                0.974021025     -81.1974673
9.069                0.973957018     -81.3266283
9.07                 0.973892829     -81.4561164
9.071                0.973828457     -81.5859327
9.072                0.973763903     -81.7160781
9.073                0.973699165     -81.8465535
9.074                0.973634244     -81.9773598
9.075                 0.97356914     -82.1084981
9.076                0.973503852     -82.2399693
9.077                 0.97343838     -82.3717744
9.078                0.973372723     -82.5039142
9.079                0.973306882     -82.6363898
9.08                 0.973240856     -82.7692021
9.081                0.973174645     -82.9023521
9.082                0.973108249     -83.0358407
9.083                0.973041667     -83.1696689
9.084                0.972974899     -83.3038377
9.085                0.972907946      -83.438348
9.086                0.972840806     -83.5732009
9.087                 0.97277348     -83.7083972
9.088                0.972705967      -83.843938
9.089                0.972638268     -83.9798241
9.09                 0.972570381     -84.1160567
9.091                0.972502307     -84.2526366
9.092                0.972434046     -84.3895649
9.093                0.972365597     -84.5268425
9.094                0.972296961     -84.6644704
9.095                0.972228136     -84.8024496
9.096                0.972159123      -84.940781
9.097                0.972089923     -85.0794657
9.098                0.972020533     -85.2185046
9.099                0.971950955     -85.3578987
9.1                  0.971881188      -85.497649
9.101                0.971811233     -85.6377565
9.102                0.971741088     -85.7782221
9.103                0.971670754     -85.9190469
9.104                0.971600231     -86.0602318
9.105                0.971529519     -86.2017778
9.106                0.971458616      -86.343686
9.107                0.971387525     -86.4859573
9.108                0.971316243     -86.6285926
9.109                0.971244772     -86.7715931
9.11                 0.971173111     -86.9149597
9.111                0.971101259     -87.0586933
9.112                0.971029218      -87.202795
9.113                0.970956986     -87.3472658
9.114                0.970884564     -87.4921067
9.115                0.970811952     -87.6373186
9.116                0.970739149     -87.7829026
9.117                0.970666156     -87.9288596
9.118                0.970592973     -88.0751907
9.119                0.970519599     -88.2218968
9.12                 0.970446035      -88.368979
9.121                 0.97037228     -88.5164383
9.122                0.970298334     -88.6642756
9.123                0.970224198      -88.812492
9.124                0.970149872     -88.9610884
9.125                0.970075354     -89.1100658
9.126                0.970000647     -89.2594254
9.127                0.969925749     -89.4091679
9.128                 0.96985066     -89.5592946
9.129                0.969775381     -89.7098063
9.13                 0.969699911      -89.860704
9.131                0.969624252     -90.0119888
9.132                0.969548402     -90.1636617
9.133                0.969472362     -90.3157236
9.134                0.969396131     -90.4681756
9.135                0.969319711     -90.6210187
9.136                0.969243101     -90.7742538
9.137                0.969166301      -90.927882
9.138                0.969089311     -91.0819042
9.139                0.969012132     -91.2363215
9.14                 0.968934764     -91.3911349
9.141                0.968857206     -91.5463453
9.142                0.968779459     -91.7019538
9.143                0.968701523     -91.8579613
9.144                0.968623398     -92.0143689
9.145                0.968545085     -92.1711775
9.146                0.968466583     -92.3283882
9.147                0.968387893     -92.4860019
9.148                0.968309015     -92.6440197
9.149                0.968229949     -92.8024424
9.15                 0.968150696     -92.9612712
9.151                0.968071256      -93.120507
9.152                0.967991628     -93.2801508
9.153                0.967911813     -93.4402036
9.154                0.967831812     -93.6006664
9.155                0.967751625     -93.7615401
9.156                0.967671252     -93.9228258
9.157                0.967590693     -94.0845245
9.158                0.967509949      -94.246637
9.159                 0.96742902     -94.4091645
9.16                 0.967347906     -94.5721078
9.161                0.967266608      -94.735468
9.162                0.967185126      -94.899246
9.163                 0.96710346     -95.0634429
9.164                0.967021611     -95.2280595
9.165                0.966939579      -95.393097
9.166                0.966857365     -95.5585561
9.167                0.966774969      -95.724438
9.168                0.966692392     -95.8907435
9.169                0.966609633     -96.0574736
9.17                 0.966526693     -96.2246294
9.171                0.966443574     -96.3922117
9.172                0.966360275     -96.5602215
9.173                0.966276796     -96.7286599
9.174                0.966193139     -96.8975276
9.175                0.966109304     -97.0668257
9.176                0.966025291     -97.2365552
9.177                0.965941101      -97.406717
9.178                0.965856735     -97.5773119
9.179                0.965772192     -97.7483411
9.18                 0.965687475     -97.9198053
9.181                0.965602582     -98.0917056
9.182                0.965517516     -98.2640428
9.183                0.965432275      -98.436818
9.184                0.965346862      -98.610032
9.185                0.965261277     -98.7836858
9.186                0.965175521     -98.9577802
9.187                0.965089593     -99.1323163
9.188                0.965003495     -99.3072948
9.189                0.964917228     -99.4827168
9.19                 0.964830793     -99.6585832
9.191                0.964744189     -99.8348947
9.192                0.964657418     -100.011652
9.193                0.964570481     -100.188857
9.194                0.964483378      -100.36651
9.195                0.964396111     -100.544611
9.196                0.964308679     -100.723163
9.197                0.964221085     -100.902164
9.198                0.964133328     -101.081618
9.199                 0.96404541     -101.261523
9.2                  0.963957331     -101.441882
9.201                0.963869093     -101.622695
9.202                0.963780697     -101.803963
9.203                0.963692142     -101.985686
9.204                0.963603431     -102.167867
9.205                0.963514564     -102.350504
9.206                0.963425542       -102.5336
9.207                0.963336367     -102.717156
9.208                0.963247039     -102.901171
9.209                0.963157559     -103.085647
9.21                 0.963067928     -103.270585
9.211                0.962978148     -103.455985
9.212                 0.96288822     -103.641848
9.213                0.962798144     -103.828176
9.214                0.962707923     -104.014968
9.215                0.962617556     -104.202226
9.216                0.962527045     -104.389951
9.217                0.962436392     -104.578143
9.218                0.962345597     -104.766803
9.219                0.962254662     -104.955931
9.22                 0.962163588     -105.145529
9.221                0.962072377     -105.335598
9.222                0.961981029     -105.526138
9.223                0.961889546     -105.717149
9.224                0.961797929     -105.908633
9.225                 0.96170618      -106.10059
9.226                  0.9616143     -106.293022
9.227                 0.96152229     -106.485928
9.228                0.961430152     -106.679309
9.229                0.961337887     -106.873167
9.23                 0.961245497     -107.067501
9.231                0.961152983     -107.262313
9.232                0.961060346     -107.457603
9.233                0.960967589     -107.653373
9.234                0.960874712     -107.849621
9.235                0.960781717      -108.04635
9.236                0.960688606      -108.24356
9.237                0.960595381     -108.441251
9.238                0.960502043     -108.639425
9.239                0.960408593     -108.838081
9.24                 0.960315033     -109.037221
9.241                0.960221365     -109.236845
9.242                0.960127592     -109.436953
9.243                0.960033713     -109.637546
9.244                0.959939732     -109.838626
9.245                0.959845649     -110.040192
9.246                0.959751467     -110.242244
9.247                0.959657188     -110.444784
9.248                0.959562813     -110.647813
9.249                0.959468344      -110.85133
9.25                 0.959373784     -111.055336
9.251                0.959279133     -111.259831
9.252                0.959184395     -111.464817
9.253                 0.95908957     -111.670294
9.254                0.958994661     -111.876261
9.255                 0.95889967      -112.08272
9.256                0.958804599     -112.289672
9.257                0.958709449     -112.497116
9.258                0.958614224     -112.705053
9.259                0.958518925     -112.913483
9.26                 0.958423554     -113.122408
9.261                0.958328113     -113.331826
9.262                0.958232605     -113.541739
9.263                0.958137032     -113.752148
9.264                0.958041395     -113.963052
9.265                0.957945698     -114.174452
9.266                0.957849942     -114.386348
9.267                 0.95775413      -114.59874
9.268                0.957658263      -114.81163
9.269                0.957562346     -115.025017
9.27                 0.957466378     -115.238901
9.271                0.957370364     -115.453283
9.272                0.957274305     -115.668164
9.273                0.957178205     -115.883542
9.274                0.957082064      -116.09942
9.275                0.956985887     -116.315796
9.276                0.956889674     -116.532672
9.277                 0.95679343     -116.750047
9.278                0.956697156     -116.967922
9.279                0.956600855     -117.186296
9.28                  0.95650453     -117.405171
9.281                0.956408183     -117.624545
9.282                0.956311817     -117.844421
9.283                0.956215434     -118.064796
9.284                0.956119038     -118.285672
9.285                0.956022631     -118.507049
9.286                0.955926216     -118.728927
9.287                0.955829795     -118.951306
9.288                0.955733371     -119.174186
9.289                0.955636948     -119.397567
9.29                 0.955540528     -119.621449
9.291                0.955444113     -119.845832
9.292                0.955347708     -120.070716
9.293                0.955251314     -120.296102
9.294                0.955154935     -120.521988
9.295                0.955058574     -120.748376
9.296                0.954962233     -120.975265
9.297                0.954865917     -121.202655
9.298                0.954769627     -121.430546
9.299                0.954673366     -121.658938
9.3                  0.954577139      -121.88783
9.301                0.954480948     -122.117223
9.302                0.954384797     -122.347117
9.303                0.954288687     -122.577511
9.304                0.954192624     -122.808405
9.305                0.954096609     -123.039799
9.306                0.954000647     -123.271693
9.307                0.953904739     -123.504086
9.308                0.953808891     -123.736979
9.309                0.953713105     -123.970371
9.31                 0.953617384     -124.204261
9.311                0.953521732      -124.43865
9.312                0.953426152     -124.673537
9.313                0.953330647     -124.908922
9.314                0.953235222     -125.144804
9.315                 0.95313988     -125.381184
9.316                0.953044623      -125.61806
9.317                0.952949456     -125.855432
9.318                0.952854382     -126.093301
9.319                0.952759404     -126.331665
9.32                 0.952664527     -126.570524
9.321                0.952569754     -126.809877
9.322                0.952475088     -127.049724
9.323                0.952380534     -127.290065
9.324                0.952286094     -127.530899
9.325                0.952191773     -127.772225
9.326                0.952097574     -128.014043
9.327                0.952003501     -128.256353
9.328                0.951909558     -128.499153
9.329                0.951815748     -128.742443
9.33                 0.951722076     -128.986222
9.331                0.951628545      -129.23049
9.332                 0.95153516     -129.475246
9.333                0.951441923      -129.72049
9.334                0.951348839      -129.96622
9.335                0.951255912     -130.212435
9.336                0.951163145     -130.459136
9.337                0.951070543     -130.706321
9.338                 0.95097811     -130.953989
9.339                0.950885849      -131.20214
9.34                 0.950793766     -131.450772
9.341                0.950701862     -131.699886
9.342                0.950610144     -131.949479
9.343                0.950518614     -132.199551
9.344                0.950427278     -132.450101
9.345                0.950336138     -132.701129
9.346                  0.9502452     -132.952632
9.347                0.950154467      -133.20461
9.348                0.950063943     -133.457063
9.349                0.949973633     -133.709988
9.35                 0.949883541     -133.963386
9.351                 0.94979367     -134.217254
9.352                0.949704027     -134.471592
9.353                0.949614613     -134.726398
9.354                0.949525435     -134.981672
9.355                0.949436495     -135.237412
9.356                0.949347799     -135.493617
9.357                 0.94925935     -135.750286
9.358                0.949171154     -136.007417
9.359                0.949083214      -136.26501
9.36                 0.948995534     -136.523062
9.361                0.948908119     -136.781573
9.362                0.948820974     -137.040541
9.363                0.948734102     -137.299965
9.364                0.948647509     -137.559843
9.365                0.948561198     -137.820174
9.366                0.948475174     -138.080957
9.367                0.948389441      -138.34219
9.368                0.948304005     -138.603872
9.369                0.948218868     -138.866001
9.37                 0.948134036     -139.128575
9.371                0.948049513     -139.391593
9.372                0.947965304     -139.655054
9.373                0.947881413     -139.918956
9.374                0.947797845     -140.183296
9.375                0.947714604     -140.448075
9.376                0.947631694     -140.713289
9.377                 0.94754912     -140.978937
9.378                0.947466887     -141.245017
9.379                0.947384999     -141.511529
9.38                  0.94730346     -141.778469
9.381                0.947222276     -142.045836
9.382                 0.94714145     -142.313628
9.383                0.947060988     -142.581844
9.384                0.946980893     -142.850481
9.385                0.946901171     -143.119538
9.386                0.946821825     -143.389012
9.387                 0.94674286     -143.658902
9.388                0.946664282     -143.929206
9.389                0.946586094     -144.199922
9.39                   0.9465083     -144.471047
9.391                0.946430906     -144.742581
9.392                0.946353917     -145.014519
9.393                0.946277335     -145.286861
9.394                0.946201167     -145.559605
9.395                0.946125416     -145.832748
9.396                0.946050087     -146.106288
