! TOUCHSTONE file generated by CST DESIGN STUDIO
! Date and time: Tue Feb  4 14:06:57 2025
! Project name: C:\Work\MatlabApps\UnitCellOptimizationMatlab\CST\unitcell.cst
! Tree item: Tasks\Sweep1\SPara1\S-Parameters
! Header version: 2024
! Port assignment regex: !\s*Touchstone port\s*([0-9]+)\s*=\s*(CST MWS port|CST DES external port|CST DES block port)\s*(.+)\s* \(\"(.*)\"\)(\s*mode\s*([0-9]+))?.*
! Touchstone port assignment:
! Touchstone port 1 = CST DES external port 1 ("")
# GHz S MA R 50
9                    0.978869799     -64.9986426
9.001                0.978824959     -65.0900882
9.002                0.978779982     -65.1817486
9.003                0.978734869     -65.2736246
9.004                0.978689618     -65.3657167
9.005                0.978644229     -65.4580258
9.006                0.978598702     -65.5505524
9.007                0.978553036     -65.6432972
9.008                0.978507232     -65.7362609
9.009                0.978461287     -65.8294442
9.01                 0.978415203     -65.9228477
9.011                0.978368979     -66.0164722
9.012                0.978322614     -66.1103183
9.013                0.978276108     -66.2043868
9.014                 0.97822946     -66.2986782
9.015                0.978182671     -66.3931934
9.016                0.978135739     -66.4879329
9.017                0.978088664     -66.5828976
9.018                0.978041446      -66.678088
9.019                0.977994085     -66.7735049
9.02                  0.97794658     -66.8691491
9.021                 0.97789893     -66.9650211
9.022                0.977851136     -67.0611217
9.023                0.977803196     -67.1574517
9.024                0.977755111     -67.2540117
9.025                0.977706879     -67.3508025
9.026                0.977658501     -67.4478247
9.027                0.977609977     -67.5450791
9.028                0.977561305     -67.6425664
9.029                0.977512485     -67.7402873
9.03                 0.977463517     -67.8382426
9.031                0.977414401      -67.936433
9.032                0.977365135     -68.0348592
9.033                0.977315721      -68.133522
9.034                0.977266156      -68.232422
9.035                0.977216441       -68.33156
9.036                0.977166576     -68.4309369
9.037                0.977116559     -68.5305532
9.038                0.977066392     -68.6304097
9.039                0.977016072     -68.7305073
9.04                   0.9769656     -68.8308466
9.041                0.976914975     -68.9314284
9.042                0.976864197     -69.0322534
9.043                0.976813266     -69.1333225
9.044                 0.97676218     -69.2346363
9.045                 0.97671094     -69.3361956
9.046                0.976659546     -69.4380012
9.047                0.976607996     -69.5400538
9.048                 0.97655629     -69.6423542
9.049                0.976504429     -69.7449033
9.05                 0.976452411     -69.8477017
9.051                0.976400236     -69.9507502
9.052                0.976347904     -70.0540496
9.053                0.976295413     -70.1576007
9.054                0.976242765     -70.2614042
9.055                0.976189959      -70.365461
9.056                0.976136993     -70.4697718
9.057                0.976083868     -70.5743375
9.058                0.976030583     -70.6791587
9.059                0.975977138     -70.7842364
9.06                 0.975923532     -70.8895712
9.061                0.975869765      -70.995164
9.062                0.975815836     -71.1010156
9.063                0.975761746     -71.2071268
9.064                0.975707494     -71.3134984
9.065                0.975653078     -71.4201312
9.066                  0.9755985      -71.527026
9.067                0.975543758     -71.6341836
9.068                0.975488852     -71.7416049
9.069                0.975433781     -71.8492906
9.07                 0.975378546     -71.9572415
9.071                0.975323146     -72.0654586
9.072                 0.97526758     -72.1739425
9.073                0.975211848     -72.2826942
9.074                0.975155949     -72.3917144
9.075                0.975099884      -72.501004
9.076                0.975043651     -72.6105638
9.077                0.974987251     -72.7203947
9.078                0.974930683     -72.8304974
9.079                0.974873946     -72.9408729
9.08                  0.97481704     -73.0515219
9.081                0.974759965     -73.1624453
9.082                0.974702721      -73.273644
9.083                0.974645306     -73.3851188
9.084                0.974587721     -73.4968705
9.085                0.974529965        -73.6089
9.086                0.974472038     -73.7212082
9.087                0.974413939     -73.8337959
9.088                0.974355668     -73.9466639
9.089                0.974297224     -74.0598132
9.09                 0.974238608     -74.1732446
9.091                0.974179818     -74.2869589
9.092                0.974120854      -74.400957
9.093                0.974061717     -74.5152398
9.094                0.974002405     -74.6298082
9.095                0.973942919      -74.744663
9.096                0.973883257     -74.8598052
9.097                0.973823419     -74.9752355
9.098                0.973763406     -75.0909549
9.099                0.973703216     -75.2069643
9.1                  0.973642849     -75.3232645
9.101                0.973582306     -75.4398564
9.102                0.973521585      -75.556741
9.103                0.973460685      -75.673919
9.104                0.973399608     -75.7913915
9.105                0.973338352     -75.9091592
9.106                0.973276917     -76.0272232
9.107                0.973215303     -76.1455843
9.108                0.973153509     -76.2642434
9.109                0.973091535     -76.3832013
9.11                  0.97302938     -76.5024591
9.111                0.972967045     -76.6220177
9.112                0.972904528     -76.7418778
9.113                 0.97284183     -76.8620405
9.114                 0.97277895     -76.9825067
9.115                0.972715888     -77.1032773
9.116                0.972652643     -77.2243531
9.117                0.972589215     -77.3457352
9.118                0.972525604     -77.4674245
9.119                0.972461809     -77.5894218
9.12                  0.97239783     -77.7117281
9.121                0.972333667     -77.8343443
9.122                 0.97226932     -77.9572715
9.123                0.972204787     -78.0805104
9.124                0.972140069     -78.2040621
9.125                0.972075165     -78.3279274
9.126                0.972010076     -78.4521074
9.127                  0.9719448     -78.5766029
9.128                0.971879337     -78.7014149
9.129                0.971813688     -78.8265444
9.13                 0.971747851     -78.9519922
9.131                0.971681827     -79.0777595
9.132                0.971615615      -79.203847
9.133                0.971549214     -79.3302558
9.134                0.971482625     -79.4569868
9.135                0.971415848     -79.5840409
9.136                0.971348881     -79.7114192
9.137                0.971281725     -79.8391226
9.138                0.971214379     -79.9671521
9.139                0.971146844     -80.0955086
9.14                 0.971079118      -80.224193
9.141                0.971011202     -80.3532065
9.142                0.970943095     -80.4825498
9.143                0.970874796     -80.6122241
9.144                0.970806307     -80.7422302
9.145                0.970737626     -80.8725692
9.146                0.970668753      -81.003242
9.147                0.970599688     -81.1342497
9.148                0.970530431     -81.2655931
9.149                0.970460981     -81.3972734
9.15                 0.970391338     -81.5292913
9.151                0.970321503     -81.6616481
9.152                0.970251473     -81.7943446
9.153                0.970181251     -81.9273818
9.154                0.970110834     -82.0607607
9.155                0.970040224     -82.1944824
9.156                 0.96996942     -82.3285477
9.157                0.969898421     -82.4629578
9.158                0.969827227     -82.5977135
9.159                0.969755839      -82.732816
9.16                 0.969684255     -82.8682662
9.161                0.969612477     -83.0040651
9.162                0.969540502     -83.1402137
9.163                0.969468333      -83.276713
9.164                0.969395968      -83.413564
9.165                0.969323406     -83.5507678
9.166                0.969250649     -83.6883253
9.167                0.969177695     -83.8262375
9.168                0.969104545     -83.9645055
9.169                0.969031198     -84.1031303
9.17                 0.968957655     -84.2421129
9.171                0.968883915     -84.3814543
9.172                0.968809978     -84.5211555
9.173                0.968735844     -84.6612176
9.174                0.968661512     -84.8016415
9.175                0.968586983     -84.9424283
9.176                0.968512257      -85.083579
9.177                0.968437333     -85.2250947
9.178                0.968362212     -85.3669763
9.179                0.968286892     -85.5092248
9.18                 0.968211375     -85.6518414
9.181                 0.96813566      -85.794827
9.182                0.968059747     -85.9381826
9.183                0.967983637     -86.0819094
9.184                0.967907327     -86.2260082
9.185                 0.96783082     -86.3704802
9.186                0.967754115     -86.5153264
9.187                0.967677211     -86.6605477
9.188                 0.96760011     -86.8061454
9.189                 0.96752281     -86.9521203
9.19                 0.967445311     -87.0984734
9.191                0.967367615      -87.245206
9.192                 0.96728972     -87.3923189
9.193                0.967211627     -87.5398132
9.194                0.967133335       -87.68769
9.195                0.967054846     -87.8359503
9.196                0.966976158     -87.9845951
9.197                0.966897272     -88.1336254
9.198                0.966818188     -88.2830424
9.199                0.966738906      -88.432847
9.2                  0.966659426     -88.5830402
9.201                0.966579748     -88.7336232
9.202                0.966499872      -88.884597
9.203                0.966419799     -89.0359625
9.204                0.966339528     -89.1877209
9.205                0.966259059     -89.3398732
9.206                0.966178393     -89.4924203
9.207                 0.96609753     -89.6453634
9.208                 0.96601647     -89.7987036
9.209                0.965935213     -89.9524417
9.21                 0.965853759      -90.106579
9.211                0.965772108     -90.2611163
9.212                0.965690261     -90.4160548
9.213                0.965608217     -90.5713955
9.214                0.965525978     -90.7271394
9.215                0.965443543     -90.8832876
9.216                0.965360912     -91.0398412
9.217                0.965278086      -91.196801
9.218                0.965195064     -91.3541683
9.219                0.965111848     -91.5119439
9.22                 0.965028437     -91.6701291
9.221                0.964944831     -91.8287247
9.222                0.964861032     -91.9877318
9.223                0.964777038     -92.1471515
9.224                0.964692851     -92.3069849
9.225                0.964608471     -92.4672328
9.226                0.964523899     -92.6278964
9.227                0.964439133     -92.7889767
9.228                0.964354176     -92.9504747
9.229                0.964269026     -93.1123915
9.23                 0.964183685      -93.274728
9.231                0.964098154     -93.4374854
9.232                0.964012431     -93.6006646
9.233                0.963926518     -93.7642666
9.234                0.963840416     -93.9282925
9.235                0.963754124     -94.0927434
9.236                0.963667643     -94.2576201
9.237                0.963580974     -94.4229238
9.238                0.963494117     -94.5886554
9.239                0.963407072      -94.754816
9.24                  0.96331984     -94.9214066
9.241                0.963232422     -95.0884281
9.242                0.963144818     -95.2558817
9.243                0.963057028     -95.4237683
9.244                0.962969054     -95.5920889
9.245                0.962880896     -95.7608445
9.246                0.962792553     -95.9300362
9.247                0.962704028     -96.0996649
9.248                 0.96261532     -96.2697315
9.249                0.962526431     -96.4402373
9.25                  0.96243736      -96.611183
9.251                0.962348108     -96.7825697
9.252                0.962258677     -96.9543984
9.253                0.962169067       -97.12667
9.254                0.962079278     -97.2993857
9.255                0.961989311     -97.4725462
9.256                0.961899168     -97.6461527
9.257                0.961808848      -97.820206
9.258                0.961718352     -97.9947072
9.259                0.961627682     -98.1696573
9.26                 0.961536838     -98.3450571
9.261                0.961445821     -98.5209076
9.262                0.961354632     -98.6972099
9.263                0.961263271     -98.8739648
9.264                 0.96117174     -99.0511734
9.265                0.961080039     -99.2288365
9.266                0.960988169     -99.4069551
9.267                0.960896132     -99.5855301
9.268                0.960803927     -99.7645626
9.269                0.960711557     -99.9440533
9.27                 0.960619021     -100.124003
9.271                0.960526322     -100.304414
9.272                0.960433459     -100.485285
9.273                0.960340435     -100.666618
9.274                0.960247249     -100.848414
9.275                0.960153904     -101.030674
9.276                  0.9600604     -101.213399
9.277                0.959966738     -101.396589
9.278                0.959872919     -101.580246
9.279                0.959778945     -101.764371
9.28                 0.959684817     -101.948963
9.281                0.959590536     -102.134025
9.282                0.959496102     -102.319557
9.283                0.959401518      -102.50556
9.284                0.959306784     -102.692034
9.285                0.959211903     -102.878981
9.286                0.959116874     -103.066402
9.287                0.959021699     -103.254297
9.288                 0.95892638     -103.442667
9.289                0.958830918     -103.631514
9.29                 0.958735314     -103.820837
9.291                 0.95863957     -104.010638
9.292                0.958543687     -104.200917
9.293                0.958447667     -104.391676
9.294                 0.95835151     -104.582914
9.295                0.958255219     -104.774634
9.296                0.958158794     -104.966835
9.297                0.958062238     -105.159519
9.298                0.957965552     -105.352686
9.299                0.957868737     -105.546337
9.3                  0.957771795     -105.740473
9.301                0.957674728     -105.935095
9.302                0.957577536     -106.130203
9.303                0.957480223     -106.325798
9.304                0.957382789     -106.521881
9.305                0.957285236     -106.718452
9.306                0.957187566     -106.915513
9.307                0.957089781     -107.113063
9.308                0.956991882     -107.311105
9.309                 0.95689387     -107.509637
9.31                 0.956795749     -107.708662
9.311                 0.95669752      -107.90818
9.312                0.956599184      -108.10819
9.313                0.956500743     -108.308696
9.314                0.956402199     -108.509695
9.315                0.956303555     -108.711191
9.316                0.956204812     -108.913182
9.317                0.956105972      -109.11567
9.318                0.956007037     -109.318655
9.319                0.955908009     -109.522138
9.32                  0.95580889      -109.72612
9.321                0.955709682     -109.930601
9.322                0.955610387     -110.135581
9.323                0.955511008     -110.341062
9.324                0.955411546     -110.547043
9.325                0.955312004     -110.753526
9.326                0.955212383     -110.960511
9.327                0.955112687     -111.167999
9.328                0.955012917     -111.375989
9.329                0.954913075     -111.584483
9.33                 0.954813164     -111.793481
9.331                0.954713186     -112.002984
9.332                0.954613144     -112.212991
9.333                0.954513039     -112.423504
9.334                0.954412875     -112.634523
9.335                0.954312653     -112.846048
9.336                0.954212376      -113.05808
9.337                0.954112047     -113.270619
9.338                0.954011667     -113.483666
9.339                 0.95391124     -113.697221
9.34                 0.953810768     -113.911285
9.341                0.953710254     -114.125857
9.342                  0.9536097     -114.340938
9.343                0.953509109     -114.556529
9.344                0.953408483      -114.77263
9.345                0.953307825     -114.989242
9.346                0.953207138     -115.206363
9.347                0.953106425     -115.423996
9.348                0.953005688     -115.642139
9.349                0.952904931     -115.860794
9.35                 0.952804155     -116.079961
9.351                0.952703364      -116.29964
9.352                 0.95260256      -116.51983
9.353                0.952501748     -116.740534
9.354                0.952400928     -116.961749
9.355                0.952300105     -117.183478
9.356                0.952199282     -117.405719
9.357                0.952098461     -117.628474
9.358                0.951997645     -117.851742
9.359                0.951896837     -118.075523
9.36                 0.951796042     -118.299818
9.361                0.951695261     -118.524627
9.362                0.951594497     -118.749949
9.363                0.951493755     -118.975785
9.364                0.951393037     -119.202135
9.365                0.951292346     -119.428999
9.366                0.951191686     -119.656377
9.367                 0.95109106     -119.884269
9.368                0.950990471     -120.112675
9.369                0.950889922     -120.341595
9.37                 0.950789417     -120.571028
9.371                 0.95068896     -120.800976
9.372                0.950588553     -121.031437
9.373                0.950488201     -121.262413
9.374                0.950387906     -121.493901
9.375                0.950287672     -121.725904
9.376                0.950187502     -121.958419
9.377                0.950087401     -122.191448
9.378                0.949987372      -122.42499
9.379                0.949887417     -122.659045
9.38                 0.949787542     -122.893613
9.381                0.949687749     -123.128693
9.382                0.949588043     -123.364285
9.383                0.949488426     -123.600389
9.384                0.949388903     -123.837005
9.385                0.949289478     -124.074132
9.386                0.949190153     -124.311771
9.387                0.949090934      -124.54992
9.388                0.948991823     -124.788579
9.389                0.948892826     -125.027748
9.39                 0.948793944     -125.267428
9.391                0.948695184     -125.507616
9.392                0.948596547     -125.748313
9.393                0.948498039     -125.989518
9.394                0.948399664     -126.231232
9.395                0.948301424     -126.473453
9.396                0.948203325      -126.71618
