! TOUCHSTONE file generated by CST DESIGN STUDIO
! Date and time: Tue Feb  4 14:06:49 2025
! Project name: C:\Work\MatlabApps\UnitCellOptimizationMatlab\CST\unitcell.cst
! Tree item: Tasks\Sweep1\SPara1\S-Parameters
! Header version: 2024
! Port assignment regex: !\s*Touchstone port\s*([0-9]+)\s*=\s*(CST MWS port|CST DES external port|CST DES block port)\s*(.+)\s* \(\"(.*)\"\)(\s*mode\s*([0-9]+))?.*
! Touchstone port assignment:
! Touchstone port 1 = CST DES external port 1 ("")
# GHz S MA R 50
9                    0.977763999      -75.058751
9.001                0.977709987     -75.1722684
9.002                0.977655812     -75.2860664
9.003                0.977601473     -75.4001456
9.004                 0.97754697     -75.5145069
9.005                0.977492302     -75.6291512
9.006                0.977437471     -75.7440793
9.007                0.977382474     -75.8592921
9.008                0.977327311     -75.9747904
9.009                0.977271983     -76.0905751
9.01                 0.977216489     -76.2066471
9.011                0.977160828     -76.3230071
9.012                   0.977105     -76.4396561
9.013                0.977049005      -76.556595
9.014                0.976992842     -76.6738246
9.015                0.976936512     -76.7913457
9.016                0.976880012     -76.9091593
9.017                0.976823345     -77.0272662
9.018                0.976766507     -77.1456673
9.019                0.976709501     -77.2643635
9.02                 0.976652324     -77.3833556
9.021                0.976594978     -77.5026445
9.022                0.976537461     -77.6222311
9.023                0.976479772     -77.7421164
9.024                0.976421913     -77.8623011
9.025                0.976363882     -77.9827862
9.026                0.976305679     -78.1035726
9.027                0.976247304     -78.2246611
9.028                0.976188756     -78.3460527
9.029                0.976130034     -78.4677482
9.03                  0.97607114     -78.5897486
9.031                0.976012072     -78.7120547
9.032                 0.97595283     -78.8346675
9.033                0.975893413     -78.9575878
9.034                0.975833822     -79.0808166
9.035                0.975774055     -79.2043547
9.036                0.975714113     -79.3282031
9.037                0.975653996     -79.4523628
9.038                0.975593702     -79.5768345
9.039                0.975533232     -79.7016192
9.04                 0.975472586     -79.8267179
9.041                0.975411762     -79.9521315
9.042                0.975350761     -80.0778608
9.043                0.975289583     -80.2039068
9.044                0.975228226     -80.3302705
9.045                0.975166692     -80.4569527
9.046                0.975104978     -80.5839543
9.047                0.975043086     -80.7112764
9.048                0.974981015     -80.8389199
9.049                0.974918764     -80.9668856
9.05                 0.974856334     -81.0951745
9.051                0.974793723     -81.2237875
9.052                0.974730933     -81.3527256
9.053                0.974667961     -81.4819898
9.054                0.974604809     -81.6115809
9.055                0.974541475     -81.7414999
9.056                0.974477961     -81.8717478
9.057                0.974414264     -82.0023254
9.058                0.974350386     -82.1332338
9.059                0.974286325     -82.2644739
9.06                 0.974222081     -82.3960467
9.061                0.974157655      -82.527953
9.062                0.974093046     -82.6601939
9.063                0.974028254     -82.7927703
9.064                0.973963279     -82.9256831
9.065                0.973898119     -83.0589333
9.066                0.973832776      -83.192522
9.067                0.973767248     -83.3264499
9.068                0.973701536     -83.4607182
9.069                0.973635639     -83.5953277
9.07                 0.973569558     -83.7302795
9.071                0.973503291     -83.8655744
9.072                0.973436839     -84.0012135
9.073                0.973370201     -84.1371977
9.074                0.973303378     -84.2735281
9.075                0.973236369     -84.4102055
9.076                0.973169174     -84.5472309
9.077                0.973101792     -84.6846053
9.078                0.973034224     -84.8223298
9.079                0.972966469     -84.9604051
9.08                 0.972898528     -85.0988325
9.081                0.972830399     -85.2376127
9.082                0.972762084     -85.3767469
9.083                0.972693581     -85.5162359
9.084                 0.97262489     -85.6560807
9.085                0.972556012     -85.7962824
9.086                0.972486946      -85.936842
9.087                0.972417692     -86.0777603
9.088                 0.97234825     -86.2190384
9.089                 0.97227862     -86.3606773
9.09                 0.972208802     -86.5026779
9.091                0.972138795     -86.6450413
9.092                  0.9720686     -86.7877684
9.093                0.971998216     -86.9308602
9.094                0.971927643     -87.0743178
9.095                0.971856882      -87.218142
9.096                0.971785932     -87.3623339
9.097                0.971714792     -87.5068945
9.098                0.971643464     -87.6518248
9.099                0.971571946     -87.7971257
9.1                   0.97150024     -87.9427983
9.101                0.971428344     -88.0888436
9.102                0.971356259     -88.2352625
9.103                0.971283984      -88.382056
9.104                 0.97121152     -88.5292251
9.105                0.971138867     -88.6767709
9.106                0.971066025     -88.8246943
9.107                0.970992993     -88.9729963
9.108                0.970919771     -89.1216779
9.109                 0.97084636     -89.2707401
9.11                  0.97077276     -89.4201839
9.111                0.970698971     -89.5700103
9.112                0.970624992     -89.7202203
9.113                0.970550823     -89.8708148
9.114                0.970476466      -90.021795
9.115                0.970401919     -90.1731617
9.116                0.970327183      -90.324916
9.117                0.970252258     -90.4770589
9.118                0.970177144     -90.6295914
9.119                0.970101841     -90.7825144
9.12                 0.970026349     -90.9358289
9.121                0.969950668      -91.089536
9.122                0.969874799     -91.2436367
9.123                0.969798741     -91.3981319
9.124                0.969722495     -91.5530226
9.125                 0.96964606     -91.7083099
9.126                0.969569438     -91.8639946
9.127                0.969492627     -92.0200779
9.128                0.969415628     -92.1765607
9.129                0.969338442     -92.3334439
9.13                 0.969261069     -92.4907287
9.131                0.969183508     -92.6484159
9.132                 0.96910576     -92.8065065
9.133                0.969027825     -92.9650017
9.134                0.968949703     -93.1239022
9.135                0.968871395     -93.2832092
9.136                0.968792901     -93.4429235
9.137                0.968714221     -93.6030463
9.138                0.968635355     -93.7635784
9.139                0.968556304     -93.9245209
9.14                 0.968477067     -94.0858747
9.141                0.968397646     -94.2476408
9.142                 0.96831804     -94.4098202
9.143                 0.96823825     -94.5724138
9.144                0.968158276     -94.7354227
9.145                0.968078119     -94.8988478
9.146                0.967997778     -95.0626901
9.147                0.967917254     -95.2269505
9.148                0.967836548     -95.3916301
9.149                 0.96775566     -95.5567297
9.15                  0.96767459     -95.7222504
9.151                0.967593339     -95.8881931
9.152                0.967511907     -96.0545587
9.153                0.967430294     -96.2213483
9.154                0.967348502     -96.3885628
9.155                 0.96726653     -96.5562031
9.156                0.967184378     -96.7242702
9.157                0.967102048     -96.8927651
9.158                 0.96701954     -97.0616886
9.159                0.966936855     -97.2310418
9.16                 0.966853992     -97.4008256
9.161                0.966770952     -97.5710409
9.162                0.966687737     -97.7416886
9.163                0.966604346     -97.9127698
9.164                 0.96652078     -98.0842852
9.165                 0.96643704     -98.2562359
9.166                0.966353126     -98.4286228
9.167                0.966269039     -98.6014468
9.168                 0.96618478     -98.7747089
9.169                0.966100348     -98.9484098
9.17                 0.966015746     -99.1225507
9.171                0.965930973     -99.2971323
9.172                 0.96584603     -99.4721555
9.173                0.965760918     -99.6476214
9.174                0.965675637     -99.8235307
9.175                0.965590189     -99.9998844
9.176                0.965504574     -100.176683
9.177                0.965418792     -100.353929
9.178                0.965332846     -100.531621
9.179                0.965246734     -100.709761
9.18                 0.965160459      -100.88835
9.181                0.965074021     -101.067388
9.182                 0.96498742     -101.246878
9.183                0.964900658     -101.426818
9.184                0.964813736     -101.607211
9.185                0.964726654     -101.788057
9.186                0.964639414     -101.969357
9.187                0.964552015     -102.151112
9.188                 0.96446446     -102.333322
9.189                0.964376749     -102.515989
9.19                 0.964288884     -102.699114
9.191                0.964200864     -102.882696
9.192                0.964112691     -103.066738
9.193                0.964024367     -103.251239
9.194                0.963935891     -103.436201
9.195                0.963847266     -103.621625
9.196                0.963758492     -103.807511
9.197                0.963669571      -103.99386
9.198                0.963580503     -104.180672
9.199                0.963491289     -104.367949
9.2                  0.963401932     -104.555692
9.201                0.963312431     -104.743901
9.202                0.963222788     -104.932577
9.203                0.963133005      -105.12172
9.204                0.963043082     -105.311332
9.205                0.962953021     -105.501413
9.206                0.962862823     -105.691965
9.207                0.962772489     -105.882986
9.208                0.962682021      -106.07448
9.209                0.962591419     -106.266445
9.21                 0.962500686     -106.458884
9.211                0.962409823     -106.651795
9.212                 0.96231883     -106.845182
9.213                 0.96222771     -107.039043
9.214                0.962136464      -107.23338
9.215                0.962045093     -107.428193
9.216                0.961953598     -107.623483
9.217                0.961861982     -107.819251
9.218                0.961770245     -108.015497
9.219                0.961678389     -108.212223
9.22                 0.961586417     -108.409428
9.221                0.961494328     -108.607113
9.222                0.961402125     -108.805279
9.223                 0.96130981     -109.003927
9.224                0.961217384     -109.203056
9.225                0.961124848     -109.402669
9.226                0.961032205     -109.602765
9.227                0.960939456     -109.803345
9.228                0.960846603     -110.004409
9.229                0.960753647     -110.205959
9.23                  0.96066059     -110.407994
9.231                0.960567435     -110.610515
9.232                0.960474182     -110.813523
9.233                0.960380834     -111.017018
9.234                0.960287393     -111.221001
9.235                0.960193859     -111.425472
9.236                0.960100236     -111.630432
9.237                0.960006526     -111.835882
9.238                0.959912729     -112.041821
9.239                0.959818848      -112.24825
9.24                 0.959724886      -112.45517
9.241                0.959630843     -112.662581
9.242                0.959536722     -112.870484
9.243                0.959442526     -113.078879
9.244                0.959348255     -113.287766
9.245                0.959253913     -113.497146
9.246                0.959159502     -113.707019
9.247                0.959065022     -113.917386
9.248                0.958970478     -114.128247
9.249                 0.95887587     -114.339602
9.25                 0.958781202     -114.551452
9.251                0.958686474     -114.763797
9.252                0.958591691     -114.976638
9.253                0.958496853     -115.189974
9.254                0.958401963     -115.403806
9.255                0.958307024     -115.618135
9.256                0.958212038      -115.83296
9.257                0.958117007     -116.048282
9.258                0.958021933     -116.264101
9.259                 0.95792682     -116.480418
9.26                 0.957831669     -116.697232
9.261                0.957736484     -116.914544
9.262                0.957641265     -117.132354
9.263                0.957546017     -117.350662
9.264                0.957450742     -117.569468
9.265                0.957355441     -117.788773
9.266                0.957260119     -118.008577
9.267                0.957164777      -118.22888
9.268                0.957069417     -118.449681
9.269                0.956974044     -118.670982
9.27                 0.956878659     -118.892782
9.271                0.956783265     -119.115081
9.272                0.956687865     -119.337879
9.273                0.956592462     -119.561177
9.274                0.956497058     -119.784974
9.275                0.956401657      -120.00927
9.276                 0.95630626     -120.234066
9.277                0.956210872     -120.459362
9.278                0.956115495     -120.685157
9.279                0.956020131     -120.911451
9.28                 0.955924785     -121.138244
9.281                0.955829458     -121.365537
9.282                0.955734153     -121.593329
9.283                0.955638875      -121.82162
9.284                0.955543626      -122.05041
9.285                0.955448408     -122.279698
9.286                0.955353225     -122.509486
9.287                0.955258081     -122.739772
9.288                0.955162977     -122.970556
9.289                0.955067919     -123.201838
9.29                 0.954972907     -123.433618
9.291                0.954877947     -123.665896
9.292                0.954783041     -123.898671
9.293                0.954688192     -124.131943
9.294                0.954593403     -124.365713
9.295                0.954498679     -124.599978
9.296                0.954404022      -124.83474
9.297                0.954309435     -125.069998
9.298                0.954214923     -125.305751
9.299                0.954120488        -125.542
9.3                  0.954026133     -125.778743
9.301                0.953931864     -126.015981
9.302                0.953837681     -126.253713
9.303                0.953743591     -126.491938
9.304                0.953649595     -126.730656
9.305                0.953555697     -126.969867
9.306                0.953461901     -127.209569
9.307                0.953368211     -127.449763
9.308                 0.95327463     -127.690449
9.309                0.953181162     -127.931624
9.31                  0.95308781     -128.173289
9.311                0.952994578     -128.415444
9.312                 0.95290147     -128.658087
9.313                 0.95280849     -128.901218
9.314                 0.95271564     -129.144837
9.315                0.952622926     -129.388942
9.316                0.952530351     -129.633533
9.317                0.952437918     -129.878609
9.318                0.952345632      -130.12417
9.319                0.952253496     -130.370214
9.32                 0.952161514     -130.616741
9.321                 0.95206969      -130.86375
9.322                0.951978028     -131.111241
9.323                0.951886532     -131.359212
9.324                0.951795206     -131.607663
9.325                0.951704053     -131.856592
9.326                0.951613079     -132.105999
9.327                0.951522286     -132.355883
9.328                0.951431679     -132.606243
9.329                0.951341261     -132.857077
9.33                 0.951251038     -133.108386
9.331                0.951161012     -133.360168
9.332                0.951071189     -133.612421
9.333                0.950981571     -133.865145
9.334                0.950892164     -134.118339
9.335                0.950802972     -134.372002
9.336                0.950713998     -134.626132
9.337                0.950625246     -134.880728
9.338                0.950536722      -135.13579
9.339                0.950448428     -135.391316
9.34                  0.95036037     -135.647304
9.341                0.950272551     -135.903754
9.342                0.950184977     -136.160664
9.343                 0.95009765     -136.418033
9.344                0.950010575      -136.67586
9.345                0.949923757     -136.934143
9.346                  0.9498372     -137.192881
9.347                0.949750908     -137.452073
9.348                0.949664886     -137.711716
9.349                0.949579137     -137.971811
9.35                 0.949493667     -138.232355
9.351                0.949408479     -138.493347
9.352                0.949323578     -138.754785
9.353                0.949238968     -139.016668
9.354                0.949154654     -139.278994
9.355                0.949070639     -139.541762
9.356                0.948986929     -139.804971
9.357                0.948903528     -140.068617
9.358                 0.94882044     -140.332701
9.359                 0.94873767      -140.59722
9.36                 0.948655222     -140.862172
9.361                  0.9485731     -141.127557
9.362                0.948491309     -141.393371
9.363                0.948409853     -141.659614
9.364                0.948328737     -141.926283
9.365                0.948247965     -142.193377
9.366                0.948167542     -142.460894
9.367                0.948087472     -142.728832
9.368                 0.94800776      -142.99719
9.369                 0.94792841     -143.265964
9.37                 0.947849426     -143.535154
9.371                0.947770813     -143.804758
9.372                0.947692575     -144.074773
9.373                0.947614718     -144.345197
9.374                0.947537244     -144.616029
9.375                 0.94746016     -144.887266
9.376                0.947383469     -145.158907
9.377                0.947307175     -145.430949
9.378                0.947231284      -145.70339
9.379                0.947155799     -145.976228
9.38                 0.947080725      -146.24946
9.381                0.947006067     -146.523086
9.382                0.946931828     -146.797101
9.383                0.946858014     -147.071505
9.384                0.946784629     -147.346295
9.385                0.946711677     -147.621468
9.386                0.946639163     -147.897023
9.387                 0.94656709     -148.172957
9.388                0.946495464     -148.449267
9.389                0.946424289     -148.725951
9.39                 0.946353569     -149.003008
9.391                0.946283309     -149.280433
9.392                0.946213512     -149.558226
9.393                0.946144184     -149.836383
9.394                0.946075328     -150.114902
9.395                 0.94600695      -150.39378
9.396                0.945939052     -150.673016
