! TOUCHSTONE file generated by CST DESIGN STUDIO
! Date and time: Tue Feb  4 14:06:58 2025
! Project name: C:\Work\MatlabApps\UnitCellOptimizationMatlab\CST\unitcell.cst
! Tree item: Tasks\Sweep1\SPara1\S-Parameters
! Header version: 2024
! Port assignment regex: !\s*Touchstone port\s*([0-9]+)\s*=\s*(CST MWS port|CST DES external port|CST DES block port)\s*(.+)\s* \(\"(.*)\"\)(\s*mode\s*([0-9]+))?.*
! Touchstone port assignment:
! Touchstone port 1 = CST DES external port 1 ("")
# GHz S MA R 50
9                    0.979118286     -62.9031152
9.001                0.979075501     -62.9903823
9.002                0.979032585     -63.0778517
9.003                0.978989538     -63.1655242
9.004                 0.97894636     -63.2534004
9.005                 0.97890305     -63.3414808
9.006                0.978859608     -63.4297661
9.007                0.978816033      -63.518257
9.008                0.978772326     -63.6069541
9.009                0.978728485      -63.695858
9.01                 0.978684511     -63.7849694
9.011                0.978640402     -63.8742889
9.012                0.978596159     -63.9638172
9.013                0.978551781      -64.053555
9.014                0.978507268     -64.1435028
9.015                0.978462619     -64.2336613
9.016                0.978417834     -64.3240312
9.017                0.978372912     -64.4146132
9.018                0.978327854     -64.5054078
9.019                0.978282658     -64.5964159
9.02                 0.978237324     -64.6876379
9.021                0.978191852     -64.7790747
9.022                0.978146242     -64.8707268
9.023                0.978100493      -64.962595
9.024                0.978054604     -65.0546798
9.025                0.978008576     -65.1469821
9.026                0.977962407     -65.2395024
9.027                0.977916098     -65.3322415
9.028                0.977869647        -65.4252
9.029                0.977823055     -65.5183787
9.03                 0.977776322     -65.6117781
9.031                0.977729446      -65.705399
9.032                0.977682427     -65.7992421
9.033                0.977635266      -65.893308
9.034                0.977587961     -65.9875976
9.035                0.977540512     -66.0821114
9.036                0.977492918     -66.1768502
9.037                 0.97744518     -66.2718146
9.038                0.977397297     -66.3670054
9.039                0.977349268     -66.4624233
9.04                 0.977301093      -66.558069
9.041                0.977252771     -66.6539432
9.042                0.977204303     -66.7500466
9.043                0.977155688     -66.8463799
9.044                0.977106925     -66.9429439
9.045                0.977058013     -67.0397392
9.046                0.977008954     -67.1367667
9.047                0.976959745     -67.2340269
9.048                0.976910387     -67.3315207
9.049                0.976860879     -67.4292488
9.05                 0.976811221     -67.5272119
9.051                0.976761412     -67.6254107
9.052                0.976711453      -67.723846
9.053                0.976661342     -67.8225185
9.054                0.976611079     -67.9214289
9.055                0.976560663     -68.0205781
9.056                0.976510095     -68.1199667
9.057                0.976459374     -68.2195955
9.058                0.976408499     -68.3194652
9.059                 0.97635747     -68.4195766
9.06                 0.976306287     -68.5199305
9.061                0.976254949     -68.6205276
9.062                0.976203456     -68.7213686
9.063                0.976151807     -68.8224544
9.064                0.976100002     -68.9237857
9.065                 0.97604804     -69.0253632
9.066                0.975995921     -69.1271877
9.067                0.975943645       -69.22926
9.068                0.975891211     -69.3315809
9.069                0.975838619     -69.4341512
9.07                 0.975785869     -69.5369716
9.071                0.975732959     -69.6400428
9.072                 0.97567989     -69.7433658
9.073                0.975626661     -69.8469412
9.074                0.975573271     -69.9507699
9.075                0.975519721     -70.0548526
9.076                0.975466009     -70.1591902
9.077                0.975412136     -70.2637834
9.078                0.975358101      -70.368633
9.079                0.975303904     -70.4737399
9.08                 0.975249543     -70.5791048
9.081                 0.97519502     -70.6847285
9.082                0.975140332     -70.7906118
9.083                0.975085481     -70.8967556
9.084                0.975030465     -71.0031607
9.085                0.974975284     -71.1098278
9.086                0.974919937     -71.2167579
9.087                0.974864425     -71.3239516
9.088                0.974808747     -71.4314098
9.089                0.974752902     -71.5391334
9.09                  0.97469689     -71.6471232
9.091                 0.97464071       -71.75538
9.092                0.974584363     -71.8639045
9.093                0.974527847     -71.9726978
9.094                0.974471163     -72.0817605
9.095                0.974414309     -72.1910936
9.096                0.974357286     -72.3006979
9.097                0.974300093     -72.4105741
9.098                 0.97424273     -72.5207232
9.099                0.974185196      -72.631146
9.1                   0.97412749     -72.7418434
9.101                0.974069613     -72.8528161
9.102                0.974011565     -72.9640651
9.103                0.973953343     -73.0755912
9.104                0.973894949     -73.1873953
9.105                0.973836382     -73.2994782
9.106                0.973777641     -73.4118407
9.107                0.973718726     -73.5244838
9.108                0.973659637     -73.6374084
9.109                0.973600373     -73.7506152
9.11                 0.973540934     -73.8641052
9.111                0.973481319     -73.9778792
9.112                0.973421528     -74.0919381
9.113                 0.97336156     -74.2062828
9.114                0.973301416     -74.3209141
9.115                0.973241095      -74.435833
9.116                0.973180596     -74.5510403
9.117                 0.97311992      -74.666537
9.118                0.973059064     -74.7823238
9.119                0.972998031     -74.8984018
9.12                 0.972936818     -75.0147717
9.121                0.972875425     -75.1314346
9.122                0.972813853     -75.2483912
9.123                  0.9727521     -75.3656425
9.124                0.972690167     -75.4831895
9.125                0.972628053     -75.6010329
9.126                0.972565757     -75.7191737
9.127                 0.97250328     -75.8376128
9.128                 0.97244062     -75.9563512
9.129                0.972377778     -76.0753897
9.13                 0.972314754     -76.1947293
9.131                0.972251545     -76.3143708
9.132                0.972188154     -76.4343153
9.133                0.972124578     -76.5545636
9.134                0.972060818     -76.6751166
9.135                0.971996874     -76.7959753
9.136                0.971932744     -76.9171406
9.137                0.971868429     -77.0386134
9.138                0.971803928     -77.1603947
9.139                0.971739242     -77.2824855
9.14                 0.971674368     -77.4048865
9.141                0.971609309     -77.5275989
9.142                0.971544062     -77.6506235
9.143                0.971478627     -77.7739612
9.144                0.971413005     -77.8976131
9.145                0.971347195       -78.02158
9.146                0.971281196      -78.145863
9.147                0.971215009     -78.2704629
9.148                0.971148632     -78.3953808
9.149                0.971082066     -78.5206175
9.15                 0.971015311     -78.6461741
9.151                0.970948365     -78.7720515
9.152                0.970881229     -78.8982507
9.153                0.970813903     -79.0247725
9.154                0.970746386     -79.1516181
9.155                0.970678677     -79.2787884
9.156                0.970610777     -79.4062843
9.157                0.970542685     -79.5341068
9.158                0.970474401     -79.6622569
9.159                0.970405924     -79.7907356
9.16                 0.970337255     -79.9195438
9.161                0.970268393     -80.0486825
9.162                0.970199338     -80.1781528
9.163                0.970130089     -80.3079555
9.164                0.970060646     -80.4380917
9.165                 0.96999101     -80.5685624
9.166                0.969921179     -80.6993685
9.167                0.969851153     -80.8305111
9.168                0.969780933     -80.9619911
9.169                0.969710518     -81.0938095
9.17                 0.969639907     -81.2259674
9.171                0.969569101     -81.3584657
9.172                0.969498099     -81.4913054
9.173                0.969426901     -81.6244876
9.174                0.969355507     -81.7580132
9.175                0.969283917     -81.8918832
9.176                0.969212129     -82.0260987
9.177                0.969140145     -82.1606607
9.178                0.969067964     -82.2955701
9.179                0.968995586      -82.430828
9.18                  0.96892301     -82.5664354
9.181                0.968850236     -82.7023933
9.182                0.968777265     -82.8387027
9.183                0.968704096     -82.9753646
9.184                0.968630728     -83.1123802
9.185                0.968557162     -83.2497502
9.186                0.968483398     -83.3874759
9.187                0.968409434     -83.5255583
9.188                0.968335272     -83.6639982
9.189                0.968260911     -83.8027969
9.19                 0.968186351     -83.9419552
9.191                0.968111592     -84.0814743
9.192                0.968036633     -84.2213552
9.193                0.967961475     -84.3615988
9.194                0.967886117     -84.5022063
9.195                0.967810559     -84.6431787
9.196                0.967734801     -84.7845169
9.197                0.967658844     -84.9262221
9.198                0.967582686     -85.0682952
9.199                0.967506328     -85.2107374
9.2                   0.96742977     -85.3535496
9.201                0.967353012     -85.4967328
9.202                0.967276054     -85.6402883
9.203                0.967198895     -85.7842168
9.204                0.967121535     -85.9285196
9.205                0.967043975     -86.0731977
9.206                0.966966215     -86.2182521
9.207                0.966888254     -86.3636838
9.208                0.966810092     -86.5094939
9.209                 0.96673173     -86.6556835
9.21                 0.966653167     -86.8022535
9.211                0.966574403     -86.9492051
9.212                0.966495439     -87.0965393
9.213                0.966416275     -87.2442571
9.214                0.966336909     -87.3923596
9.215                0.966257344     -87.5408479
9.216                0.966177577      -87.689723
9.217                0.966097611     -87.8389859
9.218                0.966017444     -87.9886377
9.219                0.965937076     -88.1386794
9.22                 0.965856509     -88.2891122
9.221                0.965775741      -88.439937
9.222                0.965694773      -88.591155
9.223                0.965613606     -88.7427671
9.224                0.965532238     -88.8947745
9.225                0.965450671     -89.0471781
9.226                0.965368904     -89.1999791
9.227                0.965286938     -89.3531784
9.228                0.965204772     -89.5067772
9.229                0.965122408     -89.6607765
9.23                 0.965039844     -89.8151774
9.231                0.964957081     -89.9699809
9.232                 0.96487412      -90.125188
9.233                0.964790961     -90.2807999
9.234                0.964707603     -90.4368175
9.235                0.964624048      -90.593242
9.236                0.964540294     -90.7500744
9.237                0.964456343     -90.9073157
9.238                0.964372195      -91.064967
9.239                 0.96428785     -91.2230293
9.24                 0.964203309     -91.3815037
9.241                 0.96411857     -91.5403913
9.242                0.964033636     -91.6996931
9.243                0.963948506     -91.8594101
9.244                 0.96386318     -92.0195434
9.245                0.963777659     -92.1800941
9.246                0.963691944     -92.3410632
9.247                0.963606034     -92.5024517
9.248                0.963519929     -92.6642607
9.249                0.963433632     -92.8264912
9.25                  0.96334714     -92.9891444
9.251                0.963260456     -93.1522211
9.252                 0.96317358     -93.3157225
9.253                0.963086511     -93.4796496
9.254                 0.96299925     -93.6440035
9.255                0.962911799     -93.8087851
9.256                0.962824157     -93.9739955
9.257                0.962736324     -94.1396358
9.258                0.962648302      -94.305707
9.259                 0.96256009     -94.4722101
9.26                  0.96247169     -94.6391462
9.261                0.962383102     -94.8065162
9.262                0.962294326     -94.9743213
9.263                0.962205363     -95.1425623
9.264                0.962116213     -95.3112404
9.265                0.962026878     -95.4803566
9.266                0.961937357     -95.6499119
9.267                0.961847652     -95.8199073
9.268                0.961757763     -95.9903438
9.269                 0.96166769     -96.1612225
9.27                 0.961577435     -96.3325442
9.271                0.961486997     -96.5043102
9.272                0.961396379     -96.6765213
9.273                0.961305579     -96.8491785
9.274                  0.9612146     -97.0222829
9.275                0.961123442     -97.1958355
9.276                0.961032105     -97.3698372
9.277                0.960940591     -97.5442891
9.278                  0.9608489     -97.7191921
9.279                0.960757033     -97.8945472
9.28                 0.960664991     -98.0703554
9.281                0.960572774     -98.2466177
9.282                0.960480384      -98.423335
9.283                0.960387822     -98.6005084
9.284                0.960295088     -98.7781387
9.285                0.960202183      -98.956227
9.286                0.960109108     -99.1347743
9.287                0.960015864     -99.3137814
9.288                0.959922452     -99.4932493
9.289                0.959828874     -99.6731791
9.29                 0.959735129     -99.8535715
9.291                0.959641219     -100.034428
9.292                0.959547146     -100.215748
9.293                 0.95945291     -100.397535
9.294                0.959358512     -100.579787
9.295                0.959263953     -100.762508
9.296                0.959169235     -100.945696
9.297                0.959074358     -101.129354
9.298                0.958979324     -101.313482
9.299                0.958884134     -101.498081
9.3                  0.958788789     -101.683152
9.301                 0.95869329     -101.868695
9.302                0.958597639     -102.054713
9.303                0.958501836     -102.241205
9.304                0.958405884     -102.428173
9.305                0.958309783     -102.615617
9.306                0.958213534     -102.803538
9.307                 0.95811714     -102.991938
9.308                  0.9580206     -103.180816
9.309                0.957923918     -103.370174
9.31                 0.957827093     -103.560013
9.311                0.957730128     -103.750334
9.312                0.957633024     -103.941137
9.313                0.957535783     -104.132423
9.314                0.957438405     -104.324193
9.315                0.957340892     -104.516448
9.316                0.957243247     -104.709189
9.317                 0.95714547     -104.902416
9.318                0.957047563      -105.09613
9.319                0.956949527     -105.290333
9.32                 0.956851365     -105.485024
9.321                0.956753077     -105.680205
9.322                0.956654667     -105.875876
9.323                0.956556134     -106.072038
9.324                0.956457481     -106.268693
9.325                 0.95635871      -106.46584
9.326                0.956259822      -106.66348
9.327                0.956160819     -106.861614
9.328                0.956061703     -107.060244
9.329                0.955962476     -107.259368
9.33                  0.95586314     -107.458989
9.331                0.955763696     -107.659107
9.332                0.955664146     -107.859723
9.333                0.955564493     -108.060837
9.334                0.955464738      -108.26245
9.335                0.955364883     -108.464563
9.336                 0.95526493     -108.667176
9.337                0.955164882      -108.87029
9.338                 0.95506474     -109.073905
9.339                0.954964506     -109.278023
9.34                 0.954864182     -109.482644
9.341                0.954763771     -109.687768
9.342                0.954663275     -109.893397
9.343                0.954562695      -110.09953
9.344                0.954462035     -110.306168
9.345                0.954361296     -110.513312
9.346                 0.95426048     -110.720962
9.347                 0.95415959     -110.929119
9.348                0.954058628     -111.137784
9.349                0.953957597     -111.346957
9.35                 0.953856498     -111.556638
9.351                0.953755335     -111.766829
9.352                0.953654109     -111.977529
9.353                0.953552823     -112.188739
9.354                0.953451479     -112.400459
9.355                 0.95335008      -112.61269
9.356                0.953248629     -112.825433
9.357                0.953147127     -113.038688
9.358                0.953045578     -113.252454
9.359                0.952943984     -113.466734
9.36                 0.952842348     -113.681527
9.361                0.952740672     -113.896833
9.362                 0.95263896     -114.112653
9.363                0.952537213     -114.328987
9.364                0.952435434     -114.545836
9.365                0.952333627       -114.7632
9.366                0.952231793     -114.981079
9.367                0.952129937     -115.199473
9.368                 0.95202806     -115.418384
9.369                0.951926166      -115.63781
9.37                 0.951824257     -115.857753
9.371                0.951722336     -116.078213
9.372                0.951620407      -116.29919
9.373                0.951518471     -116.520684
9.374                0.951416534     -116.742695
9.375                0.951314596     -116.965224
9.376                0.951212662     -117.188271
9.377                0.951110734     -117.411836
9.378                0.951008816     -117.635919
9.379                 0.95090691      -117.86052
9.38                  0.95080502      -118.08564
9.381                 0.95070315     -118.311278
9.382                0.950601301     -118.537435
9.383                0.950499478      -118.76411
9.384                0.950397684     -118.991305
9.385                0.950295922     -119.219018
9.386                0.950194196      -119.44725
9.387                0.950092509     -119.676001
9.388                0.949990863     -119.905271
9.389                0.949889264     -120.135061
9.39                 0.949787713     -120.365368
9.391                0.949686215     -120.596195
9.392                0.949584773     -120.827541
9.393                0.949483391     -121.059405
9.394                0.949382072     -121.291788
9.395                 0.94928082      -121.52469
9.396                0.949179638     -121.758109
