! TOUCHSTONE file generated by CST DESIGN STUDIO
! Date and time: Tue Feb  4 14:06:53 2025
! Project name: C:\Work\MatlabApps\UnitCellOptimizationMatlab\CST\unitcell.cst
! Tree item: Tasks\Sweep1\SPara1\S-Parameters
! Header version: 2024
! Port assignment regex: !\s*Touchstone port\s*([0-9]+)\s*=\s*(CST MWS port|CST DES external port|CST DES block port)\s*(.+)\s* \(\"(.*)\"\)(\s*mode\s*([0-9]+))?.*
! Touchstone port assignment:
! Touchstone port 1 = CST DES external port 1 ("")
# GHz S MA R 50
9                    0.978397326     -69.1303887
9.001                0.978348554     -69.2305053
9.002                0.978299633     -69.3308627
9.003                0.978250564     -69.4314616
9.004                0.978201345     -69.5323027
9.005                0.978151978     -69.6333868
9.006                0.978102461     -69.7347146
9.007                0.978052793     -69.8362869
9.008                0.978002975     -69.9381044
9.009                0.977953007      -70.040168
9.01                 0.977902886     -70.1424782
9.011                0.977852614      -70.245036
9.012                 0.97780219     -70.3478421
9.013                0.977751613     -70.4508971
9.014                0.977700883      -70.554202
9.015                    0.97765     -70.6577574
9.016                0.977598962     -70.7615642
9.017                0.977547771     -70.8656231
9.018                0.977496425     -70.9699348
9.019                0.977444923     -71.0745002
9.02                 0.977393267     -71.1793201
9.021                0.977341454     -71.2843951
9.022                0.977289485     -71.3897262
9.023                0.977237359     -71.4953141
9.024                0.977185077     -71.6011595
9.025                0.977132636     -71.7072633
9.026                0.977080038     -71.8136263
9.027                0.977027281     -71.9202492
9.028                0.976974366     -72.0271329
9.029                0.976921291     -72.1342781
9.03                 0.976868057     -72.2416857
9.031                0.976814663     -72.3493564
9.032                0.976761108     -72.4572911
9.033                0.976707393     -72.5654906
9.034                0.976653516     -72.6739557
9.035                0.976599478     -72.7826871
9.036                0.976545278     -72.8916858
9.037                0.976490915     -73.0009525
9.038                 0.97643639      -73.110488
9.039                0.976381701     -73.2202932
9.04                 0.976326849      -73.330369
9.041                0.976271832      -73.440716
9.042                0.976216652     -73.5513351
9.043                0.976161306     -73.6622273
9.044                0.976105795     -73.7733932
9.045                0.976050119     -73.8848338
9.046                0.975994277     -73.9965499
9.047                0.975938268     -74.1085423
9.048                0.975882092     -74.2208119
9.049                 0.97582575     -74.3333595
9.05                 0.975769239     -74.4461859
9.051                0.975712561      -74.559292
9.052                0.975655714     -74.6726787
9.053                0.975598699     -74.7863468
9.054                0.975541514     -74.9002971
9.055                 0.97548416     -75.0145306
9.056                0.975426636      -75.129048
9.057                0.975368942     -75.2438502
9.058                0.975311077     -75.3589382
9.059                0.975253041     -75.4743127
9.06                 0.975194833     -75.5899747
9.061                0.975136454     -75.7059249
9.062                0.975077902     -75.8221643
9.063                0.975019178     -75.9386938
9.064                0.974960281     -76.0555142
9.065                0.974901211     -76.1726264
9.066                0.974841967     -76.2900313
9.067                0.974782549     -76.4077297
9.068                0.974722956     -76.5257226
9.069                0.974663189     -76.6440108
9.07                 0.974603246     -76.7625952
9.071                0.974543128     -76.8814768
9.072                0.974482834     -77.0006563
9.073                0.974422364     -77.1201348
9.074                0.974361717      -77.239913
9.075                0.974300894      -77.359992
9.076                0.974239893     -77.4803725
9.077                0.974178714     -77.6010555
9.078                0.974117357      -77.722042
9.079                0.974055822     -77.8433328
9.08                 0.973994109     -77.9649287
9.081                0.973932216     -78.0868308
9.082                0.973870144       -78.20904
9.083                0.973807892     -78.3315571
9.084                 0.97374546     -78.4543831
9.085                0.973682847     -78.5775189
9.086                0.973620054     -78.7009654
9.087                 0.97355708     -78.8247236
9.088                0.973493925     -78.9487943
9.089                0.973430587     -79.0731785
9.09                 0.973367068     -79.1978772
9.091                0.973303367     -79.3228911
9.092                0.973239482     -79.4482214
9.093                0.973175415     -79.5738689
9.094                0.973111165     -79.6998345
9.095                0.973046731     -79.8261193
9.096                0.972982113      -79.952724
9.097                0.972917311     -80.0796498
9.098                0.972852324     -80.2068974
9.099                0.972787153     -80.3344679
9.1                  0.972721797     -80.4623622
9.101                0.972656255     -80.5905813
9.102                0.972590528     -80.7191261
9.103                0.972524614     -80.8479975
9.104                0.972458515     -80.9771966
9.105                0.972392229     -81.1067242
9.106                0.972325756     -81.2365814
9.107                0.972259097      -81.366769
9.108                 0.97219225     -81.4972881
9.109                0.972125215     -81.6281396
9.11                 0.972057993     -81.7593245
9.111                0.971990583     -81.8908437
9.112                0.971922984     -82.0226982
9.113                0.971855197      -82.154889
9.114                0.971787222      -82.287417
9.115                0.971719057     -82.4202832
9.116                0.971650703     -82.5534887
9.117                0.971582159     -82.6870343
9.118                0.971513426      -82.820921
9.119                0.971444503     -82.9551498
9.12                  0.97137539     -83.0897218
9.121                0.971306087     -83.2246378
9.122                0.971236593     -83.3598989
9.123                0.971166908      -83.495506
9.124                0.971097032     -83.6314602
9.125                0.971026966     -83.7677623
9.126                0.970956708     -83.9044135
9.127                0.970886258     -84.0414146
9.128                0.970815617     -84.1787668
9.129                0.970744785     -84.3164709
9.13                  0.97067376     -84.4545279
9.131                0.970602543     -84.5929389
9.132                0.970531133     -84.7317049
9.133                0.970459532     -84.8708268
9.134                0.970387738     -85.0103057
9.135                0.970315751     -85.1501425
9.136                0.970243571     -85.2903382
9.137                0.970171198     -85.4308939
9.138                0.970098632     -85.5718105
9.139                0.970025873      -85.713089
9.14                 0.969952921     -85.8547305
9.141                0.969879775      -85.996736
9.142                0.969806436     -86.1391064
9.143                0.969732903     -86.2818427
9.144                0.969659176      -86.424946
9.145                0.969585256     -86.5684173
9.146                0.969511142     -86.7122576
9.147                0.969436834     -86.8564679
9.148                0.969362332     -87.0010491
9.149                0.969287636     -87.1460024
9.15                 0.969212746     -87.2913287
9.151                0.969137662      -87.437029
9.152                0.969062384     -87.5831044
9.153                0.968986911     -87.7295558
9.154                0.968911245     -87.8763843
9.155                0.968835384     -88.0235909
9.156                 0.96875933     -88.1711766
9.157                0.968683081     -88.3191424
9.158                0.968606638     -88.4674893
9.159                0.968530001     -88.6162183
9.16                  0.96845317     -88.7653305
9.161                0.968376145     -88.9148269
9.162                0.968298926     -89.0647085
9.163                0.968221513     -89.2149763
9.164                0.968143906     -89.3656313
9.165                0.968066105     -89.5166745
9.166                0.967988111      -89.668107
9.167                0.967909923     -89.8199297
9.168                0.967831542     -89.9721438
9.169                0.967752967     -90.1247501
9.17                 0.967674199     -90.2777498
9.171                0.967595238     -90.4311438
9.172                0.967516083     -90.5849331
9.173                0.967436736     -90.7391188
9.174                0.967357197     -90.8937019
9.175                0.967277464     -91.0486834
9.176                0.967197539     -91.2040643
9.177                0.967117422     -91.3598456
9.178                0.967037113     -91.5160284
9.179                0.966956613     -91.6726136
9.18                  0.96687592     -91.8296023
9.181                0.966795036     -91.9869955
9.182                0.966713961     -92.1447941
9.183                0.966632695     -92.3029992
9.184                0.966551239     -92.4616119
9.185                0.966469592     -92.6206331
9.186                0.966387755     -92.7800638
9.187                0.966305728      -92.939905
9.188                0.966223512     -93.1001578
9.189                0.966141106     -93.2608231
9.19                 0.966058512      -93.421902
9.191                0.965975729     -93.5833954
9.192                0.965892757     -93.7453043
9.193                0.965809598     -93.9076299
9.194                0.965726251      -94.070373
9.195                0.965642717     -94.2335346
9.196                0.965558997     -94.3971158
9.197                 0.96547509     -94.5611175
9.198                0.965390997     -94.7255408
9.199                0.965306718     -94.8903866
9.2                  0.965222255     -95.0556559
9.201                0.965137606     -95.2213498
9.202                0.965052774     -95.3874691
9.203                0.964967758     -95.5540149
9.204                0.964882559     -95.7209882
9.205                0.964797177     -95.8883899
9.206                0.964711613      -96.056221
9.207                0.964625867     -96.2244826
9.208                 0.96453994     -96.3931755
9.209                0.964453832     -96.5623008
9.21                 0.964367545     -96.7318594
9.211                0.964281078     -96.9018523
9.212                0.964194432     -97.0722804
9.213                0.964107608     -97.2431447
9.214                0.964020606     -97.4144463
9.215                0.963933428     -97.5861859
9.216                0.963846073     -97.7583647
9.217                0.963758542     -97.9309835
9.218                0.963670837     -98.1040433
9.219                0.963582957      -98.277545
9.22                 0.963494904     -98.4514896
9.221                0.963406678      -98.625878
9.222                 0.96331828     -98.8007112
9.223                0.963229711       -98.97599
9.224                0.963140971     -99.1517155
9.225                0.963052061     -99.3278886
9.226                0.962962983     -99.5045101
9.227                0.962873736      -99.681581
9.228                0.962784322     -99.8591022
9.229                0.962694742     -100.037075
9.23                 0.962604996     -100.215499
9.231                0.962515085     -100.394377
9.232                0.962425011     -100.573708
9.233                0.962334774     -100.753495
9.234                0.962244375     -100.933737
9.235                0.962153815     -101.114436
9.236                0.962063095     -101.295592
9.237                0.961972216     -101.477206
9.238                 0.96188118      -101.65928
9.239                0.961789986     -101.841814
9.24                 0.961698636     -102.024809
9.241                0.961607132     -102.208266
9.242                0.961515474     -102.392185
9.243                0.961423663     -102.576569
9.244                0.961331701     -102.761416
9.245                0.961239588     -102.946729
9.246                0.961147326     -103.132508
9.247                0.961054916     -103.318753
9.248                0.960962359     -103.505467
9.249                0.960869657     -103.692649
9.25                  0.96077681       -103.8803
9.251                 0.96068382     -104.068422
9.252                0.960590688     -104.257014
9.253                0.960497415     -104.446079
9.254                0.960404004     -104.635616
9.255                0.960310454     -104.825626
9.256                0.960216767      -105.01611
9.257                0.960122946      -105.20707
9.258                 0.96002899     -105.398505
9.259                0.959934902     -105.590416
9.26                 0.959840683     -105.782804
9.261                0.959746334     -105.975671
9.262                0.959651858     -106.169016
9.263                0.959557254     -106.362841
9.264                0.959462526     -106.557145
9.265                0.959367674     -106.751931
9.266                  0.9592727     -106.947198
9.267                0.959177606     -107.142947
9.268                0.959082393      -107.33918
9.269                0.958987063     -107.535895
9.27                 0.958891617     -107.733096
9.271                0.958796057     -107.930781
9.272                0.958700386     -108.128952
9.273                0.958604603     -108.327609
9.274                0.958508712     -108.526753
9.275                0.958412714     -108.726385
9.276                0.958316611     -108.926505
9.277                0.958220405     -109.127113
9.278                0.958124096     -109.328212
9.279                0.958027689       -109.5298
9.28                 0.957931183     -109.731879
9.281                0.957834581     -109.934449
9.282                0.957737886     -110.137511
9.283                0.957641098     -110.341065
9.284                 0.95754422     -110.545113
9.285                0.957447254     -110.749653
9.286                0.957350202     -110.954688
9.287                0.957253066     -111.160218
9.288                0.957155848     -111.366242
9.289                 0.95705855     -111.572762
9.29                 0.956961174     -111.779779
9.291                0.956863722     -111.987291
9.292                0.956766197     -112.195301
9.293                0.956668601     -112.403809
9.294                0.956570935     -112.612814
9.295                0.956473203     -112.822318
9.296                0.956375405     -113.032321
9.297                0.956277546     -113.242823
9.298                0.956179626     -113.453824
9.299                0.956081649     -113.665326
9.3                  0.955983616     -113.877329
9.301                0.955885531     -114.089832
9.302                0.955787395     -114.302836
9.303                 0.95568921     -114.516342
9.304                 0.95559098      -114.73035
9.305                0.955492707     -114.944861
9.306                0.955394393     -115.159874
9.307                0.955296041      -115.37539
9.308                0.955197653     -115.591409
9.309                0.955099232     -115.807931
9.31                 0.955000781     -116.024957
9.311                0.954902302     -116.242488
9.312                0.954803798     -116.460522
9.313                0.954705272     -116.679061
9.314                0.954606726     -116.898105
9.315                0.954508163     -117.117654
9.316                0.954409585     -117.337708
9.317                0.954310997     -117.558267
9.318                0.954212399     -117.779331
9.319                0.954113796     -118.000901
9.32                  0.95401519     -118.222977
9.321                0.953916585     -118.445558
9.322                0.953817982     -118.668646
9.323                0.953719385     -118.892239
9.324                0.953620797     -119.116339
9.325                0.953522221     -119.340945
9.326                0.953423659     -119.566057
9.327                0.953325116     -119.791675
9.328                0.953226594       -120.0178
9.329                0.953128095      -120.24443
9.33                 0.953029624     -120.471567
9.331                0.952931184     -120.699211
9.332                0.952832777      -120.92736
9.333                0.952734407     -121.156015
9.334                0.952636077     -121.385177
9.335                 0.95253779     -121.614844
9.336                 0.95243955     -121.845017
9.337                 0.95234136     -122.075696
9.338                0.952243223      -122.30688
9.339                0.952145143      -122.53857
9.34                 0.952047123     -122.770765
9.341                0.951949166     -123.003465
9.342                0.951851276     -123.236669
9.343                0.951753456     -123.470379
9.344                 0.95165571     -123.704592
9.345                0.951558042     -123.939309
9.346                0.951460454     -124.174531
9.347                0.951362951     -124.410255
9.348                0.951265536     -124.646483
9.349                0.951168212     -124.883214
9.35                 0.951070984     -125.120446
9.351                0.950973854     -125.358181
9.352                0.950876828     -125.596418
9.353                0.950779907     -125.835156
9.354                0.950683097     -126.074394
9.355                  0.9505864     -126.314133
9.356                0.950489821     -126.554372
9.357                0.950393364      -126.79511
9.358                0.950297032     -127.036347
9.359                0.950200829     -127.278083
9.36                 0.950104759     -127.520316
9.361                0.950008825     -127.763047
9.362                0.949913033     -128.006274
9.363                0.949817385     -128.249997
9.364                0.949721886     -128.494215
9.365                 0.94962654     -128.738928
9.366                 0.94953135     -128.984136
9.367                0.949436321     -129.229837
9.368                0.949341457      -129.47603
9.369                0.949246762     -129.722715
9.37                  0.94915224     -129.969892
9.371                0.949057895     -130.217559
9.372                0.948963731     -130.465715
9.373                0.948869753     -130.714361
9.374                0.948775964     -130.963494
9.375                0.948682369     -131.213114
9.376                0.948588972     -131.463221
9.377                0.948495777     -131.713813
9.378                0.948402788     -131.964889
9.379                0.948310011     -132.216449
9.38                 0.948217448     -132.468491
9.381                0.948125105     -132.721015
9.382                0.948032985     -132.974019
9.383                0.947941093     -133.227503
9.384                0.947849434     -133.481465
9.385                0.947758012     -133.735905
9.386                0.947666831      -133.99082
9.387                0.947575895     -134.246211
9.388                0.947485209     -134.502075
9.389                0.947394778     -134.758413
9.39                 0.947304606     -135.015221
9.391                0.947214697     -135.272501
9.392                0.947125055     -135.530249
9.393                0.947035687     -135.788465
9.394                0.946946595     -136.047147
9.395                0.946857784     -136.306295
9.396                 0.94676926     -136.565907
