! TOUCHSTONE file generated by CST DESIGN STUDIO
! Date and time: Tue Feb  4 14:06:44 2025
! Project name: C:\Work\MatlabApps\UnitCellOptimizationMatlab\CST\unitcell.cst
! Tree item: Tasks\Sweep1\SPara1\S-Parameters
! Header version: 2024
! Port assignment regex: !\s*Touchstone port\s*([0-9]+)\s*=\s*(CST MWS port|CST DES external port|CST DES block port)\s*(.+)\s* \(\"(.*)\"\)(\s*mode\s*([0-9]+))?.*
! Touchstone port assignment:
! Touchstone port 1 = CST DES external port 1 ("")
# GHz S MA R 50
9                    0.977250665     -80.3209105
9.001                0.977192387     -80.4471486
9.002                0.977133937     -80.5737043
9.003                0.977075314     -80.7005787
9.004                0.977016517     -80.8277725
9.005                0.976957547     -80.9552868
9.006                0.976898403     -81.0831225
9.007                0.976839084     -81.2112805
9.008                0.976779591     -81.3397617
9.009                0.976719923     -81.4685671
9.01                  0.97666008     -81.5976976
9.011                0.976600061     -81.7271542
9.012                0.976539867     -81.8569377
9.013                0.976479496     -81.9870491
9.014                0.976418949     -82.1174894
9.015                0.976358226     -82.2482594
9.016                0.976297326     -82.3793603
9.017                0.976236248     -82.5107928
9.018                0.976174993     -82.6425579
9.019                 0.97611356     -82.7746566
9.02                 0.976051949     -82.9070898
9.021                 0.97599016     -83.0398586
9.022                0.975928193     -83.1729637
9.023                0.975866046     -83.3064062
9.024                0.975803721     -83.4401871
9.025                0.975741216     -83.5743073
9.026                0.975678532     -83.7087677
9.027                0.975615668     -83.8435693
9.028                0.975552624     -83.9787131
9.029                  0.9754894        -84.1142
9.03                 0.975425995     -84.2500311
9.031                 0.97536241     -84.3862071
9.032                0.975298643     -84.5227293
9.033                0.975234696     -84.6595983
9.034                0.975170567     -84.7968154
9.035                0.975106257     -84.9343814
9.036                0.975041765     -85.0722972
9.037                 0.97497709     -85.2105639
9.038                0.974912234     -85.3491825
9.039                0.974847196     -85.4881539
9.04                 0.974781975      -85.627479
9.041                0.974716571     -85.7671589
9.042                0.974650984     -85.9071945
9.043                0.974585214     -86.0475869
9.044                0.974519261     -86.1883369
9.045                0.974453125     -86.3294456
9.046                0.974386805     -86.4709139
9.047                0.974320302     -86.6127428
9.048                0.974253614     -86.7549334
9.049                0.974186743     -86.8974865
9.05                 0.974119688     -87.0404031
9.051                0.974052448     -87.1836844
9.052                0.973985024     -87.3273311
9.053                0.973917415     -87.4713444
9.054                0.973849622     -87.6157251
9.055                0.973781644     -87.7604744
9.056                0.973713482     -87.9055931
9.057                0.973645134     -88.0510822
9.058                0.973576602     -88.1969428
9.059                0.973507884     -88.3431759
9.06                 0.973438982     -88.4897823
9.061                0.973369894     -88.6367631
9.062                0.973300621     -88.7841193
9.063                0.973231162     -88.9318519
9.064                0.973161519     -89.0799619
9.065                0.973091689     -89.2284502
9.066                0.973021675     -89.3773179
9.067                0.972951475     -89.5265658
9.068                0.972881089     -89.6761951
9.069                0.972810518     -89.8262067
9.07                 0.972739761     -89.9766017
9.071                0.972668819     -90.1273808
9.072                0.972597692     -90.2785453
9.073                0.972526378      -90.430096
9.074                 0.97245488      -90.582034
9.075                0.972383196     -90.7343602
9.076                0.972311326     -90.8870757
9.077                0.972239271     -91.0401814
9.078                0.972167031     -91.1936782
9.079                0.972094606     -91.3475673
9.08                 0.972021995     -91.5018496
9.081                0.971949199      -91.656526
9.082                0.971876218     -91.8115975
9.083                0.971803053     -91.9670652
9.084                0.971729702     -92.1229301
9.085                0.971656167      -92.279193
9.086                0.971582447      -92.435855
9.087                0.971508543     -92.5929171
9.088                0.971434454     -92.7503803
9.089                0.971360181     -92.9082455
9.09                 0.971285724     -93.0665137
9.091                0.971211084     -93.2251859
9.092                0.971136259      -93.384263
9.093                0.971061251     -93.5437462
9.094                 0.97098606     -93.7036362
9.095                0.970910686     -93.8639342
9.096                0.970835129      -94.024641
9.097                0.970759389     -94.1857577
9.098                0.970683466     -94.3472852
9.099                0.970607362     -94.5092245
9.1                  0.970531075     -94.6715766
9.101                0.970454607     -94.8343424
9.102                0.970377958     -94.9975229
9.103                0.970301127      -95.161119
9.104                0.970224115     -95.3251318
9.105                0.970146923     -95.4895621
9.106                0.970069551      -95.654411
9.107                0.969991999     -95.8196794
9.108                0.969914267     -95.9853683
9.109                0.969836356     -96.1514785
9.11                 0.969758266     -96.3180111
9.111                0.969679998     -96.4849671
9.112                0.969601552     -96.6523472
9.113                0.969522928     -96.8201526
9.114                0.969444127     -96.9883841
9.115                0.969365149     -97.1570427
9.116                0.969285994     -97.3261293
9.117                0.969206664     -97.4956449
9.118                0.969127158     -97.6655904
9.119                0.969047476     -97.8359667
9.12                 0.968967621     -98.0067747
9.121                0.968887591     -98.1780155
9.122                0.968807388     -98.3496898
9.123                0.968727012     -98.5217986
9.124                0.968646463     -98.6943429
9.125                0.968565742     -98.8673235
9.126                 0.96848485     -99.0407413
9.127                0.968403787     -99.2145974
9.128                0.968322553     -99.3888924
9.129                 0.96824115     -99.5636275
9.13                 0.968159578     -99.7388034
9.131                0.968077838     -99.9144211
9.132                 0.96799593     -100.090481
9.133                0.967913854     -100.266985
9.134                0.967831613     -100.443934
9.135                0.967749205     -100.621327
9.136                0.967666632     -100.799167
9.137                0.967583896     -100.977454
9.138                0.967500995     -101.156188
9.139                0.967417932     -101.335372
9.14                 0.967334706     -101.515005
9.141                0.967251319     -101.695089
9.142                0.967167772     -101.875624
9.143                0.967084065     -102.056611
9.144                0.967000199     -102.238051
9.145                0.966916175     -102.419945
9.146                0.966831994     -102.602293
9.147                0.966747656     -102.785098
9.148                0.966663163     -102.968358
9.149                0.966578515     -103.152076
9.15                 0.966493714     -103.336252
9.151                 0.96640876     -103.520886
9.152                0.966323654      -103.70598
9.153                0.966238397     -103.891535
9.154                0.966152991      -104.07755
9.155                0.966067435     -104.264028
9.156                0.965981732     -104.450968
9.157                0.965895882     -104.638372
9.158                0.965809887      -104.82624
9.159                0.965723746     -105.014573
9.16                 0.965637463     -105.203372
9.161                0.965551036     -105.392637
9.162                0.965464469      -105.58237
9.163                0.965377761      -105.77257
9.164                0.965290915      -105.96324
9.165                 0.96520393     -106.154379
9.166                0.965116809     -106.345988
9.167                0.965029552     -106.538068
9.168                0.964942161      -106.73062
9.169                0.964854638     -106.923644
9.17                 0.964766982     -107.117141
9.171                0.964679197     -107.311111
9.172                0.964591282     -107.505556
9.173                0.964503239     -107.700476
9.174                 0.96441507     -107.895872
9.175                0.964326776     -108.091744
9.176                0.964238359     -108.288093
9.177                0.964149819      -108.48492
9.178                0.964061159     -108.682225
9.179                0.963972379     -108.880008
9.18                 0.963883481     -109.078272
9.181                0.963794467     -109.277015
9.182                0.963705338     -109.476239
9.183                0.963616096     -109.675944
9.184                0.963526742     -109.876132
9.185                0.963437277     -110.076801
9.186                0.963347704     -110.277954
9.187                0.963258025      -110.47959
9.188                0.963168239      -110.68171
9.189                 0.96307835     -110.884315
9.19                 0.962988359     -111.087405
9.191                0.962898268     -111.290981
9.192                0.962808078     -111.495043
9.193                0.962717791     -111.699591
9.194                0.962627409     -111.904627
9.195                0.962536933     -112.110151
9.196                0.962446367     -112.316162
9.197                 0.96235571     -112.522662
9.198                0.962264966     -112.729651
9.199                0.962174135      -112.93713
9.2                  0.962083221     -113.145098
9.201                0.961992224     -113.353557
9.202                0.961901147     -113.562506
9.203                0.961809992     -113.771947
9.204                 0.96171876     -113.981879
9.205                0.961627455     -114.192302
9.206                0.961536077     -114.403218
9.207                0.961444628     -114.614627
9.208                0.961353112     -114.826529
9.209                 0.96126153     -115.038923
9.21                 0.961169884     -115.251811
9.211                0.961078176     -115.465193
9.212                0.960986408      -115.67907
9.213                0.960894583      -115.89344
9.214                0.960802703     -116.108306
9.215                 0.96071077     -116.323666
9.216                0.960618786     -116.539521
9.217                0.960526754     -116.755872
9.218                0.960434676     -116.972718
9.219                0.960342554      -117.19006
9.22                  0.96025039     -117.407899
9.221                0.960158188     -117.626233
9.222                0.960065949     -117.845064
9.223                0.959973676     -118.064391
9.224                0.959881371     -118.284215
9.225                0.959789036     -118.504535
9.226                0.959696675     -118.725353
9.227                 0.95960429     -118.946667
9.228                0.959511883     -119.168478
9.229                0.959419457     -119.390787
9.23                 0.959327014     -119.613592
9.231                0.959234557     -119.836895
9.232                0.959142089     -120.060695
9.233                0.959049613     -120.284992
9.234                 0.95895713     -120.509787
9.235                0.958864644     -120.735078
9.236                0.958772158     -120.960867
9.237                0.958679674     -121.187153
9.238                0.958587195     -121.413936
9.239                0.958494724     -121.641216
9.24                 0.958402263     -121.868992
9.241                0.958309816     -122.097265
9.242                0.958217386     -122.326035
9.243                0.958124974     -122.555302
9.244                0.958032585     -122.785064
9.245                0.957940222     -123.015323
9.246                0.957847886     -123.246077
9.247                0.957755581     -123.477328
9.248                0.957663311     -123.709073
9.249                0.957571078     -123.941314
9.25                 0.957478885      -124.17405
9.251                0.957386736      -124.40728
9.252                0.957294633     -124.641005
9.253                 0.95720258     -124.875224
9.254                0.957110579     -125.109936
9.255                0.957018635     -125.345142
9.256                0.956926749     -125.580841
9.257                0.956834926     -125.817032
9.258                0.956743169     -126.053716
9.259                0.956651481     -126.290891
9.26                 0.956559865     -126.528558
9.261                0.956468324     -126.766715
9.262                0.956376862     -127.005363
9.263                0.956285483       -127.2445
9.264                0.956194189     -127.484127
9.265                0.956102984     -127.724243
9.266                0.956011872     -127.964847
9.267                0.955920856     -128.205939
9.268                0.955829939     -128.447517
9.269                0.955739125     -128.689582
9.27                 0.955648417     -128.932133
9.271                0.955557819      -129.17517
9.272                0.955467335      -129.41869
9.273                0.955376968     -129.662695
9.274                0.955286721     -129.907182
9.275                0.955196599     -130.152152
9.276                0.955106604     -130.397603
9.277                0.955016741     -130.643535
9.278                0.954927014     -130.889948
9.279                0.954837425     -131.136839
9.28                 0.954747979     -131.384209
9.281                 0.95465868     -131.632056
9.282                 0.95456953      -131.88038
9.283                0.954480535      -132.12918
9.284                0.954391697     -132.378454
9.285                0.954303021     -132.628203
9.286                 0.95421451     -132.878424
9.287                0.954126168     -133.129117
9.288                0.954037999     -133.380281
9.289                0.953950008     -133.631915
9.29                 0.953862197     -133.884018
9.291                0.953774571     -134.136588
9.292                0.953687133     -134.389625
9.293                0.953599888     -134.643128
9.294                 0.95351284     -134.897095
9.295                0.953425992     -135.151525
9.296                0.953339349     -135.406417
9.297                0.953252914     -135.661771
9.298                0.953166692     -135.917583
9.299                0.953080686     -136.173854
9.3                  0.952994901     -136.430583
9.301                0.952909341     -136.687767
9.302                0.952824009     -136.945405
9.303                 0.95273891     -137.203497
9.304                0.952654049      -137.46204
9.305                0.952569428     -137.721034
9.306                0.952485053     -137.980477
9.307                0.952400926     -138.240367
9.308                0.952317054     -138.500703
9.309                0.952233439     -138.761484
9.31                 0.952150085     -139.022708
9.311                0.952066998     -139.284374
9.312                0.951984181      -139.54648
9.313                0.951901638     -139.809024
9.314                0.951819374     -140.072005
9.315                0.951737392     -140.335421
9.316                0.951655697      -140.59927
9.317                0.951574294     -140.863552
9.318                0.951493186     -141.128264
9.319                0.951412378     -141.393404
9.32                 0.951331873     -141.658971
9.321                0.951251677     -141.924963
9.322                0.951171793     -142.191378
9.323                0.951092226     -142.458215
9.324                 0.95101298     -142.725471
9.325                0.950934059     -142.993145
9.326                0.950855468     -143.261235
9.327                 0.95077721     -143.529738
9.328                 0.95069929     -143.798654
9.329                0.950621713     -144.067979
9.33                 0.950544482     -144.337713
9.331                0.950467602     -144.607853
9.332                0.950391077     -144.878396
9.333                0.950314912     -145.149342
9.334                 0.95023911     -145.420687
9.335                0.950163677     -145.692431
9.336                0.950088616      -145.96457
9.337                0.950013931     -146.237102
9.338                0.949939627     -146.510026
9.339                0.949865708     -146.783339
9.34                 0.949792178     -147.057039
9.341                0.949719042     -147.331123
9.342                0.949646304      -147.60559
9.343                0.949573968     -147.880437
9.344                0.949502039     -148.155662
9.345                 0.94943052     -148.431263
9.346                0.949359416     -148.707236
9.347                0.949288731     -148.983581
9.348                0.949218469     -149.260293
9.349                0.949148635     -149.537372
9.35                 0.949079232     -149.814814
9.351                0.949010265     -150.092617
9.352                0.948941739     -150.370778
9.353                0.948873656     -150.649296
9.354                0.948806022     -150.928166
9.355                 0.94873884     -151.207388
9.356                0.948672115     -151.486958
9.357                0.948605851     -151.766873
9.358                0.948540051     -152.047131
9.359                0.948474721      -152.32773
9.36                 0.948409863     -152.608666
9.361                0.948345483     -152.889937
9.362                0.948281584     -153.171541
9.363                0.948218169     -153.453474
9.364                0.948155244     -153.735733
9.365                0.948092812     -154.018316
9.366                0.948030877     -154.301221
9.367                0.947969444     -154.584443
9.368                0.947908515     -154.867981
9.369                0.947848095     -155.151831
9.37                 0.947788187     -155.435991
9.371                0.947728797     -155.720458
9.372                0.947669927     -156.005228
9.373                0.947611581     -156.290298
9.374                0.947553763     -156.575667
9.375                0.947496477      -156.86133
9.376                0.947439727     -157.147285
9.377                0.947383516     -157.433528
9.378                0.947327848     -157.720057
9.379                0.947272727     -158.006868
9.38                 0.947218156     -158.293959
9.381                0.947164139     -158.581326
9.382                0.947110679     -158.868966
9.383                0.947057781     -159.156875
9.384                0.947005447     -159.445052
9.385                0.946953682     -159.733491
9.386                0.946902488     -160.022191
9.387                0.946851869     -160.311148
9.388                0.946801829     -160.600359
9.389                 0.94675237     -160.889819
9.39                 0.946703497     -161.179527
9.391                0.946655212     -161.469479
9.392                0.946607519     -161.759671
9.393                0.946560421       -162.0501
9.394                0.946513921     -162.340763
9.395                0.946468022     -162.631656
9.396                0.946422728     -162.922776
