! TOUCHSTONE file generated by CST DESIGN STUDIO
! Date and time: Tue Feb  4 14:04:24 2025
! Project name: C:\Work\MatlabApps\UnitCellOptimizationMatlab\CST\unitcell.cst
! Tree item: Tasks\Sweep1\SPara1\S-Parameters
! Header version: 2024
! Port assignment regex: !\s*Touchstone port\s*([0-9]+)\s*=\s*(CST MWS port|CST DES external port|CST DES block port)\s*(.+)\s* \(\"(.*)\"\)(\s*mode\s*([0-9]+))?.*
! Touchstone port assignment:
! Touchstone port 1 = CST DES external port 1 ("")
# GHz S MA R 50
9                    0.971759741     -56.0109561
9.001                0.971706126     -56.0850728
9.002                0.971652348     -56.1593536
9.003                0.971598408     -56.2337989
9.004                0.971544305     -56.3084094
9.005                0.971490038     -56.3831854
9.006                0.971435608     -56.4581276
9.007                0.971381012     -56.5332364
9.008                0.971326251     -56.6085124
9.009                0.971271324      -56.683956
9.01                 0.971216232     -56.7595678
9.011                0.971160972     -56.8353484
9.012                0.971105544     -56.9112982
9.013                0.971049949     -56.9874177
9.014                0.970994186     -57.0637076
9.015                0.970938253     -57.1401682
9.016                 0.97088215     -57.2168002
9.017                0.970825878     -57.2936042
9.018                0.970769434     -57.3705805
9.019                 0.97071282     -57.4477298
9.02                 0.970656033     -57.5250526
9.021                0.970599074     -57.6025494
9.022                0.970541942     -57.6802208
9.023                0.970484637     -57.7580674
9.024                0.970427157     -57.8360896
9.025                0.970369503     -57.9142881
9.026                0.970311673     -57.9926633
9.027                0.970253668     -58.0712159
9.028                0.970195486     -58.1499463
9.029                0.970137127     -58.2288552
9.03                 0.970078591     -58.3079431
9.031                0.970019876     -58.3872105
9.032                0.969960983     -58.4666581
9.033                0.969901911     -58.5462863
9.034                0.969842658     -58.6260958
9.035                0.969783226     -58.7060872
9.036                0.969723612     -58.7862609
9.037                0.969663816     -58.8666176
9.038                0.969603838     -58.9471578
9.039                0.969543678     -59.0278821
9.04                 0.969483334     -59.1087912
9.041                0.969422806     -59.1898855
9.042                0.969362093     -59.2711656
9.043                0.969301195     -59.3526323
9.044                0.969240112     -59.4342859
9.045                0.969178841     -59.5161272
9.046                0.969117384     -59.5981566
9.047                 0.96905574     -59.6803749
9.048                0.968993907     -59.7627826
9.049                0.968931885     -59.8453802
9.05                 0.968869674     -59.9281685
9.051                0.968807273      -60.011148
9.052                0.968744681     -60.0943192
9.053                0.968681898     -60.1776829
9.054                0.968618923     -60.2612395
9.055                0.968555756     -60.3449898
9.056                0.968492396     -60.4289344
9.057                0.968428841     -60.5130737
9.058                0.968365093     -60.5974086
9.059                0.968301149     -60.6819395
9.06                  0.96823701     -60.7666671
9.061                0.968172675     -60.8515921
9.062                0.968108143      -60.936715
9.063                0.968043413     -61.0220364
9.064                0.967978486     -61.1075571
9.065                0.967913359     -61.1932777
9.066                0.967848034     -61.2791986
9.067                0.967782508     -61.3653207
9.068                0.967716782     -61.4516446
9.069                0.967650854     -61.5381708
9.07                 0.967584725     -61.6249001
9.071                0.967518393      -61.711833
9.072                0.967451858     -61.7989703
9.073                0.967385119     -61.8863125
9.074                0.967318176     -61.9738603
9.075                0.967251027     -62.0616144
9.076                0.967183673     -62.1495755
9.077                0.967116113     -62.2377441
9.078                0.967048345      -62.326121
9.079                 0.96698037     -62.4147068
9.08                 0.966912187     -62.5035021
9.081                0.966843794     -62.5925077
9.082                0.966775192     -62.6817242
9.083                 0.96670638     -62.7711523
9.084                0.966637356     -62.8607927
9.085                0.966568122      -62.950646
9.086                0.966498675     -63.0407129
9.087                0.966429015      -63.130994
9.088                0.966359141     -63.2214902
9.089                0.966289053      -63.312202
9.09                 0.966218751     -63.4031302
9.091                0.966148233     -63.4942754
9.092                0.966077498     -63.5856384
9.093                0.966006547     -63.6772198
9.094                0.965935378     -63.7690202
9.095                0.965863991     -63.8610406
9.096                0.965792386     -63.9532814
9.097                 0.96572056     -64.0457435
9.098                0.965648515     -64.1384275
9.099                0.965576248     -64.2313342
9.1                   0.96550376     -64.3244642
9.101                 0.96543105     -64.4178183
9.102                0.965358117     -64.5113972
9.103                 0.96528496     -64.6052016
9.104                 0.96521158     -64.6992322
9.105                0.965137974     -64.7934897
9.106                0.965064142      -64.887975
9.107                0.964990085     -64.9826886
9.108                  0.9649158     -65.0776314
9.109                0.964841288     -65.1728041
9.11                 0.964766547     -65.2682073
9.111                0.964691578      -65.363842
9.112                0.964616378     -65.4597086
9.113                0.964540949     -65.5558082
9.114                0.964465288     -65.6521412
9.115                0.964389396     -65.7487087
9.116                0.964313271     -65.8455111
9.117                0.964236913     -65.9425494
9.118                0.964160322     -66.0398243
9.119                0.964083495     -66.1373366
9.12                 0.964006434     -66.2350869
9.121                0.963929137     -66.3330761
9.122                0.963851603     -66.4313049
9.123                0.963773833     -66.5297741
9.124                0.963695824     -66.6284844
9.125                0.963617576     -66.7274367
9.126                 0.96353909     -66.8266317
9.127                0.963460363     -66.9260702
9.128                0.963381396      -67.025753
9.129                0.963302187     -67.1256808
9.13                 0.963222736     -67.2258545
9.131                0.963143043     -67.3262748
9.132                0.963063106     -67.4269425
9.133                0.962982924     -67.5278584
9.134                0.962902499     -67.6290233
9.135                0.962821827     -67.7304381
9.136                0.962740909     -67.8321034
9.137                0.962659745     -67.9340201
9.138                0.962578333     -68.0361891
9.139                0.962496672     -68.1386111
9.14                 0.962414763     -68.2412869
9.141                0.962332603     -68.3442173
9.142                0.962250194     -68.4474032
9.143                0.962167533     -68.5508454
9.144                0.962084621     -68.6545447
9.145                0.962001456     -68.7585019
9.146                0.961918038     -68.8627179
9.147                0.961834366     -68.9671934
9.148                 0.96175044     -69.0719294
9.149                0.961666258     -69.1769266
9.15                  0.96158182     -69.2821859
9.151                0.961497126     -69.3877081
9.152                0.961412175     -69.4934941
9.153                0.961326965     -69.5995446
9.154                0.961241497     -69.7058607
9.155                0.961155769      -69.812443
9.156                0.961069782     -69.9192925
9.157                0.960983533       -70.02641
9.158                0.960897024     -70.1337964
9.159                0.960810252     -70.2414525
9.16                 0.960723217     -70.3493792
9.161                0.960635918     -70.4575773
9.162                0.960548356     -70.5660478
9.163                0.960460529     -70.6747914
9.164                0.960372436     -70.7838092
9.165                0.960284076     -70.8931018
9.166                 0.96019545     -71.0026703
9.167                0.960106557     -71.1125155
9.168                0.960017394     -71.2226383
9.169                0.959927963     -71.3330396
9.17                 0.959838263     -71.4437202
9.171                0.959748292      -71.554681
9.172                 0.95965805      -71.665923
9.173                0.959567536     -71.7774471
9.174                 0.95947675     -71.8892541
9.175                0.959385691     -72.0013449
9.176                0.959294359     -72.1137205
9.177                0.959202751     -72.2263817
9.178                0.959110869     -72.3393295
9.179                0.959018712     -72.4525648
9.18                 0.958926277     -72.5660884
9.181                0.958833566     -72.6799014
9.182                0.958740578     -72.7940046
9.183                 0.95864731     -72.9083989
9.184                0.958553764     -73.0230853
9.185                0.958459938     -73.1380647
9.186                0.958365832     -73.2533381
9.187                0.958271445     -73.3689063
9.188                0.958176777     -73.4847703
9.189                0.958081826      -73.600931
9.19                 0.957986592     -73.7173894
9.191                0.957891075     -73.8341465
9.192                0.957795274     -73.9512031
9.193                0.957699187     -74.0685602
9.194                0.957602816     -74.1862188
9.195                0.957506158     -74.3041798
9.196                0.957409214     -74.4224442
9.197                0.957311982     -74.5410129
9.198                0.957214462     -74.6598869
9.199                0.957116654     -74.7790672
9.2                  0.957018557     -74.8985547
9.201                 0.95692017     -75.0183504
9.202                0.956821492     -75.1384552
9.203                0.956722524     -75.2588702
9.204                0.956623263     -75.3795963
9.205                0.956523711     -75.5006345
9.206                0.956423866     -75.6219857
9.207                0.956323727      -75.743651
9.208                0.956223294     -75.8656314
9.209                0.956122567     -75.9879278
9.21                 0.956021545     -76.1105412
9.211                0.955920227     -76.2334726
9.212                0.955818612     -76.3567231
9.213                0.955716701     -76.4802935
9.214                0.955614492      -76.604185
9.215                0.955511985     -76.7283984
9.216                 0.95540918     -76.8529349
9.217                0.955306075     -76.9777954
9.218                0.955202671      -77.102981
9.219                0.955098966     -77.2284926
9.22                 0.954994961     -77.3543312
9.221                0.954890654      -77.480498
9.222                0.954786046     -77.6069938
9.223                0.954681135     -77.7338198
9.224                0.954575921     -77.8609769
9.225                0.954470404     -77.9884662
9.226                0.954364582     -78.1162887
9.227                0.954258457     -78.2444455
9.228                0.954152026     -78.3729375
9.229                 0.95404529     -78.5017658
9.23                 0.953938248     -78.6309315
9.231                  0.9538309     -78.7604355
9.232                0.953723245      -78.890279
9.233                0.953615282      -79.020463
9.234                0.953507011     -79.1509884
9.235                0.953398432     -79.2818565
9.236                0.953289545     -79.4130682
9.237                0.953180348     -79.5446245
9.238                0.953070842     -79.6765266
9.239                0.952961025     -79.8087754
9.24                 0.952850898     -79.9413722
9.241                 0.95274046     -80.0743178
9.242                 0.95262971     -80.2076134
9.243                0.952518649       -80.34126
9.244                0.952407276     -80.4752588
9.245                 0.95229559     -80.6096107
9.246                0.952183591     -80.7443169
9.247                0.952071279     -80.8793785
9.248                0.951958653     -81.0147964
9.249                0.951845712     -81.1505718
9.25                 0.951732458     -81.2867058
9.251                0.951618889     -81.4231994
9.252                0.951505004     -81.5600538
9.253                0.951390804       -81.69727
9.254                0.951276288     -81.8348491
9.255                0.951161456     -81.9727922
9.256                0.951046308     -82.1111003
9.257                0.950930843     -82.2497747
9.258                0.950815061     -82.3888163
9.259                0.950698961     -82.5282263
9.26                 0.950582544     -82.6680058
9.261                 0.95046581     -82.8081558
9.262                0.950348757     -82.9486775
9.263                0.950231385      -83.089572
9.264                0.950113696     -83.2308404
9.265                0.949995687     -83.3724838
9.266                0.949877359     -83.5145032
9.267                0.949758712     -83.6568999
9.268                0.949639746     -83.7996749
9.269                 0.94952046     -83.9428293
9.27                 0.949400854     -84.0863643
9.271                0.949280928     -84.2302809
9.272                0.949160682     -84.3745803
9.273                0.949040116     -84.5192636
9.274                 0.94891923     -84.6643319
9.275                0.948798023     -84.8097864
9.276                0.948676495     -84.9556281
9.277                0.948554647     -85.1018582
9.278                0.948432477     -85.2484778
9.279                0.948309987     -85.3954881
9.28                 0.948187176     -85.5428901
9.281                0.948064044      -85.690685
9.282                0.947940591      -85.838874
9.283                0.947816817      -85.987458
9.284                0.947692722     -86.1364384
9.285                0.947568306     -86.2858162
9.286                0.947443568     -86.4355925
9.287                 0.94731851     -86.5857685
9.288                 0.94719313     -86.7363454
9.289                 0.94706743     -86.8873242
9.29                 0.946941409      -87.038706
9.291                0.946815067     -87.1904921
9.292                0.946688404     -87.3426836
9.293                0.946561421     -87.4952816
9.294                0.946434117     -87.6482872
9.295                0.946306493     -87.8017016
9.296                0.946178549      -87.955526
9.297                0.946050285     -88.1097614
9.298                0.945921701      -88.264409
9.299                0.945792797     -88.4194699
9.3                  0.945663574     -88.5749454
9.301                0.945534032     -88.7308365
9.302                0.945404171     -88.8871443
9.303                0.945273991     -89.0438701
9.304                0.945143493      -89.201015
9.305                0.945012677       -89.35858
9.306                0.944881542     -89.5165664
9.307                0.944750091     -89.6749753
9.308                0.944618322     -89.8338078
9.309                0.944486237     -89.9930651
9.31                 0.944353835     -90.1527484
9.311                0.944221118     -90.3128587
9.312                0.944088084     -90.4733972
9.313                0.943954736      -90.634365
9.314                0.943821073     -90.7957634
9.315                0.943687096     -90.9575934
9.316                0.943552805     -91.1198561
9.317                0.943418201     -91.2825528
9.318                0.943283284     -91.4456845
9.319                0.943148055     -91.6092524
9.32                 0.943012515     -91.7732577
9.321                0.942876664     -91.9377014
9.322                0.942740502     -92.1025848
9.323                0.942604031     -92.2679088
9.324                0.942467251     -92.4336748
9.325                0.942330162     -92.5998838
9.326                0.942192766     -92.7665369
9.327                0.942055062     -92.9336353
9.328                0.941917053     -93.1011801
9.329                0.941778737     -93.2691725
9.33                 0.941640118     -93.4376135
9.331                0.941501194     -93.6065044
9.332                0.941361967     -93.7758461
9.333                0.941222438     -93.9456399
9.334                0.941082608     -94.1158868
9.335                0.940942477     -94.2865881
9.336                0.940802046     -94.4577447
9.337                0.940661317     -94.6293579
9.338                 0.94052029     -94.8014287
9.339                0.940378967     -94.9739583
9.34                 0.940237348     -95.1469477
9.341                0.940095434     -95.3203981
9.342                0.939953227     -95.4943106
9.343                0.939810727     -95.6686863
9.344                0.939667936     -95.8435262
9.345                0.939524854     -96.0188315
9.346                0.939381484     -96.1946034
9.347                0.939237825     -96.3708428
9.348                 0.93909388     -96.5475508
9.349                 0.93894965     -96.7247286
9.35                 0.938805135     -96.9023773
9.351                0.938660337     -97.0804979
9.352                0.938515258     -97.2590915
9.353                0.938369899     -97.4381592
9.354                0.938224261      -97.617702
9.355                0.938078345     -97.7977211
9.356                0.937932154     -97.9782175
9.357                0.937785688     -98.1591922
9.358                0.937638949     -98.3406463
9.359                0.937491938      -98.522581
9.36                 0.937344657     -98.7049971
9.361                0.937197108     -98.8878959
9.362                0.937049292     -99.0712782
9.363                0.936901211     -99.2551452
9.364                0.936752867      -99.439498
9.365                0.936604261     -99.6243374
9.366                0.936455395     -99.8096647
9.367                 0.93630627     -99.9954807
9.368                0.936156889     -100.181787
9.369                0.936007253     -100.368583
9.37                 0.935857365     -100.555872
9.371                0.935707225     -100.743653
9.372                0.935556837     -100.931928
9.373                0.935406201     -101.120698
9.374                0.935255321     -101.309964
9.375                0.935104197     -101.499727
9.376                0.934952832     -101.689987
9.377                0.934801229     -101.880746
9.378                0.934649388     -102.072005
9.379                0.934497313     -102.263765
9.38                 0.934345006     -102.456026
9.381                0.934192468      -102.64879
9.382                0.934039703     -102.842057
9.383                0.933886711     -103.035829
9.384                0.933733496     -103.230106
9.385                0.933580061      -103.42489
9.386                0.933426406     -103.620181
9.387                0.933272536      -103.81598
9.388                0.933118452     -104.012288
9.389                0.932964157     -104.209106
9.39                 0.932809653     -104.406435
9.391                0.932654943     -104.604276
9.392                0.932500029     -104.802629
9.393                0.932344915     -105.001496
9.394                0.932189603     -105.200877
9.395                0.932034095     -105.400774
9.396                0.931878395     -105.601186
