! TOUCHSTONE file generated by CST DESIGN STUDIO
! Date and time: Tue Feb  4 14:04:19 2025
! Project name: C:\Work\MatlabApps\UnitCellOptimizationMatlab\CST\unitcell.cst
! Tree item: Tasks\Sweep1\SPara1\S-Parameters
! Header version: 2024
! Port assignment regex: !\s*Touchstone port\s*([0-9]+)\s*=\s*(CST MWS port|CST DES external port|CST DES block port)\s*(.+)\s* \(\"(.*)\"\)(\s*mode\s*([0-9]+))?.*
! Touchstone port assignment:
! Touchstone port 1 = CST DES external port 1 ("")
# GHz S MA R 50
9                    0.969942771     -64.7682914
9.001                0.969876661     -64.8596631
9.002                0.969810348     -64.9512512
9.003                0.969743831     -65.0430561
9.004                0.969677111     -65.1350787
9.005                0.969610187     -65.2273195
9.006                0.969543057     -65.3197793
9.007                0.969475721     -65.4124588
9.008                0.969408179     -65.5053587
9.009                 0.96934043     -65.5984796
9.01                 0.969272473     -65.6918222
9.011                0.969204308     -65.7853873
9.012                0.969135934     -65.8791755
9.013                0.969067351     -65.9731875
9.014                0.968998557      -66.067424
9.015                0.968929552     -66.1618858
9.016                0.968860336     -66.2565736
9.017                0.968790908     -66.3514879
9.018                0.968721268     -66.4466297
9.019                0.968651414     -66.5419995
9.02                 0.968581346     -66.6375982
9.021                0.968511063     -66.7334263
9.022                0.968440565     -66.8294847
9.023                0.968369851      -66.925774
9.024                0.968298921     -67.0222951
9.025                0.968227774     -67.1190485
9.026                0.968156409     -67.2160351
9.027                0.968084825     -67.3132555
9.028                0.968013022     -67.4107106
9.029                   0.967941      -67.508401
9.03                 0.967868757     -67.6063274
9.031                0.967796293     -67.7044908
9.032                0.967723608     -67.8028916
9.033                0.967650701     -67.9015308
9.034                 0.96757757     -68.0004091
9.035                0.967504216     -68.0995272
9.036                0.967430638     -68.1988858
9.037                0.967356835     -68.2984858
9.038                0.967282806     -68.3983278
9.039                0.967208551     -68.4984127
9.04                  0.96713407     -68.5987412
9.041                0.967059361     -68.6993141
9.042                0.966984424     -68.8001321
9.043                0.966909258      -68.901196
9.044                0.966833863     -69.0025066
9.045                0.966758238     -69.1040647
9.046                0.966682383      -69.205871
9.047                0.966606296     -69.3079263
9.048                0.966529977     -69.4102314
9.049                0.966453425     -69.5127871
9.05                 0.966376641     -69.6155941
9.051                0.966299622     -69.7186533
9.052                0.966222369     -69.8219654
9.053                0.966144881     -69.9255313
9.054                0.966067157     -70.0293517
9.055                0.965989196     -70.1334275
9.056                0.965910999     -70.2377594
9.057                0.965832563     -70.3423482
9.058                 0.96575389     -70.4471948
9.059                0.965674977     -70.5522999
9.06                 0.965595824     -70.6576644
9.061                0.965516432      -70.763289
9.062                0.965436798     -70.8691747
9.063                0.965356923     -70.9753221
9.064                0.965276805     -71.0817322
9.065                0.965196444     -71.1884057
9.066                 0.96511584     -71.2953436
9.067                0.965034992     -71.4025465
9.068                0.964953899     -71.5100153
9.069                 0.96487256      -71.617751
9.07                 0.964790976     -71.7257542
9.071                0.964709144     -71.8340258
9.072                0.964627066     -71.9425668
9.073                0.964544739     -72.0513778
9.074                0.964462163     -72.1604598
9.075                0.964379339     -72.2698137
9.076                0.964296264     -72.3794402
9.077                0.964212939     -72.4893402
9.078                0.964129362     -72.5995145
9.079                0.964045534     -72.7099641
9.08                 0.963961453     -72.8206898
9.081                 0.96387712     -72.9316924
9.082                0.963792532     -73.0429728
9.083                 0.96370769     -73.1545319
9.084                0.963622593     -73.2663705
9.085                0.963537241     -73.3784895
9.086                0.963451632     -73.4908898
9.087                0.963365767     -73.6035723
9.088                0.963279644     -73.7165378
9.089                0.963193263     -73.8297872
9.09                 0.963106623     -73.9433215
9.091                0.963019724     -74.0571414
9.092                0.962932565     -74.1712478
9.093                0.962845146     -74.2856418
9.094                0.962757465     -74.4003241
9.095                0.962669523     -74.5152956
9.096                0.962581318     -74.6305573
9.097                 0.96249285       -74.74611
9.098                0.962404119     -74.8619547
9.099                0.962315123     -74.9780922
9.1                  0.962225863     -75.0945235
9.101                0.962136337     -75.2112494
9.102                0.962046545      -75.328271
9.103                0.961956487      -75.445589
9.104                0.961866162     -75.5632044
9.105                0.961775569     -75.6811181
9.106                0.961684707     -75.7993311
9.107                0.961593577     -75.9178442
9.108                0.961502177     -76.0366585
9.109                0.961410507     -76.1557747
9.11                 0.961318566     -76.2751939
9.111                0.961226354      -76.394917
9.112                0.961133871     -76.5149449
9.113                0.961041115     -76.6352785
9.114                0.960948086     -76.7559188
9.115                0.960854784     -76.8768668
9.116                0.960761207     -76.9981233
9.117                0.960667356     -77.1196893
9.118                 0.96057323     -77.2415658
9.119                0.960478828     -77.3637538
9.12                  0.96038415      -77.486254
9.121                0.960289195     -77.6090677
9.122                0.960193963     -77.7321955
9.123                0.960098453     -77.8556387
9.124                0.960002665      -77.979398
9.125                0.959906597     -78.1034744
9.126                0.959810251      -78.227869
9.127                0.959713624     -78.3525827
9.128                0.959616717     -78.4776165
9.129                0.959519529     -78.6029712
9.13                 0.959422059      -78.728648
9.131                0.959324307     -78.8546478
9.132                0.959226273     -78.9809715
9.133                0.959127956     -79.1076202
9.134                0.959029356     -79.2345948
9.135                0.958930472     -79.3618963
9.136                0.958831303     -79.4895257
9.137                0.958731849     -79.6174839
9.138                 0.95863211     -79.7457721
9.139                0.958532085     -79.8743911
9.14                 0.958431774     -80.0033419
9.141                0.958331176     -80.1326256
9.142                 0.95823029     -80.2622432
9.143                0.958129118     -80.3921956
9.144                0.958027657     -80.5224839
9.145                0.957925907      -80.653109
9.146                0.957823869      -80.784072
9.147                0.957721541     -80.9153738
9.148                0.957618924     -81.0470156
9.149                0.957516016     -81.1789982
9.15                 0.957412818     -81.3113227
9.151                0.957309328     -81.4439902
9.152                0.957205548     -81.5770016
9.153                0.957101475     -81.7103579
9.154                0.956997111     -81.8440603
9.155                0.956892454     -81.9781096
9.156                0.956787503     -82.1125069
9.157                 0.95668226     -82.2472533
9.158                0.956576723     -82.3823498
9.159                0.956470893     -82.5177973
9.16                 0.956364767     -82.6535971
9.161                0.956258348     -82.7897499
9.162                0.956151633      -82.926257
9.163                0.956044623     -83.0631193
9.164                0.955937318     -83.2003379
9.165                0.955829716     -83.3379138
9.166                0.955721819     -83.4758481
9.167                0.955613625     -83.6141417
9.168                0.955505134     -83.7527958
9.169                0.955396346     -83.8918114
9.17                 0.955287261     -84.0311895
9.171                0.955177879     -84.1709311
9.172                0.955068199     -84.3110374
9.173                 0.95495822     -84.4515094
9.174                0.954847944     -84.5923481
9.175                0.954737369     -84.7335546
9.176                0.954626495     -84.8751299
9.177                0.954515323     -85.0170751
9.178                0.954403852     -85.1593912
9.179                0.954292081     -85.3020794
9.18                 0.954180011     -85.4451406
9.181                0.954067641     -85.5885759
9.182                0.953954972     -85.7323864
9.183                0.953842003     -85.8765731
9.184                0.953728734     -86.0211372
9.185                0.953615164     -86.1660796
9.186                0.953501295     -86.3114015
9.187                0.953387125     -86.4571039
9.188                0.953272655     -86.6031878
9.189                0.953157884     -86.7496544
9.19                 0.953042813     -86.8965047
9.191                0.952927441     -87.0437397
9.192                0.952811768     -87.1913606
9.193                0.952695795     -87.3393684
9.194                0.952579521     -87.4877642
9.195                0.952462947     -87.6365491
9.196                0.952346071     -87.7857241
9.197                0.952228895     -87.9352903
9.198                0.952111418     -88.0852488
9.199                 0.95199364     -88.2356006
9.2                  0.951875562     -88.3863469
9.201                0.951757183     -88.5374887
9.202                0.951638504      -88.689027
9.203                0.951519525     -88.8409631
9.204                0.951400245     -88.9932978
9.205                0.951280665     -89.1460324
9.206                0.951160784     -89.2991679
9.207                0.951040604     -89.4527053
9.208                0.950920125     -89.6066458
9.209                0.950799345     -89.7609904
9.21                 0.950678266     -89.9157402
9.211                0.950556888     -90.0708962
9.212                0.950435211     -90.2264597
9.213                0.950313235     -90.3824315
9.214                0.950190961     -90.5388129
9.215                0.950068388     -90.6956048
9.216                0.949945518     -90.8528085
9.217                0.949822349     -91.0104248
9.218                0.949698883      -91.168455
9.219                 0.94957512     -91.3269001
9.22                 0.949451061     -91.4857611
9.221                0.949326704     -91.6450392
9.222                0.949202052     -91.8047354
9.223                0.949077104     -91.9648508
9.224                0.948951861     -92.1253865
9.225                0.948826323     -92.2863435
9.226                0.948700491     -92.4477229
9.227                0.948574364     -92.6095258
9.228                0.948447944     -92.7717533
9.229                0.948321231     -92.9344064
9.23                 0.948194226     -93.0974861
9.231                0.948066928     -93.2609937
9.232                0.947939339       -93.42493
9.233                 0.94781146     -93.5892963
9.234                0.947683289     -93.7540935
9.235                0.947554829     -93.9193227
9.236                 0.94742608      -94.084985
9.237                0.947297043     -94.2510814
9.238                0.947167717      -94.417613
9.239                0.947038105     -94.5845809
9.24                 0.946908206     -94.7519861
9.241                0.946778021     -94.9198296
9.242                0.946647551     -95.0881126
9.243                0.946516797      -95.256836
9.244                0.946385759      -95.426001
9.245                0.946254439     -95.5956085
9.246                0.946122836     -95.7656596
9.247                0.945990953     -95.9361554
9.248                0.945858789     -96.1070968
9.249                0.945726346      -96.278485
9.25                 0.945593625      -96.450321
9.251                0.945460626     -96.6226057
9.252                0.945327351     -96.7953402
9.253                  0.9451938     -96.9685257
9.254                0.945059974      -97.142163
9.255                0.944925875     -97.3162532
9.256                0.944791503     -97.4907973
9.257                 0.94465686     -97.6657964
9.258                0.944521946     -97.8412514
9.259                0.944386763     -98.0171634
9.26                 0.944251312     -98.1935334
9.261                0.944115594     -98.3703624
9.262                0.943979609     -98.5476513
9.263                0.943843361     -98.7254012
9.264                0.943706849     -98.9036132
9.265                0.943570074     -99.0822881
9.266                0.943433039     -99.2614269
9.267                0.943295745     -99.4410308
9.268                0.943158192     -99.6211005
9.269                0.943020382     -99.8016372
9.27                 0.942882317     -99.9826417
9.271                0.942743997     -100.164115
9.272                0.942605425     -100.346058
9.273                0.942466602     -100.528472
9.274                0.942327529     -100.711358
9.275                0.942188208     -100.894716
9.276                 0.94204864     -101.078549
9.277                0.941908828     -101.262855
9.278                0.941768772     -101.447637
9.279                0.941628474     -101.632896
9.28                 0.941487935     -101.818632
9.281                0.941347159     -102.004846
9.282                0.941206145      -102.19154
9.283                0.941064897     -102.378714
9.284                0.940923416     -102.566368
9.285                0.940781703     -102.754505
9.286                 0.94063976     -102.943125
9.287                 0.94049759     -103.132228
9.288                0.940355193     -103.321816
9.289                0.940212573     -103.511889
9.29                 0.940069731     -103.702449
9.291                 0.93992667     -103.893497
9.292                 0.93978339     -104.085032
9.293                0.939639894     -104.277056
9.294                0.939496184      -104.46957
9.295                0.939352263     -104.662575
9.296                0.939208132     -104.856071
9.297                0.939063794      -105.05006
9.298                0.938919251     -105.244542
9.299                0.938774505     -105.439518
9.3                  0.938629558     -105.634989
9.301                0.938484413     -105.830955
9.302                0.938339072     -106.027418
9.303                0.938193537     -106.224377
9.304                0.938047811     -106.421835
9.305                0.937901896     -106.619792
9.306                0.937755795     -106.818248
9.307                0.937609511     -107.017205
9.308                0.937463045     -107.216662
9.309                  0.9373164     -107.416621
9.31                  0.93716958     -107.617083
9.311                0.937022586     -107.818048
9.312                0.936875421     -108.019517
9.313                0.936728089     -108.221491
9.314                0.936580591      -108.42397
9.315                0.936432931     -108.626955
9.316                0.936285112     -108.830447
9.317                0.936137136     -109.034446
9.318                0.935989006     -109.238954
9.319                0.935840725      -109.44397
9.32                 0.935692296     -109.649495
9.321                0.935543723     -109.855531
9.322                0.935395008     -110.062077
9.323                0.935246154     -110.269134
9.324                0.935097164     -110.476703
9.325                0.934948042     -110.684785
9.326                0.934798791      -110.89338
9.327                0.934649414     -111.102488
9.328                0.934499915     -111.312111
9.329                0.934350296     -111.522248
9.33                 0.934200561     -111.732901
9.331                0.934050713      -111.94407
9.332                0.933900757     -112.155754
9.333                0.933750694     -112.367956
9.334                 0.93360053     -112.580675
9.335                0.933450267     -112.793912
9.336                0.933299908     -113.007668
9.337                0.933149459     -113.221942
9.338                0.932998922     -113.436735
9.339                  0.9328483     -113.652048
9.34                 0.932697599     -113.867881
9.341                0.932546821     -114.084235
9.342                0.932395971     -114.301109
9.343                0.932245051     -114.518505
9.344                0.932094067     -114.736423
9.345                0.931943022     -114.954862
9.346                 0.93179192     -115.173824
9.347                0.931640766     -115.393309
9.348                0.931489562     -115.613317
9.349                0.931338314     -115.833848
9.35                 0.931187025     -116.054903
9.351                  0.9310357     -116.276482
9.352                0.930884343     -116.498586
9.353                0.930732959     -116.721213
9.354                 0.93058155     -116.944366
9.355                0.930430123     -117.168043
9.356                0.930278681     -117.392246
9.357                0.930127229     -117.616974
9.358                0.929975771     -117.842227
9.359                0.929824311     -118.068006
9.36                 0.929672855     -118.294311
9.361                0.929521407     -118.521142
9.362                0.929369972       -118.7485
9.363                0.929218554     -118.976383
9.364                0.929067158     -119.204793
9.365                0.928915789     -119.433729
9.366                0.928764451     -119.663192
9.367                 0.92861315     -119.893181
9.368                 0.92846189     -120.123696
9.369                0.928310676     -120.354738
9.37                 0.928159514     -120.586307
9.371                0.928008408     -120.818402
9.372                0.927857364     -121.051024
9.373                0.927706386     -121.284172
9.374                0.927555479     -121.517846
9.375                 0.92740465     -121.752046
9.376                0.927253902     -121.986773
9.377                0.927103242     -122.222025
9.378                0.926952674     -122.457803
9.379                0.926802204     -122.694107
9.38                 0.926651838     -122.930937
9.381                0.926501581     -123.168291
9.382                0.926351437     -123.406171
9.383                0.926201414     -123.644575
9.384                0.926051516     -123.883504
9.385                0.925901748     -124.122957
9.386                0.925752117     -124.362935
9.387                0.925602629     -124.603435
9.388                0.925453288     -124.844459
9.389                0.925304101     -125.086006
9.39                 0.925155074     -125.328075
9.391                0.925006211     -125.570667
9.392                 0.92485752      -125.81378
9.393                0.924709006     -126.057415
9.394                0.924560674      -126.30157
9.395                0.924412532     -126.546246
9.396                0.924264584     -126.791441
