! TOUCHSTONE file generated by CST DESIGN STUDIO
! Date and time: Tue Feb  4 14:04:14 2025
! Project name: C:\Work\MatlabApps\UnitCellOptimizationMatlab\CST\unitcell.cst
! Tree item: Tasks\Sweep1\SPara1\S-Parameters
! Header version: 2024
! Port assignment regex: !\s*Touchstone port\s*([0-9]+)\s*=\s*(CST MWS port|CST DES external port|CST DES block port)\s*(.+)\s* \(\"(.*)\"\)(\s*mode\s*([0-9]+))?.*
! Touchstone port assignment:
! Touchstone port 1 = CST DES external port 1 ("")
# GHz S MA R 50
9                    0.968370998     -73.3028953
9.001                0.968293598     -73.4134405
9.002                0.968215963     -73.5242605
9.003                0.968138091     -73.6353562
9.004                0.968059983     -73.7467284
9.005                0.967981637     -73.8583781
9.006                0.967903053     -73.9703059
9.007                 0.96782423     -74.0825129
9.008                0.967745168     -74.1949998
9.009                0.967665867     -74.3077675
9.01                 0.967586324      -74.420817
9.011                0.967506541     -74.5341489
9.012                0.967426516     -74.6477643
9.013                0.967346249      -74.761664
9.014                0.967265739     -74.8758488
9.015                0.967184986     -74.9903197
9.016                0.967103989     -75.1050775
9.017                0.967022747      -75.220123
9.018                 0.96694126     -75.3354572
9.019                0.966859527      -75.451081
9.02                 0.966777547     -75.5669952
9.021                0.966695321     -75.6832008
9.022                0.966612847     -75.7996986
9.023                0.966530125     -75.9164894
9.024                0.966447154     -76.0335743
9.025                0.966363934     -76.1509541
9.026                0.966280464     -76.2686297
9.027                0.966196744      -76.386602
9.028                0.966112773     -76.5048719
9.029                 0.96602855     -76.6234404
9.03                 0.965944075     -76.7423082
9.031                0.965859347     -76.8614764
9.032                0.965774366     -76.9809458
9.033                0.965689132     -77.1007174
9.034                0.965603642      -77.220792
9.035                0.965517898     -77.3411707
9.036                0.965431899     -77.4618543
9.037                0.965345643     -77.5828437
9.038                0.965259131     -77.7041399
9.039                0.965172361     -77.8257437
9.04                 0.965085334     -77.9476562
9.041                0.964998049     -78.0698783
9.042                0.964910505     -78.1924108
9.043                0.964822702     -78.3152548
9.044                0.964734639     -78.4384111
9.045                0.964646315     -78.5618807
9.046                0.964557731     -78.6856646
9.047                0.964468885     -78.8097637
9.048                0.964379778     -78.9341789
9.049                0.964290408     -79.0589111
9.05                 0.964200775     -79.1839615
9.051                0.964110879     -79.3093308
9.052                0.964020718       -79.43502
9.053                0.963930294     -79.5610301
9.054                0.963839604     -79.6873621
9.055                0.963748649     -79.8140169
9.056                0.963657428     -79.9409955
9.057                0.963565941     -80.0682989
9.058                0.963474187     -80.1959279
9.059                0.963382165     -80.3238836
9.06                 0.963289876      -80.452167
9.061                0.963197319      -80.580779
9.062                0.963104492     -80.7097205
9.063                0.963011397     -80.8389926
9.064                0.962918032     -80.9685963
9.065                0.962824397     -81.0985325
9.066                0.962730491     -81.2288022
9.067                0.962636314     -81.3594064
9.068                0.962541866     -81.4903461
9.069                0.962447146     -81.6216222
9.07                 0.962352154     -81.7532357
9.071                0.962256889     -81.8851877
9.072                0.962161351     -82.0174791
9.073                0.962065539      -82.150111
9.074                0.961969454     -82.2830842
9.075                0.961873094     -82.4163999
9.076                 0.96177646     -82.5500589
9.077                0.961679551     -82.6840624
9.078                0.961582366     -82.8184112
9.079                0.961484905     -82.9531065
9.08                 0.961387168     -83.0881492
9.081                0.961289155     -83.2235403
9.082                0.961190865     -83.3592809
9.083                0.961092297     -83.4953719
9.084                0.960993452     -83.6318143
9.085                0.960894329     -83.7686092
9.086                0.960794928     -83.9057575
9.087                0.960695248     -84.0432604
9.088                0.960595289     -84.1811187
9.089                0.960495051     -84.3193336
9.09                 0.960394534      -84.457906
9.091                0.960293736     -84.5968369
9.092                0.960192659     -84.7361274
9.093                0.960091302     -84.8757786
9.094                0.959989663     -85.0157913
9.095                0.959887744     -85.1561667
9.096                0.959785544     -85.2969058
9.097                0.959683062     -85.4380096
9.098                0.959580299     -85.5794791
9.099                0.959477254     -85.7213154
9.1                  0.959373927     -85.8635194
9.101                0.959270317     -86.0060923
9.102                0.959166425      -86.149035
9.103                 0.95906225     -86.2923487
9.104                0.958957793     -86.4360342
9.105                0.958853052     -86.5800927
9.106                0.958748028     -86.7245252
9.107                0.958642721     -86.8693327
9.108                 0.95853713     -87.0145163
9.109                0.958431256      -87.160077
9.11                 0.958325098     -87.3060159
9.111                0.958218655     -87.4523339
9.112                0.958111929     -87.5990321
9.113                0.958004919     -87.7461117
9.114                0.957897624     -87.8935735
9.115                0.957790045     -88.0414187
9.116                0.957682182     -88.1896483
9.117                0.957574034     -88.3382633
9.118                0.957465601     -88.4872648
9.119                0.957356884     -88.6366539
9.12                 0.957247883     -88.7864315
9.121                0.957138597     -88.9365987
9.122                0.957029026     -89.0871566
9.123                0.956919171     -89.2381062
9.124                0.956809031     -89.3894486
9.125                0.956698606     -89.5411848
9.126                0.956587897     -89.6933158
9.127                0.956476904     -89.8458427
9.128                0.956365626     -89.9987666
9.129                0.956254063     -90.1520884
9.13                 0.956142217     -90.3058093
9.131                0.956030086     -90.4599303
9.132                0.955917671     -90.6144524
9.133                0.955804973     -90.7693767
9.134                 0.95569199     -90.9247042
9.135                0.955578724      -91.080436
9.136                0.955465175     -91.2365731
9.137                0.955351342     -91.3931166
9.138                0.955237226     -91.5500675
9.139                0.955122827     -91.7074268
9.14                 0.955008146     -91.8651956
9.141                0.954893182      -92.023375
9.142                0.954777936     -92.1819659
9.143                0.954662408     -92.3409695
9.144                0.954546599     -92.5003868
9.145                0.954430508     -92.6602187
9.146                0.954314136     -92.8204664
9.147                0.954197483     -92.9811309
9.148                 0.95408055     -93.1422133
9.149                0.953963337     -93.3037145
9.15                 0.953845845     -93.4656356
9.151                0.953728073     -93.6279776
9.152                0.953610022     -93.7907416
9.153                0.953491693     -93.9539286
9.154                0.953373085     -94.1175397
9.155                0.953254201     -94.2815758
9.156                0.953135039      -94.446038
9.157                  0.9530156     -94.6109274
9.158                0.952895886     -94.7762449
9.159                0.952775896     -94.9419916
9.16                  0.95265563     -95.1081685
9.161                0.952535091     -95.2747766
9.162                0.952414277      -95.441817
9.163                 0.95229319     -95.6092906
9.164                0.952171831     -95.7771985
9.165                0.952050199     -95.9455417
9.166                0.951928296     -96.1143212
9.167                0.951806122      -96.283538
9.168                0.951683678     -96.4531932
9.169                0.951560964     -96.6232877
9.17                 0.951437982     -96.7938225
9.171                0.951314732     -96.9647987
9.172                0.951191215     -97.1362172
9.173                0.951067431      -97.308079
9.174                0.950943382     -97.4803852
9.175                0.950819068     -97.6531367
9.176                 0.95069449     -97.8263345
9.177                 0.95056965     -97.9999796
9.178                0.950444547     -98.1740729
9.179                0.950319182     -98.3486156
9.18                 0.950193558     -98.5236084
9.181                0.950067674     -98.6990525
9.182                0.949941531     -98.8749488
9.183                0.949815131     -99.0512982
9.184                0.949688475     -99.2281017
9.185                0.949561563     -99.4053603
9.186                0.949434397     -99.5830749
9.187                0.949306978     -99.7612466
9.188                0.949179307     -99.9398761
9.189                0.949051385     -100.118965
9.19                 0.948923213     -100.298513
9.191                0.948794792     -100.478522
9.192                0.948666124     -100.658993
9.193                0.948537209     -100.839926
9.194                 0.94840805     -101.021323
9.195                0.948278647     -101.203184
9.196                0.948149001     -101.385511
9.197                0.948019114     -101.568304
9.198                0.947888988     -101.751565
9.199                0.947758623     -101.935293
9.2                  0.947628021     -102.119491
9.201                0.947497184     -102.304158
9.202                0.947366113     -102.489296
9.203                0.947234809     -102.674906
9.204                0.947103274     -102.860989
9.205                0.946971509     -103.047545
9.206                0.946839516     -103.234575
9.207                0.946707297     -103.422081
9.208                0.946574853     -103.610062
9.209                0.946442186     -103.798521
9.21                 0.946309297     -103.987457
9.211                0.946176188     -104.176872
9.212                0.946042861     -104.366766
9.213                0.945909318      -104.55714
9.214                0.945775561     -104.747996
9.215                 0.94564159     -104.939333
9.216                0.945507409     -105.131153
9.217                0.945373018     -105.323457
9.218                 0.94523842     -105.516245
9.219                0.945103617     -105.709518
9.22                 0.944968611     -105.903277
9.221                0.944833403     -106.097523
9.222                0.944697996     -106.292256
9.223                0.944562392     -106.487477
9.224                0.944426592     -106.683187
9.225                0.944290599     -106.879387
9.226                0.944154416     -107.076077
9.227                0.944018043     -107.273259
9.228                0.943881484     -107.470932
9.229                0.943744741     -107.669098
9.23                 0.943607815     -107.867758
9.231                 0.94347071     -108.066911
9.232                0.943333427     -108.266559
9.233                0.943195969     -108.466703
9.234                0.943058338     -108.667342
9.235                0.942920536     -108.868479
9.236                0.942782567     -109.070112
9.237                0.942644432     -109.272244
9.238                0.942506135     -109.474875
9.239                0.942367677     -109.678005
9.24                 0.942229061     -109.881635
9.241                0.942090291     -110.085765
9.242                0.941951367     -110.290397
9.243                0.941812294     -110.495531
9.244                0.941673074     -110.701166
9.245                0.941533709     -110.907305
9.246                0.941394203     -111.113948
9.247                0.941254559     -111.321094
9.248                0.941114778     -111.528745
9.249                0.940974864     -111.736902
9.25                 0.940834821     -111.945564
9.251                 0.94069465     -112.154732
9.252                0.940554355     -112.364407
9.253                0.940413939     -112.574589
9.254                0.940273405     -112.785279
9.255                0.940132756     -112.996477
9.256                0.939991996     -113.208183
9.257                0.939851126     -113.420399
9.258                0.939710152     -113.633124
9.259                0.939569075     -113.846359
9.26                   0.9394279     -114.060105
9.261                0.939286629     -114.274361
9.262                0.939145266     -114.489128
9.263                0.939003814     -114.704407
9.264                0.938862277     -114.920198
9.265                0.938720658     -115.136501
9.266                0.938578961     -115.353317
9.267                0.938437189     -115.570645
9.268                0.938295345     -115.788487
9.269                0.938153434     -116.006842
9.27                 0.938011459     -116.225711
9.271                0.937869424     -116.445095
9.272                0.937727333     -116.664992
9.273                0.937585188     -116.885404
9.274                0.937442995     -117.106331
9.275                0.937300756     -117.327773
9.276                0.937158476     -117.549731
9.277                0.937016159     -117.772204
9.278                0.936873809     -117.995192
9.279                0.936731429     -118.218696
9.28                 0.936589024     -118.442717
9.281                0.936446597     -118.667253
9.282                0.936304153     -118.892305
9.283                0.936161697     -119.117874
9.284                0.936019231     -119.343959
9.285                0.935876761     -119.570561
9.286                 0.93573429     -119.797679
9.287                0.935591824     -120.025314
9.288                0.935449365     -120.253465
9.289                 0.93530692     -120.482133
9.29                 0.935164491     -120.711318
9.291                0.935022084     -120.941019
9.292                0.934879702     -121.171236
9.293                0.934737352     -121.401971
9.294                0.934595036     -121.633221
9.295                 0.93445276     -121.864988
9.296                0.934310528     -122.097271
9.297                0.934168345      -122.33007
9.298                0.934026216     -122.563385
9.299                0.933884145     -122.797216
9.3                  0.933742138     -123.031562
9.301                0.933600199     -123.266424
9.302                0.933458332     -123.501801
9.303                0.933316543     -123.737693
9.304                0.933174837       -123.9741
9.305                0.933033219     -124.211021
9.306                0.932891693     -124.448457
9.307                0.932750265     -124.686406
9.308                 0.93260894     -124.924869
9.309                0.932467723     -125.163845
9.31                 0.932326619     -125.403334
9.311                0.932185634     -125.643335
9.312                0.932044771     -125.883848
9.313                0.931904038     -126.124874
9.314                0.931763439      -126.36641
9.315                0.931622979     -126.608457
9.316                0.931482664     -126.851014
9.317                0.931342499     -127.094081
9.318                0.931202489     -127.337657
9.319                0.931062641     -127.581742
9.32                 0.930922959     -127.826335
9.321                 0.93078345     -128.071436
9.322                0.930644118     -128.317044
9.323                0.930504969     -128.563158
9.324                 0.93036601     -128.809778
9.325                0.930227244     -129.056902
9.326                 0.93008868     -129.304532
9.327                0.929950321     -129.552664
9.328                0.929812174       -129.8013
9.329                0.929674245     -130.050438
9.33                 0.929536539     -130.300077
9.331                0.929399062     -130.550217
9.332                0.929261821     -130.800857
9.333                0.929124821     -131.051995
9.334                0.928988068     -131.303632
9.335                0.928851567     -131.555766
9.336                0.928715326     -131.808396
9.337                 0.92857935     -132.061522
9.338                0.928443645     -132.315142
9.339                0.928308218     -132.569255
9.34                 0.928173074     -132.823861
9.341                0.928038219     -133.078958
9.342                 0.92790366     -133.334546
9.343                0.927769403     -133.590623
9.344                0.927635454     -133.847188
9.345                0.927501819     -134.104241
9.346                0.927368505     -134.361779
9.347                0.927235518     -134.619802
9.348                0.927102864     -134.878309
9.349                 0.92697055     -135.137298
9.35                 0.926838582     -135.396768
9.351                0.926706966     -135.656718
9.352                0.926575709     -135.917147
9.353                0.926444817     -136.178053
9.354                0.926314297     -136.439435
9.355                0.926184155     -136.701292
9.356                0.926054398     -136.963622
9.357                0.925925032     -137.226424
9.358                0.925796064     -137.489697
9.359                  0.9256675     -137.753438
9.36                 0.925539346     -138.017647
9.361                 0.92541161     -138.282322
9.362                0.925284299     -138.547461
9.363                0.925157417     -138.813063
9.364                0.925030974     -139.079126
9.365                0.924904973     -139.345649
9.366                0.924779424     -139.612631
9.367                0.924654332     -139.880068
9.368                0.924529703     -140.147961
9.369                0.924405546     -140.416306
9.37                 0.924281865     -140.685103
9.371                0.924158669     -140.954349
9.372                0.924035963     -141.224043
9.373                0.923913755     -141.494183
9.374                0.923792051     -141.764767
9.375                0.923670857     -142.035794
9.376                0.923550182      -142.30726
9.377                0.923430031     -142.579165
9.378                0.923310411     -142.851507
9.379                 0.92319133     -143.124283
9.38                 0.923072792     -143.397492
9.381                0.922954807     -143.671131
9.382                 0.92283738     -143.945199
9.383                0.922720517     -144.219693
9.384                0.922604227     -144.494611
9.385                0.922488515     -144.769952
9.386                0.922373389     -145.045713
9.387                0.922258854     -145.321891
9.388                0.922144919     -145.598485
9.389                0.922031589     -145.875493
9.39                 0.921918871     -146.152912
9.391                0.921806773      -146.43074
9.392                0.921695301     -146.708974
9.393                0.921584461     -146.987613
9.394                 0.92147426     -147.266654
9.395                0.921364706     -147.546094
9.396                0.921255804     -147.825931
