! TOUCHSTONE file generated by CST DESIGN STUDIO
! Date and time: Tue Feb  4 14:04:13 2025
! Project name: C:\Work\MatlabApps\UnitCellOptimizationMatlab\CST\unitcell.cst
! Tree item: Tasks\Sweep1\SPara1\S-Parameters
! Header version: 2024
! Port assignment regex: !\s*Touchstone port\s*([0-9]+)\s*=\s*(CST MWS port|CST DES external port|CST DES block port)\s*(.+)\s* \(\"(.*)\"\)(\s*mode\s*([0-9]+))?.*
! Touchstone port assignment:
! Touchstone port 1 = CST DES external port 1 ("")
# GHz S MA R 50
9                    0.967919101     -76.0101822
9.001                0.967838515     -76.1272724
9.002                0.967757685     -76.2446571
9.003                0.967676609     -76.3623372
9.004                0.967595287     -76.4803135
9.005                0.967513719      -76.598587
9.006                0.967431903     -76.7171586
9.007                 0.96734984     -76.8360292
9.008                0.967267529     -76.9551997
9.009                0.967184969      -77.074671
9.01                  0.96710216      -77.194444
9.011                  0.9670191     -77.3145197
9.012                0.966935791     -77.4348989
9.013                 0.96685223     -77.5555825
9.014                0.966768418     -77.6765716
9.015                0.966684354     -77.7978669
9.016                0.966600037     -77.9194695
9.017                0.966515467     -78.0413803
9.018                0.966430643     -78.1636001
9.019                0.966345566       -78.28613
9.02                 0.966260233     -78.4089708
9.021                0.966174645     -78.5321235
9.022                0.966088802     -78.6555891
9.023                0.966002702     -78.7793684
9.024                0.965916345     -78.9034624
9.025                0.965829731      -79.027872
9.026                0.965742859     -79.1525983
9.027                0.965655728      -79.277642
9.028                0.965568339     -79.4030043
9.029                 0.96548069     -79.5286861
9.03                 0.965392782     -79.6546882
9.031                0.965304613     -79.7810116
9.032                0.965216183     -79.9076574
9.033                0.965127492     -80.0346265
9.034                0.965038539     -80.1619198
9.035                0.964949324     -80.2895382
9.036                0.964859846     -80.4174828
9.037                0.964770105     -80.5457546
9.038                  0.9646801     -80.6743544
9.039                 0.96458983     -80.8032833
9.04                 0.964499296     -80.9325422
9.041                0.964408497     -81.0621322
9.042                0.964317433     -81.1920541
9.043                0.964226102      -81.322309
9.044                0.964134505     -81.4528978
9.045                0.964042641     -81.5838215
9.046                 0.96395051     -81.7150812
9.047                0.963858111     -81.8466777
9.048                0.963765444     -81.9786121
9.049                0.963672508     -82.1108853
9.05                 0.963579304     -82.2434985
9.051                 0.96348583     -82.3764524
9.052                0.963392086     -82.5097482
9.053                0.963298072     -82.6433868
9.054                0.963203787     -82.7773693
9.055                0.963109231     -82.9116965
9.056                0.963014404     -83.0463696
9.057                0.962919306     -83.1813895
9.058                0.962823935     -83.3167573
9.059                0.962728292     -83.4524738
9.06                 0.962632376     -83.5885402
9.061                0.962536186     -83.7249575
9.062                0.962439724     -83.8617265
9.063                0.962342987     -83.9988485
9.064                0.962245977     -84.1363243
9.065                0.962148691      -84.274155
9.066                0.962051131     -84.4123416
9.067                0.961953296     -84.5508851
9.068                0.961855186     -84.6897865
9.069                  0.9617568     -84.8290468
9.07                 0.961658138     -84.9686672
9.071                0.961559199     -85.1086485
9.072                0.961459984     -85.2489918
9.073                0.961360493     -85.3896981
9.074                0.961260724     -85.5307685
9.075                0.961160678     -85.6722039
9.076                0.961060354     -85.8140054
9.077                0.960959753     -85.9561741
9.078                0.960858873     -86.0987109
9.079                0.960757715     -86.2416169
9.08                 0.960656279     -86.3848931
9.081                0.960554564     -86.5285405
9.082                0.960452571     -86.6725602
9.083                0.960350298     -86.8169532
9.084                0.960247746     -86.9617206
9.085                0.960144915     -87.1068633
9.086                0.960041804     -87.2523824
9.087                0.959938413     -87.3982789
9.088                0.959834743     -87.5445539
9.089                0.959730793     -87.6912085
9.09                 0.959626562     -87.8382435
9.091                0.959522052     -87.9856602
9.092                0.959417261     -88.1334595
9.093                 0.95931219     -88.2816424
9.094                0.959206839     -88.4302101
9.095                0.959101206     -88.5791635
9.096                0.958995294     -88.7285037
9.097                  0.9588891     -88.8782317
9.098                0.958782627     -89.0283485
9.099                0.958675872     -89.1788553
9.1                  0.958568837      -89.329753
9.101                 0.95846152     -89.4810427
9.102                0.958353924     -89.6327254
9.103                0.958246046     -89.7848023
9.104                0.958137888     -89.9372742
9.105                0.958029449     -90.0901423
9.106                 0.95792073     -90.2434076
9.107                 0.95781173     -90.3970711
9.108                 0.95770245     -90.5511339
9.109                0.957592889      -90.705597
9.11                 0.957483048     -90.8604615
9.111                0.957372927     -91.0157285
9.112                0.957262526     -91.1713988
9.113                0.957151846     -91.3274737
9.114                0.957040885     -91.4839541
9.115                0.956929645     -91.6408411
9.116                0.956818125     -91.7981357
9.117                0.956706327     -91.9558389
9.118                0.956594249     -92.1139519
9.119                0.956481893     -92.2724756
9.12                 0.956369258      -92.431411
9.121                0.956256345     -92.5907593
9.122                0.956143153     -92.7505214
9.123                0.956029685     -92.9106984
9.124                0.955915938     -93.0712912
9.125                0.955801915     -93.2323011
9.126                0.955687614     -93.3937289
9.127                0.955573038     -93.5555758
9.128                0.955458185     -93.7178426
9.129                0.955343056     -93.8805306
9.13                 0.955227652     -94.0436407
9.131                0.955111973     -94.2071739
9.132                0.954996019     -94.3711312
9.133                0.954879792     -94.5355137
9.134                 0.95476329     -94.7003225
9.135                0.954646515     -94.8655584
9.136                0.954529468     -95.0312226
9.137                0.954412148     -95.1973161
9.138                0.954294557     -95.3638399
9.139                0.954176695     -95.5307949
9.14                 0.954058561     -95.6981823
9.141                0.953940158     -95.8660029
9.142                0.953821485     -96.0342579
9.143                0.953702544     -96.2029483
9.144                0.953583334      -96.372075
9.145                0.953463856      -96.541639
9.146                0.953344112     -96.7116414
9.147                0.953224101     -96.8820831
9.148                0.953103825     -97.0529652
9.149                0.952983283     -97.2242886
9.15                 0.952862478     -97.3960543
9.151                0.952741409     -97.5682634
9.152                0.952620078     -97.7409168
9.153                0.952498484     -97.9140154
9.154                 0.95237663     -98.0875603
9.155                0.952254516     -98.2615525
9.156                0.952132142     -98.4359929
9.157                 0.95200951     -98.6108825
9.158                 0.95188662     -98.7862223
9.159                0.951763473     -98.9620131
9.16                 0.951640071     -99.1382561
9.161                0.951516414     -99.3149521
9.162                0.951392504     -99.4921022
9.163                0.951268341     -99.6697072
9.164                0.951143926     -99.8477681
9.165                 0.95101926     -100.026286
9.166                0.950894345     -100.205261
9.167                0.950769181     -100.384696
9.168                 0.95064377      -100.56459
9.169                0.950518112     -100.744944
9.17                  0.95039221      -100.92576
9.171                0.950266063     -101.107039
9.172                0.950139674     -101.288781
9.173                0.950013044     -101.470987
9.174                0.949886173     -101.653658
9.175                0.949759064     -101.836796
9.176                0.949631716       -102.0204
9.177                0.949504133     -102.204472
9.178                0.949376315     -102.389013
9.179                0.949248263     -102.574024
9.18                 0.949119979     -102.759505
9.181                0.948991464     -102.945458
9.182                 0.94886272     -103.131883
9.183                0.948733748     -103.318781
9.184                 0.94860455     -103.506153
9.185                0.948475128        -103.694
9.186                0.948345482     -103.882323
9.187                0.948215615     -104.071122
9.188                0.948085528     -104.260399
9.189                0.947955222     -104.450154
9.19                   0.9478247     -104.640387
9.191                0.947693963     -104.831101
9.192                0.947563013     -105.022295
9.193                0.947431852     -105.213971
9.194                0.947300481     -105.406129
9.195                0.947168902     -105.598771
9.196                0.947037117     -105.791896
9.197                0.946905128     -105.985505
9.198                0.946772937       -106.1796
9.199                0.946640545     -106.374182
9.2                  0.946507955      -106.56925
9.201                0.946375169     -106.764806
9.202                0.946242189      -106.96085
9.203                0.946109016     -107.157383
9.204                0.945975653     -107.354407
9.205                0.945842102      -107.55192
9.206                0.945708365     -107.749926
9.207                0.945574444     -107.948423
9.208                0.945440342     -108.147413
9.209                 0.94530606     -108.346896
9.21                 0.945171601     -108.546874
9.211                0.945036968     -108.747346
9.212                0.944902162     -108.948314
9.213                0.944767186     -109.149778
9.214                0.944632042     -109.351738
9.215                0.944496733     -109.554196
9.216                0.944361261     -109.757152
9.217                0.944225628     -109.960607
9.218                0.944089838      -110.16456
9.219                0.943953892     -110.369014
9.22                 0.943817794     -110.573968
9.221                0.943681546     -110.779423
9.222                 0.94354515      -110.98538
9.223                0.943408609     -111.191839
9.224                0.943271927       -111.3988
9.225                0.943135105     -111.606265
9.226                0.942998146     -111.814233
9.227                0.942861054     -112.022706
9.228                0.942723831     -112.231684
9.229                0.942586481     -112.441166
9.23                 0.942449005     -112.651155
9.231                0.942311407      -112.86165
9.232                 0.94217369     -113.072652
9.233                0.942035856     -113.284161
9.234                 0.94189791     -113.496177
9.235                0.941759854     -113.708702
9.236                0.941621692     -113.921735
9.237                0.941483425     -114.135277
9.238                0.941345059     -114.349329
9.239                0.941206595      -114.56389
9.24                 0.941068037     -114.778961
9.241                0.940929389     -114.994542
9.242                0.940790653     -115.210635
9.243                0.940651834     -115.427238
9.244                0.940512934     -115.644353
9.245                0.940373957      -115.86198
9.246                0.940234907     -116.080118
9.247                0.940095786     -116.298769
9.248                  0.9399566     -116.517933
9.249                 0.93981735      -116.73761
9.25                 0.939678042     -116.957799
9.251                0.939538678     -117.178502
9.252                0.939399262     -117.399719
9.253                0.939259798     -117.621449
9.254                 0.93912029     -117.843693
9.255                0.938980742     -118.066452
9.256                0.938841157     -118.289725
9.257                0.938701539     -118.513512
9.258                0.938561893     -118.737813
9.259                0.938422222      -118.96263
9.26                  0.93828253     -119.187961
9.261                0.938142822     -119.413807
9.262                  0.9380031     -119.640168
9.263                0.937863371     -119.867044
9.264                0.937723637     -120.094435
9.265                0.937583903     -120.322341
9.266                0.937444173     -120.550762
9.267                0.937304451     -120.779698
9.268                0.937164742     -121.009149
9.269                 0.93702505     -121.239115
9.27                 0.936885379     -121.469596
9.271                0.936745734     -121.700592
9.272                0.936606119     -121.932103
9.273                0.936466539     -122.164128
9.274                0.936326998     -122.396668
9.275                0.936187501     -122.629722
9.276                0.936048053     -122.863291
9.277                0.935908657     -123.097373
9.278                0.935769319      -123.33197
9.279                0.935630044      -123.56708
9.28                 0.935490835     -123.802703
9.281                0.935351699      -124.03884
9.282                0.935212639     -124.275489
9.283                0.935073661     -124.512651
9.284                 0.93493477     -124.750326
9.285                 0.93479597     -124.988512
9.286                0.934657266      -125.22721
9.287                0.934518664     -125.466419
9.288                0.934380168     -125.706139
9.289                0.934241784      -125.94637
9.29                 0.934103516     -126.187111
9.291                 0.93396537     -126.428361
9.292                 0.93382735      -126.67012
9.293                0.933689463     -126.912389
9.294                0.933551713     -127.155165
9.295                0.933414106     -127.398449
9.296                0.933276647      -127.64224
9.297                0.933139341     -127.886538
9.298                0.933002193     -128.131342
9.299                 0.93286521     -128.376651
9.3                  0.932728396     -128.622465
9.301                0.932591757     -128.868783
9.302                0.932455298     -129.115605
9.303                0.932319025     -129.362929
9.304                0.932182944     -129.610755
9.305                 0.93204706     -129.859083
9.306                0.931911379     -130.107912
9.307                0.931775906      -130.35724
9.308                0.931640648     -130.607067
9.309                0.931505609     -130.857393
9.31                 0.931370796     -131.108216
9.311                0.931236214     -131.359535
9.312                0.931101869      -131.61135
9.313                0.930967768      -131.86366
9.314                0.930833915     -132.116464
9.315                0.930700317      -132.36976
9.316                 0.93056698     -132.623549
9.317                0.930433909     -132.877828
9.318                0.930301112     -133.132597
9.319                0.930168592     -133.387855
9.32                 0.930036358     -133.643601
9.321                0.929904414     -133.899834
9.322                0.929772767     -134.156552
9.323                0.929641423     -134.413754
9.324                0.929510388      -134.67144
9.325                0.929379668     -134.929608
9.326                0.929249269     -135.188257
9.327                0.929119198     -135.447386
9.328                0.928989461     -135.706993
9.329                0.928860064     -135.967077
9.33                 0.928731013     -136.227637
9.331                0.928602314     -136.488671
9.332                0.928473975     -136.750179
9.333                0.928346001     -137.012158
9.334                0.928218398     -137.274608
9.335                0.928091173     -137.537527
9.336                0.927964333     -137.800913
9.337                0.927837883     -138.064766
9.338                 0.92771183     -138.329082
9.339                0.927586181     -138.593862
9.34                 0.927460941     -138.859104
9.341                0.927336119     -139.124805
9.342                0.927211719     -139.390964
9.343                0.927087748     -139.657581
9.344                0.926964213     -139.924652
9.345                0.926841121     -140.192176
9.346                0.926718477     -140.460153
9.347                0.926596289     -140.728579
9.348                0.926474563     -140.997453
9.349                0.926353306     -141.266774
9.35                 0.926232523     -141.536539
9.351                0.926112222     -141.806747
9.352                 0.92599241     -142.077396
9.353                0.925873092     -142.348484
9.354                0.925754276     -142.620009
9.355                0.925635968     -142.891969
9.356                0.925518174     -143.164362
9.357                0.925400901     -143.437187
9.358                0.925284157     -143.710441
9.359                0.925167947     -143.984122
9.36                 0.925052278     -144.258228
9.361                0.924937156     -144.532758
9.362                0.924822589     -144.807708
9.363                0.924708582     -145.083077
9.364                0.924595144     -145.358863
9.365                0.924482279     -145.635063
9.366                0.924369995     -145.911676
9.367                0.924258298     -146.188698
9.368                0.924147195     -146.466128
9.369                0.924036692     -146.743964
9.37                 0.923926797     -147.022203
9.371                0.923817515     -147.300842
9.372                0.923708853      -147.57988
9.373                0.923600818     -147.859314
9.374                0.923493416     -148.139142
9.375                0.923386654      -148.41936
9.376                0.923280539     -148.699968
9.377                0.923175076     -148.980961
9.378                0.923070272     -149.262338
9.379                0.922966135     -149.544097
9.38                 0.922862669     -149.826234
9.381                0.922759883     -150.108746
9.382                0.922657781     -150.391633
9.383                0.922556371     -150.674889
9.384                0.922455659     -150.958514
9.385                0.922355651     -151.242504
9.386                0.922256354     -151.526857
9.387                0.922157774     -151.811569
9.388                0.922059917     -152.096639
9.389                0.921962789     -152.382062
9.39                 0.921866398     -152.667838
9.391                0.921770748     -152.953961
9.392                0.921675847     -153.240431
9.393                  0.9215817     -153.527243
9.394                0.921488314     -153.814395
9.395                0.921395695     -154.101884
9.396                0.921303848     -154.389707
