! TOUCHSTONE file generated by CST DESIGN STUDIO
! Date and time: Wed Feb  5 13:32:17 2025
! Project name: C:\Work\MatlabApps\UnitCellOptimizationMatlab\CST\unitcell.cst
! Tree item: Tasks\Sweep1\SPara1\S-Parameters
! Header version: 2024
! Port assignment regex: !\s*Touchstone port\s*([0-9]+)\s*=\s*(CST MWS port|CST DES external port|CST DES block port)\s*(.+)\s* \(\"(.*)\"\)(\s*mode\s*([0-9]+))?.*
! Touchstone port assignment:
! Touchstone port 1 = CST DES external port 1 ("")
# GHz S MA R 50
9                    0.948588105     -58.8145996
9.001                0.948484762      -58.896191
9.002                0.948381075     -58.9779787
9.003                0.948277043     -59.0599633
9.004                0.948172664     -59.1421456
9.005                0.948067937     -59.2245262
9.006                0.947962861     -59.3071056
9.007                0.947857435     -59.3898847
9.008                0.947751656      -59.472864
9.009                0.947645524     -59.5560442
9.01                 0.947539038      -59.639426
9.011                0.947432195       -59.72301
9.012                0.947324995     -59.8067969
9.013                0.947217436     -59.8907874
9.014                0.947109517     -59.9749822
9.015                0.947001236     -60.0593819
9.016                0.946892593     -60.1439873
9.017                0.946783584     -60.2287989
9.018                0.946674211     -60.3138176
9.019                 0.94656447     -60.3990439
9.02                  0.94645436     -60.4844786
9.021                 0.94634388     -60.5701223
9.022                0.946233029     -60.6559759
9.023                0.946121805     -60.7420398
9.024                0.946010207      -60.828315
9.025                0.945898233      -60.914802
9.026                0.945785882     -61.0015016
9.027                0.945673152     -61.0884144
9.028                0.945560042     -61.1755413
9.029                0.945446551     -61.2628829
9.03                 0.945332676     -61.3504399
9.031                0.945218418      -61.438213
9.032                0.945103773      -61.526203
9.033                0.944988741     -61.6144106
9.034                 0.94487332     -61.7028365
9.035                0.944757509     -61.7914815
9.036                0.944641306     -61.8803462
9.037                0.944524709     -61.9694315
9.038                0.944407718      -62.058738
9.039                0.944290331     -62.1482666
9.04                 0.944172546     -62.2380179
9.041                0.944054361     -62.3279926
9.042                0.943935776     -62.4181916
9.043                0.943816789     -62.5086156
9.044                0.943697397     -62.5992654
9.045                  0.9435776     -62.6901417
9.046                0.943457397     -62.7812452
9.047                0.943336785     -62.8725767
9.048                0.943215763     -62.9641371
9.049                0.943094329      -63.055927
9.05                 0.942972482     -63.1479472
9.051                0.942850221     -63.2401986
9.052                0.942727544     -63.3326819
9.053                0.942604449     -63.4253978
9.054                0.942480935     -63.5183471
9.055                0.942356999     -63.6115307
9.056                0.942232642     -63.7049494
9.057                 0.94210786     -63.7986038
9.058                0.941982653     -63.8924949
9.059                0.941857019     -63.9866234
9.06                 0.941730956     -64.0809901
9.061                0.941604462     -64.1755957
9.062                0.941477537     -64.2704413
9.063                0.941350178     -64.3655274
9.064                0.941222385      -64.460855
9.065                0.941094154     -64.5564248
9.066                0.940965485     -64.6522377
9.067                0.940836376     -64.7482945
9.068                0.940706825      -64.844596
9.069                0.940576832     -64.9411431
9.07                 0.940446393     -65.0379365
9.071                0.940315508     -65.1349772
9.072                0.940184175     -65.2322659
9.073                0.940052392     -65.3298034
9.074                0.939920158     -65.4275907
9.075                0.939787471     -65.5256285
9.076                0.939654329     -65.6239178
9.077                0.939520731     -65.7224593
9.078                0.939386675     -65.8212539
9.079                0.939252159     -65.9203025
9.08                 0.939117182     -66.0196059
9.081                0.938981742     -66.1191651
9.082                0.938845837     -66.2189808
9.083                0.938709466     -66.3190539
9.084                0.938572627     -66.4193853
9.085                0.938435318     -66.5199759
9.086                0.938297538     -66.6208265
9.087                0.938159285     -66.7219381
9.088                0.938020557     -66.8233115
9.089                0.937881353     -66.9249476
9.09                  0.93774167     -67.0268473
9.091                0.937601508     -67.1290115
9.092                0.937460865      -67.231441
9.093                0.937319738     -67.3341369
9.094                0.937178126     -67.4370999
9.095                0.937036027      -67.540331
9.096                 0.93689344     -67.6438312
9.097                0.936750363     -67.7476012
9.098                0.936606795     -67.8516421
9.099                0.936462732     -67.9559547
9.1                  0.936318175       -68.06054
9.101                0.936173121     -68.1653989
9.102                0.936027567     -68.2705323
9.103                0.935881514     -68.3759411
9.104                0.935734958     -68.4816264
9.105                0.935587898      -68.587589
9.106                0.935440333     -68.6938298
9.107                0.935292261     -68.8003498
9.108                0.935143679       -68.90715
9.109                0.934994586     -69.0142314
9.11                 0.934844981     -69.1215947
9.111                0.934694861     -69.2292411
9.112                0.934544226     -69.3371715
9.113                0.934393072     -69.4453868
9.114                0.934241399      -69.553888
9.115                0.934089204     -69.6626761
9.116                0.933936487      -69.771752
9.117                0.933783244     -69.8811168
9.118                0.933629475     -69.9907713
9.119                0.933475177     -70.1007167
9.12                  0.93332035     -70.2109538
9.121                 0.93316499     -70.3214837
9.122                0.933009097     -70.4323073
9.123                0.932852668     -70.5434257
9.124                0.932695702     -70.6548399
9.125                0.932538196     -70.7665508
9.126                0.932380151     -70.8785594
9.127                0.932221562     -70.9908668
9.128                 0.93206243      -71.103474
9.129                0.931902751      -71.216382
9.13                 0.931742524     -71.3295918
9.131                0.931581748     -71.4431045
9.132                 0.93142042      -71.556921
9.133                 0.93125854     -71.6710423
9.134                0.931096104     -71.7854696
9.135                0.930933111     -71.9002039
9.136                0.930769561     -72.0152462
9.137                 0.93060545     -72.1305974
9.138                0.930440776     -72.2462588
9.139                 0.93027554     -72.3622313
9.14                 0.930109737      -72.478516
9.141                0.929943367     -72.5951139
9.142                0.929776429     -72.7120261
9.143                0.929608919     -72.8292537
9.144                0.929440837     -72.9467977
9.145                 0.92927218     -73.0646592
9.146                0.929102947     -73.1828392
9.147                0.928933137     -73.3013389
9.148                0.928762747     -73.4201592
9.149                0.928591775     -73.5393014
9.15                  0.92842022     -73.6587665
9.151                 0.92824808     -73.7785555
9.152                0.928075354     -73.8986696
9.153                0.927902039     -74.0191098
9.154                0.927728134     -74.1398773
9.155                0.927553637     -74.2609732
9.156                0.927378546     -74.3823985
9.157                 0.92720286     -74.5041543
9.158                0.927026577     -74.6262419
9.159                0.926849695     -74.7486622
9.16                 0.926672212     -74.8714165
9.161                0.926494128     -74.9945057
9.162                0.926315439     -75.1179312
9.163                0.926136144     -75.2416939
9.164                0.925956242      -75.365795
9.165                 0.92577573     -75.4902357
9.166                0.925594608      -75.615017
9.167                0.925412873     -75.7401402
9.168                0.925230524     -75.8656064
9.169                0.925047559     -75.9914166
9.17                 0.924863976     -76.1175722
9.171                0.924679773     -76.2440741
9.172                 0.92449495     -76.3709236
9.173                0.924309504     -76.4981219
9.174                0.924123434     -76.6256701
9.175                0.923936737     -76.7535693
9.176                0.923749413     -76.8818207
9.177                0.923561459     -77.0104256
9.178                0.923372875     -77.1393851
9.179                0.923183657     -77.2687003
9.18                 0.922993806     -77.3983725
9.181                0.922803318     -77.5284028
9.182                0.922612193     -77.6587924
9.183                0.922420429     -77.7895425
9.184                0.922228024     -77.9206543
9.185                0.922034977     -78.0521291
9.186                0.921841285     -78.1839679
9.187                0.921646949     -78.3161721
9.188                0.921451965     -78.4487428
9.189                0.921256332     -78.5816812
9.19                 0.921060049     -78.7149885
9.191                0.920863115      -78.848666
9.192                0.920665527     -78.9827149
9.193                0.920467284     -79.1171364
9.194                0.920268385     -79.2519317
9.195                0.920068828      -79.387102
9.196                0.919868612     -79.5226487
9.197                0.919667734     -79.6585728
9.198                0.919466195     -79.7948758
9.199                0.919263991     -79.9315587
9.2                  0.919061123     -80.0686228
9.201                0.918857587     -80.2060695
9.202                0.918653384     -80.3438999
9.203                0.918448511     -80.4821153
9.204                0.918242967     -80.6207169
9.205                 0.91803675      -80.759706
9.206                 0.91782986     -80.8990839
9.207                0.917622294     -81.0388518
9.208                0.917414052      -81.179011
9.209                0.917205132     -81.3195628
9.21                 0.916995533     -81.4605084
9.211                0.916785253      -81.601849
9.212                0.916574291     -81.7435861
9.213                0.916362647     -81.8857209
9.214                0.916150318     -82.0282546
9.215                0.915937303     -82.1711885
9.216                0.915723601     -82.3145239
9.217                0.915509211     -82.4582621
9.218                0.915294131     -82.6024045
9.219                0.915078361     -82.7469522
9.22                 0.914861899     -82.8919066
9.221                0.914644744     -83.0372691
9.222                0.914426895     -83.1830408
9.223                0.914208351     -83.3292231
9.224                0.913989111     -83.4758173
9.225                0.913769173     -83.6228247
9.226                0.913548536     -83.7702467
9.227                0.913327199     -83.9180845
9.228                0.913105162     -84.0663395
9.229                0.912882424     -84.2150129
9.23                 0.912658982     -84.3641062
9.231                0.912434837     -84.5136205
9.232                0.912209987     -84.6635574
9.233                0.911984432      -84.813918
9.234                 0.91175817     -84.9647037
9.235                0.911531201     -85.1159158
9.236                0.911303523     -85.2675557
9.237                0.911075136     -85.4196247
9.238                0.910846039     -85.5721242
9.239                0.910616231     -85.7250554
9.24                 0.910385712     -85.8784198
9.241                 0.91015448     -86.0322186
9.242                0.909922535     -86.1864533
9.243                0.909689876     -86.3411251
9.244                0.909456502     -86.4962354
9.245                0.909222413     -86.6517856
9.246                0.908987609      -86.807777
9.247                0.908752087      -86.964211
9.248                0.908515849     -87.1210889
9.249                0.908278893      -87.278412
9.25                 0.908041219     -87.4361818
9.251                0.907802826     -87.5943996
9.252                0.907563713     -87.7530667
9.253                0.907323881     -87.9121846
9.254                0.907083329     -88.0717545
9.255                0.906842057     -88.2317779
9.256                0.906600063      -88.392256
9.257                0.906357349     -88.5531904
9.258                0.906113912     -88.7145823
9.259                0.905869754     -88.8764331
9.26                 0.905624874     -89.0387442
9.261                0.905379272     -89.2015169
9.262                0.905132947     -89.3647527
9.263                0.904885899     -89.5284528
9.264                0.904638129     -89.6926187
9.265                0.904389636     -89.8572518
9.266                 0.90414042     -90.0223534
9.267                0.903890481     -90.1879249
9.268                0.903639819     -90.3539676
9.269                0.903388434      -90.520483
9.27                 0.903136327     -90.6874724
9.271                0.902883497     -90.8549371
9.272                0.902629944     -91.0228787
9.273                0.902375669     -91.1912984
9.274                0.902120672     -91.3601976
9.275                0.901864954     -91.5295778
9.276                0.901608514     -91.6994402
9.277                0.901351353     -91.8697862
9.278                0.901093471     -92.0406173
9.279                0.900834869     -92.2119348
9.28                 0.900575547     -92.3837401
9.281                0.900315506     -92.5560345
9.282                0.900054746     -92.7288195
9.283                0.899793268     -92.9020964
9.284                0.899531073     -93.0758666
9.285                 0.89926816     -93.2501314
9.286                0.899004532     -93.4248922
9.287                0.898740189     -93.6001505
9.288                0.898475131     -93.7759075
9.289                0.898209359     -93.9521647
9.29                 0.897942875     -94.1289234
9.291                0.897675679     -94.3061849
9.292                0.897407772     -94.4839507
9.293                0.897139156     -94.6622222
9.294                0.896869831     -94.8410006
9.295                0.896599798     -95.0202873
9.296                 0.89632906     -95.2000837
9.297                0.896057616     -95.3803912
9.298                0.895785469     -95.5612111
9.299                 0.89551262     -95.7425448
9.3                   0.89523907     -95.9243935
9.301                 0.89496482     -96.1067588
9.302                0.894689872     -96.2896419
9.303                0.894414228     -96.4730441
9.304                0.894137889     -96.6569669
9.305                0.893860858     -96.8414115
9.306                0.893583135     -97.0263793
9.307                0.893304722     -97.2118717
9.308                0.893025622     -97.3978899
9.309                0.892745835     -97.5844353
9.31                 0.892465365     -97.7715092
9.311                0.892184214      -97.959113
9.312                0.891902382     -98.1472479
9.313                0.891619873     -98.3359154
9.314                0.891336688     -98.5251166
9.315                 0.89105283      -98.714853
9.316                0.890768302     -98.9051258
9.317                0.890483105     -99.0959363
9.318                0.890197242     -99.2872858
9.319                0.889910715     -99.4791757
9.32                 0.889623527     -99.6716071
9.321                0.889335682     -99.8645815
9.322                 0.88904718       -100.0581
9.323                0.888758026     -100.252164
9.324                0.888468222     -100.446775
9.325                 0.88817777     -100.641934
9.326                0.887886675     -100.837642
9.327                0.887594938       -101.0339
9.328                0.887302563     -101.230711
9.329                0.887009554     -101.428074
9.33                 0.886715913     -101.625992
9.331                0.886421644     -101.824465
9.332                 0.88612675     -102.023495
9.333                0.885831234     -102.223083
9.334                0.885535101      -102.42323
9.335                0.885238353     -102.623938
9.336                0.884940995     -102.825207
9.337                 0.88464303     -103.027039
9.338                0.884344462     -103.229435
9.339                0.884045295     -103.432396
9.34                 0.883745533     -103.635924
9.341                 0.88344518     -103.840019
9.342                 0.88314424     -104.044683
9.343                0.882842717     -104.249917
9.344                0.882540616     -104.455721
9.345                0.882237941     -104.662098
9.346                0.881934697     -104.869049
9.347                0.881630887     -105.076574
9.348                0.881326517     -105.284674
9.349                0.881021592     -105.493351
9.35                 0.880716116     -105.702606
9.351                0.880410093      -105.91244
9.352                 0.88010353     -106.122854
9.353                0.879796431     -106.333848
9.354                0.879488801     -106.545425
9.355                0.879180645     -106.757586
9.356                0.878871969      -106.97033
9.357                0.878562778      -107.18366
9.358                0.878253077     -107.397576
9.359                0.877942873     -107.612079
9.36                  0.87763217     -107.827171
9.361                0.877320975     -108.042852
9.362                0.877009293     -108.259123
9.363                0.876697131     -108.475986
9.364                0.876384493     -108.693441
9.365                0.876071387     -108.911489
9.366                0.875757819     -109.130131
9.367                0.875443794     -109.349369
9.368                 0.87512932     -109.569202
9.369                0.874814403     -109.789633
9.37                 0.874499049     -110.010661
9.371                0.874183264     -110.232289
9.372                0.873867057     -110.454515
9.373                0.873550433     -110.677343
9.374                  0.8732334     -110.900771
9.375                0.872915964     -111.124802
9.376                0.872598134     -111.349436
9.377                0.872279915     -111.574673
9.378                0.871961316     -111.800516
9.379                0.871642343     -112.026963
9.38                 0.871323005     -112.254017
9.381                0.871003309     -112.481678
9.382                0.870683263     -112.709946
9.383                0.870362875     -112.938823
9.384                0.870042152     -113.168309
9.385                0.869721103     -113.398404
9.386                0.869399736      -113.62911
9.387                0.869078059     -113.860427
9.388                 0.86875608     -114.092356
9.389                0.868433808     -114.324898
9.39                 0.868111252     -114.558052
9.391                 0.86778842      -114.79182
9.392                0.867465321     -115.026202
9.393                0.867141964     -115.261199
9.394                0.866818358     -115.496811
9.395                0.866494512     -115.733039
9.396                0.866170435     -115.969884
