! TOUCHSTONE file generated by CST DESIGN STUDIO
! Date and time: Wed Feb  5 13:32:19 2025
! Project name: C:\Work\MatlabApps\UnitCellOptimizationMatlab\CST\unitcell.cst
! Tree item: Tasks\Sweep1\SPara1\S-Parameters
! Header version: 2024
! Port assignment regex: !\s*Touchstone port\s*([0-9]+)\s*=\s*(CST MWS port|CST DES external port|CST DES block port)\s*(.+)\s* \(\"(.*)\"\)(\s*mode\s*([0-9]+))?.*
! Touchstone port assignment:
! Touchstone port 1 = CST DES external port 1 ("")
# GHz S MA R 50
9                    0.954322998     -54.1353775
9.001                0.954239943     -54.2071251
9.002                0.954156598      -54.279037
9.003                0.954072959     -54.3511136
9.004                0.953989027     -54.4233554
9.005                  0.9539048     -54.4957631
9.006                0.953820278      -54.568337
9.007                0.953735458     -54.6410778
9.008                 0.95365034      -54.713986
9.009                0.953564923     -54.7870621
9.01                 0.953479205     -54.8603067
9.011                0.953393185     -54.9337202
9.012                0.953306863     -55.0073033
9.013                0.953220236     -55.0810564
9.014                0.953133304     -55.1549802
9.015                0.953046066     -55.2290751
9.016                 0.95295852     -55.3033417
9.017                0.952870665     -55.3777806
9.018                0.952782501     -55.4523923
9.019                0.952694025     -55.5271774
9.02                 0.952605236     -55.6021365
9.021                0.952516134       -55.67727
9.022                0.952426717     -55.7525786
9.023                0.952336984     -55.8280627
9.024                0.952246934     -55.9037231
9.025                0.952156565     -55.9795603
9.026                0.952065877     -56.0555747
9.027                0.951974867      -56.131767
9.028                0.951883535     -56.2081379
9.029                 0.95179188     -56.2846877
9.03                   0.9516999     -56.3614172
9.031                0.951607594     -56.4383269
9.032                 0.95151496     -56.5154173
9.033                0.951421999     -56.5926892
9.034                0.951328707      -56.670143
9.035                0.951235084     -56.7477794
9.036                0.951141129     -56.8255988
9.037                 0.95104684     -56.9036021
9.038                0.950952217     -56.9817896
9.039                0.950857257     -57.0601621
9.04                  0.95076196     -57.1387202
9.041                0.950666324     -57.2174643
9.042                0.950570348     -57.2963952
9.043                 0.95047403     -57.3755135
9.044                 0.95037737     -57.4548197
9.045                0.950280366     -57.5343145
9.046                0.950183016     -57.6139984
9.047                 0.95008532     -57.6938722
9.048                0.949987276     -57.7739364
9.049                0.949888882     -57.8541916
9.05                 0.949790138     -57.9346385
9.051                0.949691042     -58.0152777
9.052                0.949591592     -58.0961098
9.053                0.949491788     -58.1771354
9.054                0.949391628     -58.2583552
9.055                 0.94929111     -58.3397699
9.056                0.949190234       -58.42138
9.057                0.949088997     -58.5031862
9.058                0.948987399     -58.5851891
9.059                0.948885438     -58.6673894
9.06                 0.948783112     -58.7497878
9.061                0.948680422     -58.8323848
9.062                0.948577364     -58.9151812
9.063                0.948473937     -58.9981775
9.064                0.948370141     -59.0813745
9.065                0.948265973     -59.1647728
9.066                0.948161433     -59.2483731
9.067                0.948056519      -59.332176
9.068                 0.94795123     -59.4161822
9.069                0.947845563     -59.5003923
9.07                 0.947739518     -59.5848071
9.071                0.947633094     -59.6694273
9.072                0.947526288     -59.7542534
9.073                  0.9474191     -59.8392861
9.074                0.947311527     -59.9245262
9.075                0.947203569     -60.0099744
9.076                0.947095225     -60.0956313
9.077                0.946986491     -60.1814976
9.078                0.946877368      -60.267574
9.079                0.946767854     -60.3538612
9.08                 0.946657947     -60.4403598
9.081                0.946547645     -60.5270707
9.082                0.946436948     -60.6139945
9.083                0.946325854     -60.7011319
9.084                0.946214361     -60.7884836
9.085                0.946102468     -60.8760503
9.086                0.945990173     -60.9638327
9.087                0.945877475     -61.0518316
9.088                0.945764372     -61.1400477
9.089                0.945650863     -61.2284817
9.09                 0.945536947     -61.3171342
9.091                0.945422621     -61.4060061
9.092                0.945307885     -61.4950981
9.093                0.945192736     -61.5844109
9.094                0.945077174     -61.6739452
9.095                0.944961196     -61.7637017
9.096                0.944844802     -61.8536813
9.097                0.944727989     -61.9438846
9.098                0.944610756     -62.0343124
9.099                0.944493102     -62.1249655
9.1                  0.944375025     -62.2158446
9.101                0.944256523     -62.3069504
9.102                0.944137596     -62.3982837
9.103                 0.94401824     -62.4898453
9.104                0.943898456     -62.5816358
9.105                 0.94377824     -62.6736562
9.106                0.943657593     -62.7659072
9.107                0.943536511     -62.8583894
9.108                0.943414994     -62.9511038
9.109                0.943293039      -63.044051
9.11                 0.943170646     -63.1372319
9.111                0.943047813     -63.2306472
9.112                0.942924538     -63.3242977
9.113                 0.94280082     -63.4181843
9.114                0.942676656     -63.5123076
9.115                0.942552045     -63.6066685
9.116                0.942426987     -63.7012678
9.117                0.942301478     -63.7961063
9.118                0.942175518     -63.8911847
9.119                0.942049105      -63.986504
9.12                 0.941922237     -64.0820648
9.121                0.941794913      -64.177868
9.122                 0.94166713     -64.2739145
9.123                0.941538888     -64.3702049
9.124                0.941410185     -64.4667403
9.125                0.941281018     -64.5635212
9.126                0.941151387     -64.6605487
9.127                 0.94102129     -64.7578235
9.128                0.940890725     -64.8553465
9.129                0.940759691     -64.9531185
9.13                 0.940628185     -65.0511402
9.131                0.940496206     -65.1494127
9.132                0.940363753     -65.2479366
9.133                0.940230824     -65.3467129
9.134                0.940097416     -65.4457424
9.135                 0.93996353     -65.5450259
9.136                0.939829161     -65.6445644
9.137                0.939694311     -65.7443586
9.138                0.939558975     -65.8444094
9.139                0.939423153     -65.9447178
9.14                 0.939286843     -66.0452844
9.141                0.939150044     -66.1461103
9.142                0.939012753     -66.2471963
9.143                0.938874969     -66.3485433
9.144                0.938736691     -66.4501521
9.145                0.938597916     -66.5520236
9.146                0.938458643     -66.6541588
9.147                 0.93831887     -66.7565585
9.148                0.938178595     -66.8592236
9.149                0.938037817     -66.9621549
9.15                 0.937896535     -67.0653535
9.151                0.937754745     -67.1688201
9.152                0.937612447     -67.2725558
9.153                0.937469639     -67.3765613
9.154                0.937326319     -67.4808376
9.155                0.937182485     -67.5853857
9.156                0.937038136     -67.6902064
9.157                 0.93689327     -67.7953007
9.158                0.936747886     -67.9006695
9.159                 0.93660198     -68.0063136
9.16                 0.936455553     -68.1122341
9.161                0.936308601     -68.2184319
9.162                0.936161124     -68.3249079
9.163                0.936013119      -68.431663
9.164                0.935864585     -68.5386982
9.165                 0.93571552     -68.6460145
9.166                0.935565922     -68.7536127
9.167                 0.93541579     -68.8614939
9.168                0.935265122     -68.9696589
9.169                0.935113916     -69.0781088
9.17                  0.93496217     -69.1868445
9.171                0.934809882      -69.295867
9.172                0.934657052     -69.4051772
9.173                0.934503676     -69.5147761
9.174                0.934349754     -69.6246646
9.175                0.934195283     -69.7348439
9.176                0.934040262     -69.8453148
9.177                0.933884689     -69.9560783
9.178                0.933728562     -70.0671354
9.179                 0.93357188     -70.1784872
9.18                 0.933414641     -70.2901345
9.181                0.933256842     -70.4020784
9.182                0.933098483     -70.5143199
9.183                0.932939562       -70.62686
9.184                0.932780076     -70.7396997
9.185                0.932620024       -70.85284
9.186                0.932459404      -70.966282
9.187                0.932298215     -71.0800266
9.188                0.932136454     -71.1940748
9.189                0.931974121     -71.3084278
9.19                 0.931811212     -71.4230864
9.191                0.931647727     -71.5380518
9.192                0.931483664      -71.653325
9.193                0.931319021      -71.768907
9.194                0.931153795     -71.8847988
9.195                0.930987987     -72.0010016
9.196                0.930821593     -72.1175162
9.197                0.930654612     -72.2343439
9.198                0.930487042     -72.3514856
9.199                0.930318881     -72.4689424
9.2                  0.930150129     -72.5867154
9.201                0.929980782     -72.7048056
9.202                0.929810839     -72.8232141
9.203                0.929640299     -72.9419419
9.204                 0.92946916     -73.0609902
9.205                 0.92929742       -73.18036
9.206                0.929125077     -73.3000523
9.207                0.928952129     -73.4200684
9.208                0.928778576     -73.5404092
9.209                0.928604415     -73.6610758
9.21                 0.928429644     -73.7820694
9.211                0.928254261      -73.903391
9.212                0.928078266     -74.0250417
9.213                0.927901656     -74.1470227
9.214                0.927724429      -74.269335
9.215                0.927546585     -74.3919798
9.216                 0.92736812     -74.5149582
9.217                0.927189034     -74.6382712
9.218                0.927009325       -74.76192
9.219                0.926828991     -74.8859057
9.22                 0.926648031     -75.0102295
9.221                0.926466442     -75.1348925
9.222                0.926284223     -75.2598957
9.223                0.926101373     -75.3852404
9.224                0.925917889     -75.5109277
9.225                 0.92573377     -75.6369587
9.226                0.925549015     -75.7633346
9.227                0.925363622     -75.8900565
9.228                0.925177589     -76.0171255
9.229                0.924990914     -76.1445429
9.23                 0.924803597     -76.2723098
9.231                0.924615634     -76.4004273
9.232                0.924427025     -76.5288966
9.233                0.924237769     -76.6577189
9.234                0.924047862     -76.7868953
9.235                0.923857305      -76.916427
9.236                0.923666095     -77.0463153
9.237                0.923474231     -77.1765612
9.238                 0.92328171      -77.307166
9.239                0.923088533     -77.4381308
9.24                 0.922894696     -77.5694568
9.241                0.922700199     -77.7011453
9.242                 0.92250504     -77.8331974
9.243                0.922309217     -77.9656144
9.244                0.922112729     -78.0983973
9.245                0.921915574     -78.2315475
9.246                0.921717751     -78.3650662
9.247                0.921519259     -78.4989544
9.248                0.921320096     -78.6332136
9.249                0.921120259     -78.7678448
9.25                 0.920919749     -78.9028494
9.251                0.920718564     -79.0382284
9.252                0.920516701     -79.1739832
9.253                 0.92031416      -79.310115
9.254                0.920110939     -79.4466251
9.255                0.919907038     -79.5835145
9.256                0.919702453     -79.7207847
9.257                0.919497184     -79.8584368
9.258                0.919291231      -79.996472
9.259                 0.91908459     -80.1348917
9.26                 0.918877261     -80.2736971
9.261                0.918669243     -80.4128894
9.262                0.918460534     -80.5524698
9.263                0.918251134     -80.6924397
9.264                 0.91804104     -80.8328003
9.265                0.917830251     -80.9735529
9.266                0.917618766     -81.1146987
9.267                0.917406584      -81.256239
9.268                0.917193704     -81.3981751
9.269                0.916980125     -81.5405082
9.27                 0.916765844     -81.6832396
9.271                0.916550861     -81.8263707
9.272                0.916335176     -81.9699026
9.273                0.916118786     -82.1138367
9.274                 0.91590169     -82.2581743
9.275                0.915683888     -82.4029166
9.276                0.915465379      -82.548065
9.277                 0.91524616     -82.6936207
9.278                0.915026232      -82.839585
9.279                0.914805592     -82.9859593
9.28                 0.914584241     -83.1327449
9.281                0.914362177     -83.2799429
9.282                0.914139398     -83.4275549
9.283                0.913915905      -83.575582
9.284                0.913691696     -83.7240255
9.285                 0.91346677     -83.8728869
9.286                0.913241126     -84.0221674
9.287                0.913014764     -84.1718683
9.288                0.912787682     -84.3219909
9.289                0.912559879     -84.4725366
9.29                 0.912331355     -84.6235068
9.291                0.912102109     -84.7749026
9.292                0.911872141     -84.9267255
9.293                0.911641448     -85.0789768
9.294                0.911410032     -85.2316578
9.295                 0.91117789     -85.3847698
9.296                0.910945022     -85.5383143
9.297                0.910711428     -85.6922924
9.298                0.910477107     -85.8467057
9.299                0.910242058     -86.0015553
9.3                  0.910006281     -86.1568428
9.301                0.909769775     -86.3125693
9.302                0.909532539     -86.4687363
9.303                0.909294573      -86.625345
9.304                0.909055877      -86.782397
9.305                 0.90881645     -86.9398934
9.306                0.908576291     -87.0978357
9.307                0.908335401     -87.2562252
9.308                0.908093779     -87.4150633
9.309                0.907851424     -87.5743513
9.31                 0.907608336     -87.7340906
9.311                0.907364515     -87.8942826
9.312                0.907119961     -88.0549285
9.313                0.906874672     -88.2160299
9.314                0.906628651      -88.377588
9.315                0.906381895     -88.5396041
9.316                0.906134405     -88.7020798
9.317                0.905886181     -88.8650163
9.318                0.905637222      -89.028415
9.319                0.905387529     -89.1922773
9.32                 0.905137102     -89.3566045
9.321                 0.90488594      -89.521398
9.322                0.904634044     -89.6866592
9.323                0.904381414     -89.8523895
9.324                 0.90412805     -90.0185902
9.325                0.903873952     -90.1852627
9.326                0.903619121     -90.3524084
9.327                0.903363556     -90.5200286
9.328                0.903107258     -90.6881248
9.329                0.902850227     -90.8566982
9.33                 0.902592464     -91.0257503
9.331                0.902333968     -91.1952825
9.332                0.902074741      -91.365296
9.333                0.901814783     -91.5357924
9.334                0.901554095     -91.7067729
9.335                0.901292676      -91.878239
9.336                0.901030528      -92.050192
9.337                0.900767651     -92.2226332
9.338                0.900504046     -92.3955642
9.339                0.900239714     -92.5689861
9.34                 0.899974655     -92.7429005
9.341                0.899708871     -92.9173086
9.342                0.899442361     -93.0922119
9.343                0.899175128     -93.2676116
9.344                0.898907172     -93.4435093
9.345                0.898638493     -93.6199062
9.346                0.898369094     -93.7968037
9.347                0.898098975     -93.9742033
9.348                0.897828137     -94.1521061
9.349                0.897556581     -94.3305137
9.35                 0.897284309     -94.5094273
9.351                0.897011323     -94.6888484
9.352                0.896737622     -94.8687782
9.353                 0.89646321     -95.0492182
9.354                0.896188086     -95.2301697
9.355                0.895912254     -95.4116341
9.356                0.895635713     -95.5936126
9.357                0.895358467     -95.7761068
9.358                0.895080516     -95.9591178
9.359                0.894801862     -96.1426471
9.36                 0.894522507     -96.3266959
9.361                0.894242453     -96.5112657
9.362                0.893961702     -96.6963578
9.363                0.893680256     -96.8819735
9.364                0.893398116     -97.0681141
9.365                0.893115285     -97.2547809
9.366                0.892831765     -97.4419754
9.367                0.892547557     -97.6296988
9.368                0.892262665     -97.8179524
9.369                0.891977091     -98.0067376
9.37                 0.891690836     -98.1960557
9.371                0.891403904     -98.3859079
9.372                0.891116297     -98.5762956
9.373                0.890828016     -98.7672202
9.374                0.890539066     -98.9586828
9.375                0.890249449     -99.1506848
9.376                0.889959166     -99.3432274
9.377                0.889668222     -99.5363121
9.378                0.889376619       -99.72994
9.379                 0.88908436     -99.9241124
9.38                 0.888791448     -100.118831
9.381                0.888497885     -100.314096
9.382                0.888203676     -100.509909
9.383                0.887908823     -100.706273
9.384                 0.88761333     -100.903187
9.385                  0.8873172     -101.100653
9.386                0.887020437     -101.298672
9.387                0.886723043     -101.497246
9.388                0.886425022     -101.696376
9.389                0.886126379     -101.896063
9.39                 0.885827117     -102.096308
9.391                0.885527239     -102.297113
9.392                0.885226749     -102.498478
9.393                0.884925652     -102.700406
9.394                0.884623951     -102.902896
9.395                0.884321651     -103.105951
9.396                0.884018755     -103.309571
