! TOUCHSTONE file generated by CST DESIGN STUDIO
! Date and time: Wed Feb  5 13:32:22 2025
! Project name: C:\Work\MatlabApps\UnitCellOptimizationMatlab\CST\unitcell.cst
! Tree item: Tasks\Sweep1\SPara1\S-Parameters
! Header version: 2024
! Port assignment regex: !\s*Touchstone port\s*([0-9]+)\s*=\s*(CST MWS port|CST DES external port|CST DES block port)\s*(.+)\s* \(\"(.*)\"\)(\s*mode\s*([0-9]+))?.*
! Touchstone port assignment:
! Touchstone port 1 = CST DES external port 1 ("")
# GHz S MA R 50
9                    0.963983192     -45.9378026
9.001                0.963929656     -45.9945015
9.002                0.963875909     -46.0513159
9.003                0.963821949     -46.1082461
9.004                0.963767777     -46.1652923
9.005                 0.96371339     -46.2224551
9.006                 0.96365879     -46.2797347
9.007                0.963603974     -46.3371315
9.008                0.963548943     -46.3946457
9.009                0.963493695     -46.4522779
9.01                  0.96343823     -46.5100282
9.011                0.963382547     -46.5678971
9.012                0.963326646      -46.625885
9.013                0.963270525     -46.6839921
9.014                0.963214183     -46.7422188
9.015                0.963157621     -46.8005655
9.016                0.963100837     -46.8590326
9.017                 0.96304383     -46.9176204
9.018                0.962986601     -46.9763292
9.019                0.962929147     -47.0351595
9.02                 0.962871468     -47.0941115
9.021                0.962813565     -47.1531858
9.022                0.962755434     -47.2123825
9.023                0.962697077     -47.2717021
9.024                0.962638492      -47.331145
9.025                0.962579678     -47.3907116
9.026                0.962520635     -47.4504021
9.027                0.962461361      -47.510217
9.028                0.962401857     -47.5701567
9.029                0.962342121     -47.6302215
9.03                 0.962282152     -47.6904118
9.031                 0.96222195      -47.750728
9.032                0.962161514     -47.8111704
9.033                0.962100843     -47.8717395
9.034                0.962039936     -47.9324356
9.035                0.961978793     -47.9932592
9.036                0.961917412     -48.0542105
9.037                0.961855793       -48.11529
9.038                0.961793935     -48.1764981
9.039                0.961731837     -48.2378352
9.04                 0.961669499     -48.2993016
9.041                0.961606919     -48.3608978
9.042                0.961544096     -48.4226242
9.043                0.961481031      -48.484481
9.044                0.961417721     -48.5464689
9.045                0.961354167      -48.608588
9.046                0.961290367     -48.6708389
9.047                0.961226321     -48.7332219
9.048                0.961162027     -48.7957375
9.049                0.961097485     -48.8583861
9.05                 0.961032694      -48.921168
9.051                0.960967653     -48.9840836
9.052                0.960902361     -49.0471334
9.053                0.960836817     -49.1103179
9.054                0.960771021     -49.1736373
9.055                0.960704972     -49.2370921
9.056                0.960638668     -49.3006828
9.057                0.960572109     -49.3644097
9.058                0.960505294     -49.4282733
9.059                0.960438222      -49.492274
9.06                 0.960370892     -49.5564121
9.061                0.960303304     -49.6206882
9.062                0.960235456     -49.6851027
9.063                0.960167347      -49.749656
9.064                0.960098978     -49.8143484
9.065                0.960030345     -49.8791805
9.066                 0.95996145     -49.9441527
9.067                 0.95989229     -50.0092654
9.068                0.959822866      -50.074519
9.069                0.959753175      -50.139914
9.07                 0.959683218     -50.2054509
9.071                0.959612992       -50.27113
9.072                0.959542498     -50.3369518
9.073                0.959471735     -50.4029167
9.074                0.959400701     -50.4690252
9.075                0.959329395     -50.5352778
9.076                0.959257816     -50.6016748
9.077                0.959185965     -50.6682168
9.078                0.959113839     -50.7349041
9.079                0.959041437     -50.8017373
9.08                 0.958968759     -50.8687168
9.081                0.958895804      -50.935843
9.082                0.958822571     -51.0031164
9.083                0.958749059     -51.0705375
9.084                0.958675266     -51.1381067
9.085                0.958601193     -51.2058246
9.086                0.958526837     -51.2736914
9.087                0.958452198     -51.3417078
9.088                0.958377275     -51.4098742
9.089                0.958302067     -51.4781911
9.09                 0.958226573     -51.5466589
9.091                0.958150792     -51.6152781
9.092                0.958074723     -51.6840492
9.093                0.957998364     -51.7529727
9.094                0.957921716      -51.822049
9.095                0.957844777     -51.8912786
9.096                0.957767545      -51.960662
9.097                0.957690021     -52.0301998
9.098                0.957612202     -52.0998923
9.099                0.957534089     -52.1697401
9.1                  0.957455679     -52.2397436
9.101                0.957376971     -52.3099034
9.102                0.957297966       -52.38022
9.103                0.957218661     -52.4506937
9.104                0.957139056     -52.5213253
9.105                 0.95705915      -52.592115
9.106                0.956978941     -52.6630635
9.107                0.956898429     -52.7341713
9.108                0.956817612     -52.8054388
9.109                 0.95673649     -52.8768666
9.11                 0.956655061     -52.9484551
9.111                0.956573324     -53.0202049
9.112                0.956491278     -53.0921165
9.113                0.956408923     -53.1641905
9.114                0.956326256     -53.2364272
9.115                0.956243278     -53.3088273
9.116                0.956159986     -53.3813913
9.117                 0.95607638     -53.4541196
9.118                0.955992459     -53.5270129
9.119                0.955908222     -53.6000716
9.12                 0.955823667     -53.6732963
9.121                0.955738793     -53.7466874
9.122                0.955653599     -53.8202457
9.123                0.955568085     -53.8939715
9.124                0.955482248     -53.9678653
9.125                0.955396089     -54.0419279
9.126                0.955309605     -54.1161596
9.127                0.955222796     -54.1905611
9.128                0.955135661     -54.2651328
9.129                0.955048198     -54.3398754
9.13                 0.954960406     -54.4147893
9.131                0.954872284     -54.4898752
9.132                0.954783831     -54.5651335
9.133                0.954695046     -54.6405649
9.134                0.954605927     -54.7161698
9.135                0.954516474     -54.7919489
9.136                0.954426685     -54.8679028
9.137                0.954336559     -54.9440319
9.138                0.954246096     -55.0203368
9.139                0.954155293     -55.0968182
9.14                 0.954064149     -55.1734766
9.141                0.953972664     -55.2503125
9.142                0.953880836     -55.3273265
9.143                0.953788664     -55.4045193
9.144                0.953696147     -55.4818913
9.145                0.953603284     -55.5594432
9.146                0.953510073     -55.6371756
9.147                0.953416513      -55.715089
9.148                0.953322604      -55.793184
9.149                0.953228343     -55.8714613
9.15                 0.953133729     -55.9499214
9.151                0.953038762     -56.0285648
9.152                 0.95294344     -56.1073923
9.153                0.952847762     -56.1864044
9.154                0.952751726     -56.2656017
9.155                0.952655332     -56.3449848
9.156                0.952558578     -56.4245543
9.157                0.952461463     -56.5043108
9.158                0.952363985      -56.584255
9.159                0.952266144     -56.6643874
9.16                 0.952167938     -56.7447087
9.161                0.952069366     -56.8252194
9.162                0.951970427     -56.9059203
9.163                0.951871118     -56.9868119
9.164                 0.95177144     -57.0678948
9.165                0.951671391     -57.1491698
9.166                0.951570969     -57.2306373
9.167                0.951470173      -57.312298
9.168                0.951369002     -57.3941527
9.169                0.951267455     -57.4762018
9.17                  0.95116553     -57.5584461
9.171                0.951063225     -57.6408862
9.172                0.950960541     -57.7235227
9.173                0.950857475     -57.8063563
9.174                0.950754026     -57.8893877
9.175                0.950650193     -57.9726174
9.176                0.950545974     -58.0560461
9.177                0.950441368     -58.1396746
9.178                0.950336374     -58.2235033
9.179                 0.95023099     -58.3075331
9.18                 0.950125216     -58.3917646
9.181                0.950019049     -58.4761984
9.182                0.949912488     -58.5608353
9.183                0.949805533     -58.6456758
9.184                0.949698181     -58.7307207
9.185                0.949590431     -58.8159706
9.186                0.949482283     -58.9014262
9.187                0.949373734     -58.9870882
9.188                0.949264783     -59.0729573
9.189                0.949155429     -59.1590341
9.19                  0.94904567     -59.2453194
9.191                0.948935506     -59.3318139
9.192                0.948824934     -59.4185181
9.193                0.948713953      -59.505433
9.194                0.948602562      -59.592559
9.195                 0.94849076      -59.679897
9.196                0.948378545     -59.7674476
9.197                0.948265915     -59.8552116
9.198                 0.94815287     -59.9431897
9.199                0.948039408     -60.0313825
9.2                  0.947925527     -60.1197908
9.201                0.947811226     -60.2084153
9.202                0.947696503     -60.2972567
9.203                0.947581358     -60.3863158
9.204                0.947465788     -60.4755933
9.205                0.947349793     -60.5650899
9.206                0.947233371     -60.6548063
9.207                 0.94711652     -60.7447432
9.208                0.946999239     -60.8349015
9.209                0.946881526     -60.9252819
9.21                  0.94676338      -61.015885
9.211                  0.9466448     -61.1067117
9.212                0.946525784     -61.1977626
9.213                0.946406331     -61.2890386
9.214                0.946286439     -61.3805404
9.215                0.946166107     -61.4722687
9.216                0.946045333     -61.5642244
9.217                0.945924115     -61.6564081
9.218                0.945802453     -61.7488206
9.219                0.945680345     -61.8414627
9.22                 0.945557789     -61.9343353
9.221                0.945434784     -62.0274389
9.222                0.945311328     -62.1207745
9.223                 0.94518742     -62.2143427
9.224                0.945063058     -62.3081445
9.225                0.944938241     -62.4021805
9.226                0.944812967     -62.4964516
9.227                0.944687235     -62.5909585
9.228                0.944561043     -62.6857021
9.229                 0.94443439     -62.7806831
9.23                 0.944307274     -62.8759023
9.231                0.944179694     -62.9713606
9.232                0.944051648     -63.0670587
9.233                0.943923135     -63.1629975
9.234                0.943794152     -63.2591777
9.235                0.943664699     -63.3556002
9.236                0.943534774     -63.4522658
9.237                0.943404376     -63.5491753
9.238                0.943273502     -63.6463296
9.239                0.943142152     -63.7437294
9.24                 0.943010324     -63.8413756
9.241                0.942878015     -63.9392691
9.242                0.942745226     -64.0374106
9.243                0.942611953      -64.135801
9.244                0.942478196     -64.2344411
9.245                0.942343953     -64.3333318
9.246                0.942209223      -64.432474
9.247                0.942074003     -64.5318684
9.248                0.941938293      -64.631516
9.249                 0.94180209     -64.7314175
9.25                 0.941665393     -64.8315739
9.251                0.941528201     -64.9319861
9.252                0.941390512     -65.0326548
9.253                0.941252324     -65.1335809
9.254                0.941113635     -65.2347654
9.255                0.940974445     -65.3362091
9.256                0.940834752     -65.4379128
9.257                0.940694553     -65.5398775
9.258                0.940553848     -65.6421041
9.259                0.940412634     -65.7445934
9.26                 0.940270911     -65.8473463
9.261                0.940128676     -65.9503637
9.262                0.939985928     -66.0536465
9.263                0.939842665     -66.1571956
9.264                0.939698886      -66.261012
9.265                0.939554589     -66.3650964
9.266                0.939409773     -66.4694499
9.267                0.939264436     -66.5740734
9.268                0.939118575     -66.6789677
9.269                0.938972191     -66.7841337
9.27                  0.93882528     -66.8895725
9.271                0.938677842     -66.9952849
9.272                0.938529874     -67.1012719
9.273                0.938381376     -67.2075344
9.274                0.938232345     -67.3140733
9.275                0.938082779     -67.4208895
9.276                0.937932679     -67.5279841
9.277                 0.93778204     -67.6353579
9.278                0.937630863     -67.7430119
9.279                0.937479145     -67.8509471
9.28                 0.937326885     -67.9591644
9.281                0.937174081     -68.0676647
9.282                0.937020731     -68.1764491
9.283                0.936866834     -68.2855184
9.284                0.936712388     -68.3948738
9.285                0.936557392     -68.5045161
9.286                0.936401843     -68.6144462
9.287                0.936245741     -68.7246653
9.288                0.936089083     -68.8351742
9.289                0.935931869      -68.945974
9.29                 0.935774096     -69.0570657
9.291                0.935615762     -69.1684502
9.292                0.935456866     -69.2801285
9.293                0.935297407     -69.3921016
9.294                0.935137383     -69.5043706
9.295                0.934976792     -69.6169364
9.296                0.934815632        -69.7298
9.297                0.934653902     -69.8429625
9.298                0.934491601     -69.9564249
9.299                0.934328726     -70.0701882
9.3                  0.934165276     -70.1842533
9.301                0.934001249     -70.2986215
9.302                0.933836644     -70.4132935
9.303                0.933671459     -70.5282706
9.304                0.933505693     -70.6435537
9.305                0.933339343     -70.7591439
9.306                0.933172409     -70.8750422
9.307                0.933004888     -70.9912497
9.308                0.932836779     -71.1077673
9.309                 0.93266808     -71.2245962
9.31                  0.93249879     -71.3417375
9.311                0.932328907     -71.4591921
9.312                 0.93215843     -71.5769612
9.313                0.931987356     -71.6950457
9.314                0.931815685     -71.8134468
9.315                0.931643414     -71.9321656
9.316                0.931470543     -72.0512031
9.317                0.931297068     -72.1705604
9.318                 0.93112299     -72.2902386
9.319                0.930948306     -72.4102387
9.32                 0.930773014      -72.530562
9.321                0.930597113     -72.6512093
9.322                0.930420602     -72.7721819
9.323                0.930243479     -72.8934809
9.324                0.930065742     -73.0151073
9.325                 0.92988739     -73.1370623
9.326                 0.92970842     -73.2593469
9.327                0.929528833     -73.3819623
9.328                0.929348625     -73.5049096
9.329                0.929167796       -73.62819
9.33                 0.928986344     -73.7518044
9.331                0.928804267     -73.8757542
9.332                0.928621563     -74.0000403
9.333                0.928438233      -74.124664
9.334                0.928254272     -74.2496263
9.335                0.928069681     -74.3749285
9.336                0.927884458     -74.5005716
9.337                0.927698601     -74.6265568
9.338                0.927512108     -74.7528852
9.339                0.927324978     -74.8795581
9.34                  0.92713721     -75.0065765
9.341                0.926948803     -75.1339416
9.342                0.926759753     -75.2616546
9.343                0.926570061     -75.3897167
9.344                0.926379725      -75.518129
9.345                0.926188743     -75.6468927
9.346                0.925997113     -75.7760089
9.347                0.925804835     -75.9054789
9.348                0.925611907     -76.0353039
9.349                0.925418327     -76.1654849
9.35                 0.925224094     -76.2960233
9.351                0.925029206     -76.4269202
9.352                0.924833663     -76.5581768
9.353                0.924637462     -76.6897942
9.354                0.924440603     -76.8217738
9.355                0.924243084     -76.9541167
9.356                0.924044903     -77.0868242
9.357                0.923846059     -77.2198973
9.358                0.923646551     -77.3533374
9.359                0.923446378     -77.4871457
9.36                 0.923245538     -77.6213233
9.361                 0.92304403     -77.7558716
9.362                0.922841852     -77.8907917
9.363                0.922639003     -78.0260849
9.364                0.922435483     -78.1617524
9.365                0.922231289     -78.2977955
9.366                 0.92202642     -78.4342153
9.367                0.921820875     -78.5710132
9.368                0.921614653     -78.7081903
9.369                0.921407753      -78.845748
9.37                 0.921200173     -78.9836874
9.371                0.920991912     -79.1220099
9.372                0.920782969     -79.2607167
9.373                0.920573343     -79.3998091
9.374                0.920363032     -79.5392883
9.375                0.920152036     -79.6791555
9.376                0.919940353     -79.8194122
9.377                0.919727982     -79.9600594
9.378                0.919514923     -80.1010986
9.379                0.919301173      -80.242531
9.38                 0.919086732     -80.3843579
9.381                0.918871599     -80.5265805
9.382                0.918655772     -80.6692002
9.383                0.918439251     -80.8122182
9.384                0.918222035     -80.9556358
9.385                0.918004122     -81.0994544
9.386                0.917785512     -81.2436752
9.387                0.917566204     -81.3882996
9.388                0.917346196     -81.5333288
9.389                0.917125488     -81.6787641
9.39                 0.916904079     -81.8246069
9.391                0.916681967     -81.9708584
9.392                0.916459153       -82.11752
9.393                0.916235635     -82.2645931
9.394                0.916011413     -82.4120788
9.395                0.915786484     -82.5599786
9.396                 0.91556085     -82.7082938
