! TOUCHSTONE file generated by CST DESIGN STUDIO
! Date and time: Wed Feb  5 13:32:12 2025
! Project name: C:\Work\MatlabApps\UnitCellOptimizationMatlab\CST\unitcell.cst
! Tree item: Tasks\Sweep1\SPara1\S-Parameters
! Header version: 2024
! Port assignment regex: !\s*Touchstone port\s*([0-9]+)\s*=\s*(CST MWS port|CST DES external port|CST DES block port)\s*(.+)\s* \(\"(.*)\"\)(\s*mode\s*([0-9]+))?.*
! Touchstone port assignment:
! Touchstone port 1 = CST DES external port 1 ("")
# GHz S MA R 50
9                    0.927694538     -75.3747828
9.001                 0.92751072      -75.496888
9.002                0.927326357     -75.6193278
9.003                0.927141447     -75.7421033
9.004                0.926955989     -75.8652159
9.005                0.926769981     -75.9886666
9.006                0.926583422     -76.1124565
9.007                0.926396311     -76.2365869
9.008                0.926208645     -76.3610589
9.009                0.926020423     -76.4858736
9.01                 0.925831644     -76.6110323
9.011                0.925642306     -76.7365362
9.012                0.925452407     -76.8623864
9.013                0.925261947      -76.988584
9.014                0.925070923     -77.1151304
9.015                0.924879334     -77.2420266
9.016                0.924687178     -77.3692739
9.017                0.924494455     -77.4968735
9.018                0.924301162     -77.6248265
9.019                0.924107298     -77.7531342
9.02                 0.923912862     -77.8817978
9.021                0.923717852     -78.0108186
9.022                0.923522266     -78.1401976
9.023                0.923326103     -78.2699362
9.024                0.923129362     -78.4000355
9.025                0.922932041     -78.5304968
9.026                0.922734139     -78.6613213
9.027                0.922535654     -78.7925103
9.028                0.922336585     -78.9240649
9.029                0.922136931     -79.0559864
9.03                 0.921936689     -79.1882762
9.031                0.921735859     -79.3209353
9.032                0.921534438      -79.453965
9.033                0.921332427     -79.5873667
9.034                0.921129823     -79.7211415
9.035                0.920926625     -79.8552908
9.036                0.920722831     -79.9898157
9.037                 0.92051844     -80.1247176
9.038                0.920313452     -80.2599976
9.039                0.920107863     -80.3956572
9.04                 0.919901674     -80.5316975
9.041                0.919694882     -80.6681198
9.042                0.919487487     -80.8049254
9.043                0.919279487     -80.9421157
9.044                0.919070881     -81.0796918
9.045                0.918861667      -81.217655
9.046                0.918651845     -81.3560068
9.047                0.918441412     -81.4947482
9.048                0.918230368     -81.6338808
9.049                0.918018711     -81.7734057
9.05                 0.917806441     -81.9133242
9.051                0.917593555     -82.0536377
9.052                0.917380053     -82.1943475
9.053                0.917165934     -82.3354549
9.054                0.916951195     -82.4769611
9.055                0.916735837     -82.6188676
9.056                0.916519858     -82.7611757
9.057                0.916303257     -82.9038866
9.058                0.916086032     -83.0470017
9.059                0.915868183     -83.1905223
9.06                 0.915649708     -83.3344497
9.061                0.915430606     -83.4787854
9.062                0.915210877     -83.6235306
9.063                0.914990518     -83.7686866
9.064                 0.91476953     -83.9142549
9.065                0.914547911     -84.0602367
9.066                0.914325659     -84.2066334
9.067                0.914102775     -84.3534464
9.068                0.913879257      -84.500677
9.069                0.913655103     -84.6483265
9.07                 0.913430314     -84.7963964
9.071                0.913204888      -84.944888
9.072                0.912978824     -85.0938025
9.073                0.912752121     -85.2431416
9.074                0.912524779     -85.3929063
9.075                0.912296796     -85.5430983
9.076                0.912068172     -85.6937187
9.077                0.911838906     -85.8447691
9.078                0.911608997     -85.9962507
9.079                0.911378445     -86.1481649
9.08                 0.911147247     -86.3005132
9.081                0.910915405      -86.453297
9.082                0.910682916     -86.6065175
9.083                0.910449781     -86.7601762
9.084                0.910215999     -86.9142744
9.085                0.909981568     -87.0688137
9.086                0.909746489     -87.2237952
9.087                0.909510761     -87.3792206
9.088                0.909274383     -87.5350911
9.089                0.909037354     -87.6914081
9.09                 0.908799675     -87.8481731
9.091                0.908561344     -88.0053874
9.092                0.908322361     -88.1630525
9.093                0.908082726     -88.3211697
9.094                0.907842438     -88.4797405
9.095                0.907601496     -88.6387663
9.096                0.907359901     -88.7982484
9.097                0.907117652     -88.9581883
9.098                0.906874749     -89.1185875
9.099                0.906631191     -89.2794472
9.1                  0.906386978      -89.440769
9.101                 0.90614211     -89.6025542
9.102                0.905896587     -89.7648043
9.103                0.905650408     -89.9275206
9.104                0.905403573     -90.0907046
9.105                0.905156083     -90.2543578
9.106                0.904907936     -90.4184815
9.107                0.904659134     -90.5830771
9.108                0.904409676     -90.7481461
9.109                0.904159561     -90.9136899
9.11                 0.903908791       -91.07971
9.111                0.903657365     -91.2462077
9.112                0.903405283     -91.4131844
9.113                0.903152545     -91.5806417
9.114                0.902899152     -91.7485808
9.115                0.902645103     -91.9170033
9.116                  0.9023904     -92.0859106
9.117                0.902135041     -92.2553041
9.118                0.901879029     -92.4251852
9.119                0.901622362     -92.5955554
9.12                 0.901365041      -92.766416
9.121                0.901107068     -92.9377685
9.122                0.900848441     -93.1096144
9.123                0.900589162      -93.281955
9.124                0.900329232     -93.4547918
9.125                 0.90006865     -93.6281262
9.126                0.899807418     -93.8019596
9.127                0.899545536     -93.9762934
9.128                0.899283004     -94.1511292
9.129                0.899019825     -94.3264682
9.13                 0.898755998      -94.502312
9.131                0.898491524     -94.6786618
9.132                0.898226404     -94.8555193
9.133                0.897960639     -95.0328857
9.134                 0.89769423     -95.2107625
9.135                0.897427179     -95.3891511
9.136                0.897159485      -95.568053
9.137                0.896891151     -95.7474695
9.138                0.896622177      -95.927402
9.139                0.896352565      -96.107852
9.14                 0.896082316     -96.2888208
9.141                0.895811431       -96.47031
9.142                0.895539911     -96.6523208
9.143                0.895267759     -96.8348547
9.144                0.894994974      -97.017913
9.145                 0.89472156     -97.2014973
9.146                0.894447518     -97.3856088
9.147                0.894172848      -97.570249
9.148                0.893897553     -97.7554193
9.149                0.893621635      -97.941121
9.15                 0.893345095     -98.1273556
9.151                0.893067935     -98.3141243
9.152                0.892790157     -98.5014287
9.153                0.892511763     -98.6892701
9.154                0.892232755     -98.8776498
9.155                0.891953134     -99.0665692
9.156                0.891672904     -99.2560297
9.157                0.891392067     -99.4460327
9.158                0.891110624     -99.6365795
9.159                0.890828577     -99.8276714
9.16                  0.89054593      -100.01931
9.161                0.890262684     -100.211496
9.162                0.889978843     -100.404232
9.163                0.889694408     -100.597518
9.164                0.889409382     -100.791356
9.165                0.889123768     -100.985747
9.166                0.888837569     -101.180693
9.167                0.888550787     -101.376195
9.168                0.888263425     -101.572254
9.169                0.887975486     -101.768871
9.17                 0.887686974     -101.966048
9.171                0.887397891     -102.163786
9.172                 0.88710824     -102.362087
9.173                0.886818025     -102.560951
9.174                0.886527248     -102.760381
9.175                0.886235914     -102.960376
9.176                0.885944025      -103.16094
9.177                0.885651586     -103.362071
9.178                0.885358599     -103.563773
9.179                0.885065068     -103.766047
9.18                 0.884770997     -103.968893
9.181                 0.88447639     -104.172312
9.182                 0.88418125     -104.376307
9.183                0.883885582     -104.580878
9.184                0.883589389     -104.786027
9.185                0.883292675     -104.991754
9.186                0.882995446     -105.198061
9.187                0.882697704     -105.404949
9.188                0.882399454     -105.612419
9.189                0.882100701     -105.820473
9.19                 0.881801449     -106.029112
9.191                0.881501702     -106.238336
9.192                0.881201466     -106.448147
9.193                0.880900744     -106.658547
9.194                0.880599543     -106.869535
9.195                0.880297865     -107.081114
9.196                0.879995718     -107.293285
9.197                0.879693104     -107.506048
9.198                0.879390031     -107.719404
9.199                0.879086502     -107.933356
9.2                  0.878782524     -108.147903
9.201                  0.8784781     -108.363048
9.202                0.878173238      -108.57879
9.203                0.877867943     -108.795131
9.204                0.877562219     -109.012073
9.205                0.877256074     -109.229615
9.206                0.876949512      -109.44776
9.207                 0.87664254     -109.666508
9.208                0.876335163      -109.88586
9.209                0.876027388     -110.105817
9.21                 0.875719221      -110.32638
9.211                0.875410668      -110.54755
9.212                0.875101735     -110.769329
9.213                 0.87479243     -110.991716
9.214                0.874482758     -111.214713
9.215                0.874172726      -111.43832
9.216                 0.87386234      -111.66254
9.217                0.873551609     -111.887372
9.218                0.873240538     -112.112817
9.219                0.872929135     -112.338876
9.22                 0.872617406     -112.565551
9.221                 0.87230536     -112.792841
9.222                0.871993003     -113.020748
9.223                0.871680342     -113.249273
9.224                0.871367386     -113.478416
9.225                0.871054141     -113.708178
9.226                0.870740616      -113.93856
9.227                0.870426818     -114.169563
9.228                0.870112756     -114.401186
9.229                0.869798436     -114.633432
9.23                 0.869483868       -114.8663
9.231                 0.86916906     -115.099792
9.232                0.868854019     -115.333908
9.233                0.868538755     -115.568648
9.234                0.868223275     -115.804014
9.235                0.867907588     -116.040005
9.236                0.867591704     -116.276623
9.237                0.867275631     -116.513868
9.238                0.866959377      -116.75174
9.239                0.866642952     -116.990241
9.24                 0.866326366      -117.22937
9.241                0.866009626     -117.469128
9.242                0.865692743     -117.709516
9.243                0.865375726     -117.950534
9.244                0.865058585     -118.192182
9.245                0.864741328     -118.434461
9.246                0.864423967     -118.677372
9.247                0.864106511     -118.920914
9.248                0.863788969     -119.165088
9.249                0.863471352     -119.409894
9.25                  0.86315367     -119.655333
9.251                0.862835934     -119.901405
9.252                0.862518153     -120.148111
9.253                0.862200339     -120.395449
9.254                0.861882501     -120.643422
9.255                0.861564651     -120.892028
9.256                  0.8612468     -121.141268
9.257                0.860928957     -121.391143
9.258                0.860611135     -121.641652
9.259                0.860293344     -121.892796
9.26                 0.859975596     -122.144574
9.261                0.859657903     -122.396987
9.262                0.859340274     -122.650034
9.263                0.859022723     -122.903716
9.264                 0.85870526     -123.158033
9.265                0.858387898     -123.412985
9.266                0.858070648     -123.668571
9.267                0.857753523     -123.924792
9.268                0.857436534     -124.181647
9.269                0.857119694     -124.439136
9.27                 0.856803014      -124.69726
9.271                0.856486508     -124.956018
9.272                0.856170188     -125.215409
9.273                0.855854066     -125.475434
9.274                0.855538155     -125.736092
9.275                0.855222468     -125.997383
9.276                0.854907018     -126.259306
9.277                0.854591818     -126.521862
9.278                 0.85427688      -126.78505
9.279                0.853962219     -127.048869
9.28                 0.853647848     -127.313319
9.281                0.853333779       -127.5784
9.282                0.853020027     -127.844111
9.283                0.852706605     -128.110451
9.284                0.852393526     -128.377421
9.285                0.852080805     -128.645019
9.286                0.851768456     -128.913245
9.287                0.851456491     -129.182098
9.288                0.851144927     -129.451577
9.289                0.850833776     -129.721682
9.29                 0.850523053     -129.992413
9.291                0.850212773     -130.263767
9.292                0.849902949     -130.535745
9.293                0.849593597     -130.808346
9.294                 0.84928473     -131.081569
9.295                0.848976365     -131.355412
9.296                0.848668515     -131.629876
9.297                0.848361195     -131.904958
9.298                0.848054421     -132.180659
9.299                0.847748208     -132.456977
9.3                   0.84744257      -132.73391
9.301                0.847137523     -133.011459
9.302                0.846833083     -133.289621
9.303                0.846529264     -133.568395
9.304                0.846226082     -133.847782
9.305                0.845923553     -134.127778
9.306                0.845621692     -134.408383
9.307                0.845320516     -134.689595
9.308                0.845020039     -134.971414
9.309                0.844720278     -135.253838
9.31                 0.844421249     -135.536865
9.311                0.844122967     -135.820494
9.312                 0.84382545     -136.104724
9.313                0.843528712     -136.389553
9.314                 0.84323277     -136.674979
9.315                 0.84293764     -136.961001
9.316                0.842643339     -137.247618
9.317                0.842349883     -137.534827
9.318                0.842057289     -137.822627
9.319                0.841765573     -138.111016
9.32                 0.841474751     -138.399992
9.321                 0.84118484     -138.689554
9.322                0.840895857       -138.9797
9.323                0.840607819     -139.270427
9.324                0.840320742     -139.561735
9.325                0.840034643      -139.85362
9.326                 0.83974954     -140.146081
9.327                0.839465448     -140.439116
9.328                0.839182385     -140.732723
9.329                0.838900367       -141.0269
9.33                 0.838619413     -141.321644
9.331                0.838339538     -141.616954
9.332                0.838060761     -141.912827
9.333                0.837783097      -142.20926
9.334                0.837506565     -142.506252
9.335                0.837231181     -142.803801
9.336                0.836956963     -143.101903
9.337                0.836683927     -143.400556
9.338                0.836412091     -143.699758
9.339                0.836141473     -143.999507
9.34                 0.835872089     -144.299799
9.341                0.835603957     -144.600633
9.342                0.835337094     -144.902005
9.343                0.835071517     -145.203913
9.344                0.834807244     -145.506355
9.345                0.834544293     -145.809326
9.346                0.834282679     -146.112826
9.347                0.834022421      -146.41685
9.348                0.833763536     -146.721396
9.349                0.833506041     -147.026461
9.35                 0.833249954     -147.332042
9.351                0.832995291     -147.638137
9.352                0.832742071     -147.944741
9.353                0.832490309     -148.251852
9.354                0.832240025     -148.559467
9.355                0.831991233     -148.867583
9.356                0.831743953     -149.176196
9.357                0.831498201     -149.485304
9.358                0.831253994     -149.794903
9.359                0.831011349     -150.104989
9.36                 0.830770283     -150.415559
9.361                0.830530814     -150.726611
9.362                0.830292958     -151.038139
9.363                0.830056732     -151.350142
9.364                0.829822153     -151.662616
9.365                0.829589238     -151.975556
9.366                0.829358004     -152.288959
9.367                0.829128467     -152.602823
9.368                0.828900645     -152.917142
9.369                0.828674553     -153.231913
9.37                 0.828450208     -153.547133
9.371                0.828227626     -153.862798
9.372                0.828006825     -154.178904
9.373                0.827787821     -154.495447
9.374                0.827570629     -154.812422
9.375                0.827355266     -155.129828
9.376                0.827141747     -155.447658
9.377                 0.82693009     -155.765909
9.378                 0.82672031     -156.084578
9.379                0.826512422     -156.403659
9.38                 0.826306443      -156.72315
9.381                0.826102388     -157.043045
9.382                0.825900273      -157.36334
9.383                0.825700113     -157.684032
9.384                0.825501923     -158.005116
9.385                 0.82530572     -158.326587
9.386                0.825111517     -158.648442
9.387                0.824919329     -158.970675
9.388                0.824729173     -159.293283
9.389                0.824541062     -159.616261
9.39                 0.824355012     -159.939605
9.391                0.824171036     -160.263309
9.392                0.823989149      -160.58737
9.393                0.823809366     -160.911782
9.394                0.823631701     -161.236542
9.395                0.823456167     -161.561644
9.396                0.823282778     -161.887084
