! TOUCHSTONE file generated by CST DESIGN STUDIO
! Date and time: Wed Feb  5 13:32:13 2025
! Project name: C:\Work\MatlabApps\UnitCellOptimizationMatlab\CST\unitcell.cst
! Tree item: Tasks\Sweep1\SPara1\S-Parameters
! Header version: 2024
! Port assignment regex: !\s*Touchstone port\s*([0-9]+)\s*=\s*(CST MWS port|CST DES external port|CST DES block port)\s*(.+)\s* \(\"(.*)\"\)(\s*mode\s*([0-9]+))?.*
! Touchstone port assignment:
! Touchstone port 1 = CST DES external port 1 ("")
# GHz S MA R 50
9                    0.935231177     -69.4351219
9.001                0.935081339     -69.5418203
9.002                0.934930997     -69.6488008
9.003                 0.93478015     -69.7560644
9.004                0.934628795      -69.863612
9.005                0.934476932     -69.9714445
9.006                0.934324558     -70.0795629
9.007                0.934171672     -70.1879683
9.008                0.934018272     -70.2966615
9.009                0.933864357     -70.4056436
9.01                 0.933709924     -70.5149155
9.011                0.933554973     -70.6244783
9.012                0.933399501     -70.7343329
9.013                0.933243507     -70.8444803
9.014                 0.93308699     -70.9549215
9.015                0.932929946     -71.0656575
9.016                0.932772376     -71.1766893
9.017                0.932614277     -71.2880179
9.018                0.932455647     -71.3996443
9.019                0.932296485     -71.5115696
9.02                 0.932136789     -71.6237947
9.021                0.931976558     -71.7363207
9.022                0.931815789     -71.8491486
9.023                0.931654482     -71.9622794
9.024                0.931492634     -72.0757141
9.025                0.931330243     -72.1894539
9.026                0.931167309     -72.3034996
9.027                0.931003829     -72.4178524
9.028                0.930839802     -72.5325134
9.029                0.930675226     -72.6474834
9.03                   0.9305101     -72.7627637
9.031                0.930344421     -72.8783552
9.032                0.930178188      -72.994259
9.033                  0.9300114     -73.1104762
9.034                0.929844054     -73.2270078
9.035                0.929676149     -73.3438549
9.036                0.929507684     -73.4610186
9.037                0.929338656     -73.5784999
9.038                0.929169065     -73.6962999
9.039                0.928998907     -73.8144197
9.04                 0.928828183     -73.9328604
9.041                 0.92865689     -74.0516231
9.042                0.928485026     -74.1707088
9.043                0.928312589     -74.2901187
9.044                0.928139579     -74.4098539
9.045                0.927965994     -74.5299153
9.046                0.927791831     -74.6503043
9.047                0.927617089     -74.7710218
9.048                0.927441767      -74.892069
9.049                0.927265863     -75.0134469
9.05                 0.927089375     -75.1351568
9.051                0.926912301     -75.2571997
9.052                0.926734641     -75.3795767
9.053                0.926556392      -75.502289
9.054                0.926377552     -75.6253377
9.055                0.926198121      -75.748724
9.056                0.926018097     -75.8724489
9.057                0.925837477     -75.9965137
9.058                 0.92565626     -76.1209194
9.059                0.925474446     -76.2456673
9.06                 0.925292031     -76.3707584
9.061                0.925109015     -76.4961939
9.062                0.924925395      -76.621975
9.063                0.924741171     -76.7481029
9.064                0.924556341     -76.8745786
9.065                0.924370903     -77.0014034
9.066                0.924184856     -77.1285785
9.067                0.923998197     -77.2561049
9.068                0.923810926      -77.383984
9.069                0.923623041     -77.5122168
9.07                 0.923434541     -77.6408046
9.071                0.923245423     -77.7697486
9.072                0.923055687     -77.8990499
9.073                 0.92286533     -78.0287097
9.074                0.922674352     -78.1587292
9.075                0.922482751     -78.2891097
9.076                0.922290524     -78.4198523
9.077                0.922097672     -78.5509582
9.078                0.921904192     -78.6824287
9.079                0.921710082      -78.814265
9.08                 0.921515342     -78.9464682
9.081                 0.92131997     -79.0790396
9.082                0.921123964     -79.2119805
9.083                0.920927324      -79.345292
9.084                0.920730046     -79.4789754
9.085                0.920532131     -79.6130319
9.086                0.920333577     -79.7474628
9.087                0.920134382     -79.8822692
9.088                0.919934544     -80.0174525
9.089                0.919734063     -80.1530138
9.09                 0.919532938     -80.2889545
9.091                0.919331166     -80.4252757
9.092                0.919128746     -80.5619787
9.093                0.918925677     -80.6990649
9.094                0.918721958     -80.8365353
9.095                0.918517588     -80.9743914
9.096                0.918312564     -81.1126344
9.097                0.918106886     -81.2512655
9.098                0.917900553      -81.390286
9.099                0.917693563     -81.5296972
9.1                  0.917485914     -81.6695003
9.101                0.917277607     -81.8096967
9.102                0.917068638     -81.9502877
9.103                0.916859008     -82.0912744
9.104                0.916648715     -82.2326583
9.105                0.916437758     -82.3744405
9.106                0.916226135     -82.5166225
9.107                0.916013846     -82.6592054
9.108                0.915800888     -82.8021906
9.109                0.915587262     -82.9455794
9.11                 0.915372966     -83.0893731
9.111                0.915157999      -83.233573
9.112                 0.91494236     -83.3781804
9.113                0.914726047     -83.5231967
9.114                 0.91450906     -83.6686231
9.115                0.914291398     -83.8144609
9.116                0.914073059     -83.9607116
9.117                0.913854043     -84.1073763
9.118                0.913634348     -84.2544565
9.119                0.913413974     -84.4019534
9.12                  0.91319292     -84.5498685
9.121                0.912971184     -84.6982029
9.122                0.912748766     -84.8469581
9.123                0.912525665     -84.9961355
9.124                 0.91230188     -85.1457362
9.125                 0.91207741     -85.2957618
9.126                0.911852255     -85.4462134
9.127                0.911626413     -85.5970926
9.128                0.911399883     -85.7484005
9.129                0.911172666     -85.9001387
9.13                  0.91094476     -86.0523083
9.131                0.910716164     -86.2049109
9.132                0.910486878     -86.3579476
9.133                0.910256901       -86.51142
9.134                0.910026232     -86.6653294
9.135                0.909794871      -86.819677
9.136                0.909562817     -86.9744644
9.137                 0.90933007     -87.1296928
9.138                0.909096628     -87.2853636
9.139                0.908862492     -87.4414782
9.14                 0.908627661     -87.5980379
9.141                0.908392135     -87.7550443
9.142                0.908155912     -87.9124985
9.143                0.907918993      -88.070402
9.144                0.907681376     -88.2287561
9.145                0.907443063     -88.3875624
9.146                0.907204052      -88.546822
9.147                0.906964343     -88.7065364
9.148                0.906723935     -88.8667071
9.149                 0.90648283     -89.0273353
9.15                 0.906241025     -89.1884225
9.151                0.905998521       -89.34997
9.152                0.905755318     -89.5119793
9.153                0.905511416     -89.6744516
9.154                0.905266814     -89.8373886
9.155                0.905021513     -90.0007914
9.156                0.904775512     -90.1646615
9.157                0.904528812     -90.3290003
9.158                0.904281412     -90.4938092
9.159                0.904033312     -90.6590895
9.16                 0.903784513     -90.8248428
9.161                0.903535015     -90.9910703
9.162                0.903284817     -91.1577735
9.163                 0.90303392     -91.3249537
9.164                0.902782325     -91.4926124
9.165                0.902530031      -91.660751
9.166                0.902277038     -91.8293708
9.167                0.902023348     -91.9984733
9.168                 0.90176896     -92.1680598
9.169                0.901513875     -92.3381317
9.17                 0.901258093     -92.5086905
9.171                0.901001615     -92.6797376
9.172                0.900744441     -92.8512743
9.173                0.900486572      -93.023302
9.174                0.900228008     -93.1958221
9.175                0.899968751     -93.3688361
9.176                  0.8997088     -93.5423453
9.177                0.899448157     -93.7163512
9.178                0.899186822      -93.890855
9.179                0.898924796     -94.0658583
9.18                  0.89866208     -94.2413624
9.181                0.898398675     -94.4173686
9.182                0.898134581     -94.5938785
9.183                0.897869801     -94.7708933
9.184                0.897604334     -94.9484145
9.185                0.897338182     -95.1264435
9.186                0.897071346     -95.3049816
9.187                0.896803828     -95.4840302
9.188                0.896535627     -95.6635907
9.189                0.896266747     -95.8436646
9.19                 0.895997188     -96.0242531
9.191                0.895726951     -96.2053576
9.192                0.895456038     -96.3869796
9.193                 0.89518445     -96.5691205
9.194                0.894912189     -96.7517814
9.195                0.894639257      -96.934964
9.196                0.894365654     -97.1186695
9.197                0.894091384     -97.3028992
9.198                0.893816447     -97.4876546
9.199                0.893540845      -97.672937
9.2                   0.89326458     -97.8587478
9.201                0.892987655     -98.0450884
9.202                 0.89271007       -98.23196
9.203                0.892431829      -98.419364
9.204                0.892152933     -98.6073019
9.205                0.891873384     -98.7957748
9.206                0.891593184     -98.9847842
9.207                0.891312336     -99.1743314
9.208                0.891030843     -99.3644178
9.209                0.890748705     -99.5550446
9.21                 0.890465927     -99.7462132
9.211                 0.89018251      -99.937925
9.212                0.889898457     -100.130181
9.213                 0.88961377     -100.322983
9.214                0.889328452     -100.516332
9.215                0.889042507     -100.710229
9.216                0.888755936     -100.904676
9.217                0.888468743     -101.099674
9.218                0.888180931     -101.295225
9.219                0.887892502     -101.491328
9.22                  0.88760346     -101.687987
9.221                0.887313808     -101.885202
9.222                0.887023549     -102.082974
9.223                0.886732687     -102.281304
9.224                0.886441224     -102.480195
9.225                0.886149164     -102.679647
9.226                0.885856511     -102.879661
9.227                0.885563268     -103.080239
9.228                0.885269439     -103.281381
9.229                0.884975028      -103.48309
9.23                 0.884680038     -103.685366
9.231                0.884384474     -103.888211
9.232                0.884088338     -104.091625
9.233                0.883791636     -104.295611
9.234                0.883494371     -104.500168
9.235                0.883196548     -104.705299
9.236                 0.88289817     -104.911005
9.237                0.882599242     -105.117286
9.238                0.882299769     -105.324144
9.239                0.881999755      -105.53158
9.24                 0.881699204     -105.739595
9.241                0.881398121      -105.94819
9.242                0.881096511     -106.157367
9.243                0.880794379     -106.367127
9.244                 0.88049173      -106.57747
9.245                0.880188568     -106.788398
9.246                0.879884898     -106.999912
9.247                0.879580726     -107.212013
9.248                0.879276058     -107.424703
9.249                0.878970897     -107.637981
9.25                  0.87866525     -107.851849
9.251                0.878359122     -108.066309
9.252                0.878052519     -108.281361
9.253                0.877745446     -108.497006
9.254                 0.87743791     -108.713246
9.255                0.877129915     -108.930081
9.256                0.876821468     -109.147512
9.257                0.876512575     -109.365541
9.258                0.876203242     -109.584168
9.259                0.875893475     -109.803395
9.26                  0.87558328     -110.023221
9.261                0.875272664     -110.243649
9.262                0.874961634     -110.464679
9.263                0.874650195     -110.686312
9.264                0.874338355     -110.908549
9.265                 0.87402612     -111.131391
9.266                0.873713497     -111.354838
9.267                0.873400493     -111.578892
9.268                0.873087115     -111.803554
9.269                0.872773371     -112.028824
9.27                 0.872459267     -112.254702
9.271                 0.87214481     -112.481191
9.272                0.871830009     -112.708291
9.273                 0.87151487     -112.936002
9.274                0.871199402     -113.164325
9.275                0.870883612     -113.393261
9.276                0.870567508     -113.622811
9.277                0.870251097     -113.852975
9.278                0.869934388     -114.083755
9.279                0.869617389     -114.315151
9.28                 0.869300109     -114.547163
9.281                0.868982554     -114.779792
9.282                0.868664735     -115.013039
9.283                0.868346659     -115.246905
9.284                0.868028335      -115.48139
9.285                0.867709771     -115.716494
9.286                0.867390978     -115.952219
9.287                0.867071963     -116.188565
9.288                0.866752735     -116.425532
9.289                0.866433304     -116.663121
9.29                 0.866113679     -116.901332
9.291                0.865793869     -117.140167
9.292                0.865473884     -117.379624
9.293                0.865153734     -117.619706
9.294                0.864833427     -117.860412
9.295                0.864512974     -118.101742
9.296                0.864192385     -118.343698
9.297                 0.86387167     -118.586279
9.298                0.863550838     -118.829485
9.299                  0.8632299     -119.073318
9.3                  0.862908866     -119.317778
9.301                0.862587747     -119.562864
9.302                0.862266553     -119.808577
9.303                0.861945294     -120.054918
9.304                0.861623983     -120.301885
9.305                0.861302628     -120.549481
9.306                0.860981242     -120.797705
9.307                0.860659835     -121.046556
9.308                0.860338418     -121.296036
9.309                0.860017003     -121.546144
9.31                 0.859695601      -121.79688
9.311                0.859374224     -122.048245
9.312                0.859052883     -122.300239
9.313                0.858731589      -122.55286
9.314                0.858410355     -122.806111
9.315                0.858089193      -123.05999
9.316                0.857768114     -123.314497
9.317                 0.85744713     -123.569633
9.318                0.857126255     -123.825398
9.319                0.856805499      -124.08179
9.32                 0.856484876      -124.33881
9.321                0.856164398     -124.596458
9.322                0.855844077     -124.854734
9.323                0.855523927     -125.113638
9.324                 0.85520396     -125.373168
9.325                0.854884189     -125.633325
9.326                0.854564628     -125.894109
9.327                0.854245288     -126.155519
9.328                0.853926184     -126.417556
9.329                0.853607329     -126.680217
9.33                 0.853288737     -126.943504
9.331                 0.85297042     -127.207415
9.332                0.852652393      -127.47195
9.333                0.852334669     -127.737109
9.334                0.852017262     -128.002891
9.335                0.851700186     -128.269296
9.336                0.851383455     -128.536323
9.337                0.851067083     -128.803971
9.338                0.850751085     -129.072239
9.339                0.850435474     -129.341128
9.34                 0.850120266     -129.610636
9.341                0.849805474     -129.880763
9.342                0.849491113     -130.151507
9.343                0.849177198     -130.422868
9.344                0.848863744     -130.694846
9.345                0.848550765     -130.967438
9.346                0.848238277     -131.240646
9.347                0.847926294     -131.514466
9.348                0.847614832     -131.788899
9.349                0.847303906     -132.063944
9.35                 0.846993531     -132.339598
9.351                0.846683723     -132.615863
9.352                0.846374496     -132.892735
9.353                0.846065867     -133.170215
9.354                0.845757852     -133.448301
9.355                0.845450465     -133.726991
9.356                0.845143723     -134.006286
9.357                0.844837641     -134.286182
9.358                0.844532236      -134.56668
9.359                0.844227523     -134.847777
9.36                 0.843923519     -135.129472
9.361                0.843620239     -135.411764
9.362                  0.8433177     -135.694652
9.363                0.843015919     -135.978134
9.364                0.842714911     -136.262208
9.365                0.842414692     -136.546874
9.366                0.842115281     -136.832128
9.367                0.841816692      -137.11797
9.368                0.841518943     -137.404399
9.369                0.841222049     -137.691411
9.37                 0.840926029     -137.979007
9.371                0.840630899     -138.267183
9.372                0.840336675     -138.555939
9.373                0.840043374     -138.845271
9.374                0.839751014     -139.135179
9.375                 0.83945961     -139.425661
9.376                0.839169182     -139.716714
9.377                0.838879744     -140.008336
9.378                0.838591315     -140.300526
9.379                0.838303911     -140.593281
9.38                  0.83801755       -140.8866
9.381                 0.83773225      -141.18048
9.382                0.837448026     -141.474919
9.383                0.837164897     -141.769915
9.384                0.836882879     -142.065465
9.385                0.836601991     -142.361567
9.386                 0.83632225     -142.658219
9.387                0.836043672     -142.955419
9.388                0.835766275     -143.253164
9.389                0.835490077     -143.551452
9.39                 0.835215096     -143.850279
9.391                0.834941348     -144.149645
9.392                0.834668851     -144.449545
9.393                0.834397623     -144.749978
9.394                 0.83412768      -145.05094
9.395                0.833859042      -145.35243
9.396                0.833591724     -145.654444
