! TOUCHSTONE file generated by CST DESIGN STUDIO
! Date and time: Tue Feb  4 16:02:43 2025
! Project name: C:\Work\MatlabApps\UnitCellOptimizationMatlab\CST\unitcell.cst
! Tree item: Tasks\Sweep1\SPara1\S-Parameters
! Header version: 2024
! Port assignment regex: !\s*Touchstone port\s*([0-9]+)\s*=\s*(CST MWS port|CST DES external port|CST DES block port)\s*(.+)\s* \(\"(.*)\"\)(\s*mode\s*([0-9]+))?.*
! Touchstone port assignment:
! Touchstone port 1 = CST DES external port 1 ("")
# GHz S MA R 50
9                    0.991001949     -76.7491177
9.001                0.990980563     -76.8637454
9.002                0.990959114     -76.9786501
9.003                0.990937601     -77.0938325
9.004                0.990916025     -77.2092934
9.005                0.990894385     -77.3250336
9.006                 0.99087268      -77.441054
9.007                0.990850911     -77.5573552
9.008                0.990829078     -77.6739383
9.009                0.990807181     -77.7908039
9.01                 0.990785219     -77.9079529
9.011                0.990763192      -78.025386
9.012                0.990741101     -78.1431041
9.013                0.990718944     -78.2611081
9.014                0.990696723     -78.3793987
9.015                0.990674436     -78.4979767
9.016                0.990652084     -78.6168431
9.017                0.990629666     -78.7359985
9.018                0.990607183     -78.8554438
9.019                0.990584634     -78.9751799
9.02                 0.990562019     -79.0952075
9.021                0.990539338     -79.2155276
9.022                0.990516591     -79.3361409
9.023                0.990493778     -79.4570483
9.024                0.990470899     -79.5782506
9.025                0.990447953     -79.6997486
9.026                 0.99042494     -79.8215432
9.027                0.990401861     -79.9436352
9.028                0.990378715     -80.0660255
9.029                0.990355502     -80.1887149
9.03                 0.990332222     -80.3117042
9.031                0.990308875     -80.4349943
9.032                0.990285461     -80.5585861
9.033                0.990261979     -80.6824803
9.034                 0.99023843     -80.8066779
9.035                0.990214814     -80.9311797
9.036                0.990191129     -81.0559865
9.037                0.990167377     -81.1810992
9.038                0.990143557     -81.3065187
9.039                0.990119669     -81.4322457
9.04                 0.990095712     -81.5582813
9.041                0.990071688     -81.6846261
9.042                0.990047595     -81.8112812
9.043                0.990023434     -81.9382473
9.044                0.989999204     -82.0655253
9.045                0.989974906     -82.1931161
9.046                0.989950539     -82.3210206
9.047                0.989926103     -82.4492395
9.048                0.989901598     -82.5777739
9.049                0.989877024     -82.7066244
9.05                 0.989852381     -82.8357922
9.051                0.989827669     -82.9652779
9.052                0.989802888     -83.0950825
9.053                0.989778037     -83.2252068
9.054                0.989753117     -83.3556518
9.055                0.989728127     -83.4864182
9.056                0.989703068      -83.617507
9.057                0.989677939     -83.7489191
9.058                 0.98965274     -83.8806554
9.059                0.989627471     -84.0127166
9.06                 0.989602132     -84.1451038
9.061                0.989576724     -84.2778177
9.062                0.989551245     -84.4108593
9.063                0.989525696     -84.5442295
9.064                0.989500077     -84.6779291
9.065                0.989474388     -84.8119591
9.066                0.989448628     -84.9463203
9.067                0.989422798     -85.0810135
9.068                0.989396897     -85.2160398
9.069                0.989370926        -85.3514
9.07                 0.989344884      -85.487095
9.071                0.989318772     -85.6231256
9.072                0.989292588     -85.7594929
9.073                0.989266334     -85.8961976
9.074                0.989240009     -86.0332406
9.075                0.989213614     -86.1706229
9.076                0.989187147     -86.3083454
9.077                0.989160609     -86.4464089
9.078                   0.989134     -86.5848144
9.079                0.989107321     -86.7235627
9.08                  0.98908057     -86.8626548
9.081                0.989053748     -87.0020916
9.082                0.989026854     -87.1418738
9.083                 0.98899989     -87.2820026
9.084                0.988972854     -87.4224787
9.085                0.988945747      -87.563303
9.086                0.988918569     -87.7044765
9.087                0.988891319     -87.8460001
9.088                0.988863998     -87.9878746
9.089                0.988836606      -88.130101
9.09                 0.988809142     -88.2726802
9.091                0.988781606      -88.415613
9.092                   0.988754     -88.5589004
9.093                0.988726322     -88.7025433
9.094                0.988698572     -88.8465426
9.095                0.988670751     -88.9908992
9.096                0.988642858      -89.135614
9.097                0.988614894     -89.2806879
9.098                0.988586859     -89.4261218
9.099                0.988558752     -89.5719166
9.1                  0.988530574     -89.7180732
9.101                0.988502324     -89.8645926
9.102                0.988474003     -90.0114756
9.103                 0.98844561     -90.1587231
9.104                0.988417146     -90.3063361
9.105                0.988388611     -90.4543154
9.106                0.988360004      -90.602662
9.107                0.988331326     -90.7513767
9.108                0.988302577     -90.9004604
9.109                0.988273756     -91.0499142
9.11                 0.988244864     -91.1997388
9.111                0.988215901     -91.3499351
9.112                0.988186867     -91.5005042
9.113                0.988157762     -91.6514468
9.114                0.988128585     -91.8027639
9.115                0.988099338     -91.9544563
9.116                 0.98807002     -92.1065251
9.117                 0.98804063      -92.258971
9.118                 0.98801117     -92.4117949
9.119                 0.98798164     -92.5649979
9.12                 0.987952038     -92.7185807
9.121                0.987922366     -92.8725442
9.122                0.987892624     -93.0268895
9.123                 0.98786281     -93.1816173
9.124                0.987832927     -93.3367285
9.125                0.987802973     -93.4922241
9.126                0.987772949     -93.6481049
9.127                0.987742855     -93.8043718
9.128                0.987712691     -93.9610257
9.129                0.987682457     -94.1180676
9.13                 0.987652153     -94.2754982
9.131                 0.98762178     -94.4333185
9.132                0.987591337     -94.5915293
9.133                0.987560824     -94.7501316
9.134                0.987530242     -94.9091263
9.135                0.987499591     -95.0685141
9.136                 0.98746887      -95.228296
9.137                0.987438081     -95.3884728
9.138                0.987407223     -95.5490455
9.139                0.987376296     -95.7100149
9.14                 0.987345301     -95.8713818
9.141                0.987314237     -96.0331472
9.142                0.987283105      -96.195312
9.143                0.987251905     -96.3578769
9.144                0.987220637     -96.5208428
9.145                0.987189301     -96.6842107
9.146                0.987157898     -96.8479813
9.147                0.987126427     -97.0121555
9.148                0.987094889     -97.1767343
9.149                0.987063284     -97.3417183
9.15                 0.987031612     -97.5071086
9.151                0.986999873     -97.6729058
9.152                0.986968068      -97.839111
9.153                0.986936197     -98.0057249
9.154                0.986904259     -98.1727483
9.155                0.986872256     -98.3401822
9.156                0.986840187     -98.5080272
9.157                0.986808053     -98.6762844
9.158                0.986775853     -98.8449544
9.159                0.986743589     -99.0140382
9.16                  0.98671126     -99.1835366
9.161                0.986678866     -99.3534503
9.162                0.986646409     -99.5237802
9.163                0.986613887     -99.6945271
9.164                0.986581301     -99.8656918
9.165                0.986548653     -100.037275
9.166                 0.98651594     -100.209278
9.167                0.986483166     -100.381701
9.168                0.986450328     -100.554545
9.169                0.986417428     -100.727811
9.17                 0.986384466       -100.9015
9.171                0.986351443     -101.075611
9.172                0.986318358     -101.250148
9.173                0.986285211     -101.425109
9.174                0.986252004     -101.600495
9.175                0.986218737     -101.776309
9.176                0.986185409     -101.952549
9.177                0.986152022     -102.129218
9.178                0.986118575     -102.306316
9.179                0.986085069     -102.483843
9.18                 0.986051504       -102.6618
9.181                0.986017881     -102.840189
9.182                0.985984199     -103.019009
9.183                 0.98595046     -103.198262
9.184                0.985916664     -103.377948
9.185                 0.98588281     -103.558068
9.186                0.985848901     -103.738623
9.187                0.985814934     -103.919613
9.188                0.985780912     -104.101039
9.189                0.985746835     -104.282902
9.19                 0.985712703     -104.465203
9.191                0.985678516     -104.647942
9.192                0.985644275      -104.83112
9.193                0.985609981     -105.014738
9.194                0.985575633     -105.198796
9.195                0.985541233     -105.383295
9.196                 0.98550678     -105.568236
9.197                0.985472275     -105.753619
9.198                0.985437719     -105.939445
9.199                0.985403112     -106.125714
9.2                  0.985368454     -106.312428
9.201                0.985333747     -106.499587
9.202                 0.98529899     -106.687191
9.203                0.985264184     -106.875242
9.204                0.985229329     -107.063739
9.205                0.985194427     -107.252684
9.206                0.985159477     -107.442077
9.207                 0.98512448     -107.631919
9.208                0.985089437     -107.822209
9.209                0.985054348      -108.01295
9.21                 0.985019214     -108.204141
9.211                0.984984035     -108.395783
9.212                0.984948812     -108.587876
9.213                0.984913546     -108.780421
9.214                0.984878236      -108.97342
9.215                0.984842885     -109.166871
9.216                0.984807491     -109.360776
9.217                0.984772056     -109.555135
9.218                0.984736581     -109.749949
9.219                0.984701065     -109.945219
9.22                 0.984665511     -110.140944
9.221                0.984629917     -110.337125
9.222                0.984594286     -110.533764
9.223                0.984558617     -110.730859
9.224                0.984522912     -110.928412
9.225                 0.98448717     -111.126424
9.226                0.984451393     -111.324894
9.227                0.984415582     -111.523823
9.228                0.984379736     -111.723211
9.229                0.984343857      -111.92306
9.23                 0.984307946     -112.123369
9.231                0.984272002     -112.324139
9.232                0.984236028      -112.52537
9.233                0.984200023     -112.727063
9.234                0.984163988     -112.929217
9.235                0.984127925     -113.131834
9.236                0.984091833     -113.334914
9.237                0.984055714     -113.538456
9.238                0.984019568     -113.742462
9.239                0.983983397     -113.946932
9.24                   0.9839472     -114.151866
9.241                0.983910979     -114.357264
9.242                0.983874735     -114.563127
9.243                0.983838468     -114.769455
9.244                0.983802179     -114.976248
9.245                 0.98376587     -115.183507
9.246                 0.98372954     -115.391231
9.247                0.983693191     -115.599422
9.248                0.983656824     -115.808079
9.249                0.983620439     -116.017202
9.25                 0.983584037     -116.226792
9.251                 0.98354762     -116.436849
9.252                0.983511187     -116.647373
9.253                0.983474741     -116.858364
9.254                0.983438282     -117.069823
9.255                 0.98340181      -117.28175
9.256                0.983365328     -117.494144
9.257                0.983328835     -117.707006
9.258                0.983292333     -117.920336
9.259                0.983255822     -118.134135
9.26                 0.983219304     -118.348401
9.261                 0.98318278     -118.563136
9.262                 0.98314625     -118.778339
9.263                0.983109716     -118.994011
9.264                0.983073179     -119.210152
9.265                0.983036639     -119.426761
9.266                0.983000097     -119.643838
9.267                0.982963555     -119.861384
9.268                0.982927014     -120.079399
9.269                0.982890475     -120.297882
9.27                 0.982853938     -120.516834
9.271                0.982817405     -120.736254
9.272                0.982780877     -120.956143
9.273                0.982744355       -121.1765
9.274                 0.98270784     -121.397325
9.275                0.982671334     -121.618619
9.276                0.982634836      -121.84038
9.277                0.982598349      -122.06261
9.278                0.982561874     -122.285307
9.279                0.982525411     -122.508472
9.28                 0.982488962     -122.732104
9.281                0.982452528     -122.956204
9.282                 0.98241611     -123.180771
9.283                0.982379709     -123.405804
9.284                0.982343327     -123.631304
9.285                0.982306964     -123.857271
9.286                0.982270622     -124.083704
9.287                0.982234302     -124.310602
9.288                0.982198006     -124.537966
9.289                0.982161734     -124.765796
9.29                 0.982125488      -124.99409
9.291                0.982089268     -125.222849
9.292                0.982053077     -125.452072
9.293                0.982016915     -125.681758
9.294                0.981980784     -125.911909
9.295                0.981944685     -126.142522
9.296                 0.98190862     -126.373598
9.297                0.981872588     -126.605136
9.298                0.981836593     -126.837136
9.299                0.981800635     -127.069597
9.3                  0.981764715     -127.302519
9.301                0.981728835     -127.535901
9.302                0.981692996     -127.769743
9.303                  0.9816572     -128.004044
9.304                0.981621447     -128.238804
9.305                 0.98158574     -128.474021
9.306                0.981550079     -128.709697
9.307                0.981514466     -128.945829
9.308                0.981478902     -129.182417
9.309                0.981443389     -129.419461
9.31                 0.981407928      -129.65696
9.311                 0.98137252     -129.894913
9.312                0.981337167      -130.13332
9.313                 0.98130187      -130.37218
9.314                0.981266631     -130.611491
9.315                0.981231451     -130.851254
9.316                0.981196332     -131.091468
9.317                0.981161274     -131.332131
9.318                 0.98112628     -131.573244
9.319                0.981091351     -131.814804
9.32                 0.981056488     -132.056812
9.321                0.981021693     -132.299266
9.322                0.980986967     -132.542166
9.323                0.980952312      -132.78551
9.324                0.980917729     -133.029299
9.325                 0.98088322     -133.273529
9.326                0.980848786     -133.518202
9.327                0.980814429     -133.763316
9.328                 0.98078015     -134.008869
9.329                0.980745951     -134.254862
9.33                 0.980711833     -134.501292
9.331                0.980677798     -134.748158
9.332                0.980643847     -134.995461
9.333                0.980609983     -135.243198
9.334                0.980576205     -135.491368
9.335                0.980542517     -135.739971
9.336                0.980508919     -135.989005
9.337                0.980475413     -136.238468
9.338                0.980442001     -136.488361
9.339                0.980408684     -136.738681
9.34                 0.980375464     -136.989427
9.341                0.980342342     -137.240599
9.342                0.980309321     -137.492194
9.343                0.980276401     -137.744211
9.344                0.980243584      -137.99665
9.345                0.980210871     -138.249508
9.346                0.980178265     -138.502785
9.347                0.980145767     -138.756479
9.348                0.980113379     -139.010589
9.349                0.980081101     -139.265113
9.35                 0.980048937     -139.520049
9.351                0.980016887     -139.775397
9.352                0.979984952     -140.031155
9.353                0.979953136     -140.287321
9.354                0.979921438     -140.543893
9.355                0.979889862     -140.800871
9.356                0.979858408     -141.058253
9.357                0.979827078     -141.316036
9.358                0.979795874     -141.574221
9.359                0.979764797     -141.832803
9.36                 0.979733849     -142.091783
9.361                0.979703032     -142.351159
9.362                0.979672347     -142.610928
9.363                0.979641796      -142.87109
9.364                0.979611381     -143.131641
9.365                0.979581103     -143.392582
9.366                0.979550963     -143.653909
9.367                0.979520964     -143.915621
9.368                0.979491108     -144.177716
9.369                0.979461395     -144.440192
9.37                 0.979431827     -144.703048
9.371                0.979402406     -144.966281
9.372                0.979373134      -145.22989
9.373                0.979344013     -145.493873
9.374                0.979315043     -145.758228
9.375                0.979286227     -146.022952
9.376                0.979257566     -146.288044
9.377                0.979229062     -146.553502
9.378                0.979200716     -146.819323
9.379                0.979172531     -147.085506
9.38                 0.979144507     -147.352049
9.381                0.979116646     -147.618949
9.382                0.979088951     -147.886205
9.383                0.979061422     -148.153814
9.384                0.979034061     -148.421774
9.385                 0.97900687     -148.690083
9.386                0.978979851     -148.958738
9.387                0.978953004     -149.227738
9.388                0.978926333      -149.49708
9.389                0.978899837     -149.766762
9.39                 0.978873519     -150.036782
9.391                0.978847381     -150.307137
9.392                0.978821423     -150.577825
9.393                0.978795648     -150.848843
9.394                0.978770057      -151.12019
9.395                0.978744652     -151.391863
9.396                0.978719435     -151.663859
