! TOUCHSTONE file generated by CST DESIGN STUDIO
! Date and time: Tue Feb  4 16:02:45 2025
! Project name: C:\Work\MatlabApps\UnitCellOptimizationMatlab\CST\unitcell.cst
! Tree item: Tasks\Sweep1\SPara1\S-Parameters
! Header version: 2024
! Port assignment regex: !\s*Touchstone port\s*([0-9]+)\s*=\s*(CST MWS port|CST DES external port|CST DES block port)\s*(.+)\s* \(\"(.*)\"\)(\s*mode\s*([0-9]+))?.*
! Touchstone port assignment:
! Touchstone port 1 = CST DES external port 1 ("")
# GHz S MA R 50
9                    0.991183712     -76.0397703
9.001                 0.99116299     -76.1527806
9.002                0.991142206     -76.2660632
9.003                0.991121361      -76.379619
9.004                0.991100453     -76.4934488
9.005                0.991079484     -76.6075534
9.006                0.991058452     -76.7219335
9.007                0.991037358     -76.8365899
9.008                0.991016201     -76.9515235
9.009                0.990994982      -77.066735
9.01                 0.990973701     -77.1822253
9.011                0.990952356     -77.2979952
9.012                0.990930949     -77.4140454
9.013                0.990909478     -77.5303768
9.014                0.990887944     -77.6469901
9.015                0.990866347     -77.7638863
9.016                0.990844687      -77.881066
9.017                0.990822962     -77.9985302
9.018                0.990801174     -78.1162796
9.019                0.990779323     -78.2343151
9.02                 0.990757407     -78.3526374
9.021                0.990735427     -78.4712474
9.022                0.990713383     -78.5901459
9.023                0.990691275     -78.7093338
9.024                0.990669102     -78.8288119
9.025                0.990646865     -78.9485809
9.026                0.990624562     -79.0686418
9.027                0.990602196     -79.1889953
9.028                0.990579764     -79.3096423
9.029                0.990557267     -79.4305837
9.03                 0.990534705     -79.5518202
9.031                0.990512078     -79.6733527
9.032                0.990489385      -79.795182
9.033                0.990466627     -79.9173091
9.034                0.990443803     -80.0397346
9.035                0.990420913     -80.1624595
9.036                0.990397958     -80.2854846
9.037                0.990374936     -80.4088108
9.038                0.990351849     -80.5324388
9.039                0.990328696     -80.6563697
9.04                 0.990305476     -80.7806041
9.041                0.990282189      -80.905143
9.042                0.990258837     -81.0299872
9.043                0.990235417     -81.1551376
9.044                0.990211931      -81.280595
9.045                0.990188379     -81.4063603
9.046                0.990164759     -81.5324343
9.047                0.990141072     -81.6588179
9.048                0.990117319      -81.785512
9.049                0.990093498     -81.9125175
9.05                 0.990069609     -82.0398351
9.051                0.990045654     -82.1674658
9.052                0.990021631     -82.2954104
9.053                 0.98999754     -82.4236699
9.054                0.989973382      -82.552245
9.055                0.989949156     -82.6811366
9.056                0.989924862     -82.8103457
9.057                  0.9899005     -82.9398731
9.058                 0.98987607     -83.0697196
9.059                0.989851572     -83.1998862
9.06                 0.989827006     -83.3303736
9.061                0.989802372     -83.4611829
9.062                 0.98977767     -83.5923149
9.063                0.989752899     -83.7237705
9.064                0.989728059     -83.8555504
9.065                0.989703151     -83.9876557
9.066                0.989678174     -84.1200873
9.067                0.989653129     -84.2528459
9.068                0.989628015     -84.3859325
9.069                0.989602832      -84.519348
9.07                  0.98957758     -84.6530932
9.071                0.989552259     -84.7871691
9.072                0.989526869     -84.9215765
9.073                 0.98950141     -85.0563164
9.074                0.989475882     -85.1913896
9.075                0.989450284      -85.326797
9.076                0.989424618     -85.4625395
9.077                0.989398881      -85.598618
9.078                0.989373076     -85.7350334
9.079                0.989347201     -85.8717866
9.08                 0.989321257     -86.0088786
9.081                0.989295243     -86.1463101
9.082                0.989269159     -86.2840821
9.083                0.989243006     -86.4221955
9.084                0.989216784     -86.5606511
9.085                0.989190491       -86.69945
9.086                0.989164129      -86.838593
9.087                0.989137697     -86.9780809
9.088                0.989111195     -87.1179148
9.089                0.989084623     -87.2580954
9.09                 0.989057982     -87.3986238
9.091                 0.98903127     -87.5395008
9.092                0.989004489     -87.6807272
9.093                0.988977638     -87.8223041
9.094                0.988950717     -87.9642323
9.095                0.988923725     -88.1065127
9.096                0.988896664     -88.2491463
9.097                0.988869533     -88.3921339
9.098                0.988842332     -88.5354764
9.099                 0.98881506     -88.6791748
9.1                  0.988787719       -88.82323
9.101                0.988760308     -88.9676428
9.102                0.988732826     -89.1124141
9.103                0.988705275      -89.257545
9.104                0.988677653     -89.4030362
9.105                0.988649962     -89.5488887
9.106                0.988622201     -89.6951035
9.107                0.988594369     -89.8416813
9.108                0.988566468     -89.9886231
9.109                0.988538496     -90.1359299
9.11                 0.988510455     -90.2836024
9.111                0.988482344     -90.4316417
9.112                0.988454162     -90.5800487
9.113                0.988425911     -90.7288242
9.114                 0.98839759     -90.8779691
9.115                  0.9883692     -91.0274844
9.116                0.988340739     -91.1773709
9.117                0.988312209     -91.3276296
9.118                0.988283609     -91.4782614
9.119                 0.98825494     -91.6292672
9.12                 0.988226201     -91.7806478
9.121                0.988197392     -91.9324042
9.122                0.988168514     -92.0845373
9.123                0.988139567     -92.2370479
9.124                 0.98811055     -92.3899371
9.125                0.988081464     -92.5432056
9.126                0.988052309     -92.6968544
9.127                0.988023085     -92.8508844
9.128                0.987993792     -93.0052965
9.129                0.987964429     -93.1600915
9.13                 0.987934998     -93.3152704
9.131                0.987905498     -93.4708341
9.132                0.987875929     -93.6267834
9.133                0.987846292     -93.7831192
9.134                0.987816586     -93.9398425
9.135                0.987786812     -94.0969542
9.136                 0.98775697      -94.254455
9.137                0.987727059      -94.412346
9.138                0.987697081     -94.5706279
9.139                0.987667034     -94.7293018
9.14                 0.987636919     -94.8883683
9.141                0.987606737     -95.0478286
9.142                0.987576487     -95.2076833
9.143                 0.98754617     -95.3679335
9.144                0.987515786     -95.5285799
9.145                0.987485334     -95.6896235
9.146                0.987454816     -95.8510651
9.147                 0.98742423     -96.0129056
9.148                0.987393578     -96.1751459
9.149                0.987362859     -96.3377868
9.15                 0.987332074     -96.5008292
9.151                0.987301223      -96.664274
9.152                0.987270305      -96.828122
9.153                0.987239322     -96.9923741
9.154                0.987208273     -97.1570311
9.155                0.987177159     -97.3220939
9.156                0.987145979     -97.4875634
9.157                0.987114734     -97.6534404
9.158                0.987083424     -97.8197258
9.159                 0.98705205     -97.9864203
9.16                 0.987020611     -98.1535249
9.161                0.986989108     -98.3210404
9.162                0.986957541     -98.4889676
9.163                 0.98692591     -98.6573073
9.164                0.986894215     -98.8260604
9.165                0.986862457     -98.9952278
9.166                0.986830636     -99.1648101
9.167                0.986798752     -99.3348084
9.168                0.986766805     -99.5052233
9.169                0.986734796     -99.6760557
9.17                 0.986702725     -99.8473065
9.171                0.986670591     -100.018976
9.172                0.986638397     -100.191066
9.173                0.986606141     -100.363577
9.174                0.986573824     -100.536509
9.175                0.986541446     -100.709863
9.176                0.986509008     -100.883641
9.177                 0.98647651     -101.057842
9.178                0.986443951     -101.232468
9.179                0.986411334      -101.40752
9.18                 0.986378657     -101.582998
9.181                0.986345921     -101.758903
9.182                0.986313126     -101.935235
9.183                0.986280274     -102.111997
9.184                0.986247363     -102.289187
9.185                0.986214395     -102.466808
9.186                0.986181369      -102.64486
9.187                0.986148287     -102.823343
9.188                0.986115148     -103.002258
9.189                0.986081954     -103.181607
9.19                 0.986048703     -103.361389
9.191                0.986015397     -103.541606
9.192                0.985982036     -103.722258
9.193                 0.98594862     -103.903346
9.194                0.985915151     -104.084871
9.195                0.985881627     -104.266833
9.196                 0.98584805     -104.449233
9.197                 0.98581442     -104.632073
9.198                0.985780738     -104.815351
9.199                0.985747003      -104.99907
9.2                  0.985713217      -105.18323
9.201                 0.98567938     -105.367831
9.202                0.985645491     -105.552874
9.203                0.985611553      -105.73836
9.204                0.985577564      -105.92429
9.205                0.985543527     -106.110664
9.206                 0.98550944     -106.297483
9.207                0.985475305     -106.484748
9.208                0.985441122     -106.672458
9.209                0.985406892     -106.860615
9.21                 0.985372614      -107.04922
9.211                0.985338291     -107.238272
9.212                0.985303921     -107.427774
9.213                0.985269506     -107.617724
9.214                0.985235047     -107.808124
9.215                0.985200543     -107.998975
9.216                0.985165995     -108.190276
9.217                0.985131404     -108.382029
9.218                0.985096771     -108.574234
9.219                0.985062095     -108.766892
9.22                 0.985027378     -108.960003
9.221                 0.98499262     -109.153568
9.222                0.984957822     -109.347587
9.223                0.984922984     -109.542061
9.224                0.984888108      -109.73699
9.225                0.984853192     -109.932375
9.226                0.984818239     -110.128217
9.227                0.984783249     -110.324515
9.228                0.984748222     -110.521271
9.229                 0.98471316     -110.718485
9.23                 0.984678062     -110.916156
9.231                0.984642929     -111.114287
9.232                0.984607763     -111.312877
9.233                0.984572564     -111.511927
9.234                0.984537331     -111.711436
9.235                0.984502068     -111.911407
9.236                0.984466772     -112.111838
9.237                0.984431447     -112.312731
9.238                0.984396092     -112.514085
9.239                0.984360708     -112.715902
9.24                 0.984325295     -112.918181
9.241                0.984289856     -113.120923
9.242                0.984254389     -113.324128
9.243                0.984218896     -113.527798
9.244                0.984183379     -113.731931
9.245                0.984147836     -113.936528
9.246                0.984112271      -114.14159
9.247                0.984076682     -114.347117
9.248                0.984041071      -114.55311
9.249                0.984005439     -114.759568
9.25                 0.983969787     -114.966491
9.251                0.983934115     -115.173881
9.252                0.983898424     -115.381738
9.253                0.983862716     -115.590061
9.254                 0.98382699      -115.79885
9.255                0.983791248     -116.008107
9.256                0.983755491     -116.217832
9.257                 0.98371972     -116.428024
9.258                0.983683935     -116.638683
9.259                0.983648137     -116.849811
9.26                 0.983612328     -117.061406
9.261                0.983576507      -117.27347
9.262                0.983540677     -117.486002
9.263                0.983504838     -117.699003
9.264                0.983468991     -117.912472
9.265                0.983433137     -118.126411
9.266                0.983397276     -118.340818
9.267                0.983361411     -118.555694
9.268                0.983325541     -118.771039
9.269                0.983289668     -118.986853
9.27                 0.983253793     -119.203136
9.271                0.983217917     -119.419888
9.272                 0.98318204      -119.63711
9.273                0.983146165     -119.854801
9.274                0.983110291     -120.072961
9.275                 0.98307442      -120.29159
9.276                0.983038553     -120.510688
9.277                0.983002691     -120.730256
9.278                0.982966835     -120.950292
9.279                0.982930986     -121.170797
9.28                 0.982895145     -121.391772
9.281                0.982859314     -121.613215
9.282                0.982823493     -121.835127
9.283                0.982787684     -122.057507
9.284                0.982751887     -122.280356
9.285                0.982716104     -122.503673
9.286                0.982680335     -122.727458
9.287                0.982644583     -122.951711
9.288                0.982608848     -123.176431
9.289                0.982573131     -123.401619
9.29                 0.982537434     -123.627275
9.291                0.982501757     -123.853397
9.292                0.982466103     -124.079986
9.293                0.982430471     -124.307041
9.294                0.982394863     -124.534563
9.295                0.982359281      -124.76255
9.296                0.982323726     -124.991003
9.297                0.982288198     -125.219921
9.298                0.982252699     -125.449304
9.299                0.982217231     -125.679152
9.3                  0.982181795     -125.909463
9.301                0.982146391     -126.140238
9.302                0.982111022     -126.371476
9.303                0.982075687     -126.603177
9.304                 0.98204039     -126.835341
9.305                 0.98200513     -127.067966
9.306                 0.98196991     -127.301052
9.307                 0.98193473       -127.5346
9.308                0.981899593     -127.768607
9.309                0.981864498     -128.003075
9.31                 0.981829448     -128.238002
9.311                0.981794444     -128.473387
9.312                0.981759487     -128.709231
9.313                0.981724579     -128.945532
9.314                 0.98168972     -129.182289
9.315                0.981654913     -129.419503
9.316                0.981620159     -129.657173
9.317                0.981585458     -129.895297
9.318                0.981550813     -130.133875
9.319                0.981516225     -130.372907
9.32                 0.981481695     -130.612391
9.321                0.981447225     -130.852328
9.322                0.981412816     -131.092715
9.323                0.981378469     -131.333553
9.324                0.981344186      -131.57484
9.325                0.981309969     -131.816577
9.326                0.981275819      -132.05876
9.327                0.981241736     -132.301391
9.328                0.981207724     -132.544468
9.329                0.981173782     -132.787991
9.33                 0.981139913     -133.031957
9.331                0.981106119     -133.276367
9.332                  0.9810724     -133.521219
9.333                0.981038758     -133.766513
9.334                0.981005194     -134.012247
9.335                0.980971711      -134.25842
9.336                0.980938309     -134.505031
9.337                0.980904991      -134.75208
9.338                0.980871757     -134.999565
9.339                0.980838609     -135.247485
9.34                 0.980805548     -135.495839
9.341                0.980772577     -135.744626
9.342                0.980739697     -135.993844
9.343                0.980706909     -136.243493
9.344                0.980674215     -136.493571
9.345                0.980641616     -136.744078
9.346                0.980609114      -136.99501
9.347                 0.98057671     -137.246369
9.348                0.980544406     -137.498152
9.349                0.980512204     -137.750357
9.35                 0.980480105     -138.002984
9.351                0.980448111     -138.256032
9.352                0.980416223     -138.509498
9.353                0.980384443     -138.763382
9.354                0.980352773     -139.017682
9.355                0.980321214     -139.272397
9.356                0.980289767     -139.527525
9.357                0.980258434     -139.783064
9.358                0.980227217     -140.039014
9.359                0.980196118     -140.295373
9.36                 0.980165138     -140.552139
9.361                0.980134278      -140.80931
9.362                0.980103541     -141.066886
9.363                0.980072927     -141.324864
9.364                0.980042439     -141.583243
9.365                0.980012078     -141.842021
9.366                0.979981845     -142.101197
9.367                0.979951743     -142.360768
9.368                0.979921773     -142.620734
9.369                0.979891936     -142.881092
9.37                 0.979862234     -143.141841
9.371                0.979832669     -143.402979
9.372                0.979803242     -143.664504
9.373                0.979773956     -143.926415
9.374                 0.97974481     -144.188709
9.375                0.979715808     -144.451384
9.376                0.979686951      -144.71444
9.377                0.979658241     -144.977873
9.378                0.979629678     -145.241682
9.379                0.979601265     -145.505865
9.38                 0.979573003     -145.770421
9.381                0.979544894     -146.035346
9.382                0.979516939      -146.30064
9.383                0.979489141       -146.5663
9.384                  0.9794615     -146.832323
9.385                0.979434018     -147.098709
9.386                0.979406698     -147.365455
9.387                0.979379539     -147.632558
9.388                0.979352545     -147.900017
9.389                0.979325717      -148.16783
9.39                 0.979299055     -148.435994
9.391                0.979272563     -148.704507
9.392                0.979246241     -148.973367
9.393                0.979220091     -149.242572
9.394                0.979194115     -149.512119
9.395                0.979168313     -149.782006
9.396                0.979142688     -150.052232
