! TOUCHSTONE file generated by CST DESIGN STUDIO
! Date and time: Tue Feb  4 16:02:42 2025
! Project name: C:\Work\MatlabApps\UnitCellOptimizationMatlab\CST\unitcell.cst
! Tree item: Tasks\Sweep1\SPara1\S-Parameters
! Header version: 2024
! Port assignment regex: !\s*Touchstone port\s*([0-9]+)\s*=\s*(CST MWS port|CST DES external port|CST DES block port)\s*(.+)\s* \(\"(.*)\"\)(\s*mode\s*([0-9]+))?.*
! Touchstone port assignment:
! Touchstone port 1 = CST DES external port 1 ("")
# GHz S MA R 50
9                    0.990823709     -77.4340503
9.001                0.990801689     -77.5502586
9.002                0.990779604     -77.6667483
9.003                0.990757453     -77.7835201
9.004                0.990735237     -77.9005749
9.005                0.990712954     -78.0179135
9.006                0.990690606     -78.1355367
9.007                0.990668191     -78.2534453
9.008                 0.99064571     -78.3716401
9.009                0.990623162      -78.490122
9.01                 0.990600548     -78.6088918
9.011                0.990577868     -78.7279503
9.012                 0.99055512     -78.8472983
9.013                0.990532305     -78.9669366
9.014                0.990509424     -79.0868661
9.015                0.990486475     -79.2070876
9.016                0.990463458     -79.3276019
9.017                0.990440375     -79.4484099
9.018                0.990417223     -79.5695124
9.019                0.990394004     -79.6909102
9.02                 0.990370717     -79.8126042
9.021                0.990347363     -79.9345951
9.022                 0.99032394      -80.056884
9.023                0.990300448     -80.1794715
9.024                0.990276889     -80.3023585
9.025                0.990253261     -80.4255459
9.026                0.990229565     -80.5490345
9.027                  0.9902058     -80.6728252
9.028                0.990181966     -80.7969187
9.029                0.990158063     -80.9213161
9.03                 0.990134091      -81.046018
9.031                 0.99011005     -81.1710255
9.032                 0.99008594     -81.2963392
9.033                0.990061761     -81.4219601
9.034                0.990037512      -81.547889
9.035                0.990013193     -81.6741269
9.036                0.989988805     -81.8006744
9.037                0.989964347     -81.9275326
9.038                0.989939819     -82.0547023
9.039                0.989915222     -82.1821842
9.04                 0.989890554     -82.3099794
9.041                0.989865816     -82.4380887
9.042                0.989841007     -82.5665129
9.043                0.989816129     -82.6952529
9.044                 0.98979118     -82.8243095
9.045                 0.98976616     -82.9536837
9.046                 0.98974107     -83.0833763
9.047                0.989715909     -83.2133882
9.048                0.989690677     -83.3437203
9.049                0.989665374     -83.4743734
9.05                     0.98964     -83.6053485
9.051                0.989614555     -83.7366463
9.052                0.989589039     -83.8682678
9.053                0.989563452     -84.0002138
9.054                0.989537793     -84.1324853
9.055                0.989512063     -84.2650831
9.056                0.989486262     -84.3980081
9.057                0.989460388     -84.5312612
9.058                0.989434444     -84.6648433
9.059                0.989408427     -84.7987552
9.06                 0.989382339     -84.9329978
9.061                0.989356179     -85.0675721
9.062                0.989329946     -85.2024789
9.063                0.989303642     -85.3377192
9.064                0.989277266     -85.4732937
9.065                0.989250818     -85.6092034
9.066                0.989224297     -85.7454492
9.067                0.989197705      -85.882032
9.068                0.989171039     -86.0189527
9.069                0.989144302     -86.1562121
9.07                 0.989117492     -86.2938112
9.071                 0.98909061     -86.4317509
9.072                0.989063655      -86.570032
9.073                0.989036628     -86.7086554
9.074                0.989009528     -86.8476221
9.075                0.988982355      -86.986933
9.076                 0.98895511     -87.1265889
9.077                0.988927792     -87.2665908
9.078                0.988900401     -87.4069395
9.079                0.988872938     -87.5476359
9.08                 0.988845401      -87.688681
9.081                0.988817792     -87.8300757
9.082                 0.98879011     -87.9718208
9.083                0.988762355     -88.1139173
9.084                0.988734527      -88.256366
9.085                0.988706626     -88.3991678
9.086                0.988678652     -88.5423238
9.087                0.988650605     -88.6858347
9.088                0.988622485     -88.8297015
9.089                0.988594293      -88.973925
9.09                 0.988566027     -89.1185062
9.091                0.988537688      -89.263446
9.092                0.988509276     -89.4087453
9.093                0.988480791      -89.554405
9.094                0.988452233     -89.7004259
9.095                0.988423602     -89.8468091
9.096                0.988394898     -89.9935553
9.097                0.988366121     -90.1406656
9.098                0.988337271     -90.2881407
9.099                0.988308349     -90.4359817
9.1                  0.988279353     -90.5841894
9.101                0.988250284     -90.7327646
9.102                0.988221143     -90.8817085
9.103                0.988191928     -91.0310217
9.104                0.988162641     -91.1807052
9.105                0.988133281       -91.33076
9.106                0.988103848     -91.4811869
9.107                0.988074343     -91.6319868
9.108                0.988044764     -91.7831606
9.109                0.988015114     -91.9347093
9.11                  0.98798539     -92.0866337
9.111                0.987955595     -92.2389347
9.112                0.987925726     -92.3916132
9.113                0.987895786     -92.5446701
9.114                0.987865773     -92.6981063
9.115                0.987835687     -92.8519228
9.116                 0.98780553     -93.0061203
9.117                  0.9877753     -93.1606999
9.118                0.987744999     -93.3156623
9.119                0.987714625     -93.4710085
9.12                  0.98768418     -93.6267393
9.121                0.987653663     -93.7828558
9.122                0.987623074     -93.9393586
9.123                0.987592413     -94.0962488
9.124                0.987561681     -94.2535272
9.125                0.987530878     -94.4111947
9.126                0.987500004     -94.5692522
9.127                0.987469058     -94.7277006
9.128                0.987438041     -94.8865407
9.129                0.987406954     -95.0457734
9.13                 0.987375795     -95.2053997
9.131                0.987344566     -95.3654203
9.132                0.987313266     -95.5258361
9.133                0.987281896     -95.6866481
9.134                0.987250456     -95.8478571
9.135                0.987218946     -96.0094639
9.136                0.987187366     -96.1714695
9.137                0.987155715     -96.3338747
9.138                0.987123996     -96.4966803
9.139                0.987092207     -96.6598873
9.14                 0.987060348     -96.8234964
9.141                 0.98702842     -96.9875086
9.142                0.986996424     -97.1519246
9.143                0.986964359     -97.3167454
9.144                0.986932225     -97.4819718
9.145                0.986900022     -97.6476046
9.146                0.986867752     -97.8136448
9.147                0.986835413      -97.980093
9.148                0.986803007     -98.1469502
9.149                0.986770533     -98.3142172
9.15                 0.986737992     -98.4818949
9.151                0.986705384      -98.649984
9.152                0.986672708     -98.8184855
9.153                0.986639966     -98.9874001
9.154                0.986607158     -99.1567286
9.155                0.986574283     -99.3264719
9.156                0.986541343     -99.4966308
9.157                0.986508337     -99.6672061
9.158                0.986475265     -99.8381986
9.159                0.986442128     -100.009609
9.16                 0.986408926     -100.181438
9.161                 0.98637566     -100.353687
9.162                0.986342329     -100.526357
9.163                0.986308934     -100.699448
9.164                0.986275475      -100.87296
9.165                0.986241953     -101.046896
9.166                0.986208368     -101.221255
9.167                 0.98617472     -101.396038
9.168                0.986141009     -101.571247
9.169                0.986107236     -101.746881
9.17                 0.986073401     -101.922942
9.171                0.986039504     -102.099431
9.172                0.986005546     -102.276348
9.173                0.985971527     -102.453693
9.174                0.985937448     -102.631469
9.175                0.985903309     -102.809675
9.176                0.985869109     -102.988312
9.177                 0.98583485     -103.167381
9.178                0.985800532     -103.346883
9.179                0.985766156     -103.526818
9.18                 0.985731721     -103.707187
9.181                0.985697228     -103.887991
9.182                0.985662677      -104.06923
9.183                0.985628069     -104.250906
9.184                0.985593405     -104.433019
9.185                0.985558684     -104.615569
9.186                0.985523908     -104.798558
9.187                0.985489076     -104.981986
9.188                0.985454188     -105.165853
9.189                0.985419247     -105.350161
9.19                 0.985384251      -105.53491
9.191                0.985349202     -105.720101
9.192                0.985314099     -105.905734
9.193                0.985278944      -106.09181
9.194                0.985243736      -106.27833
9.195                0.985208477     -106.465294
9.196                0.985173166     -106.652703
9.197                0.985137805     -106.840557
9.198                0.985102394     -107.028858
9.199                0.985066932     -107.217606
9.2                  0.985031422     -107.406801
9.201                0.984995863     -107.596444
9.202                0.984960256     -107.786535
9.203                0.984924601     -107.977076
9.204                0.984888899     -108.168067
9.205                0.984853151     -108.359508
9.206                0.984817357       -108.5514
9.207                0.984781517     -108.743743
9.208                0.984745633     -108.936539
9.209                0.984709705     -109.129787
9.21                 0.984673733     -109.323488
9.211                0.984637718     -109.517643
9.212                0.984601661     -109.712252
9.213                0.984565562     -109.907315
9.214                0.984529422     -110.102834
9.215                0.984493242     -110.298809
9.216                0.984457022     -110.495239
9.217                0.984420762     -110.692127
9.218                0.984384465     -110.889471
9.219                0.984348129     -111.087273
9.22                 0.984311757     -111.285534
9.221                0.984275348     -111.484252
9.222                0.984238903      -111.68343
9.223                0.984202423     -111.883067
9.224                0.984165909     -112.083164
9.225                0.984129361     -112.283721
9.226                0.984092781     -112.484738
9.227                0.984056168     -112.686217
9.228                0.984019524     -112.888157
9.229                0.983982849     -113.090559
9.23                 0.983946145     -113.293423
9.231                0.983909411     -113.496749
9.232                0.983872649     -113.700538
9.233                 0.98383586      -113.90479
9.234                0.983799044     -114.109506
9.235                0.983762202     -114.314686
9.236                0.983725334      -114.52033
9.237                0.983688443     -114.726438
9.238                0.983651528     -114.933011
9.239                 0.98361459     -115.140049
9.24                 0.983577631     -115.347552
9.241                0.983540651      -115.55552
9.242                 0.98350365     -115.763955
9.243                0.983466631     -115.972855
9.244                0.983429593     -116.182221
9.245                0.983392538     -116.392054
9.246                0.983355467     -116.602353
9.247                0.983318379      -116.81312
9.248                0.983281277     -117.024353
9.249                0.983244162     -117.236053
9.25                 0.983207033      -117.44822
9.251                0.983169893     -117.660855
9.252                0.983132742     -117.873957
9.253                0.983095581     -118.087527
9.254                0.983058411     -118.301565
9.255                0.983021233      -118.51607
9.256                0.982984048     -118.731044
9.257                0.982946857     -118.946485
9.258                0.982909661     -119.162395
9.259                0.982872461     -119.378772
9.26                 0.982835259     -119.595617
9.261                0.982798054     -119.812931
9.262                0.982760848     -120.030713
9.263                0.982723643     -120.248962
9.264                0.982686439      -120.46768
9.265                0.982649237     -120.686866
9.266                0.982612039      -120.90652
9.267                0.982574845     -121.126641
9.268                0.982537657     -121.347231
9.269                0.982500476     -121.568288
9.27                 0.982463302     -121.789812
9.271                0.982426138     -122.011805
9.272                0.982388983     -122.234264
9.273                 0.98235184     -122.457191
9.274                0.982314709     -122.680584
9.275                0.982277592     -122.904445
9.276                 0.98224049     -123.128772
9.277                0.982203403     -123.353566
9.278                0.982166333     -123.578825
9.279                0.982129282     -123.804551
9.28                 0.982092251     -124.030742
9.281                 0.98205524     -124.257399
9.282                0.982018251     -124.484521
9.283                0.981981285     -124.712108
9.284                0.981944343     -124.940159
9.285                0.981907428     -125.168674
9.286                0.981870539     -125.397653
9.287                0.981833678     -125.627096
9.288                0.981796847     -125.857002
9.289                0.981760047      -126.08737
9.29                 0.981723278     -126.318201
9.291                0.981686543     -126.549493
9.292                0.981649843     -126.781247
9.293                0.981613178     -127.013461
9.294                0.981576551     -127.246136
9.295                0.981539963     -127.479271
9.296                0.981503414     -127.712866
9.297                0.981466907     -127.946919
9.298                0.981430443     -128.181431
9.299                0.981394022       -128.4164
9.3                  0.981357648     -128.651826
9.301                0.981321319     -128.887709
9.302                0.981285039     -129.124048
9.303                0.981248809     -129.360842
9.304                 0.98121263     -129.598091
9.305                0.981176503     -129.835794
9.306                 0.98114043      -130.07395
9.307                0.981104412     -130.312558
9.308                0.981068451     -130.551619
9.309                0.981032548      -130.79113
9.31                 0.980996704     -131.031092
9.311                0.980960922     -131.271503
9.312                0.980925202     -131.512363
9.313                0.980889546     -131.753671
9.314                0.980853956     -131.995426
9.315                0.980818433     -132.237628
9.316                0.980782978     -132.480274
9.317                0.980747592     -132.723365
9.318                0.980712279       -132.9669
9.319                0.980677038     -133.210877
9.32                 0.980641872     -133.455295
9.321                0.980606782     -133.700155
9.322                0.980571769     -133.945454
9.323                0.980536836     -134.191191
9.324                0.980501983     -134.437366
9.325                0.980467212     -134.683978
9.326                0.980432525     -134.931025
9.327                0.980397923     -135.178507
9.328                0.980363408     -135.426422
9.329                0.980328981     -135.674769
9.33                 0.980294645     -135.923547
9.331                  0.9802604     -136.172755
9.332                0.980226248     -136.422392
9.333                 0.98019219     -136.672456
9.334                 0.98015823     -136.922946
9.335                0.980124367     -137.173861
9.336                0.980090603       -137.4252
9.337                0.980056941     -137.676961
9.338                0.980023381     -137.929143
9.339                0.979989926     -138.181745
9.34                 0.979956577     -138.434766
9.341                0.979923335     -138.688203
9.342                0.979890203     -138.942056
9.343                0.979857181     -139.196323
9.344                0.979824272     -139.451003
9.345                0.979791477     -139.706094
9.346                0.979758798     -139.961595
9.347                0.979726237     -140.217505
9.348                0.979693794     -140.473821
9.349                0.979661472     -140.730542
9.35                 0.979629272     -140.987667
9.351                0.979597197     -141.245194
9.352                0.979565247     -141.503122
9.353                0.979533424     -141.761449
9.354                0.979501731     -142.020172
9.355                0.979470168     -142.279292
9.356                0.979438737     -142.538805
9.357                 0.97940744      -142.79871
9.358                0.979376279     -143.059006
9.359                0.979345255     -143.319691
9.36                  0.97931437     -143.580762
9.361                0.979283626     -143.842218
9.362                0.979253024     -144.104058
9.363                0.979222566     -144.366279
9.364                0.979192254      -144.62888
9.365                0.979162089     -144.891859
9.366                0.979132072     -145.155213
9.367                0.979102207     -145.418941
9.368                0.979072494     -145.683042
9.369                0.979042934     -145.947512
9.37                  0.97901353      -146.21235
9.371                0.978984284     -146.477554
9.372                0.978955196     -146.743122
9.373                0.978926269     -147.009052
9.374                0.978897504     -147.275342
9.375                0.978868903      -147.54199
9.376                0.978840467     -147.808993
9.377                0.978812199      -148.07635
9.378                0.978784099     -148.344058
9.379                 0.97875617     -148.612116
9.38                 0.978728413      -148.88052
9.381                0.978700829     -149.149269
9.382                0.978673421     -149.418361
9.383                 0.97864619     -149.687793
9.384                0.978619138     -149.957563
9.385                0.978592265     -150.227668
9.386                0.978565575     -150.498107
9.387                0.978539067     -150.768877
9.388                0.978512745     -151.039976
9.389                 0.97848661     -151.311401
9.39                 0.978460662      -151.58315
9.391                0.978434905     -151.855221
9.392                0.978409339      -152.12761
9.393                0.978383965     -152.400317
9.394                0.978358786     -152.673337
9.395                0.978333804     -152.946669
9.396                0.978309018      -153.22031
