! TOUCHSTONE file generated by CST DESIGN STUDIO
! Date and time: Tue Feb  4 16:27:54 2025
! Project name: C:\Work\MatlabApps\UnitCellOptimizationMatlab\CST\unitcell.cst
! Tree item: Tasks\Sweep1\SPara1\S-Parameters
! Header version: 2024
! Port assignment regex: !\s*Touchstone port\s*([0-9]+)\s*=\s*(CST MWS port|CST DES external port|CST DES block port)\s*(.+)\s* \(\"(.*)\"\)(\s*mode\s*([0-9]+))?.*
! Touchstone port assignment:
! Touchstone port 1 = CST DES external port 1 ("")
# GHz S MA R 50
9                    0.980537334     -61.8216589
9.001                0.980474673      -61.913033
9.002                0.980411569     -62.0046217
9.003                0.980348021     -62.0964256
9.004                0.980284028     -62.1884455
9.005                0.980219591     -62.2806819
9.006                0.980154707     -62.3731356
9.007                0.980089378     -62.4658072
9.008                0.980023603     -62.5586975
9.009                 0.97995738      -62.651807
9.01                  0.97989071     -62.7451366
9.011                0.979823592     -62.8386869
9.012                0.979756025     -62.9324585
9.013                 0.97968801     -63.0264522
9.014                0.979619544     -63.1206687
9.015                0.979550629     -63.2151086
9.016                0.979481263     -63.3097727
9.017                0.979411445     -63.4046617
9.018                0.979341176     -63.4997763
9.019                0.979270455     -63.5951172
9.02                 0.979199281      -63.690685
9.021                0.979127654     -63.7864806
9.022                0.979055573     -63.8825046
9.023                0.978983038     -63.9787578
9.024                0.978910048     -64.0752409
9.025                0.978836602     -64.1719546
9.026                0.978762701     -64.2688996
9.027                0.978688343     -64.3660766
9.028                0.978613528     -64.4634865
9.029                0.978538256     -64.5611299
9.03                 0.978462526     -64.6590075
9.031                0.978386337     -64.7571202
9.032                0.978309689     -64.8554687
9.033                0.978232582     -64.9540536
9.034                0.978155014     -65.0528758
9.035                0.978076986      -65.151936
9.036                0.977998497     -65.2512349
9.037                0.977919545     -65.3507734
9.038                0.977840132     -65.4505521
9.039                0.977760256     -65.5505719
9.04                 0.977679916     -65.6508335
9.041                0.977599112     -65.7513377
9.042                0.977517845     -65.8520852
9.043                0.977436112     -65.9530768
9.044                0.977353913     -66.0543133
9.045                0.977271249     -66.1557955
9.046                0.977188118     -66.2575241
9.047                 0.97710452        -66.3595
9.048                0.977020454     -66.4617239
9.049                0.976935921     -66.5641966
9.05                 0.976850918     -66.6669189
9.051                0.976765446     -66.7698916
9.052                0.976679505     -66.8731156
9.053                0.976593093     -66.9765915
9.054                 0.97650621     -67.0803202
9.055                0.976418856     -67.1843026
9.056                0.976331031     -67.2885394
9.057                0.976242732     -67.3930314
9.058                0.976153961     -67.4977794
9.059                0.976064716     -67.6027844
9.06                 0.975974997      -67.708047
9.061                0.975884804     -67.8135681
9.062                0.975794136     -67.9193486
9.063                0.975702992     -68.0253893
9.064                0.975611372     -68.1316909
9.065                0.975519275     -68.2382544
9.066                0.975426701     -68.3450806
9.067                0.975333649     -68.4521702
9.068                 0.97524012     -68.5595243
9.069                0.975146111     -68.6671435
9.07                 0.975051623     -68.7750288
9.071                0.974956655      -68.883181
9.072                0.974861207      -68.991601
9.073                0.974765279     -69.1002896
9.074                0.974668868     -69.2092476
9.075                0.974571976     -69.3184761
9.076                0.974474602     -69.4279757
9.077                0.974376745     -69.5377474
9.078                0.974278404     -69.6477921
9.079                 0.97417958     -69.7581105
9.08                 0.974080271     -69.8687037
9.081                0.973980477     -69.9795725
9.082                0.973880198     -70.0907178
9.083                0.973779433     -70.2021404
9.084                0.973678181     -70.3138413
9.085                0.973576443     -70.4258213
9.086                0.973474217     -70.5380814
9.087                0.973371503     -70.6506223
9.088                0.973268301     -70.7634452
9.089                 0.97316461     -70.8765507
9.09                  0.97306043       -70.98994
9.091                 0.97295576     -71.1036137
9.092                  0.9728506      -71.217573
9.093                0.972744949     -71.3318186
9.094                0.972638806     -71.4463516
9.095                0.972532172     -71.5611728
9.096                0.972425046     -71.6762831
9.097                0.972317427     -71.7916835
9.098                0.972209315      -71.907375
9.099                0.972100709     -72.0233584
9.1                  0.971991609     -72.1396346
9.101                0.971882015     -72.2562047
9.102                0.971771926     -72.3730696
9.103                0.971661341     -72.4902302
9.104                0.971550261     -72.6076874
9.105                0.971438684     -72.7254423
9.106                0.971326611     -72.8434957
9.107                 0.97121404     -72.9618487
9.108                0.971100972     -73.0805021
9.109                0.970987406      -73.199457
9.11                 0.970873341     -73.3187143
9.111                0.970758778     -73.4382749
9.112                0.970643715       -73.55814
9.113                0.970528153     -73.6783103
9.114                0.970412091      -73.798787
9.115                0.970295528      -73.919571
9.116                0.970178464     -74.0406632
9.117                0.970060899     -74.1620647
9.118                0.969942832     -74.2837765
9.119                0.969824264     -74.4057995
9.12                 0.969705193     -74.5281347
9.121                0.969585619     -74.6507831
9.122                0.969465542     -74.7737458
9.123                0.969344962     -74.8970238
9.124                0.969223878     -75.0206179
9.125                0.969102289     -75.1445294
9.126                0.968980196     -75.2687591
9.127                0.968857598     -75.3933081
9.128                0.968734495     -75.5181774
9.129                0.968610886      -75.643368
9.13                 0.968486772      -75.768881
9.131                0.968362151     -75.8947173
9.132                0.968237024      -76.020878
9.133                 0.96811139     -76.1473642
9.134                0.967985249     -76.2741769
9.135                  0.9678586     -76.4013171
9.136                0.967731444     -76.5287858
9.137                 0.96760378     -76.6565841
9.138                0.967475607     -76.7847131
9.139                0.967346927     -76.9131738
9.14                 0.967217737     -77.0419672
9.141                0.967088038     -77.1710944
9.142                 0.96695783     -77.3005564
9.143                0.966827113     -77.4303544
9.144                0.966695886     -77.5604894
9.145                0.966564149     -77.6909624
9.146                0.966431902     -77.8217746
9.147                0.966299144     -77.9529269
9.148                0.966165876     -78.0844205
9.149                0.966032097     -78.2162565
9.15                 0.965897808     -78.3484358
9.151                0.965763007     -78.4809597
9.152                0.965627695     -78.6138292
9.153                0.965491871     -78.7470453
9.154                0.965355537     -78.8806092
9.155                 0.96521869      -79.014522
9.156                0.965081331     -79.1487848
9.157                0.964943461     -79.2833985
9.158                0.964805079     -79.4183645
9.159                0.964666184     -79.5536837
9.16                 0.964526777     -79.6893573
9.161                0.964386858     -79.8253863
9.162                0.964246427      -79.961772
9.163                0.964105483     -80.0985153
9.164                0.963964026     -80.2356175
9.165                0.963822057     -80.3730796
9.166                0.963679576     -80.5109027
9.167                0.963536582     -80.6490881
9.168                0.963393075     -80.7876367
9.169                0.963249056     -80.9265498
9.17                 0.963104524     -81.0658285
9.171                 0.96295948     -81.2054738
9.172                0.962813923      -81.345487
9.173                0.962667854     -81.4858692
9.174                0.962521272     -81.6266215
9.175                0.962374178      -81.767745
9.176                0.962226572      -81.909241
9.177                0.962078454     -82.0511104
9.178                0.961929824     -82.1933546
9.179                0.961780681     -82.3359747
9.18                 0.961631028     -82.4789717
9.181                0.961480862      -82.622347
9.182                0.961330185     -82.7661015
9.183                0.961178997     -82.9102365
9.184                0.961027298     -83.0547532
9.185                0.960875088     -83.1996526
9.186                0.960722367     -83.3449361
9.187                0.960569136     -83.4906047
9.188                0.960415395     -83.6366596
9.189                0.960261144      -83.783102
9.19                 0.960106383      -83.929933
9.191                0.959951113     -84.0771539
9.192                0.959795334     -84.2247658
9.193                0.959639047     -84.3727699
9.194                0.959482251     -84.5211674
9.195                0.959324947     -84.6699595
9.196                0.959167135     -84.8191473
9.197                0.959008816      -84.968732
9.198                0.958849991     -85.1187149
9.199                0.958690658     -85.2690971
9.2                   0.95853082     -85.4198798
9.201                0.958370477     -85.5710642
9.202                0.958209628     -85.7226514
9.203                0.958048275     -85.8746428
9.204                0.957886418     -86.0270395
9.205                0.957724058     -86.1798427
9.206                0.957561194     -86.3330536
9.207                0.957397828     -86.4866734
9.208                 0.95723396     -86.6407032
9.209                0.957069591     -86.7951444
9.21                 0.956904722     -86.9499981
9.211                0.956739352     -87.1052656
9.212                0.956573483      -87.260948
9.213                0.956407116     -87.4170465
9.214                 0.95624025     -87.5735624
9.215                0.956072888     -87.7304968
9.216                0.955905029      -87.887851
9.217                0.955736674     -88.0456263
9.218                0.955567824     -88.2038237
9.219                 0.95539848     -88.3624446
9.22                 0.955228643     -88.5214901
9.221                0.955058314     -88.6809615
9.222                0.954887493       -88.84086
9.223                0.954716181     -89.0011868
9.224                0.954544379     -89.1619431
9.225                0.954372089     -89.3231301
9.226                 0.95419931     -89.4847492
9.227                0.954026045     -89.6468014
9.228                0.953852294      -89.809288
9.229                0.953678058     -89.9722103
9.23                 0.953503338     -90.1355695
9.231                0.953328135     -90.2993667
9.232                0.953152451     -90.4636032
9.233                0.952976286     -90.6282803
9.234                0.952799642     -90.7933991
9.235                 0.95262252     -90.9589609
9.236                0.952444921     -91.1249669
9.237                0.952266846     -91.2914184
9.238                0.952088297     -91.4583165
9.239                0.951909274     -91.6256625
9.24                  0.95172978     -91.7934576
9.241                0.951549814      -91.961703
9.242                 0.95136938        -92.1304
9.243                0.951188478     -92.2995497
9.244                 0.95100711     -92.4691534
9.245                0.950825276     -92.6392124
9.246                 0.95064298     -92.8097278
9.247                0.950460221     -92.9807009
9.248                0.950277002     -93.1521328
9.249                0.950093324     -93.3240248
9.25                 0.949909189     -93.4963782
9.251                0.949724598     -93.6691941
9.252                0.949539553     -93.8424737
9.253                0.949354056     -94.0162183
9.254                0.949168109     -94.1904291
9.255                0.948981712     -94.3651073
9.256                0.948794869     -94.5402541
9.257                 0.94860758     -94.7158707
9.258                0.948419848     -94.8919584
9.259                0.948231675     -95.0685182
9.26                 0.948043061     -95.2455515
9.261                0.947854011     -95.4230595
9.262                0.947664524     -95.6010433
9.263                0.947474604     -95.7795041
9.264                0.947284252     -95.9584432
9.265                0.947093471     -96.1378617
9.266                0.946902262     -96.3177609
9.267                0.946710629     -96.4981418
9.268                0.946518571     -96.6790058
9.269                0.946326094      -96.860354
9.27                 0.946133197     -97.0421876
9.271                0.945939884     -97.2245077
9.272                0.945746157     -97.4073156
9.273                0.945552019     -97.5906124
9.274                0.945357471     -97.7743994
9.275                0.945162517     -97.9586776
9.276                0.944967158     -98.1434482
9.277                0.944771397     -98.3287124
9.278                0.944575237     -98.5144714
9.279                0.944378681     -98.7007263
9.28                  0.94418173     -98.8874783
9.281                0.943984388     -99.0747285
9.282                0.943786657     -99.2624781
9.283                0.943588541     -99.4507283
9.284                0.943390041       -99.63948
9.285                0.943191162     -99.8287346
9.286                0.942991904     -100.018493
9.287                0.942792273     -100.208757
9.288                 0.94259227     -100.399526
9.289                0.942391898     -100.590804
9.29                 0.942191161     -100.782589
9.291                0.941990061     -100.974884
9.292                0.941788602      -101.16769
9.293                0.941586787     -101.361007
9.294                 0.94138462     -101.554837
9.295                0.941182102     -101.749181
9.296                0.940979239      -101.94404
9.297                0.940776032     -102.139416
9.298                0.940572486     -102.335308
9.299                0.940368603     -102.531719
9.3                  0.940164388     -102.728649
9.301                0.939959844     -102.926099
9.302                0.939754974      -103.12407
9.303                0.939549783     -103.322565
9.304                0.939344273     -103.521582
9.305                0.939138448     -103.721124
9.306                0.938932313     -103.921192
9.307                0.938725871     -104.121786
9.308                0.938519126     -104.322908
9.309                0.938312081     -104.524559
9.31                 0.938104742     -104.726739
9.311                0.937897111     -104.929449
9.312                0.937689193     -105.132691
9.313                0.937480992     -105.336466
9.314                0.937272512     -105.540774
9.315                0.937063757     -105.745617
9.316                0.936854732     -105.950995
9.317                 0.93664544      -106.15691
9.318                0.936435887     -106.363362
9.319                0.936226077     -106.570352
9.32                 0.936016013     -106.777882
9.321                0.935805702     -106.985951
9.322                0.935595146     -107.194561
9.323                0.935384351     -107.403714
9.324                0.935173322     -107.613409
9.325                0.934962063     -107.823648
9.326                0.934750578     -108.034431
9.327                0.934538874      -108.24576
9.328                0.934326954     -108.457635
9.329                0.934114824     -108.670057
9.33                 0.933902488     -108.883027
9.331                0.933689952     -109.096546
9.332                0.933477221     -109.310614
9.333                  0.9332643     -109.525233
9.334                0.933051193     -109.740403
9.335                0.932837908     -109.956125
9.336                0.932624447     -110.172399
9.337                0.932410818     -110.389227
9.338                0.932197026     -110.606609
9.339                0.931983075     -110.824546
9.34                 0.931768972     -111.043039
9.341                0.931554722     -111.262088
9.342                0.931340331     -111.481694
9.343                0.931125805     -111.701858
9.344                0.930911149      -111.92258
9.345                0.930696369     -112.143862
9.346                 0.93048147     -112.365703
9.347                 0.93026646     -112.588105
9.348                0.930051344     -112.811067
9.349                0.929836128     -113.034591
9.35                 0.929620818     -113.258678
9.351                0.929405421     -113.483327
9.352                0.929189942     -113.708539
9.353                0.928974388     -113.934316
9.354                0.928758765     -114.160657
9.355                 0.92854308     -114.387563
9.356                0.928327339     -114.615034
9.357                0.928111548     -114.843072
9.358                0.927895715     -115.071676
9.359                0.927679846     -115.300847
9.36                 0.927463947     -115.530585
9.361                0.927248026     -115.760891
9.362                0.927032089     -115.991766
9.363                0.926816143     -116.223209
9.364                0.926600195     -116.455222
9.365                0.926384252     -116.687804
9.366                0.926168321     -116.920955
9.367                0.925952409     -117.154677
9.368                0.925736524      -117.38897
9.369                0.925520672     -117.623833
9.37                 0.925304862     -117.859267
9.371                0.925089099     -118.095273
9.372                0.924873393      -118.33185
9.373                0.924657749     -118.568999
9.374                0.924442176     -118.806721
9.375                0.924226682     -119.045014
9.376                0.924011274     -119.283881
9.377                0.923795959      -119.52332
9.378                0.923580746     -119.763331
9.379                0.923365642     -120.003916
9.38                 0.923150655     -120.245074
9.381                0.922935794     -120.486805
9.382                0.922721065     -120.729109
9.383                0.922506478     -120.971986
9.384                 0.92229204     -121.215437
9.385                 0.92207776     -121.459461
9.386                0.921863646     -121.704059
9.387                0.921649705     -121.949229
9.388                0.921435947     -122.194974
9.389                 0.92122238     -122.441291
9.39                 0.921009012     -122.688181
9.391                0.920795852     -122.935645
9.392                0.920582908     -123.183681
9.393                0.920370189      -123.43229
9.394                0.920157704     -123.681471
9.395                0.919945462     -123.931225
9.396                 0.91973347     -124.181551
