! TOUCHSTONE file generated by CST DESIGN STUDIO
! Date and time: Tue Feb  4 16:27:46 2025
! Project name: C:\Work\MatlabApps\UnitCellOptimizationMatlab\CST\unitcell.cst
! Tree item: Tasks\Sweep1\SPara1\S-Parameters
! Header version: 2024
! Port assignment regex: !\s*Touchstone port\s*([0-9]+)\s*=\s*(CST MWS port|CST DES external port|CST DES block port)\s*(.+)\s* \(\"(.*)\"\)(\s*mode\s*([0-9]+))?.*
! Touchstone port assignment:
! Touchstone port 1 = CST DES external port 1 ("")
# GHz S MA R 50
9                     0.97941601      -77.238604
9.001                0.979344047     -77.3697541
9.002                0.979271382     -77.5012516
9.003                0.979198013     -77.6330977
9.004                0.979123938     -77.7652932
9.005                0.979049155     -77.8978394
9.006                0.978973662      -78.030737
9.007                0.978897458     -78.1639873
9.008                0.978820541     -78.2975912
9.009                0.978742909     -78.4315497
9.01                  0.97866456     -78.5658638
9.011                0.978585493     -78.7005347
9.012                0.978505705     -78.8355633
9.013                0.978425195     -78.9709507
9.014                0.978343962     -79.1066978
9.015                0.978262002     -79.2428058
9.016                0.978179316     -79.3792757
9.017                0.978095901     -79.5161085
9.018                0.978011754     -79.6533053
9.019                0.977926876     -79.7908671
9.02                 0.977841263     -79.9287949
9.021                0.977754914     -80.0670899
9.022                0.977667828     -80.2057531
9.023                0.977580002     -80.3447855
9.024                0.977491436     -80.4841882
9.025                0.977402127     -80.6239622
9.026                0.977312074     -80.7641087
9.027                0.977221275     -80.9046286
9.028                0.977129729      -81.045523
9.029                0.977037433     -81.1867931
9.03                 0.976944387     -81.3284399
9.031                0.976850588     -81.4704643
9.032                0.976756036     -81.6128677
9.033                0.976660728     -81.7556509
9.034                0.976564663      -81.898815
9.035                0.976467839     -82.0423613
9.036                0.976370256     -82.1862906
9.037                 0.97627191     -82.3306042
9.038                0.976172802      -82.475303
9.039                0.976072929     -82.6203882
9.04                 0.975972289     -82.7658609
9.041                0.975870882     -82.9117222
9.042                0.975768706     -83.0579731
9.043                0.975665759     -83.2046147
9.044                0.975562041     -83.3516481
9.045                0.975457548     -83.4990745
9.046                0.975352281     -83.6468948
9.047                0.975246238     -83.7951103
9.048                0.975139417      -83.943722
9.049                0.975031817      -84.092731
9.05                 0.974923436     -84.2421384
9.051                0.974814274     -84.3919453
9.052                0.974704328     -84.5421528
9.053                0.974593599      -84.692762
9.054                0.974482083     -84.8437741
9.055                0.974369781     -84.9951901
9.056                 0.97425669     -85.1470111
9.057                 0.97414281     -85.2992383
9.058                 0.97402814     -85.4518727
9.059                0.973912677     -85.6049155
9.06                 0.973796421     -85.7583677
9.061                0.973679371     -85.9122306
9.062                0.973561526     -86.0665052
9.063                0.973442884     -86.2211925
9.064                0.973323444     -86.3762939
9.065                0.973203205     -86.5318102
9.066                0.973082166     -86.6877428
9.067                0.972960327     -86.8440926
9.068                0.972837685     -87.0008608
9.069                 0.97271424     -87.1580486
9.07                 0.972589992      -87.315657
9.071                0.972464938     -87.4736871
9.072                0.972339078     -87.6321401
9.073                0.972212411     -87.7910172
9.074                0.972084936     -87.9503194
9.075                0.971956652     -88.1100478
9.076                0.971827559     -88.2702036
9.077                0.971697655     -88.4307879
9.078                 0.97156694     -88.5918018
9.079                0.971435412     -88.7532464
9.08                 0.971303071     -88.9151229
9.081                0.971169917     -89.0774324
9.082                0.971035948      -89.240176
9.083                0.970901164     -89.4033548
9.084                0.970765564       -89.56697
9.085                0.970629147     -89.7310227
9.086                0.970491913     -89.8955139
9.087                0.970353861     -90.0604449
9.088                 0.97021499     -90.2258167
9.089                  0.9700753     -90.3916305
9.09                 0.969934791     -90.5578874
9.091                0.969793462     -90.7245885
9.092                0.969651312     -90.8917349
9.093                0.969508341     -91.0593278
9.094                0.969364548     -91.2273683
9.095                0.969219933     -91.3958574
9.096                0.969074496     -91.5647963
9.097                0.968928236     -91.7341862
9.098                0.968781154     -91.9040281
9.099                0.968633248     -92.0743232
9.1                  0.968484518     -92.2450725
9.101                0.968334965     -92.4162772
9.102                0.968184587     -92.5879384
9.103                0.968033386     -92.7600572
9.104                 0.96788136     -92.9326348
9.105                 0.96772851     -93.1056721
9.106                0.967574835     -93.2791704
9.107                0.967420336     -93.4531307
9.108                0.967265012     -93.6275542
9.109                0.967108863     -93.8024419
9.11                  0.96695189      -93.977795
9.111                0.966794093     -94.1536145
9.112                0.966635471     -94.3299015
9.113                0.966476026     -94.5066572
9.114                0.966315756     -94.6838826
9.115                0.966154663     -94.8615788
9.116                0.965992746      -95.039747
9.117                0.965830006     -95.2183881
9.118                0.965666443     -95.3975034
9.119                0.965502058     -95.5770938
9.12                 0.965336851     -95.7571604
9.121                0.965170823     -95.9377044
9.122                0.965003973     -96.1187267
9.123                0.964836303     -96.3002286
9.124                0.964667813      -96.482211
9.125                0.964498504     -96.6646749
9.126                0.964328376     -96.8476216
9.127                0.964157429      -97.031052
9.128                0.963985666     -97.2149672
9.129                0.963813086     -97.3993682
9.13                 0.963639691     -97.5842561
9.131                 0.96346548      -97.769632
9.132                0.963290456     -97.9554969
9.133                0.963114619     -98.1418518
9.134                 0.96293797     -98.3286977
9.135                0.962760509     -98.5160358
9.136                0.962582239      -98.703867
9.137                0.962403161     -98.8921923
9.138                0.962223274     -99.0810129
9.139                0.962042581     -99.2703296
9.14                 0.961861083     -99.4601435
9.141                0.961678782     -99.6504557
9.142                0.961495678      -99.841267
9.143                0.961311772     -100.032579
9.144                0.961127067     -100.224391
9.145                0.960941564     -100.416706
9.146                0.960755265     -100.609525
9.147                 0.96056817     -100.802847
9.148                0.960380283     -100.996675
9.149                0.960191603     -101.191008
9.15                 0.960002134     -101.385849
9.151                0.959811877     -101.581198
9.152                0.959620833     -101.777056
9.153                0.959429005     -101.973423
9.154                0.959236395     -102.170302
9.155                0.959043005     -102.367693
9.156                0.958848836     -102.565596
9.157                0.958653891     -102.764013
9.158                0.958458172     -102.962944
9.159                0.958261681     -103.162391
9.16                 0.958064421     -103.362355
9.161                0.957866394     -103.562836
9.162                0.957667602     -103.763835
9.163                0.957468048     -103.965353
9.164                0.957267734     -104.167391
9.165                0.957066662      -104.36995
9.166                0.956864837     -104.573031
9.167                0.956662259     -104.776634
9.168                0.956458933     -104.980761
9.169                 0.95625486     -105.185412
9.17                 0.956050043     -105.390588
9.171                0.955844486      -105.59629
9.172                0.955638192     -105.802519
9.173                0.955431163     -106.009275
9.174                0.955223403      -106.21656
9.175                0.955014915     -106.424374
9.176                0.954805701     -106.632718
9.177                0.954595766     -106.841593
9.178                0.954385113     -107.050999
9.179                0.954173745     -107.260937
9.18                 0.953961666     -107.471409
9.181                0.953748879     -107.682414
9.182                0.953535388     -107.893954
9.183                0.953321196     -108.106029
9.184                0.953106308      -108.31864
9.185                0.952890727     -108.531787
9.186                0.952674457     -108.745472
9.187                0.952457502     -108.959695
9.188                0.952239866     -109.174456
9.189                0.952021554     -109.389757
9.19                 0.951802568     -109.605598
9.191                0.951582914     -109.821979
9.192                0.951362597     -110.038902
9.193                0.951141619     -110.256367
9.194                0.950919986     -110.474374
9.195                0.950697703     -110.692925
9.196                0.950474773     -110.912019
9.197                0.950251202     -111.131657
9.198                0.950026994      -111.35184
9.199                0.949802154     -111.572568
9.2                  0.949576687     -111.793843
9.201                0.949350598     -112.015664
9.202                0.949123892     -112.238032
9.203                0.948896574     -112.460947
9.204                 0.94866865      -112.68441
9.205                0.948440123     -112.908422
9.206                0.948211001     -113.132983
9.207                0.947981288     -113.358093
9.208                 0.94775099     -113.583753
9.209                0.947520112     -113.809963
9.21                 0.947288661     -114.036723
9.211                 0.94705664     -114.264035
9.212                0.946824058     -114.491898
9.213                0.946590918     -114.720313
9.214                0.946357228      -114.94928
9.215                0.946122994     -115.178799
9.216                0.945888221     -115.408872
9.217                0.945652915     -115.639497
9.218                0.945417083     -115.870676
9.219                0.945180732     -116.102409
9.22                 0.944943867     -116.334695
9.221                0.944706496     -116.567536
9.222                0.944468624     -116.800931
9.223                0.944230259     -117.034881
9.224                0.943991407     -117.269385
9.225                0.943752075     -117.504445
9.226                0.943512269      -117.74006
9.227                0.943271998      -117.97623
9.228                0.943031268     -118.212956
9.229                0.942790086     -118.450237
9.23                 0.942548459     -118.688074
9.231                0.942306395     -118.926467
9.232                0.942063901     -119.165416
9.233                0.941820985     -119.404921
9.234                0.941577654     -119.644981
9.235                0.941333915     -119.885598
9.236                0.941089777      -120.12677
9.237                0.940845248     -120.368499
9.238                0.940600335     -120.610783
9.239                0.940355045     -120.853624
9.24                 0.940109389      -121.09702
9.241                0.939863372     -121.340972
9.242                0.939617004     -121.585479
9.243                0.939370293     -121.830542
9.244                0.939123248      -122.07616
9.245                0.938875876     -122.322333
9.246                0.938628186      -122.56906
9.247                0.938380188     -122.816343
9.248                0.938131889      -123.06418
9.249                0.937883298     -123.312571
9.25                 0.937634425     -123.561516
9.251                0.937385279     -123.811015
9.252                0.937135867     -124.061067
9.253                0.936886201     -124.311672
9.254                0.936636288      -124.56283
9.255                0.936386138     -124.814539
9.256                 0.93613576     -125.066801
9.257                0.935885164     -125.319614
9.258                 0.93563436     -125.572977
9.259                0.935383357     -125.826892
9.26                 0.935132164     -126.081356
9.261                0.934880792      -126.33637
9.262                 0.93462925     -126.591932
9.263                0.934377549     -126.848043
9.264                0.934125698     -127.104702
9.265                0.933873707     -127.361907
9.266                0.933621587      -127.61966
9.267                0.933369347     -127.877958
9.268                0.933116999     -128.136801
9.269                0.932864553     -128.396189
9.27                 0.932612018      -128.65612
9.271                0.932359406     -128.916595
9.272                0.932106727     -129.177612
9.273                0.931853993      -129.43917
9.274                0.931601213     -129.701268
9.275                0.931348399     -129.963907
9.276                0.931095561     -130.227084
9.277                0.930842711       -130.4908
9.278                0.930589859     -130.755052
9.279                0.930337018      -131.01984
9.28                 0.930084197     -131.285164
9.281                0.929831409     -131.551022
9.282                0.929578665     -131.817412
9.283                0.929325976     -132.084335
9.284                0.929073353     -132.351789
9.285                0.928820809     -132.619772
9.286                0.928568355     -132.888285
9.287                0.928316002     -133.157324
9.288                0.928063763     -133.426891
9.289                0.927811649     -133.696982
9.29                 0.927559673     -133.967597
9.291                0.927307845     -134.238735
9.292                0.927056179     -134.510394
9.293                0.926804686     -134.782573
9.294                0.926553379     -135.055271
9.295                0.926302269     -135.328486
9.296                0.926051369     -135.602217
9.297                0.925800692     -135.876463
9.298                0.925550249     -136.151221
9.299                0.925300054     -136.426491
9.3                  0.925050118     -136.702271
9.301                0.924800455     -136.978559
9.302                0.924551077     -137.255354
9.303                0.924301996     -137.532654
9.304                0.924053225     -137.810458
9.305                0.923804778     -138.088764
9.306                0.923556666      -138.36757
9.307                0.923308904     -138.646874
9.308                0.923061503     -138.926676
9.309                0.922814477     -139.206972
9.31                 0.922567838     -139.487762
9.311                  0.9223216     -139.769042
9.312                0.922075777     -140.050813
9.313                 0.92183038     -140.333071
9.314                0.921585423     -140.615814
9.315                 0.92134092     -140.899041
9.316                0.921096883      -141.18275
9.317                0.920853326     -141.466939
9.318                0.920610263     -141.751605
9.319                0.920367706     -142.036747
9.32                 0.920125669     -142.322363
9.321                0.919884166     -142.608449
9.322                0.919643209     -142.895005
9.323                0.919402813     -143.182028
9.324                0.919162991     -143.469516
9.325                0.918923756     -143.757466
9.326                0.918685122     -144.045876
9.327                0.918447102     -144.334744
9.328                 0.91820971     -144.624068
9.329                0.917972961     -144.913845
9.33                 0.917736866     -145.204072
9.331                 0.91750144     -145.494748
9.332                0.917266697      -145.78587
9.333                 0.91703265     -146.077435
9.334                0.916799313     -146.369441
9.335                  0.9165667     -146.661886
9.336                0.916334824     -146.954766
9.337                0.916103699     -147.248079
9.338                0.915873338     -147.541822
9.339                0.915643756     -147.835994
9.34                 0.915414966      -148.13059
9.341                0.915186982     -148.425608
9.342                0.914959817     -148.721047
9.343                0.914733485     -149.016901
9.344                0.914507999      -149.31317
9.345                0.914283375      -149.60985
9.346                0.914059624     -149.906938
9.347                0.913836761     -150.204431
9.348                0.913614799     -150.502327
9.349                0.913393753     -150.800622
9.35                 0.913173635     -151.099313
9.351                0.912954459     -151.398397
9.352                0.912736238     -151.697872
9.353                0.912518987     -151.997734
9.354                0.912302719      -152.29798
9.355                0.912087446     -152.598606
9.356                0.911873183      -152.89961
9.357                0.911659944     -153.200989
9.358                 0.91144774     -153.502739
9.359                0.911236586     -153.804857
9.36                 0.911026496      -154.10734
9.361                0.910817481     -154.410184
9.362                0.910609556     -154.713385
9.363                0.910402734     -155.016942
9.364                0.910197027      -155.32085
9.365                0.909992449     -155.625105
9.366                0.909789014     -155.929705
9.367                0.909586733     -156.234645
9.368                0.909385619     -156.539923
9.369                0.909185687     -156.845534
9.37                 0.908986948     -157.151476
9.371                0.908789415     -157.457744
9.372                0.908593101     -157.764336
9.373                0.908398019     -158.071246
9.374                0.908204181     -158.378472
9.375                0.908011599      -158.68601
9.376                0.907820286     -158.993856
9.377                0.907630255     -159.302007
9.378                0.907441518     -159.610458
9.379                0.907254086     -159.919206
9.38                 0.907067973     -160.228247
9.381                0.906883189     -160.537577
9.382                0.906699748     -160.847193
9.383                 0.90651766      -161.15709
9.384                0.906336938     -161.467264
9.385                0.906157594     -161.777712
9.386                0.905979639     -162.088429
9.387                0.905803084     -162.399412
9.388                0.905627941     -162.710656
9.389                0.905454222     -163.022158
9.39                 0.905281938     -163.333913
9.391                0.905111099     -163.645918
9.392                0.904941717     -163.958168
9.393                0.904773803     -164.270658
9.394                0.904607368     -164.583386
9.395                0.904442422     -164.896347
9.396                0.904278976     -165.209536
