! TOUCHSTONE file generated by CST DESIGN STUDIO
! Date and time: Tue Feb  4 16:27:43 2025
! Project name: C:\Work\MatlabApps\UnitCellOptimizationMatlab\CST\unitcell.cst
! Tree item: Tasks\Sweep1\SPara1\S-Parameters
! Header version: 2024
! Port assignment regex: !\s*Touchstone port\s*([0-9]+)\s*=\s*(CST MWS port|CST DES external port|CST DES block port)\s*(.+)\s* \(\"(.*)\"\)(\s*mode\s*([0-9]+))?.*
! Touchstone port assignment:
! Touchstone port 1 = CST DES external port 1 ("")
# GHz S MA R 50
9                    0.979159335     -83.9035177
9.001                0.979096251     -84.0547843
9.002                0.979032239     -84.2064494
9.003                  0.9789673      -84.358514
9.004                0.978901431     -84.5109796
9.005                0.978834631     -84.6638473
9.006                0.978766898     -84.8171183
9.007                0.978698232      -84.970794
9.008                 0.97862863     -85.1248756
9.009                0.978558091     -85.2793643
9.01                 0.978486614     -85.4342614
9.011                0.978414198     -85.5895681
9.012                 0.97834084     -85.7452857
9.013                0.978266541     -85.9014154
9.014                0.978191298     -86.0579585
9.015                 0.97811511     -86.2149163
9.016                0.978037976     -86.3722899
9.017                0.977959894     -86.5300806
9.018                0.977880864     -86.6882897
9.019                0.977800883     -86.8469184
9.02                 0.977719952      -87.005968
9.021                0.977638068     -87.1654397
9.022                0.977555231     -87.3253348
9.023                0.977471438     -87.4856545
9.024                 0.97738669        -87.6464
9.025                0.977300985     -87.8075726
9.026                0.977214321     -87.9691735
9.027                0.977126698      -88.131204
9.028                0.977038115     -88.2936653
9.029                 0.97694857     -88.4565587
9.03                 0.976858063     -88.6198854
9.031                0.976766591     -88.7836466
9.032                0.976674156     -88.9478436
9.033                0.976580754     -89.1124776
9.034                0.976486386     -89.2775499
9.035                 0.97639105     -89.4430616
9.036                0.976294746     -89.6090141
9.037                0.976197472     -89.7754085
9.038                0.976099228      -89.942246
9.039                0.976000012      -90.109528
9.04                 0.975899824     -90.2772556
9.041                0.975798664     -90.4454301
9.042                0.975696529     -90.6140527
9.043                 0.97559342     -90.7831245
9.044                0.975489335      -90.952647
9.045                0.975384274     -91.1226211
9.046                0.975278236     -91.2930482
9.047                 0.97517122     -91.4639296
9.048                0.975063226     -91.6352663
9.049                0.974954253     -91.8070596
9.05                   0.9748443     -91.9793108
9.051                0.974733367      -92.152021
9.052                0.974621453     -92.3251914
9.053                0.974508557     -92.4988233
9.054                 0.97439468     -92.6729178
9.055                 0.97427982     -92.8474762
9.056                0.974163976     -93.0224996
9.057                0.974047149     -93.1979893
9.058                0.973929338     -93.3739464
9.059                0.973810542     -93.5503722
9.06                 0.973690762     -93.7272677
9.061                0.973569996     -93.9046343
9.062                0.973448245      -94.082473
9.063                0.973325508     -94.2607851
9.064                0.973201784     -94.4395718
9.065                0.973077074     -94.6188341
9.066                0.972951378     -94.7985734
9.067                0.972824694     -94.9787907
9.068                0.972697024     -95.1594872
9.069                0.972568366     -95.3406641
9.07                 0.972438721     -95.5223225
9.071                0.972308088     -95.7044636
9.072                0.972176468     -95.8870886
9.073                 0.97204386     -96.0701985
9.074                0.971910265     -96.2537946
9.075                0.971775683      -96.437878
9.076                0.971640113     -96.6224497
9.077                0.971503556      -96.807511
9.078                0.971366011     -96.9930629
9.079                 0.97122748     -97.1791067
9.08                 0.971087962     -97.3656433
9.081                0.970947458      -97.552674
9.082                0.970805968     -97.7401998
9.083                0.970663491     -97.9282219
9.084                0.970520029     -98.1167413
9.085                0.970375583     -98.3057591
9.086                0.970230151     -98.4952765
9.087                0.970083736     -98.6852945
9.088                0.969936336     -98.8758141
9.089                0.969787954     -99.0668366
9.09                 0.969638589     -99.2583629
9.091                0.969488242     -99.4503942
9.092                0.969336914     -99.6429314
9.093                0.969184606     -99.8359756
9.094                0.969031318     -100.029528
9.095                0.968877051     -100.223589
9.096                0.968721806     -100.418161
9.097                0.968565583     -100.613244
9.098                0.968408385     -100.808839
9.099                0.968250211     -101.004947
9.1                  0.968091063      -101.20157
9.101                0.967930942     -101.398708
9.102                0.967769849     -101.596362
9.103                0.967607784     -101.794533
9.104                 0.96744475     -101.993223
9.105                0.967280748     -102.192432
9.106                0.967115778     -102.392161
9.107                0.966949843     -102.592411
9.108                0.966782943     -102.793184
9.109                0.966615081     -102.994479
9.11                 0.966446257     -103.196299
9.111                0.966276473     -103.398643
9.112                 0.96610573     -103.601514
9.113                0.965934031     -103.804911
9.114                0.965761378     -104.008836
9.115                0.965587771      -104.21329
9.116                0.965413212     -104.418273
9.117                0.965237705     -104.623787
9.118                0.965061249     -104.829832
9.119                0.964883848     -105.036409
9.12                 0.964705504     -105.243519
9.121                0.964526218     -105.451164
9.122                0.964345993     -105.659343
9.123                0.964164831     -105.868057
9.124                0.963982734     -106.077308
9.125                0.963799704     -106.287097
9.126                0.963615745     -106.497423
9.127                0.963430858     -106.708288
9.128                0.963245045     -106.919693
9.129                0.963058311     -107.131638
9.13                 0.962870656     -107.344125
9.131                0.962682084     -107.557154
9.132                0.962492597     -107.770725
9.133                0.962302199      -107.98484
9.134                0.962110892     -108.199498
9.135                 0.96191868     -108.414702
9.136                0.961725564     -108.630452
9.137                0.961531549     -108.846748
9.138                0.961336637      -109.06359
9.139                0.961140832     -109.280981
9.14                 0.960944137      -109.49892
9.141                0.960746555     -109.717407
9.142                 0.96054809     -109.936445
9.143                0.960348745     -110.156032
9.144                0.960148524     -110.376171
9.145                 0.95994743     -110.596861
9.146                0.959745467     -110.818103
9.147                0.959542639     -111.039897
9.148                 0.95933895     -111.262245
9.149                0.959134403     -111.485147
9.15                 0.958929003     -111.708603
9.151                0.958722754     -111.932614
9.152                0.958515659      -112.15718
9.153                0.958307724     -112.382302
9.154                0.958098951      -112.60798
9.155                0.957889347     -112.834215
9.156                0.957678914     -113.061007
9.157                0.957467658     -113.288357
9.158                0.957255583     -113.516265
9.159                0.957042695     -113.744731
9.16                 0.956828997     -113.973757
9.161                0.956614494     -114.203341
9.162                0.956399192     -114.433486
9.163                0.956183095      -114.66419
9.164                0.955966208     -114.895455
9.165                0.955748537      -115.12728
9.166                0.955530087     -115.359667
9.167                0.955310863     -115.592615
9.168                 0.95509087     -115.826124
9.169                0.954870115     -116.060195
9.17                 0.954648602     -116.294828
9.171                0.954426337     -116.530023
9.172                0.954203326     -116.765781
9.173                0.953979575     -117.002102
9.174                 0.95375509     -117.238985
9.175                0.953529876     -117.476432
9.176                0.953303939     -117.714441
9.177                0.953077287     -117.953014
9.178                0.952849925      -118.19215
9.179                0.952621859      -118.43185
9.18                 0.952393096     -118.672113
9.181                0.952163642      -118.91294
9.182                0.951933504      -119.15433
9.183                0.951702688     -119.396284
9.184                0.951471202     -119.638802
9.185                0.951239052     -119.881883
9.186                0.951006245     -120.125527
9.187                0.950772789     -120.369735
9.188                0.950538689     -120.614507
9.189                0.950303954     -120.859841
9.19                 0.950068591     -121.105739
9.191                0.949832607       -121.3522
9.192                0.949596009     -121.599224
9.193                0.949358806      -121.84681
9.194                0.949121004     -122.094959
9.195                0.948882612      -122.34367
9.196                0.948643638     -122.592943
9.197                0.948404088     -122.842777
9.198                0.948163972     -123.093173
9.199                0.947923298      -123.34413
9.2                  0.947682073     -123.595648
9.201                0.947440307     -123.847726
9.202                0.947198006     -124.100365
9.203                0.946955181     -124.353563
9.204                0.946711839      -124.60732
9.205                0.946467989     -124.861635
9.206                0.946223639     -125.116509
9.207                  0.9459788     -125.371941
9.208                0.945733479      -125.62793
9.209                0.945487686     -125.884476
9.21                 0.945241429     -126.141578
9.211                0.944994718     -126.399235
9.212                0.944747563     -126.657447
9.213                0.944499972     -126.916214
9.214                0.944251956     -127.175534
9.215                0.944003523     -127.435408
9.216                0.943754684     -127.695833
9.217                0.943505447      -127.95681
9.218                0.943255824     -128.218338
9.219                0.943005824     -128.480416
9.22                 0.942755456     -128.743043
9.221                0.942504732     -129.006218
9.222                0.942253661     -129.269941
9.223                0.942002253     -129.534211
9.224                 0.94175052     -129.799026
9.225                0.941498471     -130.064385
9.226                0.941246116     -130.330289
9.227                0.940993468     -130.596736
9.228                0.940740536     -130.863724
9.229                0.940487331     -131.131253
9.23                 0.940233864     -131.399321
9.231                0.939980147     -131.667929
9.232                 0.93972619     -131.937073
9.233                0.939472004     -132.206754
9.234                  0.9392176      -132.47697
9.235                0.938962991      -132.74772
9.236                0.938708187     -133.019003
9.237                  0.9384532     -133.290817
9.238                0.938198042     -133.563161
9.239                0.937942723     -133.836034
9.24                 0.937687257     -134.109435
9.241                0.937431654     -134.383361
9.242                0.937175927     -134.657812
9.243                0.936920088     -134.932787
9.244                0.936664148     -135.208283
9.245                0.936408121       -135.4843
9.246                0.936152017     -135.760835
9.247                 0.93589585     -136.037888
9.248                0.935639631     -136.315457
9.249                0.935383374     -136.593539
9.25                 0.935127091     -136.872134
9.251                0.934870794      -137.15124
9.252                0.934614496     -137.430855
9.253                0.934358209     -137.710977
9.254                0.934101947     -137.991605
9.255                0.933845723     -138.272736
9.256                0.933589549      -138.55437
9.257                0.933333439     -138.836504
9.258                0.933077405     -139.119136
9.259                0.932821461     -139.402265
9.26                 0.932565619     -139.685888
9.261                0.932309894     -139.970004
9.262                0.932054298      -140.25461
9.263                0.931798845     -140.539705
9.264                0.931543548     -140.825287
9.265                0.931288421     -141.111352
9.266                0.931033477       -141.3979
9.267                 0.93077873     -141.684928
9.268                0.930524194     -141.972435
9.269                0.930269883     -142.260416
9.27                 0.930015809     -142.548872
9.271                0.929761987     -142.837799
9.272                0.929508432     -143.127194
9.273                0.929255156     -143.417057
9.274                0.929002174     -143.707383
9.275                0.928749499     -143.998172
9.276                0.928497147      -144.28942
9.277                 0.92824513     -144.581125
9.278                0.927993463     -144.873284
9.279                0.927742161     -145.165896
9.28                 0.927491237     -145.458957
9.281                0.927240706     -145.752465
9.282                0.926990581     -146.046418
9.283                0.926740878     -146.340812
9.284                0.926491611     -146.635645
9.285                0.926242794     -146.930915
9.286                0.925994441     -147.226618
9.287                0.925746566     -147.522752
9.288                0.925499185     -147.819314
9.289                0.925252312     -148.116301
9.29                 0.925005961     -148.413711
9.291                0.924760147      -148.71154
9.292                0.924514884     -149.009786
9.293                0.924270187     -149.308446
9.294                 0.92402607     -149.607516
9.295                0.923782548     -149.906994
9.296                0.923539636     -150.206877
9.297                0.923297348     -150.507162
9.298                0.923055698     -150.807844
9.299                0.922814702     -151.108923
9.3                  0.922574373     -151.410393
9.301                0.922334727     -151.712253
9.302                0.922095778     -152.014499
9.303                 0.92185754     -152.317127
9.304                0.921620029     -152.620135
9.305                0.921383258     -152.923519
9.306                0.921147243     -153.227275
9.307                0.920911998     -153.531401
9.308                0.920677537     -153.835893
9.309                0.920443875     -154.140748
9.31                 0.920211026     -154.445961
9.311                0.919979005     -154.751531
9.312                0.919747827     -155.057453
9.313                0.919517505     -155.363723
9.314                0.919288055     -155.670339
9.315                 0.91905949     -155.977296
9.316                0.918831825     -156.284591
9.317                0.918605075      -156.59222
9.318                0.918379253     -156.900181
9.319                0.918154373     -157.208468
9.32                 0.917930451     -157.517078
9.321                  0.9177075     -157.826008
9.322                0.917485534     -158.135254
9.323                0.917264567     -158.444811
9.324                0.917044614     -158.754677
9.325                0.916825689     -159.064847
9.326                0.916607804     -159.375317
9.327                0.916390975     -159.686085
9.328                0.916175215     -159.997144
9.329                0.915960537     -160.308493
9.33                 0.915746956     -160.620126
9.331                0.915534485     -160.932039
9.332                0.915323138      -161.24423
9.333                0.915112928     -161.556693
9.334                0.914903868     -161.869424
9.335                0.914695973     -162.182421
9.336                0.914489255     -162.495677
9.337                0.914283727      -162.80919
9.338                0.914079403     -163.122955
9.339                0.913876296     -163.436968
9.34                 0.913674419     -163.751224
9.341                0.913473784      -164.06572
9.342                0.913274405     -164.380452
9.343                0.913076294     -164.695414
9.344                0.912879463     -165.010603
9.345                0.912683926     -165.326015
9.346                0.912489695     -165.641644
9.347                0.912296783     -165.957488
9.348                  0.9121052      -166.27354
9.349                0.911914961     -166.589798
9.35                 0.911726076     -166.906256
9.351                0.911538557     -167.222911
9.352                0.911352418     -167.539757
9.353                0.911167668     -167.856791
9.354                0.910984321     -168.174007
9.355                0.910802387     -168.491402
9.356                0.910621878     -168.808971
9.357                0.910442805     -169.126709
9.358                0.910265179     -169.444612
9.359                0.910089012     -169.762675
9.36                 0.909914315     -170.080894
9.361                0.909741097     -170.399264
9.362                0.909569371      -170.71778
9.363                0.909399146     -171.036439
9.364                0.909230433     -171.355234
9.365                0.909063243     -171.674163
9.366                0.908897585     -171.993219
9.367                 0.90873347     -172.312399
9.368                0.908570907     -172.631697
9.369                0.908409907      -172.95111
9.37                 0.908250479     -173.270631
9.371                0.908092632     -173.590258
9.372                0.907936376     -173.909984
9.373                 0.90778172     -174.229806
9.374                0.907628674     -174.549718
9.375                0.907477246     -174.869716
9.376                0.907327445     -175.189795
9.377                 0.90717928      -175.50995
9.378                0.907032758     -175.830176
9.379                 0.90688789     -176.150469
9.38                 0.906744683     -176.470825
9.381                0.906603144     -176.791237
9.382                0.906463282     -177.111702
9.383                0.906325105     -177.432214
9.384                 0.90618862     -177.752769
9.385                0.906053835     -178.073362
9.386                0.905920757     -178.393988
9.387                0.905789393     -178.714643
9.388                 0.90565975     -179.035321
9.389                0.905531835     -179.356018
9.39                 0.905405655     -179.676729
9.391                0.905281216     -179.997449
9.392                0.905158524      179.681827
9.393                0.905037586      179.361103
9.394                0.904918408      179.040385
9.395                0.904800995      178.719677
9.396                0.904685353      178.398984
