! TOUCHSTONE file generated by CST DESIGN STUDIO
! Date and time: Tue Feb  4 16:27:51 2025
! Project name: C:\Work\MatlabApps\UnitCellOptimizationMatlab\CST\unitcell.cst
! Tree item: Tasks\Sweep1\SPara1\S-Parameters
! Header version: 2024
! Port assignment regex: !\s*Touchstone port\s*([0-9]+)\s*=\s*(CST MWS port|CST DES external port|CST DES block port)\s*(.+)\s* \(\"(.*)\"\)(\s*mode\s*([0-9]+))?.*
! Touchstone port assignment:
! Touchstone port 1 = CST DES external port 1 ("")
# GHz S MA R 50
9                    0.980025129     -67.7074438
9.001                0.979951318     -67.8129121
9.002                0.979877058     -67.9186426
9.003                0.979802347     -68.0246361
9.004                0.979727184     -68.1308934
9.005                0.979651566     -68.2374155
9.006                0.979575494     -68.3442031
9.007                0.979498964     -68.4512571
9.008                0.979421977     -68.5585782
9.009                0.979344529     -68.6661674
9.01                 0.979266621     -68.7740254
9.011                 0.97918825     -68.8821532
9.012                0.979109415     -68.9905515
9.013                0.979030115     -69.0992213
9.014                0.978950348     -69.2081633
9.015                0.978870113     -69.3173784
9.016                0.978789409     -69.4268675
9.017                0.978708233     -69.5366314
9.018                0.978626584      -69.646671
9.019                0.978544462     -69.7569872
9.02                 0.978461865     -69.8675807
9.021                 0.97837879     -69.9784526
9.022                0.978295238     -70.0896037
9.023                0.978211206     -70.2010347
9.024                0.978126692     -70.3127467
9.025                0.978041697     -70.4247405
9.026                0.977956217      -70.537017
9.027                0.977870252      -70.649577
9.028                  0.9777838     -70.7624215
9.029                 0.97769686     -70.8755513
9.03                 0.977609431     -70.9889674
9.031                 0.97752151     -71.1026705
9.032                0.977433097     -71.2166617
9.033                 0.97734419     -71.3309419
9.034                0.977254788     -71.4455118
9.035                0.977164889     -71.5603725
9.036                0.977074493     -71.6755249
9.037                0.976983596     -71.7909698
9.038                0.976892199     -71.9067081
9.039                0.976800299     -72.0227409
9.04                 0.976707896     -72.1390689
9.041                0.976614987     -72.2556932
9.042                0.976521572     -72.3726147
9.043                0.976427649     -72.4898342
9.044                0.976333217     -72.6073527
9.045                0.976238274     -72.7251711
9.046                0.976142819     -72.8432904
9.047                 0.97604685     -72.9617116
9.048                0.975950366     -73.0804355
9.049                0.975853367      -73.199463
9.05                 0.975755849     -73.3187952
9.051                0.975657813      -73.438433
9.052                0.975559256     -73.5583774
9.053                0.975460177     -73.6786292
9.054                0.975360576     -73.7991894
9.055                0.975260449     -73.9200591
9.056                0.975159797     -74.0412391
9.057                0.975058618     -74.1627304
9.058                 0.97495691      -74.284534
9.059                0.974854672     -74.4066509
9.06                 0.974751903      -74.529082
9.061                0.974648602     -74.6518283
9.062                0.974544766     -74.7748908
9.063                0.974440396     -74.8982704
9.064                0.974335488     -75.0219682
9.065                0.974230043     -75.1459851
9.066                0.974124058     -75.2703221
9.067                0.974017533     -75.3949802
9.068                0.973910467     -75.5199603
9.069                0.973802857     -75.6452635
9.07                 0.973694702     -75.7708909
9.071                0.973586002     -75.8968432
9.072                0.973476755     -76.0231217
9.073                0.973366959     -76.1497272
9.074                0.973256614     -76.2766608
9.075                0.973145718     -76.4039235
9.076                 0.97303427     -76.5315163
9.077                0.972922269     -76.6594401
9.078                0.972809713     -76.7876962
9.079                0.972696601     -76.9162853
9.08                 0.972582932     -77.0452086
9.081                0.972468704     -77.1744672
9.082                0.972353917     -77.3040619
9.083                 0.97223857     -77.4339938
9.084                 0.97212266     -77.5642641
9.085                0.972006187     -77.6948736
9.086                 0.97188915     -77.8258235
9.087                0.971771547     -77.9571147
9.088                0.971653377     -78.0887484
9.089                 0.97153464     -78.2207255
9.09                 0.971415333     -78.3530471
9.091                0.971295456     -78.4857142
9.092                0.971175008     -78.6187279
9.093                0.971053987     -78.7520893
9.094                0.970932393     -78.8857994
9.095                0.970810224     -79.0198592
9.096                0.970687479     -79.1542698
9.097                0.970564157     -79.2890323
9.098                0.970440256     -79.4241478
9.099                0.970315777     -79.5596172
9.1                  0.970190717     -79.6954416
9.101                0.970065076     -79.8316222
9.102                0.969938853       -79.96816
9.103                0.969812046     -80.1050561
9.104                0.969684655     -80.2423115
9.105                0.969556678     -80.3799274
9.106                0.969428115     -80.5179047
9.107                0.969298965     -80.6562446
9.108                0.969169225     -80.7949482
9.109                0.969038897     -80.9340165
9.11                 0.968907978     -81.0734506
9.111                0.968776467     -81.2132517
9.112                0.968644365     -81.3534208
9.113                0.968511669      -81.493959
9.114                0.968378379     -81.6348674
9.115                0.968244493     -81.7761471
9.116                0.968110012     -81.9177992
9.117                0.967974934     -82.0598248
9.118                0.967839259      -82.202225
9.119                0.967702984     -82.3450009
9.12                  0.96756611     -82.4881536
9.121                0.967428636     -82.6316842
9.122                0.967290561     -82.7755939
9.123                0.967151885     -82.9198837
9.124                0.967012605     -83.0645547
9.125                0.966872722     -83.2096081
9.126                0.966732235     -83.3550449
9.127                0.966591143     -83.5008664
9.128                0.966449445     -83.6470736
9.129                0.966307141     -83.7936676
9.13                  0.96616423     -83.9406496
9.131                0.966020712     -84.0880206
9.132                0.965876585     -84.2357819
9.133                0.965731849     -84.3839344
9.134                0.965586503     -84.5324795
9.135                0.965440547     -84.6814181
9.136                0.965293981     -84.8307515
9.137                0.965146802     -84.9804807
9.138                0.964999012     -85.1306069
9.139                 0.96485061     -85.2811312
9.14                 0.964701594     -85.4320547
9.141                0.964551965     -85.5833787
9.142                0.964401722     -85.7351042
9.143                0.964250865     -85.8872323
9.144                0.964099392     -86.0397643
9.145                0.963947304     -86.1927012
9.146                0.963794601     -86.3460442
9.147                0.963641281     -86.4997945
9.148                0.963487345     -86.6539531
9.149                0.963332792     -86.8085213
9.15                 0.963177622     -86.9635001
9.151                0.963021834     -87.1188907
9.152                0.962865429     -87.2746943
9.153                0.962708406     -87.4309121
9.154                0.962550764     -87.5875451
9.155                0.962392504     -87.7445945
9.156                0.962233626     -87.9020614
9.157                0.962074128     -88.0599471
9.158                0.961914012     -88.2182527
9.159                0.961753276     -88.3769792
9.16                 0.961591922      -88.536128
9.161                0.961429948        -88.6957
9.162                0.961267355     -88.8556966
9.163                0.961104143     -89.0161187
9.164                0.960940311     -89.1769677
9.165                 0.96077586     -89.3382446
9.166                 0.96061079     -89.4999506
9.167                  0.9604451     -89.6620868
9.168                0.960278792     -89.8246544
9.169                0.960111864     -89.9876546
9.17                 0.959944318     -90.1510885
9.171                0.959776153     -90.3149573
9.172                 0.95960737     -90.4792621
9.173                0.959437969     -90.6440041
9.174                 0.95926795     -90.8091843
9.175                0.959097313     -90.9748041
9.176                0.958926059     -91.1408645
9.177                0.958754189     -91.3073667
9.178                0.958581701     -91.4743118
9.179                0.958408598      -91.641701
9.18                 0.958234879     -91.8095355
9.181                0.958060545     -91.9778163
9.182                0.957885596     -92.1465447
9.183                0.957710033     -92.3157218
9.184                0.957533857     -92.4853487
9.185                0.957357067     -92.6554266
9.186                0.957179666     -92.8259566
9.187                0.957001652     -92.9969399
9.188                0.956823028     -93.1683777
9.189                0.956643793     -93.3402709
9.19                 0.956463949     -93.5126209
9.191                0.956283497     -93.6854288
9.192                0.956102436     -93.8586956
9.193                0.955920769     -94.0324226
9.194                0.955738495     -94.2066108
9.195                0.955555616     -94.3812614
9.196                0.955372134     -94.5563755
9.197                0.955188048     -94.7319543
9.198                 0.95500336     -94.9079989
9.199                0.954818071     -95.0845104
9.2                  0.954632182       -95.26149
9.201                0.954445694     -95.4389387
9.202                0.954258609     -95.6168577
9.203                0.954070928     -95.7952481
9.204                0.953882652      -95.974111
9.205                0.953693782     -96.1534476
9.206                0.953504319      -96.333259
9.207                0.953314266     -96.5135462
9.208                0.953123623     -96.6943103
9.209                0.952932392     -96.8755526
9.21                 0.952740575      -97.057274
9.211                0.952548172     -97.2394757
9.212                0.952355187     -97.4221587
9.213                0.952161619     -97.6053243
9.214                0.951967472     -97.7889734
9.215                0.951772746     -97.9731071
9.216                0.951577443     -98.1577266
9.217                0.951381566     -98.3428329
9.218                0.951185116     -98.5284271
9.219                0.950988096     -98.7145102
9.22                 0.950790506     -98.9010834
9.221                0.950592349     -99.0881476
9.222                0.950393627      -99.275704
9.223                0.950194342     -99.4637537
9.224                0.949994496     -99.6522976
9.225                0.949794092     -99.8413368
9.226                0.949593132     -100.030872
9.227                0.949391617     -100.220905
9.228                0.949189551     -100.411437
9.229                0.948986935     -100.602468
9.23                 0.948783772     -100.793999
9.231                0.948580065     -100.986032
9.232                0.948375816     -101.178568
9.233                0.948171027     -101.371607
9.234                0.947965702     -101.565151
9.235                0.947759842       -101.7592
9.236                0.947553451     -101.953756
9.237                0.947346532     -102.148819
9.238                0.947139087     -102.344391
9.239                0.946931118     -102.540473
9.24                  0.94672263     -102.737065
9.241                0.946513625     -102.934168
9.242                0.946304106     -103.131784
9.243                0.946094075     -103.329914
9.244                0.945883538     -103.528558
9.245                0.945672495     -103.727717
9.246                0.945460952     -103.927392
9.247                 0.94524891     -104.127584
9.248                0.945036374     -104.328295
9.249                0.944823347     -104.529525
9.25                 0.944609832     -104.731274
9.251                0.944395833     -104.933545
9.252                0.944181353     -105.136337
9.253                0.943966396     -105.339652
9.254                0.943750967      -105.54349
9.255                0.943535067     -105.747853
9.256                0.943318703     -105.952741
9.257                0.943101876     -106.158155
9.258                0.942884592     -106.364096
9.259                0.942666854     -106.570564
9.26                 0.942448667     -106.777562
9.261                0.942230034     -106.985089
9.262                0.942010959     -107.193146
9.263                0.941791448     -107.401735
9.264                0.941571504     -107.610855
9.265                0.941351131     -107.820508
9.266                0.941130334     -108.030694
9.267                0.940909118     -108.241415
9.268                0.940687488     -108.452671
9.269                0.940465446     -108.664463
9.27                    0.940243     -108.876791
9.271                0.940020152     -109.089656
9.272                0.939796909     -109.303059
9.273                0.939573274     -109.517001
9.274                0.939349254     -109.731483
9.275                0.939124852     -109.946504
9.276                0.938900074     -110.162067
9.277                0.938674925     -110.378171
9.278                0.938449411     -110.594817
9.279                0.938223536     -110.812005
9.28                 0.937997306     -111.029737
9.281                0.937770727     -111.248014
9.282                0.937543803     -111.466835
9.283                0.937316541     -111.686201
9.284                0.937088946     -111.906113
9.285                0.936861024     -112.126571
9.286                 0.93663278     -112.347577
9.287                 0.93640422      -112.56913
9.288                0.936175351     -112.791231
9.289                0.935946177     -113.013881
9.29                 0.935716706      -113.23708
9.291                0.935486943     -113.460828
9.292                0.935256895     -113.685127
9.293                0.935026567     -113.909977
9.294                0.934795967     -114.135378
9.295                0.934565099      -114.36133
9.296                0.934333972     -114.587834
9.297                0.934102591     -114.814891
9.298                0.933870963     -115.042501
9.299                0.933639094     -115.270663
9.3                  0.933406992      -115.49938
9.301                0.933174663     -115.728651
9.302                0.932942114     -115.958475
9.303                0.932709352     -116.188855
9.304                0.932476384      -116.41979
9.305                0.932243217      -116.65128
9.306                0.932009858     -116.883325
9.307                0.931776315     -117.115927
9.308                0.931542594     -117.349084
9.309                0.931308704     -117.582798
9.31                 0.931074651     -117.817069
9.311                0.930840444     -118.051897
9.312                0.930606089     -118.287281
9.313                0.930371595     -118.523223
9.314                0.930136968     -118.759722
9.315                0.929902218     -118.996779
9.316                0.929667352     -119.234394
9.317                0.929432377     -119.472566
9.318                0.929197302     -119.711296
9.319                0.928962135     -119.950584
9.32                 0.928726884      -120.19043
9.321                0.928491558     -120.430834
9.322                0.928256164     -120.671796
9.323                0.928020711     -120.913316
9.324                0.927785207     -121.155394
9.325                0.927549662     -121.398031
9.326                0.927314083     -121.641225
9.327                0.927078479     -121.884977
9.328                 0.92684286     -122.129287
9.329                0.926607233     -122.374154
9.33                 0.926371608     -122.619579
9.331                0.926135993     -122.865561
9.332                0.925900398     -123.112101
9.333                0.925664832     -123.359198
9.334                0.925429304     -123.606851
9.335                0.925193823     -123.855061
9.336                0.924958398     -124.103827
9.337                0.924723039     -124.353149
9.338                0.924487755     -124.603027
9.339                0.924252556     -124.853461
9.34                 0.924017452     -125.104449
9.341                0.923782451     -125.355992
9.342                0.923547564      -125.60809
9.343                  0.9233128     -125.860741
9.344                 0.92307817     -126.113946
9.345                0.922843683     -126.367703
9.346                0.922609348     -126.622014
9.347                0.922375177     -126.876876
9.348                 0.92214118      -127.13229
9.349                0.921907365     -127.388255
9.35                 0.921673744      -127.64477
9.351                0.921440327     -127.901835
9.352                0.921207125     -128.159449
9.353                0.920974147     -128.417612
9.354                0.920741404     -128.676323
9.355                0.920508907     -128.935581
9.356                0.920276666     -129.195385
9.357                0.920044692     -129.455735
9.358                0.919812995      -129.71663
9.359                0.919581587     -129.978069
9.36                 0.919350478     -130.240052
9.361                 0.91911968     -130.502577
9.362                0.918889202     -130.765644
9.363                0.918659056     -131.029252
9.364                0.918429254     -131.293399
9.365                0.918199805     -131.558086
9.366                0.917970722      -131.82331
9.367                0.917742015     -132.089071
9.368                0.917513696     -132.355369
9.369                0.917285776     -132.622201
9.37                 0.917058267     -132.889567
9.371                0.916831179     -133.157465
9.372                0.916604525     -133.425896
9.373                0.916378316     -133.694857
9.374                0.916152562     -133.964347
9.375                0.915927277     -134.234365
9.376                0.915702471      -134.50491
9.377                0.915478157      -134.77598
9.378                0.915254345     -135.047575
9.379                0.915031049     -135.319692
9.38                 0.914808278     -135.592332
9.381                0.914586046     -135.865491
9.382                0.914364365     -136.139169
9.383                0.914143245     -136.413365
9.384                  0.9139227     -136.688077
9.385                 0.91370274     -136.963302
9.386                0.913483379     -137.239041
9.387                0.913264628     -137.515292
9.388                0.913046499     -137.792052
9.389                0.912829004      -138.06932
9.39                 0.912612156     -138.347095
9.391                0.912395966     -138.625374
9.392                0.912180447     -138.904157
9.393                0.911965612     -139.183441
9.394                0.911751471     -139.463225
9.395                0.911538038     -139.743507
9.396                0.911325325     -140.024285
