! TOUCHSTONE file generated by CST DESIGN STUDIO
! Date and time: Tue Feb  4 16:27:49 2025
! Project name: C:\Work\MatlabApps\UnitCellOptimizationMatlab\CST\unitcell.cst
! Tree item: Tasks\Sweep1\SPara1\S-Parameters
! Header version: 2024
! Port assignment regex: !\s*Touchstone port\s*([0-9]+)\s*=\s*(CST MWS port|CST DES external port|CST DES block port)\s*(.+)\s* \(\"(.*)\"\)(\s*mode\s*([0-9]+))?.*
! Touchstone port assignment:
! Touchstone port 1 = CST DES external port 1 ("")
# GHz S MA R 50
9                    0.979797007     -70.7997369
9.001                0.979725339     -70.9132435
9.002                0.979653108     -71.0270394
9.003                0.979580311     -71.1411254
9.004                0.979506948     -71.2555024
9.005                0.979433016     -71.3701712
9.006                0.979358515     -71.4851329
9.007                0.979283442     -71.6003882
9.008                0.979207796      -71.715938
9.009                0.979131576     -71.8317832
9.01                  0.97905478     -71.9479248
9.011                0.978977406     -72.0643636
9.012                0.978899453     -72.1811004
9.013                0.978820919     -72.2981363
9.014                0.978741804     -72.4154722
9.015                0.978662104     -72.5331088
9.016                 0.97858182     -72.6510472
9.017                0.978500948     -72.7692882
9.018                0.978419489     -72.8878328
9.019                 0.97833744     -73.0066818
9.02                 0.978254799     -73.1258363
9.021                0.978171566      -73.245297
9.022                0.978087738      -73.365065
9.023                0.978003315     -73.4851412
9.024                0.977918295     -73.6055265
9.025                0.977832676     -73.7262218
9.026                0.977746457      -73.847228
9.027                0.977659636     -73.9685462
9.028                0.977572212     -74.0901772
9.029                0.977484184      -74.212122
9.03                 0.977395549     -74.3343815
9.031                0.977306307     -74.4569567
9.032                0.977216457     -74.5798485
9.033                0.977125996     -74.7030579
9.034                0.977034923     -74.8265858
9.035                0.976943237     -74.9504332
9.036                0.976850937      -75.074601
9.037                0.976758021     -75.1990903
9.038                0.976664487      -75.323902
9.039                0.976570335      -75.449037
9.04                 0.976475563     -75.5744963
9.041                0.976380169     -75.7002809
9.042                0.976284152     -75.8263917
9.043                0.976187511     -75.9528299
9.044                0.976090244     -76.0795962
9.045                0.975992351     -76.2066917
9.046                0.975893829     -76.3341175
9.047                0.975794677     -76.4618744
9.048                0.975694895     -76.5899634
9.049                 0.97559448     -76.7183857
9.05                 0.975493432      -76.847142
9.051                0.975391749     -76.9762336
9.052                 0.97528943     -77.1056613
9.053                0.975186473     -77.2354261
9.054                0.975082878     -77.3655291
9.055                0.974978642     -77.4959713
9.056                0.974873766     -77.6267537
9.057                0.974768247     -77.7578772
9.058                0.974662084     -77.8893429
9.059                0.974555276     -78.0211519
9.06                 0.974447822     -78.1533051
9.061                0.974339721     -78.2858036
9.062                0.974230971     -78.4186483
9.063                0.974121571     -78.5518403
9.064                0.974011521     -78.6853807
9.065                0.973900818     -78.8192705
9.066                0.973789462     -78.9535106
9.067                0.973677451     -79.0881022
9.068                0.973564785     -79.2230463
9.069                0.973451463     -79.3583438
9.07                 0.973337482      -79.493996
9.071                0.973222843     -79.6300037
9.072                0.973107543      -79.766368
9.073                0.972991583     -79.9030901
9.074                 0.97287496     -80.0401709
9.075                0.972757675     -80.1776115
9.076                0.972639724     -80.3154129
9.077                0.972521109     -80.4535763
9.078                0.972401827     -80.5921026
9.079                0.972281878     -80.7309929
9.08                 0.972161261     -80.8702484
9.081                0.972039975       -81.00987
9.082                0.971918018     -81.1498588
9.083                 0.97179539     -81.2902159
9.084                 0.97167209     -81.4309424
9.085                0.971548116     -81.5720393
9.086                0.971423469     -81.7135077
9.087                0.971298147     -81.8553487
9.088                0.971172149     -81.9975634
9.089                0.971045475     -82.1401528
9.09                 0.970918123      -82.283118
9.091                0.970790092     -82.4264602
9.092                0.970661383     -82.5701804
9.093                0.970531993     -82.7142797
9.094                0.970401923     -82.8587591
9.095                0.970271171     -83.0036198
9.096                0.970139737     -83.1488629
9.097                 0.97000762     -83.2944895
9.098                0.969874819     -83.4405006
9.099                0.969741334     -83.5868973
9.1                  0.969607164     -83.7336808
9.101                0.969472307     -83.8808522
9.102                0.969336764     -84.0284126
9.103                0.969200534      -84.176363
9.104                0.969063616     -84.3247046
9.105                 0.96892601     -84.4734384
9.106                0.968787715     -84.6225657
9.107                 0.96864873     -84.7720875
9.108                0.968509055     -84.9220048
9.109                0.968368689      -85.072319
9.11                 0.968227633     -85.2230309
9.111                0.968085884     -85.3741418
9.112                0.967943444     -85.5256528
9.113                0.967800311      -85.677565
9.114                0.967656485     -85.8298795
9.115                0.967511965     -85.9825974
9.116                0.967366752     -86.1357199
9.117                0.967220844     -86.2892481
9.118                0.967074242     -86.4431831
9.119                0.966926945     -86.5975261
9.12                 0.966778953     -86.7522781
9.121                0.966630265     -86.9074402
9.122                0.966480882     -87.0630137
9.123                0.966330802     -87.2189997
9.124                0.966180026     -87.3753992
9.125                0.966028554     -87.5322134
9.126                0.965876386     -87.6894435
9.127                 0.96572352     -87.8470905
9.128                0.965569958     -88.0051557
9.129                0.965415699     -88.1636401
9.13                 0.965260742     -88.3225448
9.131                0.965105089     -88.4818711
9.132                0.964948739       -88.64162
9.133                0.964791691     -88.8017927
9.134                0.964633946     -88.9623903
9.135                0.964475504      -89.123414
9.136                0.964316365     -89.2848648
9.137                 0.96415653      -89.446744
9.138                0.963995997     -89.6090527
9.139                0.963834768      -89.771792
9.14                 0.963672843      -89.934963
9.141                0.963510221     -90.0985668
9.142                0.963346903     -90.2626048
9.143                 0.96318289     -90.4270778
9.144                0.963018181     -90.5919872
9.145                0.962852777      -90.757334
9.146                0.962686678     -90.9231193
9.147                0.962519885     -91.0893444
9.148                0.962352397     -91.2560103
9.149                0.962184217     -91.4231182
9.15                 0.962015343     -91.5906693
9.151                0.961845777     -91.7586645
9.152                0.961675518     -91.9271052
9.153                0.961504568     -92.0959924
9.154                0.961332927     -92.2653273
9.155                0.961160596     -92.4351109
9.156                0.960987576     -92.6053445
9.157                0.960813866     -92.7760292
9.158                0.960639468      -92.947166
9.159                0.960464383     -93.1187562
9.16                 0.960288611     -93.2908008
9.161                0.960112153      -93.463301
9.162                0.959935011     -93.6362579
9.163                0.959757184     -93.8096726
9.164                0.959578674     -93.9835463
9.165                0.959399482       -94.15788
9.166                0.959219609      -94.332675
9.167                0.959039055     -94.5079323
9.168                0.958857822      -94.683653
9.169                0.958675912     -94.8598383
9.17                 0.958493324     -95.0364893
9.171                0.958310061      -95.213607
9.172                0.958126124     -95.3911927
9.173                0.957941513     -95.5692474
9.174                 0.95775623     -95.7477721
9.175                0.957570277     -95.9267681
9.176                0.957383655     -96.1062365
9.177                0.957196365     -96.2861782
9.178                0.957008408     -96.4665945
9.179                0.956819787     -96.6474864
9.18                 0.956630502      -96.828855
9.181                0.956440556     -97.0107015
9.182                0.956249949     -97.1930268
9.183                0.956058685     -97.3758321
9.184                0.955866763     -97.5591185
9.185                0.955674186      -97.742887
9.186                0.955480956     -97.9271388
9.187                0.955287075     -98.1118748
9.188                0.955092544     -98.2970962
9.189                0.954897366     -98.4828041
9.19                 0.954701542     -98.6689994
9.191                0.954505074     -98.8556834
9.192                0.954307965     -99.0428569
9.193                0.954110216     -99.2305211
9.194                0.953911829     -99.4186771
9.195                0.953712808     -99.6073258
9.196                0.953513154     -99.7964683
9.197                0.953312869     -99.9861057
9.198                0.953111955     -100.176239
9.199                0.952910416     -100.366869
9.2                  0.952708253     -100.557997
9.201                0.952505469     -100.749624
9.202                0.952302067     -100.941751
9.203                0.952098048     -101.134379
9.204                0.951893416     -101.327509
9.205                0.951688174     -101.521142
9.206                0.951482323     -101.715279
9.207                0.951275868     -101.909922
9.208                 0.95106881     -102.105069
9.209                0.950861152     -102.300724
9.21                 0.950652898     -102.496887
9.211                 0.95044405     -102.693559
9.212                0.950234612     -102.890741
9.213                0.950024586     -103.088433
9.214                0.949813976     -103.286637
9.215                0.949602785     -103.485354
9.216                0.949391016     -103.684585
9.217                0.949178672      -103.88433
9.218                0.948965757     -104.084591
9.219                0.948752274     -104.285368
9.22                 0.948538227     -104.486663
9.221                0.948323619     -104.688475
9.222                0.948108454     -104.890807
9.223                0.947892735     -105.093659
9.224                0.947676466     -105.297032
9.225                0.947459651     -105.500927
9.226                0.947242293     -105.705345
9.227                0.947024397     -105.910286
9.228                0.946805967     -106.115751
9.229                0.946587006     -106.321742
9.23                 0.946367518     -106.528259
9.231                0.946147508     -106.735303
9.232                0.945926979     -106.942875
9.233                0.945705937     -107.150975
9.234                0.945484385     -107.359605
9.235                0.945262327     -107.568764
9.236                0.945039768     -107.778455
9.237                0.944816713     -107.988678
9.238                0.944593166     -108.199433
9.239                0.944369131     -108.410722
9.24                 0.944144613     -108.622544
9.241                0.943919618     -108.834901
9.242                0.943694149     -109.047794
9.243                0.943468212     -109.261224
9.244                0.943241811      -109.47519
9.245                0.943014952     -109.689694
9.246                0.942787639     -109.904736
9.247                0.942559878     -110.120317
9.248                0.942331674     -110.336438
9.249                0.942103031       -110.5531
9.25                 0.941873956     -110.770302
9.251                0.941644454     -110.988046
9.252                 0.94141453     -111.206333
9.253                 0.94118419     -111.425163
9.254                0.940953438     -111.644536
9.255                0.940722282     -111.864453
9.256                0.940490726     -112.084915
9.257                0.940258776     -112.305922
9.258                0.940026439     -112.527475
9.259                0.939793719     -112.749575
9.26                 0.939560624     -112.972222
9.261                0.939327159     -113.195416
9.262                 0.93909333     -113.419158
9.263                0.938859143     -113.643448
9.264                0.938624605     -113.868288
9.265                0.938389722     -114.093677
9.266                  0.9381545     -114.319616
9.267                0.937918946     -114.546105
9.268                0.937683066     -114.773145
9.269                0.937446867     -115.000736
9.27                 0.937210356     -115.228879
9.271                 0.93697354     -115.457574
9.272                0.936736424     -115.686821
9.273                0.936499016     -115.916621
9.274                0.936261324     -116.146974
9.275                0.936023353      -116.37788
9.276                0.935785112      -116.60934
9.277                0.935546607     -116.841354
9.278                0.935307845     -117.073922
9.279                0.935068834     -117.307045
9.28                 0.934829582     -117.540723
9.281                0.934590095     -117.774955
9.282                0.934350381     -118.009743
9.283                0.934110448     -118.245086
9.284                0.933870304     -118.480985
9.285                0.933629956      -118.71744
9.286                0.933389412     -118.954451
9.287                0.933148679     -119.192018
9.288                0.932907767     -119.430141
9.289                0.932666682      -119.66882
9.29                 0.932425434     -119.908056
9.291                 0.93218403     -120.147848
9.292                0.931942478     -120.388197
9.293                0.931700786     -120.629102
9.294                0.931458964     -120.870564
9.295                 0.93121702     -121.112582
9.296                0.930974961     -121.355157
9.297                0.930732797     -121.598288
9.298                0.930490537     -121.841976
9.299                0.930248189      -122.08622
9.3                  0.930005761      -122.33102
9.301                0.929763264     -122.576377
9.302                0.929520705     -122.822289
9.303                0.929278094     -123.068757
9.304                 0.92903544      -123.31578
9.305                0.928792752     -123.563359
9.306                0.928550039     -123.811493
9.307                 0.92830731     -124.060182
9.308                0.928064576     -124.309425
9.309                0.927821845     -124.559223
9.31                 0.927579127     -124.809575
9.311                0.927336432     -125.060481
9.312                0.927093768      -125.31194
9.313                0.926851146     -125.563952
9.314                0.926608576     -125.816516
9.315                0.926366068     -126.069633
9.316                0.926123631     -126.323301
9.317                0.925881275     -126.577521
9.318                0.925639011     -126.832291
9.319                0.925396848     -127.087612
9.32                 0.925154796     -127.343482
9.321                0.924912867     -127.599901
9.322                 0.92467107     -127.856869
9.323                0.924429416     -128.114385
9.324                0.924187914     -128.372449
9.325                0.923946576     -128.631059
9.326                0.923705412     -128.890215
9.327                0.923464433     -129.149916
9.328                0.923223649     -129.410162
9.329                0.922983072     -129.670951
9.33                 0.922742711     -129.932284
9.331                0.922502578     -130.194159
9.332                0.922262683     -130.456575
9.333                0.922023039     -130.719532
9.334                0.921783655     -130.983029
9.335                0.921544542     -131.247064
9.336                0.921305713     -131.511638
9.337                0.921067177     -131.776748
9.338                0.920828947     -132.042394
9.339                0.920591034     -132.308575
9.34                 0.920353448      -132.57529
9.341                0.920116202     -132.842538
9.342                0.919879307     -133.110317
9.343                0.919642774     -133.378627
9.344                0.919406614     -133.647467
9.345                0.919170841     -133.916835
9.346                0.918935464      -134.18673
9.347                0.918700497     -134.457151
9.348                 0.91846595     -134.728097
9.349                0.918231835     -134.999566
9.35                 0.917998164     -135.271557
9.351                 0.91776495     -135.544068
9.352                0.917532203       -135.8171
9.353                0.917299937     -136.090649
9.354                0.917068162     -136.364714
9.355                0.916836891     -136.639295
9.356                0.916606136     -136.914389
9.357                 0.91637591     -137.189996
9.358                0.916146223     -137.466113
9.359                0.915917089     -137.742739
9.36                  0.91568852     -138.019873
9.361                0.915460527     -138.297512
9.362                0.915233124     -138.575656
9.363                0.915006322     -138.854302
9.364                0.914780134     -139.133449
9.365                0.914554572     -139.413095
9.366                0.914329648     -139.693238
9.367                0.914105375     -139.973877
9.368                0.913881766     -140.255009
9.369                0.913658832     -140.536633
9.37                 0.913436587     -140.818747
9.371                0.913215042     -141.101349
9.372                 0.91299421     -141.384437
9.373                0.912774104     -141.668009
9.374                0.912554737     -141.952063
9.375                 0.91233612     -142.236597
9.376                0.912118266     -142.521609
9.377                0.911901189     -142.807097
9.378                0.911684899     -143.093059
9.379                0.911469411     -143.379492
9.38                 0.911254737     -143.666394
9.381                0.911040889     -143.953764
9.382                0.910827879     -144.241598
9.383                0.910615722     -144.529896
9.384                0.910404428     -144.818653
9.385                0.910194011     -145.107868
9.386                0.909984483     -145.397539
9.387                0.909775856     -145.687663
9.388                0.909568145     -145.978238
9.389                 0.90936136     -146.269261
9.39                 0.909155515      -146.56073
9.391                0.908950622     -146.852642
9.392                0.908746693     -147.144995
9.393                0.908543742     -147.437786
9.394                 0.90834178     -147.731012
9.395                 0.90814082     -148.024671
9.396                0.907940876      -148.31876
