! TOUCHSTONE file generated by CST DESIGN STUDIO
! Date and time: Tue Feb  4 16:27:40 2025
! Project name: C:\Work\MatlabApps\UnitCellOptimizationMatlab\CST\unitcell.cst
! Tree item: Tasks\Sweep1\SPara1\S-Parameters
! Header version: 2024
! Port assignment regex: !\s*Touchstone port\s*([0-9]+)\s*=\s*(CST MWS port|CST DES external port|CST DES block port)\s*(.+)\s* \(\"(.*)\"\)(\s*mode\s*([0-9]+))?.*
! Touchstone port assignment:
! Touchstone port 1 = CST DES external port 1 ("")
# GHz S MA R 50
9                    0.979046213     -90.5401914
9.001                0.978978042     -90.7106558
9.002                0.978909116     -90.8816003
9.003                 0.97883943     -91.0530261
9.004                 0.97876898     -91.2249344
9.005                0.978697764     -91.3973265
9.006                0.978625776     -91.5702036
9.007                0.978553013     -91.7435668
9.008                0.978479471     -91.9174175
9.009                0.978405147     -92.0917568
9.01                 0.978330036     -92.2665859
9.011                0.978254136     -92.4419061
9.012                0.978177441     -92.6177185
9.013                0.978099948     -92.7940244
9.014                0.978021653      -92.970825
9.015                0.977942553     -93.1481214
9.016                0.977862644     -93.3259149
9.017                0.977781922     -93.5042067
9.018                0.977700383     -93.6829979
9.019                0.977618024     -93.8622897
9.02                 0.977534841     -94.0420834
9.021                 0.97745083       -94.22238
9.022                0.977365987     -94.4031808
9.023                0.977280309     -94.5844869
9.024                0.977193792     -94.7662996
9.025                0.977106433     -94.9486199
9.026                0.977018228     -95.1314491
9.027                0.976929173     -95.3147882
9.028                0.976839265     -95.4986385
9.029                  0.9767485      -95.683001
9.03                 0.976656874      -95.867877
9.031                0.976564384     -96.0532675
9.032                0.976471027     -96.2391738
9.033                0.976376799     -96.4255968
9.034                0.976281697     -96.6125379
9.035                0.976185716      -96.799998
9.036                0.976088854     -96.9879782
9.037                0.975991108     -97.1764798
9.038                0.975892473     -97.3655037
9.039                0.975792947     -97.5550512
9.04                 0.975692526     -97.7451232
9.041                0.975591207     -97.9357209
9.042                0.975488986     -98.1268453
9.043                0.975385861     -98.3184976
9.044                0.975281828     -98.5106788
9.045                0.975176884     -98.7033899
9.046                0.975071026      -98.896632
9.047                 0.97496425     -99.0904062
9.048                0.974856554     -99.2847135
9.049                0.974747934     -99.4795549
9.05                 0.974638388     -99.6749315
9.051                0.974527912     -99.8708443
9.052                0.974416504     -100.067294
9.053                 0.97430416     -100.264282
9.054                0.974190878      -100.46181
9.055                0.974076655     -100.659878
9.056                0.973961487     -100.858486
9.057                0.973845373     -101.057637
9.058                 0.97372831     -101.257331
9.059                0.973610294      -101.45757
9.06                 0.973491323     -101.658353
9.061                0.973371395     -101.859682
9.062                0.973250506     -102.061559
9.063                0.973128655     -102.263983
9.064                0.973005839     -102.466956
9.065                0.972882055     -102.670478
9.066                0.972757301     -102.874552
9.067                0.972631575     -103.079176
9.068                0.972504874     -103.284354
9.069                0.972377197     -103.490084
9.07                  0.97224854     -103.696369
9.071                0.972118902     -103.903208
9.072                0.971988281     -104.110603
9.073                0.971856675     -104.318556
9.074                0.971724081     -104.527065
9.075                0.971590498     -104.736133
9.076                0.971455924      -104.94576
9.077                0.971320356     -105.155947
9.078                0.971183794     -105.366694
9.079                0.971046236     -105.578004
9.08                 0.970907679     -105.789875
9.081                0.970768123     -106.002309
9.082                0.970627565     -106.215307
9.083                0.970486005      -106.42887
9.084                0.970343441     -106.642997
9.085                0.970199871     -106.857691
9.086                0.970055294     -107.072951
9.087                 0.96990971     -107.288779
9.088                0.969763116     -107.505174
9.089                0.969615512     -107.722138
9.09                 0.969466897     -107.939671
9.091                 0.96931727     -108.157774
9.092                 0.96916663     -108.376447
9.093                0.969014976     -108.595692
9.094                0.968862308     -108.815508
9.095                0.968708625     -109.035897
9.096                0.968553926     -109.256858
9.097                 0.96839821     -109.478393
9.098                0.968241479     -109.700502
9.099                 0.96808373     -109.923185
9.1                  0.967924964     -110.146443
9.101                 0.96776518     -110.370276
9.102                0.967604379     -110.594686
9.103                0.967442561     -110.819671
9.104                0.967279725     -111.045234
9.105                0.967115871     -111.271374
9.106                0.966951001     -111.498092
9.107                0.966785114     -111.725387
9.108                0.966618211     -111.953262
9.109                0.966450291     -112.181715
9.11                 0.966281357     -112.410747
9.111                0.966111407     -112.640359
9.112                0.965940444     -112.870551
9.113                0.965768468     -113.101323
9.114                 0.96559548     -113.332675
9.115                0.965421481     -113.564609
9.116                0.965246472     -113.797123
9.117                0.965070454     -114.030219
9.118                0.964893429     -114.263896
9.119                0.964715399     -114.498155
9.12                 0.964536363     -114.732996
9.121                0.964356325     -114.968419
9.122                0.964175286     -115.204424
9.123                0.963993248     -115.441011
9.124                0.963810213     -115.678181
9.125                0.963626182     -115.915934
9.126                0.963441158     -116.154269
9.127                0.963255143     -116.393187
9.128                 0.96306814     -116.632688
9.129                0.962880151     -116.872771
9.13                 0.962691178     -117.113438
9.131                0.962501224     -117.354687
9.132                0.962310292     -117.596519
9.133                0.962118385     -117.838933
9.134                0.961925506     -118.081931
9.135                0.961731658      -118.32551
9.136                0.961536844     -118.569673
9.137                0.961341067     -118.814417
9.138                0.961144332     -119.059744
9.139                 0.96094664     -119.305652
9.14                 0.960747997     -119.552142
9.141                0.960548406     -119.799214
9.142                0.960347871     -120.046867
9.143                0.960146396     -120.295101
9.144                0.959943985     -120.543916
9.145                0.959740642     -120.793311
9.146                0.959536372     -121.043286
9.147                 0.95933118     -121.293841
9.148                0.959125069     -121.544976
9.149                0.958918045     -121.796689
9.15                 0.958710113     -122.048981
9.151                0.958501277     -122.301851
9.152                0.958291542     -122.555299
9.153                0.958080915     -122.809323
9.154                  0.9578694     -123.063925
9.155                0.957657003     -123.319102
9.156                 0.95744373     -123.574855
9.157                0.957229585     -123.831183
9.158                0.957014576     -124.088086
9.159                0.956798708     -124.345562
9.16                 0.956581988     -124.603611
9.161                0.956364421     -124.862232
9.162                0.956146013     -125.121425
9.163                0.955926773     -125.381189
9.164                0.955706705     -125.641523
9.165                0.955485818     -125.902427
9.166                0.955264118     -126.163899
9.167                0.955041611     -126.425939
9.168                0.954818306     -126.688546
9.169                0.954594209     -126.951719
9.17                 0.954369328     -127.215457
9.171                0.954143671     -127.479759
9.172                0.953917245     -127.744624
9.173                0.953690058     -128.010051
9.174                0.953462118      -128.27604
9.175                0.953233433     -128.542589
9.176                0.953004012     -128.809696
9.177                0.952773863     -129.077362
9.178                0.952542994     -129.345585
9.179                0.952311414     -129.614363
9.18                 0.952079132     -129.883696
9.181                0.951846157     -130.153582
9.182                0.951612497      -130.42402
9.183                0.951378163     -130.695009
9.184                0.951143162     -130.966548
9.185                0.950907506     -131.238635
9.186                0.950671202     -131.511268
9.187                0.950434262     -131.784447
9.188                0.950196695     -132.058171
9.189                 0.94995851     -132.332437
9.19                 0.949719719     -132.607244
9.191                0.949480331      -132.88259
9.192                0.949240356     -133.158475
9.193                0.948999806     -133.434897
9.194                 0.94875869     -133.711854
9.195                 0.94851702     -133.989344
9.196                0.948274806     -134.267366
9.197                0.948032059     -134.545918
9.198                0.947788791     -134.824998
9.199                0.947545013     -135.104606
9.2                  0.947300737     -135.384738
9.201                0.947055973     -135.665394
9.202                0.946810733     -135.946571
9.203                 0.94656503     -136.228267
9.204                0.946318875     -136.510482
9.205                 0.94607228     -136.793212
9.206                0.945825258     -137.076456
9.207                 0.94557782     -137.360212
9.208                0.945329979     -137.644478
9.209                0.945081747     -137.929252
9.21                 0.944833138     -138.214531
9.211                0.944584164     -138.500315
9.212                0.944334837       -138.7866
9.213                0.944085172     -139.073385
9.214                 0.94383518     -139.360667
9.215                0.943584875     -139.648444
9.216                0.943334271     -139.936715
9.217                 0.94308338     -140.225476
9.218                0.942832218     -140.514725
9.219                0.942580796      -140.80446
9.22                 0.942329129      -141.09468
9.221                0.942077231      -141.38538
9.222                0.941825115      -141.67656
9.223                0.941572796     -141.968216
9.224                0.941320289     -142.260346
9.225                0.941067607     -142.552947
9.226                0.940814764     -142.846017
9.227                0.940561775     -143.139554
9.228                0.940308656     -143.433555
9.229                 0.94005542     -143.728017
9.23                 0.939802081     -144.022937
9.231                0.939548657     -144.318314
9.232                 0.93929516     -144.614143
9.233                0.939041606     -144.910423
9.234                 0.93878801     -145.207151
9.235                0.938534388     -145.504323
9.236                0.938280755     -145.801937
9.237                0.938027125     -146.099991
9.238                0.937773516      -146.39848
9.239                0.937519941     -146.697403
9.24                 0.937266417     -146.996756
9.241                0.937012959     -147.296537
9.242                0.936759584     -147.596742
9.243                0.936506307     -147.897368
9.244                0.936253143     -148.198413
9.245                0.936000109     -148.499872
9.246                0.935747221     -148.801744
9.247                0.935494495     -149.104024
9.248                0.935241948      -149.40671
9.249                0.934989594     -149.709798
9.25                 0.934737451     -150.013286
9.251                0.934485535     -150.317169
9.252                0.934233862     -150.621445
9.253                0.933982448     -150.926111
9.254                0.933731311     -151.231162
9.255                0.933480466     -151.536595
9.256                 0.93322993     -151.842408
9.257                 0.93297972     -152.148596
9.258                0.932729852     -152.455157
9.259                0.932480343     -152.762086
9.26                  0.93223121      -153.06938
9.261                0.931982469     -153.377035
9.262                0.931734137     -153.685049
9.263                0.931486231     -153.993417
9.264                0.931238767     -154.302136
9.265                0.930991762     -154.611201
9.266                0.930745234      -154.92061
9.267                0.930499198     -155.230359
9.268                0.930253673     -155.540444
9.269                0.930008674     -155.850861
9.27                 0.929764218     -156.161606
9.271                0.929520323     -156.472675
9.272                0.929277004     -156.784065
9.273                 0.92903428     -157.095772
9.274                0.928792167     -157.407792
9.275                0.928550681     -157.720121
9.276                 0.92830984     -158.032755
9.277                 0.92806966      -158.34569
9.278                0.927830159     -158.658922
9.279                0.927591352     -158.972447
9.28                 0.927353257     -159.286261
9.281                 0.92711589      -159.60036
9.282                0.926879268     -159.914739
9.283                0.926643408     -160.229396
9.284                0.926408326     -160.544325
9.285                 0.92617404     -160.859523
9.286                0.925940565     -161.174985
9.287                0.925707918     -161.490707
9.288                0.925476115     -161.806685
9.289                0.925245174     -162.122914
9.29                  0.92501511     -162.439391
9.291                0.924785939     -162.756111
9.292                0.924557679      -163.07307
9.293                0.924330345     -163.390263
9.294                0.924103954     -163.707687
9.295                0.923878521     -164.025336
9.296                0.923654062     -164.343207
9.297                0.923430595     -164.661294
9.298                0.923208133     -164.979595
9.299                0.922986694     -165.298103
9.3                  0.922766293     -165.616816
9.301                0.922546946     -165.935727
9.302                0.922328668     -166.254834
9.303                0.922111474      -166.57413
9.304                0.921895381     -166.893613
9.305                0.921680404     -167.213277
9.306                0.921466557     -167.533117
9.307                0.921253857      -167.85313
9.308                0.921042317      -168.17331
9.309                0.920831953     -168.493653
9.31                 0.920622781     -168.814155
9.311                0.920414813     -169.134811
9.312                0.920208066     -169.455616
9.313                0.920002554     -169.776565
9.314                 0.91979829     -170.097654
9.315                0.919595291     -170.418878
9.316                0.919393569     -170.740233
9.317                0.919193138     -171.061714
9.318                0.918994013     -171.383316
9.319                0.918796208     -171.705035
9.32                 0.918599735     -172.026865
9.321                 0.91840461     -172.348802
9.322                0.918210844     -172.670842
9.323                0.918018452     -172.992979
9.324                0.917827447     -173.315209
9.325                0.917637841     -173.637527
9.326                0.917449648     -173.959929
9.327                 0.91726288     -174.282408
9.328                 0.91707755     -174.604962
9.329                 0.91689367     -174.927585
9.33                 0.916711253     -175.250271
9.331                 0.91653031     -175.573017
9.332                0.916350855     -175.895818
9.333                0.916172898     -176.218668
9.334                0.915996451     -176.541564
9.335                0.915821526     -176.864499
9.336                0.915648135      -177.18747
9.337                0.915476288     -177.510471
9.338                0.915305996     -177.833498
9.339                0.915137271     -178.156545
9.34                 0.914970123     -178.479609
9.341                0.914804563     -178.802684
9.342                0.914640601     -179.125765
9.343                0.914478247     -179.448848
9.344                0.914317512     -179.771928
9.345                0.914158404      179.905001
9.346                0.914000935      179.581942
9.347                0.913845113      179.258902
9.348                0.913690948      178.935884
9.349                0.913538449      178.612893
9.35                 0.913387625      178.289935
9.351                0.913238485      177.967013
9.352                0.913091037      177.644134
9.353                 0.91294529      177.321301
9.354                0.912801252      176.998519
9.355                0.912658931      176.675794
9.356                0.912518336       176.35313
9.357                0.912379472      176.030532
9.358                0.912242349      175.708004
9.359                0.912106974      175.385552
9.36                 0.911973353       175.06318
9.361                0.911841494      174.740893
9.362                0.911711404      174.418695
9.363                0.911583088      174.096592
9.364                0.911456553      173.774588
9.365                0.911331806      173.452688
9.366                0.911208852      173.130897
9.367                0.911087697      172.809219
9.368                0.910968347      172.487659
9.369                0.910850807      172.166221
9.37                 0.910735083      171.844911
9.371                0.910621179      171.523733
9.372                  0.9105091      171.202692
9.373                 0.91039885      170.881792
9.374                0.910290435      170.561037
9.375                0.910183858      170.240434
9.376                0.910079123      169.919985
9.377                0.909976235      169.599696
9.378                0.909875196      169.279572
9.379                0.909776011      168.959616
9.38                 0.909678682      168.639834
9.381                0.909583212       168.32023
9.382                0.909489605      168.000808
9.383                0.909397863      167.681573
9.384                0.909307988      167.362529
9.385                0.909219983      167.043681
9.386                0.909133849      166.725034
9.387                0.909049589      166.406591
9.388                0.908967204      166.088358
9.389                0.908886696      165.770338
9.39                 0.908808066      165.452536
9.391                0.908731315      165.134956
9.392                0.908656444      164.817602
9.393                0.908583453       164.50048
9.394                0.908512344      164.183593
9.395                0.908443116      163.866945
9.396                 0.90837577      163.550541
