! TOUCHSTONE file generated by CST DESIGN STUDIO
! Date and time: Tue Feb  4 16:27:48 2025
! Project name: C:\Work\MatlabApps\UnitCellOptimizationMatlab\CST\unitcell.cst
! Tree item: Tasks\Sweep1\SPara1\S-Parameters
! Header version: 2024
! Port assignment regex: !\s*Touchstone port\s*([0-9]+)\s*=\s*(CST MWS port|CST DES external port|CST DES block port)\s*(.+)\s* \(\"(.*)\"\)(\s*mode\s*([0-9]+))?.*
! Touchstone port assignment:
! Touchstone port 1 = CST DES external port 1 ("")
# GHz S MA R 50
9                    0.979592686     -73.9810257
9.001                0.979517682     -74.1032037
9.002                0.979442085     -74.2256969
9.003                0.979365893     -74.3485061
9.004                0.979289104     -74.4716325
9.005                0.979211717     -74.5950769
9.006                 0.97913373     -74.7188403
9.007                0.979055142     -74.8429237
9.008                 0.97897595     -74.9673281
9.009                0.978896153     -75.0920545
9.01                 0.978815749     -75.2171039
9.011                0.978734737     -75.3424772
9.012                0.978653115     -75.4681754
9.013                0.978570881     -75.5941996
9.014                0.978488033     -75.7205507
9.015                 0.97840457     -75.8472297
9.016                0.978320491     -75.9742377
9.017                0.978235792     -76.1015757
9.018                0.978150474     -76.2292445
9.019                0.978064533     -76.3572454
9.02                 0.977977969     -76.4855792
9.021                 0.97789078     -76.6142469
9.022                0.977802963     -76.7432497
9.023                0.977714518     -76.8725885
9.024                0.977625443     -77.0022643
9.025                0.977535736     -77.1322782
9.026                0.977445396     -77.2626312
9.027                0.977354421     -77.3933243
9.028                0.977262808     -77.5243586
9.029                0.977170558      -77.655735
9.03                 0.977077667     -77.7874546
9.031                0.976984135     -77.9195185
9.032                0.976889959     -78.0519277
9.033                0.976795139     -78.1846832
9.034                0.976699672     -78.3177861
9.035                0.976603558     -78.4512374
9.036                0.976506793     -78.5850381
9.037                0.976409378     -78.7191894
9.038                 0.97631131     -78.8536923
9.039                0.976212587     -78.9885478
9.04                 0.976113209     -79.1237569
9.041                0.976013174     -79.2593208
9.042                0.975912479     -79.3952405
9.043                0.975811124     -79.5315171
9.044                0.975709107     -79.6681516
9.045                0.975606427     -79.8051451
9.046                0.975503081     -79.9424987
9.047                0.975399069     -80.0802134
9.048                0.975294389     -80.2182903
9.049                 0.97518904     -80.3567305
9.05                 0.975083019     -80.4955351
9.051                0.974976326     -80.6347051
9.052                 0.97486896     -80.7742417
9.053                0.974760918     -80.9141458
9.054                0.974652199     -81.0544186
9.055                0.974542802     -81.1950612
9.056                0.974432725     -81.3360747
9.057                0.974321967     -81.4774602
9.058                0.974210527     -81.6192187
9.059                0.974098404     -81.7613513
9.06                 0.973985594     -81.9038592
9.061                0.973872099     -82.0467434
9.062                0.973757915      -82.190005
9.063                0.973643043     -82.3336452
9.064                0.973527479      -82.477665
9.065                0.973411224     -82.6220656
9.066                0.973294276      -82.766848
9.067                0.973176633     -82.9120134
9.068                0.973058294     -83.0575628
9.069                0.972939258     -83.2034974
9.07                 0.972819524     -83.3498183
9.071                 0.97269909     -83.4965266
9.072                0.972577956     -83.6436235
9.073                0.972456119     -83.7911099
9.074                 0.97233358     -83.9389871
9.075                0.972210336     -84.0872562
9.076                0.972086386     -84.2359183
9.077                 0.97196173     -84.3849745
9.078                0.971836365     -84.5344259
9.079                0.971710292     -84.6842736
9.08                 0.971583509     -84.8345189
9.081                0.971456014     -84.9851628
9.082                0.971327807     -85.1362064
9.083                0.971198887     -85.2876509
9.084                0.971069252     -85.4394973
9.085                0.970938901     -85.5917469
9.086                0.970807835     -85.7444008
9.087                 0.97067605     -85.8974601
9.088                0.970543548     -86.0509259
9.089                0.970410325     -86.2047993
9.09                 0.970276383     -86.3590816
9.091                0.970141719     -86.5137738
9.092                0.970006333      -86.668877
9.093                0.969870223     -86.8243925
9.094                 0.96973339     -86.9803213
9.095                0.969595832     -87.1366646
9.096                0.969457548     -87.2934236
9.097                0.969318537     -87.4505993
9.098                0.969178799     -87.6081929
9.099                0.969038334     -87.7662056
9.1                  0.968897139     -87.9246385
9.101                0.968755215     -88.0834927
9.102                 0.96861256     -88.2427694
9.103                0.968469174     -88.4024697
9.104                0.968325057     -88.5625948
9.105                0.968180208     -88.7231458
9.106                0.968034625     -88.8841238
9.107                0.967888309     -89.0455301
9.108                0.967741259     -89.2073657
9.109                0.967593474     -89.3696317
9.11                 0.967444954     -89.5323295
9.111                0.967295699       -89.69546
9.112                0.967145707     -89.8590244
9.113                0.966994979     -90.0230238
9.114                0.966843513     -90.1874595
9.115                 0.96669131     -90.3523326
9.116                0.966538369     -90.5176441
9.117                 0.96638469     -90.6833953
9.118                0.966230273     -90.8495872
9.119                0.966075116     -91.0162211
9.12                 0.965919221      -91.183298
9.121                0.965762586     -91.3508192
9.122                0.965605212     -91.5187856
9.123                0.965447098     -91.6871986
9.124                0.965288244     -91.8560592
9.125                0.965128649     -92.0253685
9.126                0.964968315     -92.1951277
9.127                0.964807241      -92.365338
9.128                0.964645426     -92.5360004
9.129                0.964482871     -92.7071162
9.13                 0.964319576     -92.8786863
9.131                 0.96415554      -93.050712
9.132                0.963990765     -93.2231944
9.133                0.963825249     -93.3961347
9.134                0.963658994     -93.5695338
9.135                0.963491999     -93.7433931
9.136                0.963324264     -93.9177135
9.137                 0.96315579     -94.0924963
9.138                0.962986578     -94.2677425
9.139                0.962816626     -94.4434533
9.14                 0.962645937     -94.6196297
9.141                0.962474509     -94.7962729
9.142                0.962302344      -94.973384
9.143                0.962129443     -95.1509642
9.144                0.961955804     -95.3290144
9.145                 0.96178143     -95.5075359
9.146                 0.96160632     -95.6865298
9.147                0.961430475      -95.865997
9.148                0.961253896     -96.0459388
9.149                0.961076584     -96.2263562
9.15                 0.960898539     -96.4072504
9.151                0.960719762     -96.5886223
9.152                0.960540253     -96.7704732
9.153                0.960360015      -96.952804
9.154                0.960179046      -97.135616
9.155                 0.95999735       -97.31891
9.156                0.959814925     -97.5026873
9.157                0.959631774     -97.6869489
9.158                0.959447898     -97.8716959
9.159                0.959263297     -98.0569293
9.16                 0.959077972     -98.2426502
9.161                0.958891926     -98.4288597
9.162                0.958705158     -98.6155588
9.163                0.958517671     -98.8027485
9.164                0.958329465       -98.99043
9.165                0.958140543     -99.1786042
9.166                0.957950905     -99.3672722
9.167                0.957760552     -99.5564351
9.168                0.957569487     -99.7460938
9.169                0.957377711     -99.9362494
9.17                 0.957185225     -100.126903
9.171                0.956992031     -100.318055
9.172                0.956798132     -100.509708
9.173                0.956603527     -100.701861
9.174                 0.95640822     -100.894516
9.175                0.956212212     -101.087675
9.176                0.956015505     -101.281337
9.177                  0.9558181     -101.475504
9.178                0.955620001     -101.670177
9.179                0.955421209     -101.865357
9.18                 0.955221725     -102.061045
9.181                0.955021553     -102.257241
9.182                0.954820694     -102.453948
9.183                0.954619151     -102.651165
9.184                0.954416926     -102.848894
9.185                0.954214021     -103.047135
9.186                0.954010438      -103.24589
9.187                0.953806181      -103.44516
9.188                0.953601251     -103.644945
9.189                0.953395652     -103.845246
9.19                 0.953189385     -104.046065
9.191                0.952982454     -104.247402
9.192                0.952774862     -104.449257
9.193                 0.95256661     -104.651633
9.194                0.952357702      -104.85453
9.195                0.952148141     -105.057948
9.196                 0.95193793     -105.261889
9.197                0.951727072     -105.466353
9.198                 0.95151557     -105.671341
9.199                0.951303427     -105.876855
9.2                  0.951090646     -106.082895
9.201                0.950877231     -106.289461
9.202                0.950663186     -106.496555
9.203                0.950448512     -106.704177
9.204                0.950233214     -106.912329
9.205                0.950017296      -107.12101
9.206                0.949800761     -107.330222
9.207                0.949583612     -107.539966
9.208                0.949365854     -107.750242
9.209                 0.94914749     -107.961052
9.21                 0.948928524     -108.172395
9.211                 0.94870896     -108.384272
9.212                0.948488802     -108.596685
9.213                0.948268055     -108.809634
9.214                0.948046721      -109.02312
9.215                0.947824805     -109.237143
9.216                0.947602312     -109.451704
9.217                0.947379246     -109.666804
9.218                0.947155611     -109.882443
9.219                0.946931412     -110.098623
9.22                 0.946706654     -110.315343
9.221                 0.94648134     -110.532605
9.222                0.946255475     -110.750409
9.223                0.946029065     -110.968755
9.224                0.945802115     -111.187644
9.225                0.945574628     -111.407078
9.226                 0.94534661     -111.627056
9.227                0.945118066     -111.847578
9.228                0.944889001     -112.068646
9.229                 0.94465942     -112.290261
9.23                 0.944429329     -112.512421
9.231                0.944198733     -112.735129
9.232                0.943967636     -112.958385
9.233                0.943736046     -113.182188
9.234                0.943503967     -113.406541
9.235                0.943271404     -113.631442
9.236                0.943038364     -113.856892
9.237                0.942804852     -114.082893
9.238                0.942570875     -114.309444
9.239                0.942336437     -114.536545
9.24                 0.942101546     -114.764198
9.241                0.941866206     -114.992402
9.242                0.941630425     -115.221159
9.243                0.941394208     -115.450467
9.244                0.941157562     -115.680328
9.245                0.940920492     -115.910742
9.246                0.940683007     -116.141709
9.247                0.940445112     -116.373229
9.248                0.940206813     -116.605304
9.249                0.939968117     -116.837932
9.25                 0.939729032     -117.071115
9.251                0.939489564     -117.304852
9.252                 0.93924972     -117.539144
9.253                0.939009506      -117.77399
9.254                0.938768931     -118.009392
9.255                   0.938528     -118.245349
9.256                0.938286722     -118.481862
9.257                0.938045104      -118.71893
9.258                0.937803153     -118.956553
9.259                0.937560876     -119.194733
9.26                 0.937318281     -119.433468
9.261                0.937075376     -119.672759
9.262                0.936832169     -119.912606
9.263                0.936588666     -120.153009
9.264                0.936344877     -120.393968
9.265                0.936100809     -120.635482
9.266                 0.93585647     -120.877553
9.267                0.935611868     -121.120179
9.268                0.935367012     -121.363361
9.269                0.935121909     -121.607099
9.27                 0.934876568     -121.851393
9.271                0.934630997     -122.096242
9.272                0.934385206     -122.341646
9.273                0.934139202     -122.587605
9.274                0.933892994     -122.834119
9.275                0.933646591     -123.081188
9.276                0.933400002     -123.328812
9.277                0.933153235     -123.576989
9.278                  0.9329063     -123.825721
9.279                0.932659206     -124.075006
9.28                 0.932411961     -124.324845
9.281                0.932164576     -124.575237
9.282                0.931917059     -124.826181
9.283                 0.93166942     -125.077678
9.284                0.931421668     -125.329727
9.285                0.931173812     -125.582327
9.286                0.930925863     -125.835478
9.287                 0.93067783      -126.08918
9.288                0.930429723     -126.343431
9.289                0.930181551     -126.598233
9.29                 0.929933325     -126.853583
9.291                0.929685054     -127.109482
9.292                0.929436749     -127.365929
9.293                 0.92918842     -127.622923
9.294                0.928940076     -127.880464
9.295                0.928691729     -128.138551
9.296                0.928443388     -128.397183
9.297                0.928195064      -128.65636
9.298                0.927946768      -128.91608
9.299                 0.92769851     -129.176344
9.3                    0.9274503     -129.437151
9.301                 0.92720215     -129.698498
9.302                0.926954071     -129.960387
9.303                0.926706072     -130.222816
9.304                0.926458165     -130.485783
9.305                0.926210362     -130.749289
9.306                0.925962672     -131.013332
9.307                0.925715108     -131.277912
9.308                 0.92546768     -131.543027
9.309                  0.9252204     -131.808676
9.31                 0.924973279     -132.074858
9.311                0.924726328     -132.341573
9.312                0.924479559     -132.608818
9.313                0.924232984     -132.876594
9.314                0.923986614     -133.144899
9.315                 0.92374046     -133.413731
9.316                0.923494535      -133.68309
9.317                0.923248849     -133.952975
9.318                0.923003416     -134.223383
9.319                0.922758247     -134.494315
9.32                 0.922513354     -134.765768
9.321                0.922268748     -135.037741
9.322                0.922024442     -135.310233
9.323                0.921780448     -135.583243
9.324                0.921536779     -135.856768
9.325                0.921293445     -136.130809
9.326                0.921050461     -136.405362
9.327                0.920807837     -136.680427
9.328                0.920565587     -136.956003
9.329                0.920323722     -137.232087
9.33                 0.920082256     -137.508678
9.331                0.919841201     -137.785774
9.332                0.919600568     -138.063375
9.333                0.919360372     -138.341477
9.334                0.919120624      -138.62008
9.335                0.918881338     -138.899182
9.336                0.918642525     -139.178781
9.337                0.918404199     -139.458875
9.338                0.918166373     -139.739462
9.339                0.917929059     -140.020541
9.34                  0.91769227     -140.302109
9.341                 0.91745602     -140.584166
9.342                0.917220321     -140.866708
9.343                0.916985185     -141.149734
9.344                0.916750627     -141.433242
9.345                0.916516659      -141.71723
9.346                0.916283294     -142.001695
9.347                0.916050546     -142.286637
9.348                0.915818427     -142.572052
9.349                 0.91558695     -142.857938
9.35                 0.915356129     -143.144294
9.351                0.915125977     -143.431117
9.352                0.914896507     -143.718405
9.353                0.914667732     -144.006156
9.354                0.914439666     -144.294367
9.355                0.914212322     -144.583036
9.356                0.913985712     -144.872161
9.357                0.913759851     -145.161739
9.358                0.913534751     -145.451768
9.359                0.913310426     -145.742245
9.36                 0.913086889     -146.033169
9.361                0.912864154     -146.324536
9.362                0.912642233     -146.616343
9.363                 0.91242114      -146.90859
9.364                0.912200889     -147.201272
9.365                0.911981492     -147.494387
9.366                0.911762962     -147.787933
9.367                0.911545314     -148.081906
9.368                0.911328561     -148.376305
9.369                0.911112715     -148.671126
9.37                 0.910897789     -148.966366
9.371                0.910683798     -149.262024
9.372                0.910470755     -149.558095
9.373                0.910258672     -149.854578
9.374                0.910047562     -150.151469
9.375                 0.90983744     -150.448765
9.376                0.909628317     -150.746463
9.377                0.909420208     -151.044561
9.378                0.909213125     -151.343055
9.379                0.909007082     -151.641942
9.38                  0.90880209     -151.941219
9.381                0.908598164     -152.240884
9.382                0.908395317     -152.540933
9.383                 0.90819356     -152.841362
9.384                0.907992908     -153.142169
9.385                0.907793373      -153.44335
9.386                0.907594968     -153.744903
9.387                0.907397705     -154.046824
9.388                0.907201598     -154.349109
9.389                0.907006659     -154.651755
9.39                   0.9068129     -154.954759
9.391                0.906620335     -155.258118
9.392                0.906428975     -155.561828
9.393                0.906238833     -155.865886
9.394                0.906049923     -156.170287
9.395                0.905862255      -156.47503
9.396                0.905675842     -156.780109
