! TOUCHSTONE file generated by CST DESIGN STUDIO
! Date and time: Wed Feb  5 13:28:56 2025
! Project name: C:\Work\MatlabApps\UnitCellOptimizationMatlab\CST\unitcell.cst
! Tree item: Tasks\Sweep1\SPara1\S-Parameters
! Header version: 2024
! Port assignment regex: !\s*Touchstone port\s*([0-9]+)\s*=\s*(CST MWS port|CST DES external port|CST DES block port)\s*(.+)\s* \(\"(.*)\"\)(\s*mode\s*([0-9]+))?.*
! Touchstone port assignment:
! Touchstone port 1 = CST DES external port 1 ("")
# GHz S MA R 50
9                    0.989813333     -74.8541505
9.001                 0.98978959     -74.9647906
9.002                0.989765776     -75.0756971
9.003                0.989741891     -75.1868706
9.004                0.989717933     -75.2983121
9.005                0.989693904     -75.4100223
9.006                0.989669803     -75.5220019
9.007                0.989645629     -75.6342518
9.008                0.989621383     -75.7467727
9.009                0.989597065     -75.8595655
9.01                 0.989572673      -75.972631
9.011                0.989548209     -76.0859698
9.012                0.989523672     -76.1995829
9.013                0.989499062      -76.313471
9.014                0.989474378     -76.4276349
9.015                0.989449621     -76.5420755
9.016                 0.98942479     -76.6567935
9.017                0.989399885     -76.7717897
9.018                0.989374906      -76.887065
9.019                0.989349854     -77.0026202
9.02                 0.989324726      -77.118456
9.021                0.989299525     -77.2345734
9.022                0.989274249      -77.350973
9.023                0.989248898     -77.4676557
9.024                0.989223472     -77.5846224
9.025                0.989197971     -77.7018738
9.026                0.989172395     -77.8194109
9.027                0.989146744     -77.9372343
9.028                0.989121017     -78.0553449
9.029                0.989095215     -78.1737437
9.03                 0.989069337     -78.2924313
9.031                0.989043383     -78.4114086
9.032                0.989017353     -78.5306765
9.033                0.988991246     -78.6502357
9.034                0.988965064     -78.7700872
9.035                0.988938805     -78.8902318
9.036                0.988912469     -79.0106702
9.037                0.988886056     -79.1314034
9.038                0.988859567     -79.2524322
9.039                   0.988833     -79.3737574
9.04                 0.988806357     -79.4953799
9.041                0.988779636     -79.6173005
9.042                0.988752837     -79.7395201
9.043                0.988725961     -79.8620396
9.044                0.988699007     -79.9848596
9.045                0.988671976     -80.1079813
9.046                0.988644866     -80.2314053
9.047                0.988617679     -80.3551325
9.048                0.988590413     -80.4791639
9.049                0.988563069     -80.6035002
9.05                 0.988535646     -80.7281423
9.051                0.988508145     -80.8530912
9.052                0.988480565     -80.9783476
9.053                0.988452906     -81.1039124
9.054                0.988425168     -81.2297864
9.055                0.988397351     -81.3559707
9.056                0.988369455      -81.482466
9.057                0.988341479     -81.6092731
9.058                0.988313424     -81.7363931
9.059                 0.98828529     -81.8638267
9.06                 0.988257076     -81.9915748
9.061                0.988228782     -82.1196383
9.062                0.988200408     -82.2480181
9.063                0.988171954      -82.376715
9.064                 0.98814342       -82.50573
9.065                0.988114806     -82.6350639
9.066                0.988086112     -82.7647176
9.067                0.988057337      -82.894692
9.068                0.988028482      -83.024988
9.069                0.987999546     -83.1556065
9.07                 0.987970529     -83.2865483
9.071                0.987941432     -83.4178143
9.072                0.987912254     -83.5494055
9.073                0.987882995     -83.6813227
9.074                0.987853654     -83.8135668
9.075                0.987824233     -83.9461388
9.076                 0.98779473     -84.0790395
9.077                0.987765146     -84.2122697
9.078                0.987735481     -84.3458305
9.079                0.987705734     -84.4797227
9.08                 0.987675906     -84.6139472
9.081                0.987645995     -84.7485049
9.082                0.987616004     -84.8833967
9.083                 0.98758593     -85.0186235
9.084                0.987555775     -85.1541862
9.085                0.987525538     -85.2900858
9.086                0.987495218     -85.4263231
9.087                0.987464817      -85.562899
9.088                0.987434334     -85.6998144
9.089                0.987403768     -85.8370703
9.09                  0.98737312     -85.9746675
9.091                 0.98734239      -86.112607
9.092                0.987311578     -86.2508897
9.093                0.987280683     -86.3895165
9.094                0.987249706     -86.5284882
9.095                0.987218646     -86.6678059
9.096                0.987187504     -86.8074704
9.097                0.987156279     -86.9474826
9.098                0.987124972     -87.0878434
9.099                0.987093582     -87.2285539
9.1                   0.98706211     -87.3696148
9.101                0.987030555     -87.5110271
9.102                0.986998917     -87.6527917
9.103                0.986967196     -87.7949095
9.104                0.986935393     -87.9373815
9.105                0.986903507     -88.0802085
9.106                0.986871538     -88.2233915
9.107                0.986839486     -88.3669314
9.108                0.986807352     -88.5108291
9.109                0.986775134     -88.6550855
9.11                 0.986742834     -88.7997016
9.111                0.986710452     -88.9446783
9.112                0.986677986     -89.0900164
9.113                0.986645437     -89.2357169
9.114                0.986612806     -89.3817808
9.115                0.986580092     -89.5282089
9.116                0.986547295     -89.6750022
9.117                0.986514416     -89.8221615
9.118                0.986481454     -89.9696878
9.119                0.986448409     -90.1175821
9.12                 0.986415281     -90.2658452
9.121                0.986382071      -90.414478
9.122                0.986348778     -90.5634816
9.123                0.986315403     -90.7128567
9.124                0.986281945     -90.8626043
9.125                0.986248404     -91.0127253
9.126                0.986214781     -91.1632207
9.127                0.986181076     -91.3140914
9.128                0.986147289     -91.4653382
9.129                0.986113419     -91.6169621
9.13                 0.986079467      -91.768964
9.131                0.986045433     -91.9213448
9.132                0.986011317     -92.0741055
9.133                0.985977119     -92.2272469
9.134                0.985942839       -92.38077
9.135                0.985908478     -92.5346756
9.136                0.985874034     -92.6889647
9.137                0.985839509     -92.8436383
9.138                0.985804903     -92.9986971
9.139                0.985770215     -93.1541421
9.14                 0.985735445     -93.3099742
9.141                0.985700595     -93.4661944
9.142                0.985665663     -93.6228035
9.143                0.985630651     -93.7798024
9.144                0.985595557     -93.9371921
9.145                0.985560383     -94.0949734
9.146                0.985525128     -94.2531473
9.147                0.985489793     -94.4117145
9.148                0.985454378     -94.5706762
9.149                0.985418882      -94.730033
9.15                 0.985383306      -94.889786
9.151                0.985347651      -95.049936
9.152                0.985311915     -95.2104839
9.153                0.985276101     -95.3714306
9.154                0.985240207      -95.532777
9.155                0.985204233      -95.694524
9.156                0.985168181     -95.8566724
9.157                 0.98513205     -96.0192232
9.158                 0.98509584     -96.1821772
9.159                0.985059551     -96.3455354
9.16                 0.985023185     -96.5092985
9.161                 0.98498674     -96.6734674
9.162                0.984950218     -96.8380431
9.163                0.984913618     -97.0030265
9.164                 0.98487694     -97.1684182
9.165                0.984840186     -97.3342194
9.166                0.984803354     -97.5004307
9.167                0.984766446     -97.6670531
9.168                0.984729462     -97.8340874
9.169                0.984692401     -98.0015345
9.17                 0.984655264     -98.1693952
9.171                0.984618051     -98.3376704
9.172                0.984580764      -98.506361
9.173                  0.9845434     -98.6754677
9.174                0.984505963     -98.8449914
9.175                 0.98446845      -99.014933
9.176                0.984430863     -99.1852934
9.177                0.984393203     -99.3560732
9.178                0.984355468     -99.5272734
9.179                 0.98431766     -99.6988948
9.18                 0.984279779     -99.8709383
9.181                0.984241826     -100.043405
9.182                  0.9842038     -100.216294
9.183                0.984165701     -100.389609
9.184                0.984127532     -100.563348
9.185                 0.98408929     -100.737514
9.186                0.984050978     -100.912107
9.187                0.984012595     -101.087127
9.188                0.983974142     -101.262576
9.189                0.983935619     -101.438454
9.19                 0.983897026     -101.614762
9.191                0.983858364     -101.791501
9.192                0.983819633     -101.968672
9.193                0.983780834     -102.146275
9.194                0.983741967     -102.324311
9.195                0.983703032     -102.502781
9.196                0.983664031     -102.681686
9.197                0.983624962     -102.861026
9.198                0.983585828     -103.040803
9.199                0.983546627     -103.221016
9.2                  0.983507362     -103.401667
9.201                0.983468031     -103.582757
9.202                0.983428636     -103.764286
9.203                0.983389177     -103.946254
9.204                0.983349654     -104.128664
9.205                0.983310069     -104.311514
9.206                0.983270421     -104.494807
9.207                0.983230711     -104.678542
9.208                 0.98319094     -104.862721
9.209                0.983151108     -105.047344
9.21                 0.983111215     -105.232412
9.211                0.983071262     -105.417925
9.212                 0.98303125     -105.603885
9.213                 0.98299118     -105.790292
9.214                0.982951051     -105.977146
9.215                0.982910864     -106.164448
9.216                0.982870621     -106.352199
9.217                0.982830321       -106.5404
9.218                0.982789965      -106.72905
9.219                0.982749554     -106.918152
9.22                 0.982709088     -107.107705
9.221                0.982668568      -107.29771
9.222                0.982627995     -107.488168
9.223                0.982587369     -107.679079
9.224                0.982546691     -107.870444
9.225                0.982505961     -108.062263
9.226                 0.98246518     -108.254537
9.227                 0.98242435     -108.447267
9.228                 0.98238347     -108.640454
9.229                0.982342541     -108.834097
9.23                 0.982301564     -109.028197
9.231                 0.98226054     -109.222755
9.232                0.982219469     -109.417772
9.233                0.982178352     -109.613247
9.234                 0.98213719     -109.809182
9.235                0.982095983     -110.005577
9.236                0.982054733     -110.202433
9.237                 0.98201344     -110.399749
9.238                0.981972105     -110.597527
9.239                0.981930728     -110.795767
9.24                 0.981889311      -110.99447
9.241                0.981847854     -111.193635
9.242                0.981806358     -111.393264
9.243                0.981764824     -111.593357
9.244                0.981723252     -111.793914
9.245                0.981681644     -111.994936
9.246                0.981640001     -112.196423
9.247                0.981598323     -112.398375
9.248                 0.98155661     -112.600793
9.249                0.981514865     -112.803678
9.25                 0.981473088      -113.00703
9.251                0.981431279     -113.210848
9.252                 0.98138944     -113.415134
9.253                0.981347571     -113.619888
9.254                0.981305674      -113.82511
9.255                 0.98126375     -114.030801
9.256                0.981221799      -114.23696
9.257                0.981179822     -114.443589
9.258                 0.98113782     -114.650687
9.259                0.981095795     -114.858255
9.26                 0.981053747     -115.066293
9.261                0.981011678     -115.274801
9.262                0.980969587      -115.48378
9.263                0.980927477     -115.693229
9.264                0.980885348      -115.90315
9.265                0.980843202     -116.113542
9.266                0.980801039     -116.324405
9.267                 0.98075886      -116.53574
9.268                0.980716667     -116.747547
9.269                0.980674461     -116.959826
9.27                 0.980632242     -117.172578
9.271                0.980590012     -117.385801
9.272                0.980547772     -117.599498
9.273                0.980505523     -117.813667
9.274                0.980463266     -118.028308
9.275                0.980421002     -118.243423
9.276                0.980378733     -118.459011
9.277                0.980336459     -118.675071
9.278                0.980294183     -118.891605
9.279                0.980251904     -119.108612
9.28                 0.980209624     -119.326093
9.281                0.980167345     -119.544046
9.282                0.980125067     -119.762473
9.283                0.980082792     -119.981373
9.284                0.980040521     -120.200747
9.285                0.979998255     -120.420594
9.286                0.979955996     -120.640914
9.287                0.979913745     -120.861707
9.288                0.979871503     -121.082973
9.289                0.979829271     -121.304712
9.29                  0.97978705     -121.526924
9.291                0.979744843     -121.749609
9.292                 0.97970265     -121.972767
9.293                0.979660472     -122.196397
9.294                0.979618312       -122.4205
9.295                 0.97957617     -122.645075
9.296                0.979534047     -122.870121
9.297                0.979491945      -123.09564
9.298                0.979449866      -123.32163
9.299                0.979407811     -123.548092
9.3                  0.979365781     -123.775025
9.301                0.979323777     -124.002429
9.302                0.979281801     -124.230303
9.303                0.979239855     -124.458648
9.304                 0.97919794     -124.687463
9.305                0.979156057     -124.916747
9.306                0.979114207     -125.146501
9.307                0.979072393     -125.376724
9.308                0.979030616     -125.607416
9.309                0.978988877     -125.838575
9.31                 0.978947178     -126.070203
9.311                 0.97890552     -126.302298
9.312                0.978863904      -126.53486
9.313                0.978822333     -126.767888
9.314                0.978780808     -127.001383
9.315                 0.97873933     -127.235343
9.316                0.978697901     -127.469768
9.317                0.978656522     -127.704658
9.318                0.978615195     -127.940011
9.319                0.978573923     -128.175828
9.32                 0.978532705     -128.412108
9.321                0.978491544      -128.64885
9.322                0.978450441     -128.886054
9.323                0.978409399     -129.123719
9.324                0.978368418     -129.361844
9.325                0.978327501     -129.600429
9.326                0.978286648     -129.839472
9.327                0.978245862     -130.078974
9.328                0.978205145     -130.318934
9.329                0.978164497     -130.559351
9.33                 0.978123921     -130.800223
9.331                0.978083418     -131.041551
9.332                0.978042991     -131.283333
9.333                 0.97800264     -131.525569
9.334                0.977962367     -131.768258
9.335                0.977922175     -132.011399
9.336                0.977882064     -132.254991
9.337                0.977842037     -132.499033
9.338                0.977802095     -132.743524
9.339                0.977762241     -132.988464
9.34                 0.977722475     -133.233851
9.341                  0.9776828     -133.479685
9.342                0.977643217     -133.725964
9.343                0.977603728     -133.972688
9.344                0.977564335     -134.219855
9.345                 0.97752504     -134.467464
9.346                0.977485845     -134.715514
9.347                0.977446751     -134.964005
9.348                 0.97740776     -135.212935
9.349                0.977368874     -135.462303
9.35                 0.977330094     -135.712107
9.351                0.977291424     -135.962347
9.352                0.977252863     -136.213022
9.353                0.977214415      -136.46413
9.354                0.977176082      -136.71567
9.355                0.977137864      -136.96764
9.356                0.977099763      -137.22004
9.357                0.977061783     -137.472868
9.358                0.977023924     -137.726123
9.359                0.976986188     -137.979803
9.36                 0.976948578     -138.233908
9.361                0.976911095     -138.488435
9.362                0.976873741     -138.743384
9.363                0.976836517     -138.998752
9.364                0.976799427     -139.254539
9.365                0.976762471     -139.510743
9.366                0.976725652     -139.767363
9.367                0.976688971     -140.024396
9.368                0.976652431     -140.281842
9.369                0.976616033     -140.539699
9.37                 0.976579779     -140.797965
9.371                0.976543671     -141.056639
9.372                0.976507711     -141.315719
9.373                0.976471901     -141.575204
9.374                0.976436243     -141.835092
9.375                0.976400739      -142.09538
9.376                 0.97636539     -142.356068
9.377                0.976330199     -142.617154
9.378                0.976295167     -142.878636
9.379                0.976260297     -143.140512
9.38                  0.97622559     -143.402781
9.381                0.976191048      -143.66544
9.382                0.976156673     -143.928488
9.383                0.976122468     -144.191922
9.384                0.976088433     -144.455742
9.385                0.976054572     -144.719945
9.386                0.976020885      -144.98453
9.387                0.975987375     -145.249493
9.388                0.975954043     -145.514834
9.389                0.975920893     -145.780551
9.39                 0.975887924      -146.04664
9.391                 0.97585514     -146.313101
9.392                0.975822543     -146.579932
9.393                0.975790133     -146.847129
9.394                0.975757914     -147.114692
9.395                0.975725887     -147.382618
9.396                0.975694053     -147.650904
