! TOUCHSTONE file generated by CST DESIGN STUDIO
! Date and time: Wed Feb  5 13:29:01 2025
! Project name: C:\Work\MatlabApps\UnitCellOptimizationMatlab\CST\unitcell.cst
! Tree item: Tasks\Sweep1\SPara1\S-Parameters
! Header version: 2024
! Port assignment regex: !\s*Touchstone port\s*([0-9]+)\s*=\s*(CST MWS port|CST DES external port|CST DES block port)\s*(.+)\s* \(\"(.*)\"\)(\s*mode\s*([0-9]+))?.*
! Touchstone port assignment:
! Touchstone port 1 = CST DES external port 1 ("")
# GHz S MA R 50
9                    0.990323275     -72.1932989
9.001                0.990301663     -72.2981148
9.002                0.990279987     -72.4031806
9.003                0.990258244     -72.5084969
9.004                0.990236436     -72.6140645
9.005                0.990214562     -72.7198842
9.006                0.990192623     -72.8259567
9.007                0.990170617     -72.9322828
9.008                0.990148544     -73.0388632
9.009                0.990126406     -73.1456987
9.01                   0.9901042       -73.25279
9.011                0.990081928     -73.3601379
9.012                0.990059589     -73.4677432
9.013                0.990037183     -73.5756066
9.014                 0.99001471     -73.6837288
9.015                0.989992169     -73.7921107
9.016                 0.98996956      -73.900753
9.017                0.989946884     -74.0096564
9.018                 0.98992414     -74.1188218
9.019                0.989901328       -74.22825
9.02                 0.989878448     -74.3379416
9.021                0.989855499     -74.4478975
9.022                0.989832482     -74.5581185
9.023                0.989809396     -74.6686053
9.024                0.989786242     -74.7793587
9.025                0.989763018     -74.8903795
9.026                0.989739726     -75.0016686
9.027                0.989716364     -75.1132266
9.028                0.989692933     -75.2250544
9.029                0.989669432     -75.3371527
9.03                 0.989645861     -75.4495224
9.031                0.989622221     -75.5621643
9.032                0.989598511     -75.6750792
9.033                 0.98957473     -75.7882677
9.034                0.989550879     -75.9017309
9.035                0.989526958     -76.0154694
9.036                0.989502966     -76.1294841
9.037                0.989478903     -76.2437758
9.038                0.989454769     -76.3583452
9.039                0.989430565     -76.4731933
9.04                 0.989406289     -76.5883208
9.041                0.989381942     -76.7037285
9.042                0.989357523     -76.8194172
9.043                0.989333033     -76.9353878
9.044                0.989308471     -77.0516411
9.045                0.989283837      -77.168178
9.046                0.989259131     -77.2849991
9.047                0.989234353     -77.4021054
9.048                0.989209503     -77.5194977
9.049                 0.98918458     -77.6371769
9.05                 0.989159584     -77.7551436
9.051                0.989134516     -77.8733989
9.052                0.989109375     -77.9919435
9.053                0.989084161     -78.1107782
9.054                0.989058873     -78.2299039
9.055                0.989033513     -78.3493215
9.056                0.989008079     -78.4690317
9.057                0.988982572     -78.5890355
9.058                0.988956991     -78.7093337
9.059                0.988931336      -78.829927
9.06                 0.988905607     -78.9508164
9.061                0.988879804     -79.0720028
9.062                0.988853927     -79.1934869
9.063                0.988827975     -79.3152696
9.064                 0.98880195     -79.4373518
9.065                0.988775849     -79.5597343
9.066                0.988749674      -79.682418
9.067                0.988723425     -79.8054038
9.068                  0.9886971     -79.9286925
9.069                  0.9886707      -80.052285
9.07                 0.988644225     -80.1761821
9.071                0.988617675     -80.3003848
9.072                0.988591049     -80.4248938
9.073                0.988564348     -80.5497101
9.074                0.988537572     -80.6748345
9.075                0.988510719     -80.8002679
9.076                0.988483791     -80.9260111
9.077                0.988456787     -81.0520651
9.078                0.988429707     -81.1784308
9.079                 0.98840255     -81.3051089
9.08                 0.988375318     -81.4321004
9.081                0.988348009     -81.5594062
9.082                0.988320623     -81.6870272
9.083                0.988293161     -81.8149641
9.084                0.988265622      -81.943218
9.085                0.988238007     -82.0717897
9.086                0.988210315     -82.2006801
9.087                0.988182545     -82.3298901
9.088                0.988154699     -82.4594206
9.089                0.988126775     -82.5892724
9.09                 0.988098775     -82.7194465
9.091                0.988070697     -82.8499438
9.092                0.988042541     -82.9807651
9.093                0.988014308     -83.1119114
9.094                0.987985998     -83.2433835
9.095                 0.98795761     -83.3751824
9.096                0.987929144     -83.5073089
9.097                  0.9879006      -83.639764
9.098                0.987871978     -83.7725485
9.099                0.987843279     -83.9056635
9.1                  0.987814501     -84.0391097
9.101                0.987785646      -84.172888
9.102                0.987756712     -84.3069995
9.103                  0.9877277      -84.441445
9.104                0.987698609     -84.5762253
9.105                0.987669441     -84.7113415
9.106                0.987640193     -84.8467945
9.107                0.987610868      -84.982585
9.108                0.987581464     -85.1187141
9.109                0.987551981     -85.2551827
9.11                 0.987522419     -85.3919917
9.111                0.987492779      -85.529142
9.112                 0.98746306     -85.6666345
9.113                0.987433263     -85.8044702
9.114                0.987403386     -85.9426499
9.115                0.987373431     -86.0811746
9.116                0.987343397     -86.2200452
9.117                0.987313284     -86.3592626
9.118                0.987283091     -86.4988278
9.119                 0.98725282     -86.6387416
9.12                  0.98722247      -86.779005
9.121                0.987192041      -86.919619
9.122                0.987161533     -87.0605843
9.123                0.987130945     -87.2019021
9.124                0.987100279     -87.3435731
9.125                0.987069533     -87.4855983
9.126                0.987038708     -87.6279787
9.127                0.987007804     -87.7707152
9.128                0.986976821     -87.9138086
9.129                0.986945759       -88.05726
9.13                 0.986914618     -88.2010702
9.131                0.986883397     -88.3452402
9.132                0.986852098     -88.4897709
9.133                0.986820719     -88.6346633
9.134                0.986789261     -88.7799182
9.135                0.986757724     -88.9255366
9.136                0.986726108     -89.0715194
9.137                0.986694412     -89.2178676
9.138                0.986662638      -89.364582
9.139                0.986630785     -89.5116637
9.14                 0.986598852     -89.6591135
9.141                0.986566841     -89.8069324
9.142                0.986534751     -89.9551213
9.143                0.986502582     -90.1036811
9.144                0.986470334     -90.2526128
9.145                0.986438007     -90.4019172
9.146                0.986405601     -90.5515954
9.147                0.986373117     -90.7016482
9.148                0.986340554     -90.8520766
9.149                0.986307913     -91.0028815
9.15                 0.986275193     -91.1540638
9.151                0.986242395     -91.3056244
9.152                0.986209518     -91.4575644
9.153                0.986176563     -91.6098845
9.154                 0.98614353     -91.7625858
9.155                0.986110418     -91.9156692
9.156                0.986077229     -92.0691355
9.157                0.986043961     -92.2229857
9.158                0.986010616     -92.3772208
9.159                0.985977193     -92.5318415
9.16                 0.985943693      -92.686849
9.161                0.985910114     -92.8422441
9.162                0.985876459     -92.9980276
9.163                0.985842726     -93.1542006
9.164                0.985808916      -93.310764
9.165                0.985775029     -93.4677186
9.166                0.985741064     -93.6250653
9.167                0.985707023     -93.7828052
9.168                0.985672906     -93.9409391
9.169                0.985638712     -94.0994678
9.17                 0.985604441     -94.2583924
9.171                0.985570094     -94.4177138
9.172                0.985535671     -94.5774328
9.173                0.985501173     -94.7375503
9.174                0.985466598     -94.8980673
9.175                0.985431948     -95.0589846
9.176                0.985397223     -95.2203032
9.177                0.985362422      -95.382024
9.178                0.985327546     -95.5441478
9.179                0.985292595     -95.7066756
9.18                  0.98525757     -95.8696082
9.181                 0.98522247     -96.0329465
9.182                0.985187297     -96.1966915
9.183                0.985152048      -96.360844
9.184                0.985116727     -96.5254049
9.185                0.985081331     -96.6903751
9.186                0.985045862     -96.8557554
9.187                 0.98501032     -97.0215468
9.188                0.984974706     -97.1877502
9.189                0.984939018     -97.3543663
9.19                 0.984903258     -97.5213961
9.191                0.984867426     -97.6888405
9.192                0.984831522     -97.8567003
9.193                0.984795546     -98.0249763
9.194                0.984759499     -98.1936695
9.195                0.984723381     -98.3627807
9.196                0.984687192     -98.5323108
9.197                0.984650933     -98.7022606
9.198                0.984614603     -98.8726309
9.199                0.984578203     -99.0434227
9.2                  0.984541734     -99.2146367
9.201                0.984505195     -99.3862738
9.202                0.984468588     -99.5583349
9.203                0.984431912     -99.7308207
9.204                0.984395167     -99.9037321
9.205                0.984358354      -100.07707
9.206                0.984321474     -100.250835
9.207                0.984284527     -100.425028
9.208                0.984247512      -100.59965
9.209                0.984210431     -100.774702
9.21                 0.984173284     -100.950185
9.211                0.984136071     -101.126098
9.212                0.984098792     -101.302444
9.213                0.984061448     -101.479223
9.214                 0.98402404     -101.656435
9.215                0.983986567     -101.834082
9.216                0.983949031     -102.012165
9.217                0.983911431     -102.190683
9.218                0.983873768     -102.369638
9.219                0.983836042     -102.549031
9.22                 0.983798254     -102.728862
9.221                0.983760405     -102.909133
9.222                0.983722494     -103.089843
9.223                0.983684522     -103.270994
9.224                0.983646491     -103.452586
9.225                0.983608399     -103.634621
9.226                0.983570248     -103.817099
9.227                0.983532038      -104.00002
9.228                0.983493769     -104.183385
9.229                0.983455443     -104.367196
9.23                 0.983417059     -104.551452
9.231                0.983378619     -104.736155
9.232                0.983340122     -104.921305
9.233                0.983301569     -105.106903
9.234                0.983262961      -105.29295
9.235                0.983224299     -105.479446
9.236                0.983185582     -105.666392
9.237                0.983146812     -105.853789
9.238                0.983107989     -106.041637
9.239                0.983069113     -106.229937
9.24                 0.983030185      -106.41869
9.241                0.982991206     -106.607896
9.242                0.982952177     -106.797556
9.243                0.982913098      -106.98767
9.244                0.982873969      -107.17824
9.245                0.982834791     -107.369266
9.246                0.982795566     -107.560748
9.247                0.982756293     -107.752687
9.248                0.982716973     -107.945084
9.249                0.982677607     -108.137939
9.25                 0.982638195     -108.331253
9.251                0.982598739     -108.525027
9.252                0.982559239     -108.719261
9.253                0.982519695     -108.913955
9.254                0.982480109      -109.10911
9.255                 0.98244048     -109.304727
9.256                0.982400811     -109.500806
9.257                0.982361101     -109.697348
9.258                0.982321351     -109.894354
9.259                0.982281562     -110.091823
9.26                 0.982241735     -110.289757
9.261                0.982201871     -110.488155
9.262                 0.98216197     -110.687019
9.263                0.982122033     -110.886348
9.264                0.982082061     -111.086144
9.265                0.982042055     -111.286407
9.266                0.982002015     -111.487137
9.267                0.981961943     -111.688335
9.268                0.981921839         -111.89
9.269                0.981881704     -112.092134
9.27                 0.981841538     -112.294738
9.271                0.981801344      -112.49781
9.272                0.981761122     -112.701353
9.273                0.981720872     -112.905365
9.274                0.981680595     -113.109848
9.275                0.981640293     -113.314802
9.276                0.981599966     -113.520228
9.277                0.981559615     -113.726124
9.278                0.981519241     -113.932493
9.279                0.981478846     -114.139335
9.28                 0.981438429     -114.346648
9.281                0.981397993     -114.554435
9.282                0.981357537     -114.762695
9.283                0.981317064     -114.971429
9.284                0.981276573     -115.180636
9.285                0.981236067     -115.390318
9.286                0.981195545     -115.600474
9.287                0.981155009     -115.811104
9.288                 0.98111446     -116.022209
9.289                  0.9810739     -116.233789
9.29                 0.981033328     -116.445845
9.291                0.980992747     -116.658376
9.292                0.980952157     -116.871382
9.293                0.980911559     -117.084864
9.294                0.980870955     -117.298823
9.295                0.980830345     -117.513257
9.296                0.980789731     -117.728167
9.297                0.980749113     -117.943554
9.298                0.980708494     -118.159418
9.299                0.980667873     -118.375758
9.3                  0.980627253     -118.592574
9.301                0.980586634     -118.809867
9.302                0.980546018     -119.027637
9.303                0.980505405     -119.245884
9.304                0.980464797     -119.464608
9.305                0.980424196     -119.683809
9.306                0.980383602     -119.903486
9.307                0.980343016      -120.12364
9.308                 0.98030244     -120.344271
9.309                0.980261875     -120.565379
9.31                 0.980221322     -120.786964
9.311                0.980180783     -121.009025
9.312                0.980140259     -121.231563
9.313                0.980099751     -121.454578
9.314                 0.98005926     -121.678069
9.315                0.980018788     -121.902036
9.316                0.979978336     -122.126479
9.317                0.979937906     -122.351399
9.318                0.979897498     -122.576794
9.319                0.979857114     -122.802664
9.32                 0.979816755     -123.029011
9.321                0.979776424     -123.255832
9.322                 0.97973612     -123.483128
9.323                0.979695846     -123.710899
9.324                0.979655603     -123.939145
9.325                0.979615392     -124.167865
9.326                0.979575215     -124.397058
9.327                0.979535073     -124.626726
9.328                0.979494967     -124.856866
9.329                  0.9794549      -125.08748
9.33                 0.979414872     -125.318566
9.331                0.979374885     -125.550124
9.332                 0.97933494     -125.782154
9.333                0.979295039     -126.014655
9.334                0.979255184     -126.247628
9.335                0.979215376      -126.48107
9.336                0.979175615     -126.714983
9.337                0.979135905     -126.949366
9.338                0.979096246     -127.184217
9.339                 0.97905664     -127.419538
9.34                 0.979017089     -127.655326
9.341                0.978977594     -127.891581
9.342                0.978938156     -128.128304
9.343                0.978898777     -128.365493
9.344                0.978859459     -128.603147
9.345                0.978820204     -128.841267
9.346                0.978781013     -129.079851
9.347                0.978741887     -129.318899
9.348                0.978702828     -129.558411
9.349                0.978663838     -129.798384
9.35                 0.978624918      -130.03882
9.351                 0.97858607     -130.279716
9.352                0.978547296     -130.521072
9.353                0.978508598     -130.762889
9.354                0.978469976     -131.005163
9.355                0.978431433     -131.247896
9.356                0.978392971     -131.491086
9.357                 0.97835459     -131.734731
9.358                0.978316293     -131.978833
9.359                0.978278082     -132.223388
9.36                 0.978239958     -132.468398
9.361                0.978201922     -132.713859
9.362                0.978163977     -132.959773
9.363                0.978126125     -133.206137
9.364                0.978088366     -133.452951
9.365                0.978050703     -133.700214
9.366                0.978013138     -133.947924
9.367                0.977975672     -134.196081
9.368                0.977938306     -134.444684
9.369                0.977901044     -134.693731
9.37                 0.977863886     -134.943222
9.371                0.977826834     -135.193154
9.372                0.977789891     -135.443528
9.373                0.977753057     -135.694342
9.374                0.977716335     -135.945595
9.375                0.977679727     -136.197285
9.376                0.977643234     -136.449411
9.377                0.977606858     -136.701973
9.378                  0.9775706     -136.954968
9.379                0.977534464     -137.208396
9.38                 0.977498449     -137.462255
9.381                 0.97746256     -137.716544
9.382                0.977426796     -137.971261
9.383                0.977391161     -138.226405
9.384                0.977355655     -138.481975
9.385                0.977320281      -138.73797
9.386                 0.97728504     -138.994387
9.387                0.977249935     -139.251226
9.388                0.977214967     -139.508484
9.389                0.977180138     -139.766161
9.39                  0.97714545     -140.024255
9.391                0.977110904     -140.282764
9.392                0.977076504     -140.541686
9.393                 0.97704225     -140.801021
9.394                0.977008144     -141.060766
9.395                0.976974188     -141.320921
9.396                0.976940385     -141.581482
