! TOUCHSTONE file generated by CST DESIGN STUDIO
! Date and time: Wed Feb  5 13:28:51 2025
! Project name: C:\Work\MatlabApps\UnitCellOptimizationMatlab\CST\unitcell.cst
! Tree item: Tasks\Sweep1\SPara1\S-Parameters
! Header version: 2024
! Port assignment regex: !\s*Touchstone port\s*([0-9]+)\s*=\s*(CST MWS port|CST DES external port|CST DES block port)\s*(.+)\s* \(\"(.*)\"\)(\s*mode\s*([0-9]+))?.*
! Touchstone port assignment:
! Touchstone port 1 = CST DES external port 1 ("")
# GHz S MA R 50
9                     0.98931143     -77.3667523
9.001                0.989285588     -77.4831362
9.002                0.989259668     -77.5998027
9.003                0.989233671     -77.7167525
9.004                0.989207597     -77.8339865
9.005                0.989181444     -77.9515056
9.006                0.989155214     -78.0693105
9.007                0.989128905      -78.187402
9.008                0.989102518     -78.3057811
9.009                0.989076052     -78.4244484
9.01                 0.989049508     -78.5434049
9.011                0.989022884     -78.6626513
9.012                0.988996182     -78.7821885
9.013                0.988969401     -78.9020174
9.014                 0.98894254     -79.0221387
9.015                  0.9889156     -79.1425533
9.016                0.988888581      -79.263262
9.017                0.988861481     -79.3842657
9.018                0.988834302     -79.5055652
9.019                0.988807043     -79.6271614
9.02                 0.988779703      -79.749055
9.021                0.988752284      -79.871247
9.022                0.988724783     -79.9937382
9.023                0.988697202     -80.1165294
9.024                0.988669541     -80.2396215
9.025                0.988641798     -80.3630153
9.026                0.988613975     -80.4867117
9.027                 0.98858607     -80.6107116
9.028                0.988558084     -80.7350157
9.029                0.988530016      -80.859625
9.03                 0.988501867     -80.9845403
9.031                0.988473636     -81.1097625
9.032                0.988445324     -81.2352924
9.033                0.988416929     -81.3611309
9.034                0.988388452     -81.4872789
9.035                0.988359893     -81.6137372
9.036                0.988331252     -81.7405067
9.037                0.988302528     -81.8675882
9.038                0.988273722     -81.9949827
9.039                0.988244832      -82.122691
9.04                  0.98821586      -82.250714
9.041                0.988186805     -82.3790525
9.042                0.988157667     -82.5077074
9.043                0.988128446     -82.6366796
9.044                0.988099141       -82.76597
9.045                0.988069753     -82.8955795
9.046                0.988040281     -83.0255089
9.047                0.988010725     -83.1557591
9.048                0.987981086     -83.2863311
9.049                0.987951363     -83.4172256
9.05                 0.987921556     -83.5484435
9.051                0.987891665     -83.6799859
9.052                0.987861689     -83.8118534
9.053                 0.98783163     -83.9440471
9.054                0.987801485     -84.0765679
9.055                0.987771257     -84.2094165
9.056                0.987740944      -84.342594
9.057                0.987710546     -84.4761011
9.058                0.987680063     -84.6099388
9.059                0.987649495      -84.744108
9.06                 0.987618843     -84.8786096
9.061                0.987588105     -85.0134444
9.062                0.987557283     -85.1486135
9.063                0.987526375     -85.2841176
9.064                0.987495382     -85.4199576
9.065                0.987464303     -85.5561345
9.066                0.987433139     -85.6926492
9.067                 0.98740189     -85.8295026
9.068                0.987370555     -85.9666955
9.069                0.987339134      -86.104229
9.07                 0.987307627     -86.2421037
9.071                0.987276035     -86.3803208
9.072                0.987244357     -86.5188811
9.073                0.987212593     -86.6577854
9.074                0.987180743     -86.7970348
9.075                0.987148808     -86.9366301
9.076                0.987116786     -87.0765721
9.077                0.987084678     -87.2168619
9.078                0.987052484     -87.3575004
9.079                0.987020203     -87.4984883
9.08                 0.986987837     -87.6398267
9.081                0.986955384     -87.7815165
9.082                0.986922845     -87.9235586
9.083                0.986890219     -88.0659538
9.084                0.986857508     -88.2087031
9.085                0.986824709     -88.3518074
9.086                0.986791825     -88.4952677
9.087                0.986758854     -88.6390847
9.088                0.986725796     -88.7832595
9.089                0.986692652      -88.927793
9.09                 0.986659422      -89.072686
9.091                0.986626105     -89.2179395
9.092                0.986592701     -89.3635543
9.093                0.986559211     -89.5095315
9.094                0.986525635     -89.6558719
9.095                0.986491972     -89.8025764
9.096                0.986458223      -89.949646
9.097                0.986424387     -90.0970815
9.098                0.986390465     -90.2448838
9.099                0.986356456     -90.3930539
9.1                  0.986322361     -90.5415928
9.101                0.986288179     -90.6905012
9.102                0.986253911     -90.8397801
9.103                0.986219557     -90.9894305
9.104                0.986185116     -91.1394532
9.105                 0.98615059     -91.2898491
9.106                0.986115977     -91.4406192
9.107                0.986081277     -91.5917643
9.108                0.986046492     -91.7432854
9.109                0.986011621     -91.8951834
9.11                 0.985976663     -92.0474592
9.111                 0.98594162     -92.2001136
9.112                0.985906491     -92.3531477
9.113                0.985871275     -92.5065623
9.114                0.985835975     -92.6603583
9.115                0.985800588     -92.8145366
9.116                0.985765116     -92.9690981
9.117                0.985729559     -93.1240437
9.118                0.985693916     -93.2793744
9.119                0.985658187      -93.435091
9.12                 0.985622374     -93.5911944
9.121                0.985586475     -93.7476855
9.122                0.985550492     -93.9045653
9.123                0.985514423     -94.0618345
9.124                 0.98547827     -94.2194942
9.125                0.985442032     -94.3775452
9.126                 0.98540571     -94.5359884
9.127                0.985369303     -94.6948246
9.128                0.985332812     -94.8540549
9.129                0.985296237       -95.01368
9.13                 0.985259577     -95.1737008
9.131                0.985222834     -95.3341183
9.132                0.985186008     -95.4949333
9.133                0.985149098     -95.6561467
9.134                0.985112104     -95.8177594
9.135                0.985075027     -95.9797722
9.136                0.985037868     -96.1421861
9.137                0.985000625     -96.3050018
9.138                  0.9849633     -96.4682204
9.139                0.984925892     -96.6318426
9.14                 0.984888402     -96.7958693
9.141                 0.98485083     -96.9603014
9.142                0.984813177     -97.1251398
9.143                0.984775441     -97.2903852
9.144                0.984737625     -97.4560387
9.145                0.984699727     -97.6221009
9.146                0.984661748     -97.7885729
9.147                0.984623688     -97.9554553
9.148                0.984585548     -98.1227492
9.149                0.984547327     -98.2904552
9.15                 0.984509027     -98.4585744
9.151                0.984470647     -98.6271074
9.152                0.984432187     -98.7960552
9.153                0.984393648     -98.9654186
9.154                0.984355031     -99.1351984
9.155                0.984316334     -99.3053955
9.156                 0.98427756     -99.4760106
9.157                0.984238707     -99.6470446
9.158                0.984199777     -99.8184984
9.159                0.984160769     -99.9903727
9.16                 0.984121684     -100.162668
9.161                0.984082522     -100.335386
9.162                0.984043283     -100.508527
9.163                0.984003969     -100.682091
9.164                0.983964579      -100.85608
9.165                0.983925113     -101.030495
9.166                0.983885572     -101.205335
9.167                0.983845956     -101.380603
9.168                0.983806266     -101.556298
9.169                0.983766502     -101.732422
9.17                 0.983726665     -101.908975
9.171                0.983686754     -102.085958
9.172                 0.98364677     -102.263372
9.173                0.983606714     -102.441218
9.174                0.983566586     -102.619495
9.175                0.983526386     -102.798206
9.176                0.983486115     -102.977351
9.177                0.983445773     -103.156931
9.178                0.983405361     -103.336945
9.179                0.983364879     -103.517396
9.18                 0.983324328     -103.698284
9.181                0.983283708     -103.879609
9.182                0.983243019     -104.061372
9.183                0.983202262     -104.243574
9.184                0.983161438     -104.426216
9.185                0.983120546     -104.609299
9.186                0.983079589     -104.792822
9.187                0.983038565     -104.976787
9.188                0.982997475     -105.161195
9.189                0.982956321     -105.346046
9.19                 0.982915102     -105.531341
9.191                 0.98287382      -105.71708
9.192                0.982832474     -105.903264
9.193                0.982791065     -106.089894
9.194                0.982749594     -106.276971
9.195                0.982708061     -106.464494
9.196                0.982666467     -106.652466
9.197                0.982624813     -106.840885
9.198                0.982583099     -107.029754
9.199                0.982541325     -107.219073
9.2                  0.982499493     -107.408841
9.201                0.982457603     -107.599061
9.202                0.982415656     -107.789732
9.203                0.982373652     -107.980855
9.204                0.982331591     -108.172431
9.205                0.982289476      -108.36446
9.206                0.982247305     -108.556943
9.207                 0.98220508      -108.74988
9.208                0.982162802     -108.943272
9.209                0.982120472      -109.13712
9.21                 0.982078089     -109.331423
9.211                0.982035655     -109.526183
9.212                0.981993171       -109.7214
9.213                0.981950636     -109.917075
9.214                0.981908053     -110.113208
9.215                0.981865421       -110.3098
9.216                0.981822742      -110.50685
9.217                0.981780016     -110.704361
9.218                0.981737244     -110.902331
9.219                0.981694427     -111.100762
9.22                 0.981651565     -111.299654
9.221                 0.98160866     -111.499007
9.222                0.981565712     -111.698822
9.223                0.981522722       -111.8991
9.224                0.981479691      -112.09984
9.225                0.981436619     -112.301044
9.226                0.981393509     -112.502711
9.227                0.981350359     -112.704842
9.228                0.981307173     -112.907438
9.229                0.981263949     -113.110498
9.23                 0.981220689     -113.314024
9.231                0.981177395     -113.518014
9.232                0.981134067     -113.722471
9.233                0.981090705     -113.927394
9.234                0.981047311     -114.132783
9.235                0.981003886      -114.33864
9.236                0.980960431     -114.544963
9.237                0.980916947     -114.751754
9.238                0.980873434     -114.959012
9.239                0.980829894     -115.166739
9.24                 0.980786328     -115.374934
9.241                0.980742736     -115.583597
9.242                0.980699121     -115.792729
9.243                0.980655482      -116.00233
9.244                 0.98061182       -116.2124
9.245                0.980568138      -116.42294
9.246                0.980524436     -116.633949
9.247                0.980480714     -116.845428
9.248                0.980436975     -117.057377
9.249                0.980393219     -117.269796
9.25                 0.980349447     -117.482686
9.251                0.980305661     -117.696046
9.252                0.980261862     -117.909876
9.253                0.980218049     -118.124177
9.254                0.980174226     -118.338949
9.255                0.980130393     -118.554192
9.256                0.980086551     -118.769906
9.257                0.980042702     -118.986091
9.258                0.979998846     -119.202747
9.259                0.979954984     -119.419873
9.26                 0.979911119     -119.637472
9.261                0.979867251     -119.855541
9.262                0.979823381     -120.074081
9.263                0.979779511     -120.293092
9.264                0.979735642     -120.512575
9.265                0.979691775     -120.732529
9.266                0.979647912     -120.952953
9.267                0.979604054     -121.173849
9.268                0.979560201     -121.395215
9.269                0.979516356     -121.617052
9.27                  0.97947252      -121.83936
9.271                0.979428693     -122.062138
9.272                0.979384879     -122.285386
9.273                0.979341076     -122.509105
9.274                0.979297288     -122.733294
9.275                0.979253516     -122.957953
9.276                 0.97920976     -123.183081
9.277                0.979166023     -123.408678
9.278                0.979122305     -123.634745
9.279                0.979078608     -123.861281
9.28                 0.979034934     -124.088286
9.281                0.978991284     -124.315758
9.282                0.978947659     -124.543699
9.283                0.978904061     -124.772108
9.284                0.978860491     -125.000984
9.285                0.978816951     -125.230328
9.286                0.978773443     -125.460138
9.287                0.978729967     -125.690415
9.288                0.978686526     -125.921157
9.289                 0.97864312     -126.152365
9.29                 0.978599752     -126.384039
9.291                0.978556422     -126.616177
9.292                0.978513133     -126.848779
9.293                0.978469886     -127.081845
9.294                0.978426683     -127.315375
9.295                0.978383525     -127.549367
9.296                0.978340413     -127.783822
9.297                 0.97829735     -128.018738
9.298                0.978254337     -128.254116
9.299                0.978211375     -128.489954
9.3                  0.978168467     -128.726252
9.301                0.978125613      -128.96301
9.302                0.978082816     -129.200226
9.303                0.978040077       -129.4379
9.304                0.977997398     -129.676032
9.305                 0.97795478     -129.914621
9.306                0.977912226     -130.153666
9.307                0.977869736     -130.393166
9.308                0.977827313      -130.63312
9.309                0.977784958     -130.873529
9.31                 0.977742673      -131.11439
9.311                0.977700459     -131.355704
9.312                0.977658319     -131.597469
9.313                0.977616254     -131.839685
9.314                0.977574267     -132.082351
9.315                0.977532357     -132.325465
9.316                0.977490529     -132.569028
9.317                0.977448782     -132.813037
9.318                 0.97740712     -133.057493
9.319                0.977365543     -133.302394
9.32                 0.977324054     -133.547739
9.321                0.977282654     -133.793528
9.322                0.977241345     -134.039758
9.323                 0.97720013      -134.28643
9.324                0.977159009     -134.533542
9.325                0.977117985     -134.781093
9.326                0.977077059     -135.029083
9.327                0.977036234     -135.277509
9.328                0.976995511      -135.52637
9.329                0.976954892     -135.775667
9.33                 0.976914379     -136.025397
9.331                0.976873974     -136.275559
9.332                0.976833678     -136.526152
9.333                0.976793494     -136.777175
9.334                0.976753424     -137.028627
9.335                0.976713469     -137.280506
9.336                0.976673631     -137.532811
9.337                0.976633912     -137.785541
9.338                0.976594314     -138.038694
9.339                0.976554839     -138.292269
9.34                 0.976515489     -138.546264
9.341                0.976476266     -138.800679
9.342                0.976437172     -139.055512
9.343                0.976398208     -139.310761
9.344                0.976359377     -139.566425
9.345                0.976320681     -139.822503
9.346                0.976282121     -140.078993
9.347                0.976243699     -140.335892
9.348                0.976205418     -140.593201
9.349                0.976167279     -140.850917
9.35                 0.976129284     -141.109039
9.351                0.976091436     -141.367565
9.352                0.976053735     -141.626494
9.353                0.976016185     -141.885823
9.354                0.975978787     -142.145552
9.355                0.975941544     -142.405678
9.356                0.975904456       -142.6662
9.357                0.975867526     -142.927115
9.358                0.975830756     -143.188424
9.359                0.975794148     -143.450122
9.36                 0.975757704     -143.712209
9.361                0.975721426     -143.974684
9.362                0.975685316     -144.237543
9.363                0.975649375     -144.500785
9.364                0.975613607     -144.764409
9.365                0.975578012     -145.028412
9.366                0.975542593     -145.292793
9.367                0.975507351     -145.557549
9.368                 0.97547229     -145.822678
9.369                 0.97543741     -146.088179
9.37                 0.975402713      -146.35405
9.371                0.975368202     -146.620288
9.372                0.975333879     -146.886892
9.373                0.975299745     -147.153858
9.374                0.975265803     -147.421187
9.375                0.975232054     -147.688874
9.376                  0.9751985     -147.956918
9.377                0.975165144     -148.225317
9.378                0.975131987     -148.494069
9.379                0.975099031     -148.763171
9.38                 0.975066278     -149.032622
9.381                 0.97503373     -149.302418
9.382                0.975001389     -149.572558
9.383                0.974969257      -149.84304
9.384                0.974937336      -150.11386
9.385                0.974905628     -150.385017
9.386                0.974874134     -150.656509
9.387                0.974842857     -150.928333
9.388                0.974811798     -151.200486
9.389                 0.97478096     -151.472967
9.39                 0.974750343     -151.745773
9.391                0.974719951       -152.0189
9.392                0.974689785     -152.292348
9.393                0.974659847     -152.566113
9.394                0.974630138     -152.840193
9.395                 0.97460066     -153.114585
9.396                0.974571416     -153.389287
