! TOUCHSTONE file generated by CST DESIGN STUDIO
! Date and time: Wed Feb  5 13:29:03 2025
! Project name: C:\Work\MatlabApps\UnitCellOptimizationMatlab\CST\unitcell.cst
! Tree item: Tasks\Sweep1\SPara1\S-Parameters
! Header version: 2024
! Port assignment regex: !\s*Touchstone port\s*([0-9]+)\s*=\s*(CST MWS port|CST DES external port|CST DES block port)\s*(.+)\s* \(\"(.*)\"\)(\s*mode\s*([0-9]+))?.*
! Touchstone port assignment:
! Touchstone port 1 = CST DES external port 1 ("")
# GHz S MA R 50
9                    0.990489898     -71.2967666
9.001                0.990468986     -71.3996799
9.002                0.990448011     -71.5028377
9.003                0.990426972     -71.6062406
9.004                 0.99040587     -71.7098894
9.005                0.990384703     -71.8137849
9.006                0.990363473     -71.9179277
9.007                0.990342178     -72.0223186
9.008                0.990320819     -72.1269584
9.009                0.990299396     -72.2318477
9.01                 0.990277908     -72.3369874
9.011                0.990256355     -72.4423781
9.012                0.990234737     -72.5480206
9.013                0.990213054     -72.6539157
9.014                0.990191306     -72.7600642
9.015                0.990169492     -72.8664667
9.016                0.990147612      -72.973124
9.017                0.990125667     -73.0800369
9.018                0.990103656     -73.1872062
9.019                0.990081579     -73.2946325
9.02                 0.990059436     -73.4023167
9.021                0.990037226     -73.5102596
9.022                 0.99001495     -73.6184618
9.023                0.989992607     -73.7269242
9.024                0.989970197     -73.8356476
9.025                 0.98994772     -73.9446326
9.026                0.989925177     -74.0538802
9.027                0.989902565      -74.163391
9.028                0.989879887     -74.2731658
9.029                0.989857141     -74.3832055
9.03                 0.989834327     -74.4935108
9.031                0.989811445     -74.6040824
9.032                0.989788495     -74.7149213
9.033                0.989765477     -74.8260281
9.034                 0.98974239     -74.9374036
9.035                0.989719236     -75.0490487
9.036                0.989696012     -75.1609641
9.037                 0.98967272     -75.2731507
9.038                0.989649358     -75.3856092
9.039                0.989625928     -75.4983405
9.04                 0.989602428     -75.6113452
9.041                0.989578859     -75.7246243
9.042                0.989555221     -75.8381786
9.043                0.989531513     -75.9520088
9.044                0.989507735     -76.0661158
9.045                0.989483887     -76.1805003
9.046                0.989459969     -76.2951633
9.047                0.989435981     -76.4101054
9.048                0.989411922     -76.5253275
9.049                0.989387793     -76.6408305
9.05                 0.989363593     -76.7566152
9.051                0.989339323     -76.8726823
9.052                0.989314981     -76.9890327
9.053                0.989290569     -77.1056673
9.054                0.989266085     -77.2225868
9.055                 0.98924153     -77.3397921
9.056                0.989216903     -77.4572841
9.057                0.989192205     -77.5750634
9.058                0.989167435     -77.6931311
9.059                0.989142593     -77.8114879
9.06                 0.989117679     -77.9301346
9.061                0.989092693     -78.0490722
9.062                0.989067635     -78.1683014
9.063                0.989042505     -78.2878231
9.064                0.989017301     -78.4076381
9.065                0.988992025     -78.5277474
9.066                0.988966677     -78.6481516
9.067                0.988941255     -78.7688517
9.068                0.988915761     -78.8898486
9.069                0.988890193     -79.0111431
9.07                 0.988864552      -79.132736
9.071                0.988838837     -79.2546282
9.072                0.988813049     -79.3768206
9.073                0.988787187      -79.499314
9.074                0.988761252     -79.6221092
9.075                0.988735243     -79.7452073
9.076                0.988709159     -79.8686089
9.077                0.988683002     -79.9923151
9.078                 0.98865677     -80.1163266
9.079                0.988630464     -80.2406443
9.08                 0.988604083     -80.3652691
9.081                0.988577628     -80.4902019
9.082                0.988551099     -80.6154435
9.083                0.988524494     -80.7409948
9.084                0.988497815     -80.8668568
9.085                 0.98847106     -80.9930302
9.086                0.988444231      -81.119516
9.087                0.988417326      -81.246315
9.088                0.988390346     -81.3734282
9.089                 0.98836329     -81.5008564
9.09                 0.988336159     -81.6286005
9.091                0.988308953     -81.7566613
9.092                 0.98828167     -81.8850399
9.093                0.988254312      -82.013737
9.094                0.988226878     -82.1427536
9.095                0.988199368     -82.2720906
9.096                0.988171782     -82.4017488
9.097                 0.98814412     -82.5317291
9.098                0.988116382     -82.6620325
9.099                0.988088567     -82.7926599
9.1                  0.988060676     -82.9236121
9.101                0.988032708       -83.05489
9.102                0.988004664     -83.1864946
9.103                0.987976543     -83.3184268
9.104                0.987948346     -83.4506874
9.105                0.987920071     -83.5832774
9.106                 0.98789172     -83.7161977
9.107                0.987863292     -83.8494491
9.108                0.987834787     -83.9830327
9.109                0.987806205     -84.1169493
9.11                 0.987777545     -84.2511997
9.111                0.987748809     -84.3857851
9.112                0.987719995     -84.5207061
9.113                0.987691104     -84.6559639
9.114                0.987662135     -84.7915592
9.115                0.987633089      -84.927493
9.116                0.987603966     -85.0637662
9.117                0.987574765     -85.2003797
9.118                0.987545486     -85.3373346
9.119                 0.98751613     -85.4746315
9.12                 0.987486697     -85.6122716
9.121                0.987457185     -85.7502557
9.122                0.987427596     -85.8885848
9.123                0.987397929     -86.0272597
9.124                0.987368184     -86.1662814
9.125                0.987338361     -86.3056508
9.126                0.987308461     -86.4453688
9.127                0.987278483     -86.5854365
9.128                0.987248426     -86.7258546
9.129                0.987218292     -86.8666242
9.13                  0.98718808     -87.0077461
9.131                0.987157789     -87.1492213
9.132                0.987127421     -87.2910507
9.133                0.987096975     -87.4332352
9.134                0.987066451     -87.5757758
9.135                0.987035849     -87.7186735
9.136                0.987005168      -87.861929
9.137                 0.98697441     -88.0055435
9.138                0.986943574     -88.1495177
9.139                 0.98691266     -88.2938527
9.14                 0.986881667     -88.4385493
9.141                0.986850597     -88.5836085
9.142                0.986819449     -88.7290313
9.143                0.986788223     -88.8748186
9.144                0.986756918     -89.0209712
9.145                0.986725536     -89.1674902
9.146                0.986694077     -89.3143764
9.147                0.986662539     -89.4616308
9.148                0.986630923     -89.6092544
9.149                 0.98659923     -89.7572481
9.15                 0.986567459     -89.9056127
9.151                 0.98653561     -90.0543493
9.152                0.986503684     -90.2034588
9.153                 0.98647168      -90.352942
9.154                0.986439598        -90.5028
9.155                0.986407439     -90.6530337
9.156                0.986375203      -90.803644
9.157                0.986342889     -90.9546318
9.158                0.986310498     -91.1059981
9.159                 0.98627803     -91.2577437
9.16                 0.986245484     -91.4098697
9.161                0.986212862      -91.562377
9.162                0.986180163     -91.7152664
9.163                0.986147386      -91.868539
9.164                0.986114533     -92.0221956
9.165                0.986081603     -92.1762372
9.166                0.986048597     -92.3306647
9.167                0.986015514      -92.485479
9.168                0.985982355     -92.6406811
9.169                0.985949119     -92.7962718
9.17                 0.985915807     -92.9522522
9.171                 0.98588242      -93.108623
9.172                0.985848956     -93.2653854
9.173                0.985815417       -93.42254
9.174                0.985781801      -93.580088
9.175                0.985748111     -93.7380302
9.176                0.985714345     -93.8963675
9.177                0.985680504     -94.0551009
9.178                0.985646587     -94.2142312
9.179                0.985612596     -94.3737594
9.18                  0.98557853     -94.5336863
9.181                0.985544389      -94.694013
9.182                0.985510174     -94.8547402
9.183                0.985475885      -95.015869
9.184                0.985441522     -95.1774002
9.185                0.985407085     -95.3393347
9.186                0.985372574     -95.5016734
9.187                0.985337989     -95.6644172
9.188                0.985303331     -95.8275671
9.189                  0.9852686     -95.9911238
9.19                 0.985233797     -96.1550884
9.191                 0.98519892     -96.3194617
9.192                0.985163971     -96.4842446
9.193                 0.98512895      -96.649438
9.194                0.985093857     -96.8150427
9.195                0.985058692     -96.9810598
9.196                0.985023456     -97.1474899
9.197                0.984988148     -97.3143341
9.198                0.984952769     -97.4815931
9.199                0.984917319      -97.649268
9.2                  0.984881799     -97.8173595
9.201                0.984846209     -97.9858685
9.202                0.984810549     -98.1547958
9.203                0.984774819     -98.3241424
9.204                0.984739019     -98.4939092
9.205                0.984703151     -98.6640969
9.206                0.984667213     -98.8347064
9.207                0.984631208     -99.0057386
9.208                0.984595133     -99.1771943
9.209                0.984558991     -99.3490743
9.21                 0.984522782     -99.5213796
9.211                0.984486505     -99.6941109
9.212                0.984450161     -99.8672692
9.213                0.984413751     -100.040855
9.214                0.984377275      -100.21487
9.215                0.984340732     -100.389313
9.216                0.984304125     -100.564188
9.217                0.984267452     -100.739493
9.218                0.984230714     -100.915229
9.219                0.984193912     -101.091399
9.22                 0.984157045     -101.268002
9.221                0.984120116     -101.445039
9.222                0.984083123     -101.622512
9.223                0.984046067      -101.80042
9.224                0.984008949     -101.978764
9.225                0.983971769     -102.157547
9.226                0.983934527     -102.336767
9.227                0.983897224     -102.516426
9.228                0.983859861     -102.696525
9.229                0.983822437     -102.877065
9.23                 0.983784954     -103.058046
9.231                0.983747411     -103.239469
9.232                0.983709809     -103.421334
9.233                0.983672149     -103.603644
9.234                0.983634432     -103.786397
9.235                0.983596656     -103.969596
9.236                0.983558824      -104.15324
9.237                0.983520936     -104.337331
9.238                0.983482992     -104.521869
9.239                0.983444992     -104.706854
9.24                 0.983406937     -104.892289
9.241                0.983368829     -105.078173
9.242                0.983330666     -105.264507
9.243                0.983292451     -105.451291
9.244                0.983254183     -105.638527
9.245                0.983215862     -105.826215
9.246                0.983177491     -106.014356
9.247                0.983139068      -106.20295
9.248                0.983100595     -106.391998
9.249                0.983062073     -106.581501
9.25                 0.983023501     -106.771459
9.251                0.982984881     -106.961874
9.252                0.982946213     -107.152745
9.253                0.982907498     -107.344073
9.254                0.982868737      -107.53586
9.255                0.982829929     -107.728104
9.256                0.982791076     -107.920808
9.257                0.982752179     -108.113972
9.258                0.982713238     -108.307596
9.259                0.982674254     -108.501681
9.26                 0.982635227     -108.696227
9.261                0.982596158     -108.891236
9.262                0.982557048     -109.086707
9.263                0.982517898     -109.282641
9.264                0.982478708     -109.479039
9.265                 0.98243948     -109.675901
9.266                0.982400213     -109.873228
9.267                0.982360909      -110.07102
9.268                0.982321568     -110.269278
9.269                0.982282191     -110.468003
9.27                  0.98224278     -110.667194
9.271                0.982203334     -110.866853
9.272                0.982163854     -111.066979
9.273                0.982124342     -111.267574
9.274                0.982084798     -111.468637
9.275                0.982045223      -111.67017
9.276                0.982005618     -111.872172
9.277                0.981965983     -112.074644
9.278                 0.98192632     -112.277586
9.279                 0.98188663        -112.481
9.28                 0.981846913     -112.684885
9.281                 0.98180717     -112.889241
9.282                0.981767402      -113.09407
9.283                 0.98172761      -113.29937
9.284                0.981687795     -113.505144
9.285                0.981647957     -113.711391
9.286                0.981608099     -113.918111
9.287                 0.98156822     -114.125306
9.288                0.981528322     -114.332974
9.289                0.981488405     -114.541117
9.29                 0.981448471     -114.749734
9.291                0.981408521     -114.958827
9.292                0.981368555     -115.168395
9.293                0.981328574     -115.378438
9.294                0.981288581     -115.588957
9.295                0.981248575     -115.799953
9.296                0.981208557     -116.011425
9.297                0.981168529     -116.223373
9.298                0.981128492     -116.435798
9.299                0.981088447       -116.6487
9.3                  0.981048395     -116.862079
9.301                0.981008336     -117.075935
9.302                0.980968273     -117.290269
9.303                0.980928206     -117.505081
9.304                0.980888136      -117.72037
9.305                0.980848064     -117.936137
9.306                0.980807992     -118.152382
9.307                0.980767921     -118.369105
9.308                0.980727851     -118.586307
9.309                0.980687784     -118.803986
9.31                 0.980647722     -119.022144
9.311                0.980607665      -119.24078
9.312                0.980567614     -119.459895
9.313                0.980527571     -119.679487
9.314                0.980487537     -119.899559
9.315                0.980447513     -120.120108
9.316                0.980407501     -120.341136
9.317                0.980367501     -120.562643
9.318                0.980327515     -120.784627
9.319                0.980287545      -121.00709
9.32                 0.980247591     -121.230031
9.321                0.980207654      -121.45345
9.322                0.980167736     -121.677346
9.323                0.980127839     -121.901721
9.324                0.980087964     -122.126573
9.325                0.980048111     -122.351903
9.326                0.980008282      -122.57771
9.327                 0.97996848     -122.803994
9.328                0.979928704     -123.030755
9.329                0.979888956     -123.257992
9.33                 0.979849239     -123.485706
9.331                0.979809552     -123.713897
9.332                0.979769898     -123.942563
9.333                0.979730277     -124.171705
9.334                0.979690692     -124.401322
9.335                0.979651144     -124.631415
9.336                0.979611634     -124.861982
9.337                0.979572163     -125.093023
9.338                0.979532733     -125.324539
9.339                0.979493346     -125.556528
9.34                 0.979454003      -125.78899
9.341                0.979414705     -126.021925
9.342                0.979375454     -126.255333
9.343                0.979336252     -126.489212
9.344                0.979297099     -126.723563
9.345                0.979257998     -126.958385
9.346                0.979218949     -127.193678
9.347                0.979179956      -127.42944
9.348                0.979141018     -127.665672
9.349                0.979102137     -127.902373
9.35                 0.979063316     -128.139542
9.351                0.979024556     -128.377179
9.352                0.978985857     -128.615283
9.353                0.978947223     -128.853854
9.354                0.978908654      -129.09289
9.355                0.978870152     -129.332391
9.356                0.978831718     -129.572357
9.357                0.978793355     -129.812787
9.358                0.978755064      -130.05368
9.359                0.978716846     -130.295035
9.36                 0.978678703     -130.536852
9.361                0.978640637      -130.77913
9.362                 0.97860265     -131.021867
9.363                0.978564742     -131.265064
9.364                0.978526916      -131.50872
9.365                0.978489174     -131.752832
9.366                0.978451517     -131.997402
9.367                0.978413946     -132.242427
9.368                0.978376464     -132.487907
9.369                0.978339073      -132.73384
9.37                 0.978301773     -132.980227
9.371                0.978264567     -133.227066
9.372                0.978227456     -133.474356
9.373                0.978190442     -133.722095
9.374                0.978153527     -133.970284
9.375                0.978116712      -134.21892
9.376                    0.97808     -134.468004
9.377                0.978043392     -134.717533
9.378                 0.97800689     -134.967506
9.379                0.977970495     -135.217923
9.38                  0.97793421     -135.468782
9.381                0.977898036     -135.720083
9.382                0.977861974     -135.971823
9.383                0.977826028     -136.224002
9.384                0.977790198     -136.476619
9.385                0.977754486     -136.729671
9.386                0.977718894     -136.983159
9.387                0.977683424      -137.23708
9.388                0.977648078     -137.491434
9.389                0.977612857     -137.746218
9.39                 0.977577764     -138.001432
9.391                  0.9775428     -138.257074
9.392                0.977507967     -138.513143
9.393                0.977473266     -138.769637
9.394                  0.9774387     -139.026555
9.395                0.977404271     -139.283896
9.396                 0.97736998     -139.541657
