! TOUCHSTONE file generated by CST DESIGN STUDIO
! Date and time: Wed Feb  5 13:29:05 2025
! Project name: C:\Work\MatlabApps\UnitCellOptimizationMatlab\CST\unitcell.cst
! Tree item: Tasks\Sweep1\SPara1\S-Parameters
! Header version: 2024
! Port assignment regex: !\s*Touchstone port\s*([0-9]+)\s*=\s*(CST MWS port|CST DES external port|CST DES block port)\s*(.+)\s* \(\"(.*)\"\)(\s*mode\s*([0-9]+))?.*
! Touchstone port assignment:
! Touchstone port 1 = CST DES external port 1 ("")
# GHz S MA R 50
9                    0.990653825      -70.400272
9.001                0.990633618     -70.5013176
9.002                0.990613349     -70.6026023
9.003                0.990593019     -70.7041269
9.004                0.990572626      -70.805892
9.005                0.990552171     -70.9078984
9.006                0.990531654     -71.0101468
9.007                0.990511075     -71.1126379
9.008                0.990490433     -71.2153725
9.009                0.990469728     -71.3183512
9.01                  0.99044896     -71.4215749
9.011                0.990428129     -71.5250441
9.012                0.990407236     -71.6287598
9.013                0.990386278     -71.7327226
9.014                0.990365258     -71.8369332
9.015                0.990344173     -71.9413924
9.016                0.990323025     -72.0461009
9.017                0.990301813     -72.1510595
9.018                0.990280537      -72.256269
9.019                0.990259196       -72.36173
9.02                 0.990237791     -72.4674433
9.021                0.990216321     -72.5734097
9.022                0.990194787     -72.6796299
9.023                0.990173188     -72.7861047
9.024                0.990151524     -72.8928348
9.025                0.990129794      -72.999821
9.026                   0.990108     -73.1070641
9.027                0.990086139     -73.2145648
9.028                0.990064214     -73.3223239
9.029                0.990042222     -73.4303421
9.03                 0.990020164     -73.5386203
9.031                0.989998041     -73.6471592
9.032                0.989975851     -73.7559596
9.033                0.989953594     -73.8650222
9.034                0.989931271     -73.9743478
9.035                0.989908882     -74.0839372
9.036                0.989886425     -74.1937913
9.037                0.989863902     -74.3039107
9.038                0.989841312     -74.4142962
9.039                0.989818654     -74.5249488
9.04                 0.989795929      -74.635869
9.041                0.989773136     -74.7470578
9.042                0.989750275     -74.8585159
9.043                0.989727347     -74.9702441
9.044                 0.98970435     -75.0822432
9.045                0.989681286     -75.1945141
9.046                0.989658153     -75.3070574
9.047                0.989634952     -75.4198741
9.048                0.989611682     -75.5329649
9.049                0.989588343     -75.6463306
9.05                 0.989564936     -75.7599721
9.051                0.989541459     -75.8738901
9.052                0.989517914     -75.9880855
9.053                0.989494299     -76.1025591
9.054                0.989470614     -76.2173117
9.055                0.989446861      -76.332344
9.056                0.989423037      -76.447657
9.057                0.989399144     -76.5632515
9.058                 0.98937518     -76.6791283
9.059                0.989351147     -76.7952881
9.06                 0.989327043     -76.9117319
9.061                0.989302869     -77.0284605
9.062                0.989278624     -77.1454746
9.063                0.989254309     -77.2627752
9.064                0.989229922      -77.380363
9.065                0.989205465     -77.4982389
9.066                0.989180937     -77.6164038
9.067                0.989156338     -77.7348585
9.068                0.989131667     -77.8536038
9.069                0.989106925     -77.9726405
9.07                 0.989082112     -78.0919696
9.071                0.989057227     -78.2115918
9.072                 0.98903227      -78.331508
9.073                0.989007241     -78.4517191
9.074                 0.98898214     -78.5722259
9.075                0.988956966     -78.6930293
9.076                0.988931721     -78.8141301
9.077                0.988906403     -78.9355291
9.078                0.988881012     -79.0572274
9.079                0.988855549     -79.1792256
9.08                 0.988830013     -79.3015247
9.081                0.988804404     -79.4241255
9.082                0.988778722     -79.5470289
9.083                0.988752968     -79.6702358
9.084                0.988727139      -79.793747
9.085                0.988701238     -79.9175635
9.086                0.988675263      -80.041686
9.087                0.988649214     -80.1661155
9.088                0.988623092     -80.2908528
9.089                0.988596896     -80.4158988
9.09                 0.988570626     -80.5412544
9.091                0.988544282     -80.6669204
9.092                0.988517864     -80.7928978
9.093                0.988491372     -80.9191875
9.094                0.988464805     -81.0457903
9.095                0.988438164     -81.1727071
9.096                0.988411449     -81.2999387
9.097                0.988384659     -81.4274862
9.098                0.988357794     -81.5553503
9.099                0.988330855     -81.6835321
9.1                   0.98830384     -81.8120322
9.101                0.988276751     -81.9408518
9.102                0.988249587     -82.0699916
9.103                0.988222347     -82.1994525
9.104                0.988195032     -82.3292355
9.105                0.988167642     -82.4593415
9.106                0.988140177     -82.5897713
9.107                0.988112636     -82.7205259
9.108                0.988085019     -82.8516061
9.109                0.988057327      -82.983013
9.11                  0.98802956     -83.1147473
9.111                0.988001716       -83.24681
9.112                0.987973797      -83.379202
9.113                0.987945801     -83.5119242
9.114                 0.98791773     -83.6449775
9.115                0.987889583     -83.7783628
9.116                0.987861359     -83.9120811
9.117                 0.98783306     -84.0461333
9.118                0.987804684     -84.1805203
9.119                0.987776231     -84.3152429
9.12                 0.987747703     -84.4503022
9.121                0.987719098      -84.585699
9.122                0.987690417     -84.7214343
9.123                0.987661659     -84.8575089
9.124                0.987632824     -84.9939239
9.125                0.987603913       -85.13068
9.126                0.987574925     -85.2677784
9.127                0.987545861     -85.4052198
9.128                 0.98751672     -85.5430052
9.129                0.987487502     -85.6811355
9.13                 0.987458207     -85.8196117
9.131                0.987428836     -85.9584347
9.132                0.987399387     -86.0976054
9.133                0.987369862     -86.2371248
9.134                 0.98734026     -86.3769937
9.135                0.987310581     -86.5172132
9.136                0.987280825      -86.657784
9.137                0.987250992     -86.7987073
9.138                0.987221082     -86.9399838
9.139                0.987191095     -87.0816146
9.14                 0.987161031     -87.2236006
9.141                 0.98713089     -87.3659427
9.142                0.987100671     -87.5086418
9.143                0.987070376      -87.651699
9.144                0.987040004      -87.795115
9.145                0.987009555     -87.9388909
9.146                0.986979029     -88.0830276
9.147                0.986948426      -88.227526
9.148                0.986917746     -88.3723871
9.149                0.986886989     -88.5176118
9.15                 0.986856155      -88.663201
9.151                0.986825244     -88.8091557
9.152                0.986794256     -88.9554768
9.153                0.986763191     -89.1021653
9.154                 0.98673205     -89.2492221
9.155                0.986700831     -89.3966482
9.156                0.986669536     -89.5444444
9.157                0.986638164     -89.6926117
9.158                0.986606716      -89.841151
9.159                0.986575191     -89.9900634
9.16                 0.986543589     -90.1393497
9.161                0.986511911     -90.2890109
9.162                0.986480156     -90.4390478
9.163                0.986448325     -90.5894615
9.164                0.986416417     -90.7402529
9.165                0.986384433     -90.8914229
9.166                0.986352374     -91.0429725
9.167                0.986320237     -91.1949026
9.168                0.986288025      -91.347214
9.169                0.986255737     -91.4999079
9.17                 0.986223373      -91.652985
9.171                0.986190934     -91.8064464
9.172                0.986158418      -91.960293
9.173                0.986125827     -92.1145256
9.174                0.986093161     -92.2691453
9.175                0.986060419     -92.4241529
9.176                0.986027602     -92.5795494
9.177                 0.98599471     -92.7353358
9.178                0.985961742     -92.8915129
9.179                  0.9859287     -93.0480817
9.18                 0.985895583     -93.2050431
9.181                0.985862392      -93.362398
9.182                0.985829126     -93.5201474
9.183                0.985795785     -93.6782921
9.184                0.985762371     -93.8368332
9.185                0.985728882     -93.9957715
9.186                0.985695319     -94.1551079
9.187                0.985661683     -94.3148434
9.188                0.985627973     -94.4749789
9.189                0.985594189     -94.6355153
9.19                 0.985560333     -94.7964535
9.191                0.985526403     -94.9577944
9.192                0.985492401     -95.1195389
9.193                0.985458325      -95.281688
9.194                0.985424177     -95.4442426
9.195                0.985389957     -95.6072035
9.196                0.985355665     -95.7705716
9.197                0.985321301      -95.934348
9.198                0.985286865     -96.0985334
9.199                0.985252358     -96.2631287
9.2                   0.98521778     -96.4281349
9.201                 0.98518313     -96.5935529
9.202                 0.98514841     -96.7593835
9.203                0.985113619     -96.9256276
9.204                0.985078758     -97.0922862
9.205                0.985043827     -97.2593601
9.206                0.985008826     -97.4268501
9.207                0.984973755     -97.5947572
9.208                0.984938615     -97.7630823
9.209                0.984903407     -97.9318262
9.21                 0.984868129     -98.1009898
9.211                0.984832783     -98.2705739
9.212                0.984797369     -98.4405795
9.213                0.984761888     -98.6110073
9.214                0.984726338     -98.7818583
9.215                0.984690721     -98.9531333
9.216                0.984655038     -99.1248332
9.217                0.984619288     -99.2969588
9.218                0.984583471     -99.4695109
9.219                0.984547589     -99.6424905
9.22                 0.984511641     -99.8158983
9.221                0.984475628     -99.9897352
9.222                0.984439549     -100.164002
9.223                0.984403407       -100.3387
9.224                  0.9843672     -100.513829
9.225                0.984330929      -100.68939
9.226                0.984294595     -100.865385
9.227                0.984258198     -101.041814
9.228                0.984221738     -101.218677
9.229                0.984185215     -101.395977
9.23                 0.984148631     -101.573712
9.231                0.984111986     -101.751885
9.232                0.984075279     -101.930496
9.233                0.984038512     -102.109546
9.234                0.984001684     -102.289036
9.235                0.983964797     -102.468966
9.236                0.983927851     -102.649337
9.237                0.983890845      -102.83015
9.238                0.983853781     -103.011406
9.239                 0.98381666     -103.193105
9.24                 0.983779481     -103.375248
9.241                0.983742244     -103.557837
9.242                0.983704952     -103.740871
9.243                0.983667603     -103.924352
9.244                0.983630199      -104.10828
9.245                 0.98359274     -104.292655
9.246                0.983555226      -104.47748
9.247                0.983517659     -104.662754
9.248                0.983480038     -104.848478
9.249                0.983442364     -105.034653
9.25                 0.983404638     -105.221279
9.251                 0.98336686     -105.408358
9.252                0.983329031     -105.595889
9.253                0.983291151     -105.783874
9.254                0.983253221     -105.972314
9.255                0.983215242     -106.161208
9.256                0.983177214     -106.350558
9.257                0.983139137     -106.540364
9.258                0.983101013     -106.730627
9.259                0.983062842     -106.921348
9.26                 0.983024625     -107.112526
9.261                0.982986362     -107.304164
9.262                0.982948053     -107.496261
9.263                0.982909701     -107.688818
9.264                0.982871304     -107.881836
9.265                0.982832865     -108.075315
9.266                0.982794383     -108.269256
9.267                0.982755859      -108.46366
9.268                0.982717294     -108.658527
9.269                0.982678689     -108.853857
9.27                 0.982640044     -109.049651
9.271                 0.98260136      -109.24591
9.272                0.982562638     -109.442635
9.273                0.982523879     -109.639825
9.274                0.982485083     -109.837482
9.275                0.982446251     -110.035605
9.276                0.982407384     -110.234196
9.277                0.982368482     -110.433255
9.278                0.982329547     -110.632783
9.279                0.982290579     -110.832779
9.28                 0.982251579     -111.033244
9.281                0.982212548      -111.23418
9.282                0.982173487     -111.435586
9.283                0.982134396     -111.637462
9.284                0.982095276      -111.83981
9.285                0.982056129     -112.042629
9.286                0.982016954     -112.245921
9.287                0.981977754     -112.449685
9.288                0.981938528     -112.653922
9.289                0.981899278     -112.858632
9.29                 0.981860004     -113.063816
9.291                0.981820708     -113.269474
9.292                0.981781391     -113.475607
9.293                0.981742052     -113.682214
9.294                0.981702694     -113.889296
9.295                0.981663317     -114.096854
9.296                0.981623923     -114.304888
9.297                0.981584511     -114.513397
9.298                0.981545083     -114.722383
9.299                0.981505641     -114.931846
9.3                  0.981466185     -115.141786
9.301                0.981426715     -115.352203
9.302                0.981387234     -115.563097
9.303                0.981347742      -115.77447
9.304                 0.98130824      -115.98632
9.305                0.981268729     -116.198648
9.306                0.981229211     -116.411455
9.307                0.981189686     -116.624741
9.308                0.981150155     -116.838505
9.309                 0.98111062     -117.052748
9.31                 0.981071081      -117.26747
9.311                 0.98103154     -117.482672
9.312                0.980991997     -117.698353
9.313                0.980952455     -117.914513
9.314                0.980912914     -118.131153
9.315                0.980873374     -118.348273
9.316                0.980833838     -118.565873
9.317                0.980794307     -118.783952
9.318                0.980754781     -119.002512
9.319                0.980715262     -119.221551
9.32                 0.980675752     -119.441071
9.321                 0.98063625     -119.661071
9.322                0.980596759      -119.88155
9.323                0.980557279      -120.10251
9.324                0.980517813     -120.323949
9.325                 0.98047836     -120.545869
9.326                0.980438923     -120.768269
9.327                0.980399503     -120.991148
9.328                  0.9803601     -121.214507
9.329                0.980320717     -121.438346
9.33                 0.980281355     -121.662664
9.331                0.980242014     -121.887462
9.332                0.980202696     -122.112739
9.333                0.980163403     -122.338495
9.334                0.980124135     -122.564731
9.335                0.980084895     -122.791444
9.336                0.980045683     -123.018637
9.337                  0.9800065     -123.246308
9.338                0.979967349     -123.474457
9.339                0.979928231     -123.703083
9.34                 0.979889147     -123.932188
9.341                0.979850097     -124.161769
9.342                0.979811085     -124.391828
9.343                0.979772111     -124.622363
9.344                0.979733176     -124.853375
9.345                0.979694283     -125.084862
9.346                0.979655432     -125.316826
9.347                0.979616625     -125.549264
9.348                0.979577863     -125.782178
9.349                0.979539148     -126.015565
9.35                 0.979500482     -126.249427
9.351                0.979461865     -126.483763
9.352                  0.9794233     -126.718571
9.353                0.979384788     -126.953852
9.354                 0.97934633     -127.189605
9.355                0.979307927      -127.42583
9.356                0.979269583     -127.662526
9.357                0.979231297     -127.899692
9.358                0.979193072     -128.137328
9.359                0.979154909     -128.375433
9.36                 0.979116809     -128.614007
9.361                0.979078775     -128.853049
9.362                0.979040807     -129.092559
9.363                0.979002908     -129.332535
9.364                0.978965079     -129.572977
9.365                0.978927322     -129.813885
9.366                0.978889638     -130.055257
9.367                0.978852029     -130.297093
9.368                0.978814496     -130.539392
9.369                0.978777041     -130.782153
9.37                 0.978739666     -131.025376
9.371                0.978702373      -131.26906
9.372                0.978665162     -131.513203
9.373                0.978628037     -131.757806
9.374                0.978590998     -132.002867
9.375                0.978554047     -132.248384
9.376                0.978517185     -132.494358
9.377                0.978480416     -132.740788
9.378                0.978443739     -132.987672
9.379                0.978407158     -133.235009
9.38                 0.978370673     -133.482799
9.381                0.978334286      -133.73104
9.382                   0.978298     -133.979731
9.383                0.978261815     -134.228872
9.384                0.978225734     -134.478461
9.385                0.978189758     -134.728497
9.386                 0.97815389     -134.978978
9.387                 0.97811813     -135.229905
9.388                 0.97808248     -135.481276
9.389                0.978046944     -135.733088
9.39                 0.978011521     -135.985343
9.391                0.977976214     -136.238037
9.392                0.977941025      -136.49117
9.393                0.977905955      -136.74474
9.394                0.977871006     -136.998747
9.395                0.977836181     -137.253188
9.396                 0.97780148     -137.508063
