! TOUCHSTONE file generated by CST DESIGN STUDIO
! Date and time: Tue Feb  4 17:52:48 2025
! Project name: C:\Work\MatlabApps\UnitCellOptimizationMatlab\CST\unitcell.cst
! Tree item: Tasks\Sweep1\SPara1\S-Parameters
! Header version: 2024
! Port assignment regex: !\s*Touchstone port\s*([0-9]+)\s*=\s*(CST MWS port|CST DES external port|CST DES block port)\s*(.+)\s* \(\"(.*)\"\)(\s*mode\s*([0-9]+))?.*
! Touchstone port assignment:
! Touchstone port 1 = CST DES external port 1 ("")
# GHz S MA R 50
9                    0.956209665     -75.2780396
9.001                0.956079172     -75.3970534
9.002                0.955948263     -75.5163801
9.003                0.955816939     -75.6360207
9.004                0.955685198     -75.7559761
9.005                 0.95555304     -75.8762474
9.006                0.955420462     -75.9968356
9.007                0.955287465     -76.1177417
9.008                0.955154046     -76.2389668
9.009                0.955020206     -76.3605118
9.01                 0.954885942     -76.4823778
9.011                0.954751253     -76.6045658
9.012                0.954616139     -76.7270769
9.013                0.954480599      -76.849912
9.014                0.954344631     -76.9730723
9.015                0.954208235     -77.0965588
9.016                0.954071408     -77.2203724
9.017                0.953934151     -77.3445143
9.018                0.953796462     -77.4689855
9.019                 0.95365834     -77.5937871
9.02                 0.953519784     -77.7189201
9.021                0.953380793     -77.8443855
9.022                0.953241366     -77.9701845
9.023                0.953101501      -78.096318
9.024                0.952961199     -78.2227872
9.025                0.952820457     -78.3495931
9.026                0.952679275     -78.4767369
9.027                0.952537652     -78.6042194
9.028                0.952395587     -78.7320419
9.029                0.952253078     -78.8602054
9.03                 0.952110125     -78.9887111
9.031                0.951966727     -79.1175598
9.032                0.951822882     -79.2467529
9.033                 0.95167859     -79.3762913
9.034                 0.95153385     -79.5061761
9.035                 0.95138866     -79.6364085
9.036                0.951243021     -79.7669895
9.037                 0.95109693     -79.8979203
9.038                0.950950386     -80.0292018
9.039                 0.95080339     -80.1608353
9.04                  0.95065594     -80.2928219
9.041                0.950508034     -80.4251626
9.042                0.950359673     -80.5578585
9.043                0.950210854     -80.6909108
9.044                0.950061578     -80.8243206
9.045                0.949911843      -80.958089
9.046                0.949761649     -81.0922171
9.047                0.949610994      -81.226706
9.048                0.949459877      -81.361557
9.049                0.949308298      -81.496771
9.05                 0.949156256     -81.6323492
9.051                 0.94900375     -81.7682928
9.052                0.948850778     -81.9046029
9.053                0.948697341     -82.0412806
9.054                0.948543438     -82.1783271
9.055                0.948389067     -82.3157435
9.056                0.948234227     -82.4535309
9.057                0.948078919     -82.5916905
9.058                 0.94792314     -82.7302234
9.059                0.947766891     -82.8691309
9.06                  0.94761017     -83.0084139
9.061                0.947452977     -83.1480738
9.062                0.947295311     -83.2881116
9.063                0.947137171     -83.4285285
9.064                0.946978556     -83.5693257
9.065                0.946819466     -83.7105043
9.066                  0.9466599     -83.8520655
9.067                0.946499857     -83.9940104
9.068                0.946339337     -84.1363402
9.069                0.946178339     -84.2790562
9.07                 0.946016862     -84.4221594
9.071                0.945854905      -84.565651
9.072                0.945692468     -84.7095322
9.073                 0.94552955     -84.8538042
9.074                0.945366151     -84.9984681
9.075                0.945202269     -85.1435252
9.076                0.945037905     -85.2889767
9.077                0.944873058     -85.4348236
9.078                0.944707727     -85.5810672
9.079                0.944541911     -85.7277086
9.08                  0.94437561     -85.8747491
9.081                0.944208824     -86.0221899
9.082                0.944041552     -86.1700321
9.083                0.943873793     -86.3182769
9.084                0.943705547     -86.4669256
9.085                0.943536814     -86.6159792
9.086                0.943367592     -86.7654391
9.087                0.943197882     -86.9153064
9.088                0.943027683     -87.0655823
9.089                0.942856995      -87.216268
9.09                 0.942685817     -87.3673647
9.091                0.942514149     -87.5188737
9.092                 0.94234199      -87.670796
9.093                 0.94216934     -87.8231329
9.094                  0.9419962     -87.9758857
9.095                0.941822567     -88.1290555
9.096                0.941648443     -88.2826436
9.097                0.941473827     -88.4366511
9.098                0.941298718     -88.5910792
9.099                0.941123117     -88.7459292
9.1                  0.940947023     -88.9012023
9.101                0.940770435     -89.0568997
9.102                0.940593355     -89.2130226
9.103                0.940415781     -89.3695722
9.104                0.940237713     -89.5265497
9.105                0.940059151     -89.6839563
9.106                0.939880096     -89.8417933
9.107                0.939700547     -90.0000619
9.108                0.939520503     -90.1587632
9.109                0.939339966     -90.3178986
9.11                 0.939158934     -90.4774692
9.111                0.938977409     -90.6374762
9.112                0.938795389     -90.7979208
9.113                0.938612875     -90.9588043
9.114                0.938429867     -91.1201279
9.115                0.938246365     -91.2818928
9.116                0.938062369     -91.4441002
9.117                0.937877879     -91.6067514
9.118                0.937692896     -91.7698474
9.119                 0.93750742     -91.9333897
9.12                  0.93732145     -92.0973793
9.121                0.937134987     -92.2618176
9.122                0.936948031     -92.4267056
9.123                0.936760583     -92.5920446
9.124                0.936572643      -92.757836
9.125                0.936384211     -92.9240807
9.126                0.936195287     -93.0907801
9.127                0.936005872     -93.2579354
9.128                0.935815967     -93.4255478
9.129                0.935625571     -93.5936185
9.13                 0.935434685     -93.7621487
9.131                 0.93524331     -93.9311397
9.132                0.935051446     -94.1005925
9.133                0.934859093     -94.2705085
9.134                0.934666253     -94.4408889
9.135                0.934472926     -94.6117348
9.136                0.934279112     -94.7830474
9.137                0.934084813      -94.954828
9.138                0.933890028     -95.1270777
9.139                0.933694758     -95.2997978
9.14                 0.933499005     -95.4729895
9.141                0.933302769     -95.6466539
9.142                0.933106051     -95.8207922
9.143                0.932908852     -95.9954056
9.144                0.932711172     -96.1704954
9.145                0.932513013     -96.3460627
9.146                0.932314375     -96.5221087
9.147                 0.93211526     -96.6986345
9.148                0.931915668     -96.8756415
9.149                  0.9317156     -97.0531306
9.15                 0.931515058     -97.2311032
9.151                0.931314043     -97.4095604
9.152                0.931112556     -97.5885033
9.153                0.930910597     -97.7679332
9.154                0.930708169     -97.9478511
9.155                0.930505272     -98.1282583
9.156                0.930301908      -98.309156
9.157                0.930098078     -98.4905452
9.158                0.929893784     -98.6724272
9.159                0.929689026      -98.854803
9.16                 0.929483807     -99.0376739
9.161                0.929278127     -99.2210409
9.162                0.929071989     -99.4049053
9.163                0.928865394     -99.5892681
9.164                0.928658343     -99.7741305
9.165                0.928450838     -99.9594936
9.166                0.928242881     -100.145359
9.167                0.928034474     -100.331726
9.168                0.927825618     -100.518598
9.169                0.927616315     -100.705976
9.17                 0.927406567     -100.893859
9.171                0.927196376      -101.08225
9.172                0.926985743     -101.271149
9.173                0.926774671     -101.460558
9.174                0.926563162     -101.650478
9.175                0.926351218      -101.84091
9.176                0.926138841     -102.031854
9.177                0.925926032     -102.223312
9.178                0.925712796     -102.415286
9.179                0.925499132     -102.607775
9.18                 0.925285044     -102.800781
9.181                0.925070535     -102.994306
9.182                0.924855606      -103.18835
9.183                 0.92464026     -103.382914
9.184                  0.9244245     -103.577999
9.185                0.924208327     -103.773607
9.186                0.923991745     -103.969738
9.187                0.923774756     -104.166394
9.188                0.923557363     -104.363575
9.189                0.923339569     -104.561282
9.19                 0.923121376     -104.759517
9.191                0.922902787      -104.95828
9.192                0.922683805     -105.157572
9.193                0.922464433     -105.357395
9.194                0.922244674     -105.557749
9.195                0.922024532     -105.758635
9.196                0.921804008     -105.960054
9.197                0.921583106     -106.162008
9.198                 0.92136183     -106.364497
9.199                0.921140182     -106.567522
9.2                  0.920918166     -106.771083
9.201                0.920695786     -106.975183
9.202                0.920473044     -107.179822
9.203                0.920249945        -107.385
9.204                0.920026491     -107.590718
9.205                0.919802686     -107.796978
9.206                0.919578534     -108.003781
9.207                0.919354039     -108.211126
9.208                0.919129204     -108.419016
9.209                0.918904033     -108.627451
9.21                  0.91867853     -108.836431
9.211                0.918452699     -109.045958
9.212                0.918226544     -109.256032
9.213                0.918000069     -109.466654
9.214                0.917773278     -109.677825
9.215                0.917546175     -109.889546
9.216                0.917318764     -110.101817
9.217                 0.91709105      -110.31464
9.218                0.916863036     -110.528015
9.219                0.916634729     -110.741942
9.22                  0.91640613     -110.956423
9.221                0.916177247     -111.171458
9.222                0.915948082     -111.387048
9.223                 0.91571864     -111.603194
9.224                0.915488927     -111.819896
9.225                0.915258947     -112.037155
9.226                0.915028705     -112.254971
9.227                0.914798206     -112.473346
9.228                0.914567454     -112.692279
9.229                0.914336455     -112.911773
9.23                 0.914105214     -113.131826
9.231                0.913873735      -113.35244
9.232                0.913642025     -113.573615
9.233                0.913410089     -113.795352
9.234                0.913177931     -114.017652
9.235                0.912945557     -114.240515
9.236                0.912712973     -114.463941
9.237                0.912480184     -114.687931
9.238                0.912247197     -114.912485
9.239                0.912014015     -115.137605
9.24                 0.911780646      -115.36329
9.241                0.911547095     -115.589541
9.242                0.911313368     -115.816358
9.243                0.911079471     -116.043743
9.244                 0.91084541     -116.271694
9.245                0.910611191     -116.500213
9.246                0.910376819       -116.7293
9.247                0.910142303     -116.958955
9.248                0.909907647     -117.189179
9.249                0.909672858     -117.419972
9.25                 0.909437942     -117.651335
9.251                0.909202906     -117.883267
9.252                0.908967757     -118.115768
9.253                0.908732501     -118.348841
9.254                0.908497145     -118.582483
9.255                0.908261695     -118.816696
9.256                0.908026159      -119.05148
9.257                0.907790543     -119.286835
9.258                0.907554855     -119.522762
9.259                0.907319101     -119.759259
9.26                 0.907083288     -119.996329
9.261                0.906847424      -120.23397
9.262                0.906611516     -120.472182
9.263                0.906375571     -120.710967
9.264                0.906139597     -120.950323
9.265                0.905903601     -121.190252
9.266                 0.90566759     -121.430752
9.267                0.905431573     -121.671824
9.268                0.905195557     -121.913469
9.269                0.904959549     -122.155685
9.27                 0.904723558     -122.398473
9.271                0.904487592     -122.641833
9.272                0.904251657     -122.885764
9.273                0.904015763     -123.130268
9.274                0.903779918     -123.375342
9.275                0.903544128     -123.620988
9.276                0.903308404     -123.867205
9.277                0.903072753     -124.113993
9.278                0.902837183     -124.361352
9.279                0.902601704     -124.609281
9.28                 0.902366322     -124.857781
9.281                0.902131048      -125.10685
9.282                0.901895889     -125.356489
9.283                0.901660855     -125.606697
9.284                0.901425954     -125.857473
9.285                0.901191194     -126.108819
9.286                0.900956586     -126.360732
9.287                0.900722137     -126.613213
9.288                0.900487857     -126.866262
9.289                0.900253756     -127.119877
9.29                 0.900019841     -127.374058
9.291                0.899786122     -127.628805
9.292                 0.89955261     -127.884117
9.293                0.899319312     -128.139994
9.294                0.899086239     -128.396435
9.295                0.898853399     -128.653439
9.296                0.898620803     -128.911005
9.297                0.898388461     -129.169134
9.298                 0.89815638     -129.427824
9.299                0.897924573     -129.687075
9.3                  0.897693048     -129.946886
9.301                0.897461815     -130.207255
9.302                0.897230884     -130.468183
9.303                0.897000265     -130.729668
9.304                0.896769968      -130.99171
9.305                0.896540003     -131.254308
9.306                0.896310381      -131.51746
9.307                0.896081111     -131.781166
9.308                0.895852204     -132.045426
9.309                 0.89562367     -132.310236
9.31                  0.89539552     -132.575598
9.311                0.895167764      -132.84151
9.312                0.894940412      -133.10797
9.313                0.894713475     -133.374978
9.314                0.894486963     -133.642533
9.315                0.894260888     -133.910632
9.316                0.894035259     -134.179276
9.317                0.893810089     -134.448463
9.318                0.893585386     -134.718192
9.319                0.893361163      -134.98846
9.32                  0.89313743     -135.259268
9.321                0.892914197     -135.530614
9.322                0.892691477     -135.802496
9.323                 0.89246928     -136.074913
9.324                0.892247617     -136.347864
9.325                0.892026499     -136.621347
9.326                0.891805937      -136.89536
9.327                0.891585943     -137.169902
9.328                0.891366527     -137.444972
9.329                0.891147702     -137.720568
9.33                 0.890929477     -137.996689
9.331                0.890711866     -138.273332
9.332                0.890494878     -138.550496
9.333                0.890278525      -138.82818
9.334                0.890062819     -139.106381
9.335                0.889847772     -139.385098
9.336                0.889633394     -139.664329
9.337                0.889419698     -139.944073
9.338                0.889206694     -140.224327
9.339                0.888994395     -140.505089
9.34                 0.888782811     -140.786358
9.341                0.888571955     -141.068132
9.342                0.888361839     -141.350408
9.343                0.888152473     -141.633186
9.344                 0.88794387     -141.916461
9.345                0.887736042     -142.200234
9.346                0.887528999     -142.484501
9.347                0.887322754      -142.76926
9.348                0.887117319     -143.054509
9.349                0.886912705     -143.340247
9.35                 0.886708924      -143.62647
9.351                0.886505988     -143.913176
9.352                0.886303908     -144.200364
9.353                0.886102697      -144.48803
9.354                0.885902367     -144.776173
9.355                0.885702928      -145.06479
9.356                0.885504394     -145.353879
9.357                0.885306775     -145.643437
9.358                0.885110084     -145.933461
9.359                0.884914332      -146.22395
9.36                 0.884719532       -146.5149
9.361                0.884525694      -146.80631
9.362                0.884332832     -147.098176
9.363                0.884140956     -147.390495
9.364                0.883950078     -147.683266
9.365                0.883760211     -147.976485
9.366                0.883571365      -148.27015
9.367                0.883383554     -148.564257
9.368                0.883196788     -148.858805
9.369                0.883011079     -149.153789
9.37                 0.882826439     -149.449208
9.371                0.882642879     -149.745059
9.372                0.882460412     -150.041337
9.373                0.882279048     -150.338042
9.374                  0.8820988     -150.635168
9.375                 0.88191968     -150.932715
9.376                0.881741697     -151.230677
9.377                0.881564865     -151.529053
9.378                0.881389194     -151.827839
9.379                0.881214696     -152.127032
9.38                 0.881041383     -152.426629
9.381                0.880869265     -152.726626
9.382                0.880698354     -153.027021
9.383                0.880528662     -153.327809
9.384                  0.8803602     -153.628989
9.385                0.880192978     -153.930556
9.386                0.880027008     -154.232506
9.387                0.879862301     -154.534838
9.388                0.879698869     -154.837546
9.389                0.879536721     -155.140628
9.39                 0.879375869      -155.44408
9.391                0.879216325     -155.747899
9.392                0.879058098     -156.052081
9.393                0.878901199     -156.356623
9.394                 0.87874564      -156.66152
9.395                 0.87859143      -156.96677
9.396                0.878438581     -157.272368
