! TOUCHSTONE file generated by CST DESIGN STUDIO
! Date and time: Tue Feb  4 17:52:55 2025
! Project name: C:\Work\MatlabApps\UnitCellOptimizationMatlab\CST\unitcell.cst
! Tree item: Tasks\Sweep1\SPara1\S-Parameters
! Header version: 2024
! Port assignment regex: !\s*Touchstone port\s*([0-9]+)\s*=\s*(CST MWS port|CST DES external port|CST DES block port)\s*(.+)\s* \(\"(.*)\"\)(\s*mode\s*([0-9]+))?.*
! Touchstone port assignment:
! Touchstone port 1 = CST DES external port 1 ("")
# GHz S MA R 50
9                    0.964735179     -59.2912043
9.001                0.964650124     -59.3734288
9.002                0.964564773      -59.455843
9.003                0.964479125     -59.5384477
9.004                0.964393179     -59.6212433
9.005                0.964306934     -59.7042304
9.006                 0.96422039     -59.7874098
9.007                0.964133546      -59.870782
9.008                  0.9640464     -59.9543476
9.009                0.963958951     -60.0381073
9.01                   0.9638712     -60.1220616
9.011                0.963783145     -60.2062112
9.012                0.963694785     -60.2905567
9.013                0.963606119     -60.3750988
9.014                0.963517146      -60.459838
9.015                0.963427866      -60.544775
9.016                0.963338277     -60.6299104
9.017                0.963248379     -60.7152449
9.018                0.963158171     -60.8007791
9.019                0.963067651     -60.8865136
9.02                 0.962976819     -60.9724491
9.021                0.962885674     -61.0585862
9.022                0.962794215     -61.1449256
9.023                0.962702442     -61.2314679
9.024                0.962610352     -61.3182138
9.025                0.962517946     -61.4051639
9.026                0.962425222     -61.4923189
9.027                0.962332179     -61.5796795
9.028                0.962238817     -61.6672462
9.029                0.962145135     -61.7550198
9.03                 0.962051131     -61.8430009
9.031                0.961956804     -61.9311903
9.032                0.961862155     -62.0195885
9.033                0.961767181     -62.1081962
9.034                0.961671882     -62.1970142
9.035                0.961576258      -62.286043
9.036                0.961480306     -62.3752834
9.037                0.961384026     -62.4647361
9.038                0.961287417     -62.5544017
9.039                0.961190478      -62.644281
9.04                 0.961093209     -62.7343746
9.041                0.960995608     -62.8246831
9.042                0.960897674     -62.9152074
9.043                0.960799406     -63.0059481
9.044                0.960700804     -63.0969059
9.045                0.960601866     -63.1880815
9.046                0.960502592     -63.2794756
9.047                 0.96040298     -63.3710889
9.048                 0.96030303     -63.4629221
9.049                 0.96020274      -63.554976
9.05                  0.96010211     -63.6472513
9.051                0.960001138     -63.7397485
9.052                0.959899824     -63.8324686
9.053                0.959798167     -63.9254122
9.054                0.959696165       -64.01858
9.055                0.959593818     -64.1119728
9.056                0.959491125     -64.2055913
9.057                0.959388085     -64.2994362
9.058                0.959284696     -64.3935083
9.059                0.959180958     -64.4878082
9.06                  0.95907687     -64.5823368
9.061                0.958972431     -64.6770948
9.062                0.958867639     -64.7720829
9.063                0.958762495     -64.8673018
9.064                0.958656996     -64.9627524
9.065                0.958551143     -65.0584354
9.066                0.958444933     -65.1543515
9.067                0.958338366     -65.2505014
9.068                0.958231441     -65.3468861
9.069                0.958124157     -65.4435061
9.07                 0.958016512     -65.5403623
9.071                0.957908507     -65.6374555
9.072                 0.95780014     -65.7347864
9.073                0.957691409     -65.8323557
9.074                0.957582314     -65.9301644
9.075                0.957472855     -66.0282131
9.076                0.957363029     -66.1265026
9.077                0.957252836     -66.2250337
9.078                0.957142275     -66.3238072
9.079                0.957031345      -66.422824
9.08                 0.956920045     -66.5220847
9.081                0.956808374     -66.6215902
9.082                 0.95669633     -66.7213412
9.083                0.956583914     -66.8213387
9.084                0.956471123     -66.9215833
9.085                0.956357957     -67.0220759
9.086                0.956244415     -67.1228174
9.087                0.956130496     -67.2238084
9.088                0.956016199     -67.3250499
9.089                0.955901522     -67.4265425
9.09                 0.955786466     -67.5282873
9.091                0.955671028     -67.6302849
9.092                0.955555208     -67.7325363
9.093                0.955439004     -67.8350422
9.094                0.955322417     -67.9378034
9.095                0.955205444     -68.0408209
9.096                0.955088085     -68.1440954
9.097                0.954970338     -68.2476278
9.098                0.954852203     -68.3514189
9.099                0.954733679     -68.4554695
9.1                  0.954614765     -68.5597806
9.101                0.954495459      -68.664353
9.102                0.954375761     -68.7691874
9.103                0.954255669     -68.8742848
9.104                0.954135183     -68.9796461
9.105                0.954014302      -69.085272
9.106                0.953893024     -69.1911636
9.107                0.953771349     -69.2973215
9.108                0.953649276     -69.4037467
9.109                0.953526802     -69.5104401
9.11                 0.953403929     -69.6174026
9.111                0.953280654     -69.7246349
9.112                0.953156976     -69.8321381
9.113                0.953032895     -69.9399129
9.114                 0.95290841     -70.0479604
9.115                0.952783519     -70.1562813
9.116                0.952658221     -70.2648765
9.117                0.952532516      -70.373747
9.118                0.952406402     -70.4828937
9.119                0.952279879     -70.5923174
9.12                 0.952152945      -70.702019
9.121                  0.9520256     -70.8119996
9.122                0.951897842     -70.9222599
9.123                0.951769671     -71.0328008
9.124                0.951641085     -71.1436234
9.125                0.951512083     -71.2547285
9.126                0.951382665     -71.3661171
9.127                 0.95125283       -71.47779
9.128                0.951122575     -71.5897482
9.129                0.950991902     -71.7019926
9.13                 0.950860808     -71.8145242
9.131                0.950729292     -71.9273439
9.132                0.950597354     -72.0404526
9.133                0.950464992     -72.1538513
9.134                0.950332206     -72.2675409
9.135                0.950198995     -72.3815223
9.136                0.950065357     -72.4957966
9.137                0.949931291     -72.6103646
9.138                0.949796798     -72.7252274
9.139                0.949661875     -72.8403858
9.14                 0.949526521     -72.9558409
9.141                0.949390737     -73.0715936
9.142                 0.94925452     -73.1876448
9.143                 0.94911787     -73.3039956
9.144                0.948980786     -73.4206469
9.145                0.948843267     -73.5375997
9.146                0.948705312      -73.654855
9.147                0.948566919     -73.7724137
9.148                0.948428089     -73.8902768
9.149                 0.94828882     -74.0084454
9.15                 0.948149111     -74.1269204
9.151                0.948008962     -74.2457027
9.152                 0.94786837     -74.3647935
9.153                0.947727336     -74.4841937
9.154                0.947585859     -74.6039043
9.155                0.947443937     -74.7239263
9.156                 0.94730157     -74.8442607
9.157                0.947158756     -74.9649085
9.158                0.947015496     -75.0858708
9.159                0.946871787     -75.2071485
9.16                 0.946727629     -75.3287426
9.161                0.946583021     -75.4506543
9.162                0.946437963     -75.5728845
9.163                0.946292453     -75.6954342
9.164                 0.94614649     -75.8183045
9.165                0.946000074     -75.9414963
9.166                0.945853204     -76.0650109
9.167                0.945705878      -76.188849
9.168                0.945558097      -76.313012
9.169                0.945409859     -76.4375006
9.17                 0.945261163     -76.5623161
9.171                0.945112008     -76.6874594
9.172                0.944962394     -76.8129316
9.173                 0.94481232     -76.9387338
9.174                0.944661785      -77.064867
9.175                0.944510788     -77.1913323
9.176                0.944359328     -77.3181307
9.177                0.944207405     -77.4452634
9.178                0.944055018     -77.5727312
9.179                0.943902165     -77.7005355
9.18                 0.943748847     -77.8286771
9.181                0.943595062     -77.9571573
9.182                 0.94344081      -78.085977
9.183                0.943286089     -78.2151374
9.184                  0.9431309     -78.3446395
9.185                0.942975241     -78.4744844
9.186                0.942819111     -78.6046732
9.187                0.942662511     -78.7352071
9.188                0.942505438      -78.866087
9.189                0.942347893     -78.9973141
9.19                 0.942189875     -79.1288896
9.191                0.942031383     -79.2608144
9.192                0.941872416     -79.3930897
9.193                0.941712973     -79.5257166
9.194                0.941553055     -79.6586963
9.195                 0.94139266     -79.7920297
9.196                0.941231787     -79.9257181
9.197                0.941070437     -80.0597626
9.198                0.940908608     -80.1941643
9.199                0.940746299     -80.3289242
9.2                  0.940583511     -80.4640436
9.201                0.940420242     -80.5995235
9.202                0.940256492     -80.7353652
9.203                0.940092261     -80.8715696
9.204                0.939927547      -81.008138
9.205                 0.93976235     -81.1450714
9.206                 0.93959667     -81.2823711
9.207                0.939430506     -81.4200381
9.208                0.939263858     -81.5580737
9.209                0.939096725     -81.6964789
9.21                 0.938929106     -81.8352549
9.211                0.938761001     -81.9744028
9.212                 0.93859241     -82.1139238
9.213                0.938423332     -82.2538191
9.214                0.938253766     -82.3940898
9.215                0.938083713     -82.5347371
9.216                0.937913171     -82.6757621
9.217                 0.93774214      -82.817166
9.218                0.937570621     -82.9589499
9.219                0.937398612     -83.1011151
9.22                 0.937226113     -83.2436627
9.221                0.937053124     -83.3865938
9.222                0.936879644     -83.5299096
9.223                0.936705673     -83.6736114
9.224                0.936531211     -83.8177002
9.225                0.936356258     -83.9621773
9.226                0.936180812     -84.1070439
9.227                0.936004875     -84.2523011
9.228                0.935828445       -84.39795
9.229                0.935651522      -84.543992
9.23                 0.935474107     -84.6904282
9.231                0.935296198     -84.8372597
9.232                0.935117796     -84.9844878
9.233                0.934938901     -85.1321136
9.234                0.934759512     -85.2801384
9.235                0.934579629     -85.4285633
9.236                0.934399252     -85.5773896
9.237                0.934218381     -85.7266184
9.238                0.934037016     -85.8762509
9.239                0.933855157     -86.0262884
9.24                 0.933672803      -86.176732
9.241                0.933489955      -86.327583
9.242                0.933306613     -86.4788425
9.243                0.933122776     -86.6305118
9.244                0.932938445      -86.782592
9.245                 0.93275362     -86.9350845
9.246                  0.9325683     -87.0879903
9.247                0.932382486     -87.2413107
9.248                0.932196179     -87.3950469
9.249                0.932009377     -87.5492001
9.25                 0.931822081     -87.7037716
9.251                0.931634292     -87.8587625
9.252                0.931446009     -88.0141741
9.253                0.931257232     -88.1700076
9.254                0.931067963     -88.3262641
9.255                0.930878201     -88.4829451
9.256                0.930687946     -88.6400515
9.257                0.930497199     -88.7975847
9.258                 0.93030596      -88.955546
9.259                0.930114229     -89.1139364
9.26                 0.929922007     -89.2727572
9.261                0.929729295     -89.4320097
9.262                0.929536091     -89.5916951
9.263                0.929342398     -89.7518146
9.264                0.929148215     -89.9123694
9.265                0.928953543     -90.0733608
9.266                0.928758382     -90.2347899
9.267                0.928562733     -90.3966581
9.268                0.928366597     -90.5589665
9.269                0.928169974     -90.7217163
9.27                 0.927972864     -90.8849088
9.271                0.927775269     -91.0485452
9.272                0.927577188     -91.2126267
9.273                0.927378624     -91.3771546
9.274                0.927179576     -91.5421301
9.275                0.926980044     -91.7075543
9.276                0.926780031     -91.8734286
9.277                0.926579537     -92.0397542
9.278                0.926378562     -92.2065322
9.279                0.926177108     -92.3737639
9.28                 0.925975175     -92.5414505
9.281                0.925772764     -92.7095933
9.282                0.925569876     -92.8781934
9.283                0.925366513     -93.0472521
9.284                0.925162675     -93.2167706
9.285                0.924958363     -93.3867502
9.286                0.924753579      -93.557192
9.287                0.924548323     -93.7280972
9.288                0.924342596     -93.8994671
9.289                0.924136401     -94.0713029
9.29                 0.923929737     -94.2436058
9.291                0.923722607      -94.416377
9.292                0.923515012     -94.5896177
9.293                0.923306952     -94.7633291
9.294                0.923098429     -94.9375125
9.295                0.922889446     -95.1121691
9.296                0.922680002     -95.2872999
9.297                0.922470099     -95.4629063
9.298                 0.92225974     -95.6389895
9.299                0.922048925     -95.8155506
9.3                  0.921837657     -95.9925909
9.301                0.921625936     -96.1701115
9.302                0.921413764     -96.3481136
9.303                0.921201144     -96.5265985
9.304                0.920988076     -96.7055672
9.305                0.920774563      -96.885021
9.306                0.920560606     -97.0649612
9.307                0.920346207     -97.2453887
9.308                0.920131368     -97.4263049
9.309                0.919916091     -97.6077109
9.31                 0.919700378     -97.7896079
9.311                0.919484231      -97.971997
9.312                0.919267652     -98.1548794
9.313                0.919050643     -98.3382563
9.314                0.918833206     -98.5221289
9.315                0.918615344     -98.7064982
9.316                0.918397058     -98.8913654
9.317                 0.91817835     -99.0767317
9.318                0.917959224     -99.2625983
9.319                0.917739682     -99.4489662
9.32                 0.917519725     -99.6358366
9.321                0.917299356     -99.8232107
9.322                0.917078578      -100.01109
9.323                0.916857394     -100.199474
9.324                0.916635805     -100.388366
9.325                0.916413815     -100.577766
9.326                0.916191426     -100.767675
9.327                 0.91596864     -100.958094
9.328                0.915745461     -101.149025
9.329                0.915521892     -101.340469
9.33                 0.915297935     -101.532426
9.331                0.915073593     -101.724897
9.332                0.914848869     -101.917885
9.333                0.914623766     -102.111389
9.334                0.914398288     -102.305412
9.335                0.914172436     -102.499953
9.336                0.913946215     -102.695014
9.337                0.913719628     -102.890597
9.338                0.913492678     -103.086702
9.339                0.913265367      -103.28333
9.34                 0.913037701     -103.480482
9.341                0.912809681     -103.678159
9.342                0.912581312     -103.876363
9.343                0.912352596     -104.075094
9.344                0.912123539     -104.274353
9.345                0.911894142     -104.474142
9.346                 0.91166441     -104.674461
9.347                0.911434347     -104.875311
9.348                0.911203956     -105.076694
9.349                0.910973241      -105.27861
9.35                 0.910742207      -105.48106
9.351                0.910510856     -105.684045
9.352                0.910279194     -105.887566
9.353                0.910047224     -106.091625
9.354                 0.90981495     -106.296221
9.355                0.909582377     -106.501356
9.356                0.909349508     -106.707032
9.357                0.909116349     -106.913248
9.358                0.908882903     -107.120005
9.359                0.908649175     -107.327305
9.36                 0.908415169     -107.535149
9.361                 0.90818089     -107.743537
9.362                0.907946342      -107.95247
9.363                0.907711531     -108.161949
9.364                0.907476461     -108.371974
9.365                0.907241136     -108.582548
9.366                0.907005562      -108.79367
9.367                0.906769744     -109.005341
9.368                0.906533686     -109.217563
9.369                0.906297393     -109.430336
9.37                 0.906060871      -109.64366
9.371                0.905824124     -109.857536
9.372                0.905587159     -110.071966
9.373                 0.90534998      -110.28695
9.374                0.905112592     -110.502489
9.375                0.904875002     -110.718583
9.376                0.904637214     -110.935233
9.377                0.904399234      -111.15244
9.378                0.904161068     -111.370205
9.379                0.903922721     -111.588528
9.38                   0.9036842      -111.80741
9.381                0.903445509     -112.026852
9.382                0.903206655     -112.246853
9.383                0.902967644     -112.467416
9.384                0.902728482      -112.68854
9.385                0.902489174     -112.910226
9.386                0.902249728     -113.132475
9.387                0.902010149     -113.355287
9.388                0.901770443     -113.578663
9.389                0.901530617     -113.802603
9.39                 0.901290677     -114.027109
9.391                0.901050631     -114.252179
9.392                0.900810483     -114.477816
9.393                0.900570241     -114.704019
9.394                0.900329912     -114.930788
9.395                0.900089503     -115.158126
9.396                0.899849019     -115.386031
