! TOUCHSTONE file generated by CST DESIGN STUDIO
! Date and time: Tue Feb  4 17:52:51 2025
! Project name: C:\Work\MatlabApps\UnitCellOptimizationMatlab\CST\unitcell.cst
! Tree item: Tasks\Sweep1\SPara1\S-Parameters
! Header version: 2024
! Port assignment regex: !\s*Touchstone port\s*([0-9]+)\s*=\s*(CST MWS port|CST DES external port|CST DES block port)\s*(.+)\s* \(\"(.*)\"\)(\s*mode\s*([0-9]+))?.*
! Touchstone port assignment:
! Touchstone port 1 = CST DES external port 1 ("")
# GHz S MA R 50
9                    0.960543285     -67.0757405
9.001                0.960440198     -67.1755201
9.002                0.960336733     -67.2755464
9.003                0.960232889       -67.37582
9.004                0.960128664     -67.4763419
9.005                0.960024058     -67.5771127
9.006                0.959919069     -67.6781334
9.007                0.959813696     -67.7794046
9.008                0.959707939     -67.8809273
9.009                0.959601795     -67.9827022
9.01                 0.959495265     -68.0847301
9.011                0.959388346     -68.1870119
9.012                0.959281037     -68.2895483
9.013                0.959173338     -68.3923402
9.014                0.959065248     -68.4953885
9.015                0.958956764     -68.5986938
9.016                0.958847887     -68.7022571
9.017                0.958738614     -68.8060792
9.018                0.958628945      -68.910161
9.019                0.958518879     -69.0145032
9.02                 0.958408415     -69.1191066
9.021                0.958297551     -69.2239723
9.022                0.958186286     -69.3291009
9.023                0.958074619     -69.4344933
9.024                0.957962549     -69.5401504
9.025                0.957850075     -69.6460731
9.026                0.957737196     -69.7522621
9.027                 0.95762391     -69.8587184
9.028                0.957510217     -69.9654427
9.029                0.957396115     -70.0724361
9.03                 0.957281603     -70.1796992
9.031                 0.95716668     -70.2872331
9.032                0.957051345     -70.3950385
9.033                0.956935597     -70.5031164
9.034                0.956819434     -70.6114676
9.035                0.956702856      -70.720093
9.036                0.956585862     -70.8289935
9.037                0.956468449     -70.9381699
9.038                0.956350618     -71.0476232
9.039                0.956232367     -71.1573543
9.04                 0.956113694      -71.267364
9.041                0.955994599     -71.3776532
9.042                0.955875081     -71.4882228
9.043                0.955755138     -71.5990738
9.044                 0.95563477      -71.710207
9.045                0.955513975     -71.8216234
9.046                0.955392752     -71.9333238
9.047                  0.9552711     -72.0453091
9.048                0.955149017     -72.1575804
9.049                0.955026504     -72.2701385
9.05                 0.954903558     -72.3829842
9.051                0.954780178     -72.4961186
9.052                0.954656364     -72.6095426
9.053                0.954532114     -72.7232571
9.054                0.954407428      -72.837263
9.055                0.954282303     -72.9515613
9.056                0.954156739     -73.0661529
9.057                0.954030735     -73.1810387
9.058                 0.95390429     -73.2962197
9.059                0.953777403     -73.4116968
9.06                 0.953650072      -73.527471
9.061                0.953522296     -73.6435432
9.062                0.953394075     -73.7599144
9.063                0.953265407     -73.8765855
9.064                0.953136291     -73.9935576
9.065                0.953006726     -74.1108314
9.066                0.952876711     -74.2284081
9.067                0.952746245     -74.3462886
9.068                0.952615327     -74.4644739
9.069                0.952483956     -74.5829649
9.07                  0.95235213     -74.7017626
9.071                0.952219849      -74.820868
9.072                0.952087112      -74.940282
9.073                0.951953917     -75.0600057
9.074                0.951820263       -75.18004
9.075                 0.95168615      -75.300386
9.076                0.951551576     -75.4210446
9.077                 0.95141654     -75.5420167
9.078                0.951281041     -75.6633035
9.079                0.951145079     -75.7849059
9.08                 0.951008652     -75.9068249
9.081                0.950871759     -76.0290616
9.082                0.950734399     -76.1516168
9.083                0.950596571     -76.2744917
9.084                0.950458274     -76.3976872
9.085                0.950319507     -76.5212044
9.086                0.950180269     -76.6450443
9.087                0.950040559     -76.7692079
9.088                0.949900376     -76.8936962
9.089                 0.94975972     -77.0185102
9.09                 0.949618588     -77.1436511
9.091                 0.94947698     -77.2691197
9.092                0.949334895     -77.3949172
9.093                0.949192333     -77.5210446
9.094                0.949049291     -77.6475029
9.095                 0.94890577     -77.7742932
9.096                0.948761768     -77.9014165
9.097                0.948617284     -78.0288738
9.098                0.948472318     -78.1566662
9.099                0.948326868     -78.2847948
9.1                  0.948180933     -78.4132607
9.101                0.948034513     -78.5420648
9.102                0.947887607     -78.6712082
9.103                0.947740213      -78.800692
9.104                0.947592331     -78.9305173
9.105                 0.94744396     -79.0606851
9.106                0.947295099     -79.1911965
9.107                0.947145748     -79.3220525
9.108                0.946995904     -79.4532543
9.109                0.946845568     -79.5848029
9.11                 0.946694739     -79.7166995
9.111                0.946543415      -79.848945
9.112                0.946391596     -79.9815405
9.113                0.946239281     -80.1144872
9.114                0.946086469     -80.2477862
9.115                 0.94593316     -80.3814385
9.116                0.945779352     -80.5154452
9.117                0.945625045     -80.6498074
9.118                0.945470239     -80.7845262
9.119                0.945314931     -80.9196028
9.12                 0.945159122     -81.0550382
9.121                 0.94500281     -81.1908335
9.122                0.944845996     -81.3269898
9.123                0.944688678     -81.4635083
9.124                0.944530855     -81.6003901
9.125                0.944372527     -81.7376362
9.126                0.944213693     -81.8752477
9.127                0.944054352     -82.0132259
9.128                0.943894504     -82.1515719
9.129                0.943734148     -82.2902866
9.13                 0.943573284     -82.4293713
9.131                 0.94341191     -82.5688272
9.132                0.943250026     -82.7086552
9.133                0.943087632     -82.8488566
9.134                0.942924727     -82.9894325
9.135                0.942761309      -83.130384
9.136                 0.94259738     -83.2717122
9.137                0.942432937     -83.4134184
9.138                0.942267981     -83.5555036
9.139                 0.94210251     -83.6979689
9.14                 0.941936526     -83.8408156
9.141                0.941770026     -83.9840447
9.142                 0.94160301     -84.1276575
9.143                0.941435478      -84.271655
9.144                 0.94126743     -84.4160384
9.145                0.941098864     -84.5608089
9.146                0.940929781     -84.7059676
9.147                 0.94076018     -84.8515157
9.148                 0.94059006     -84.9974543
9.149                0.940419422     -85.1437846
9.15                 0.940248264     -85.2905078
9.151                0.940076587      -85.437625
9.152                 0.93990439     -85.5851373
9.153                0.939731672      -85.733046
9.154                0.939558434     -85.8813522
9.155                0.939384675      -86.030057
9.156                0.939210395     -86.1791618
9.157                0.939035593     -86.3286675
9.158                0.938860269     -86.4785754
9.159                0.938684424     -86.6288867
9.16                 0.938508056     -86.7796025
9.161                0.938331165      -86.930724
9.162                0.938153752     -87.0822524
9.163                0.937975816     -87.2341889
9.164                0.937797357     -87.3865346
9.165                0.937618375     -87.5392908
9.166                0.937438869     -87.6924585
9.167                0.937258841      -87.846039
9.168                0.937078289     -88.0000335
9.169                0.936897213     -88.1544432
9.17                 0.936715614     -88.3092692
9.171                0.936533491     -88.4645127
9.172                0.936350845     -88.6201749
9.173                0.936167676      -88.776257
9.174                0.935983983     -88.9327602
9.175                0.935799766     -89.0896857
9.176                0.935615027     -89.2470346
9.177                0.935429764     -89.4048082
9.178                0.935243978     -89.5630076
9.179                 0.93505767      -89.721634
9.18                 0.934870839     -89.8806886
9.181                0.934683485     -90.0401727
9.182                0.934495609     -90.2000874
9.183                0.934307211     -90.3604338
9.184                0.934118292     -90.5212132
9.185                0.933928851     -90.6824268
9.186                0.933738889     -90.8440758
9.187                0.933548406     -91.0061613
9.188                0.933357403     -91.1686845
9.189                0.933165881     -91.3316467
9.19                 0.932973838     -91.4950491
9.191                0.932781277     -91.6588927
9.192                0.932588197     -91.8231789
9.193                  0.9323946     -91.9879087
9.194                0.932200484     -92.1530835
9.195                0.932005852     -92.3187043
9.196                0.931810704     -92.4847724
9.197                 0.93161504      -92.651289
9.198                0.931418861     -92.8182552
9.199                0.931222168     -92.9856722
9.2                  0.931024961     -93.1535413
9.201                0.930827241     -93.3218635
9.202                0.930629009     -93.4906402
9.203                0.930430266     -93.6598724
9.204                0.930231013     -93.8295614
9.205                 0.93003125     -93.9997083
9.206                0.929830978     -94.1703144
9.207                0.929630199     -94.3413807
9.208                0.929428913     -94.5129085
9.209                0.929227121      -94.684899
9.21                 0.929024824     -94.8573533
9.211                0.928822024     -95.0302726
9.212                0.928618721     -95.2036581
9.213                0.928414916     -95.3775109
9.214                0.928210612     -95.5518323
9.215                0.928005808     -95.7266233
9.216                0.927800506     -95.9018851
9.217                0.927594708      -96.077619
9.218                0.927388414      -96.253826
9.219                0.927181627     -96.4305074
9.22                 0.926974347     -96.6076642
9.221                0.926766576     -96.7852977
9.222                0.926558315      -96.963409
9.223                0.926349566     -97.1419992
9.224                 0.92614033     -97.3210695
9.225                0.925930609     -97.5006211
9.226                0.925720405      -97.680655
9.227                0.925509719     -97.8611724
9.228                0.925298552     -98.0421745
9.229                0.925086908     -98.2236623
9.23                 0.924874786     -98.4056371
9.231                 0.92466219     -98.5880999
9.232                 0.92444912     -98.7710518
9.233                 0.92423558      -98.954494
9.234                 0.92402157     -99.1384277
9.235                0.923807093     -99.3228538
9.236                0.923592151     -99.5077736
9.237                0.923376745      -99.693188
9.238                0.923160879     -99.8790983
9.239                0.922944553     -100.065506
9.24                 0.922727771     -100.252411
9.241                0.922510534     -100.439815
9.242                0.922292846      -100.62772
9.243                0.922074707     -100.816125
9.244                 0.92185612     -101.005034
9.245                0.921637089     -101.194445
9.246                0.921417615     -101.384361
9.247                0.921197701     -101.574783
9.248                0.920977349     -101.765711
9.249                0.920756562     -101.957147
9.25                 0.920535343     -102.149091
9.251                0.920313694     -102.341546
9.252                0.920091618     -102.534511
9.253                0.919869118     -102.727988
9.254                0.919646197     -102.921977
9.255                0.919422858     -103.116481
9.256                0.919199103     -103.311499
9.257                0.918974936     -103.507034
9.258                0.918750359     -103.703085
9.259                0.918525377     -103.899654
9.26                 0.918299991     -104.096742
9.261                0.918074205      -104.29435
9.262                0.917848023     -104.492479
9.263                0.917621447     -104.691129
9.264                0.917394481     -104.890302
9.265                0.917167129     -105.089999
9.266                0.916939394     -105.290221
9.267                0.916711279     -105.490968
9.268                0.916482789     -105.692241
9.269                0.916253926     -105.894042
9.27                 0.916024694     -106.096372
9.271                0.915795098     -106.299231
9.272                 0.91556514      -106.50262
9.273                0.915334825      -106.70654
9.274                0.915104158     -106.910992
9.275                 0.91487314     -107.115977
9.276                0.914641778     -107.321495
9.277                0.914410074     -107.527549
9.278                0.914178034     -107.734137
9.279                 0.91394566     -107.941262
9.28                 0.913712959     -108.148924
9.281                0.913479932     -108.357124
9.282                0.913246587     -108.565863
9.283                0.913012925     -108.775141
9.284                0.912778953      -108.98496
9.285                0.912544675     -109.195319
9.286                0.912310095     -109.406221
9.287                0.912075219     -109.617666
9.288                 0.91184005     -109.829653
9.289                0.911604594     -110.042185
9.29                 0.911368855     -110.255262
9.291                0.911132839     -110.468885
9.292                 0.91089655     -110.683054
9.293                0.910659994      -110.89777
9.294                0.910423176     -111.113034
9.295                0.910186101     -111.328846
9.296                0.909948773     -111.545207
9.297                  0.9097112     -111.762119
9.298                0.909473385      -111.97958
9.299                0.909235335     -112.197593
9.3                  0.908997054     -112.416157
9.301                 0.90875855     -112.635274
9.302                0.908519826     -112.854943
9.303                0.908280889     -113.075166
9.304                0.908041745     -113.295943
9.305                  0.9078024     -113.517274
9.306                0.907562859     -113.739161
9.307                0.907323128     -113.961603
9.308                0.907083214     -114.184602
9.309                0.906843123     -114.408157
9.31                  0.90660286     -114.632269
9.311                0.906362433     -114.856939
9.312                0.906121847     -115.082167
9.313                0.905881109     -115.307954
9.314                0.905640225       -115.5343
9.315                0.905399203     -115.761205
9.316                0.905158047     -115.988669
9.317                0.904916766     -116.216695
9.318                0.904675366      -116.44528
9.319                0.904433853     -116.674427
9.32                 0.904192236     -116.904135
9.321                0.903950519     -117.134404
9.322                0.903708712     -117.365235
9.323                0.903466819     -117.596629
9.324                 0.90322485     -117.828585
9.325                0.902982811     -118.061104
9.326                0.902740709     -118.294186
9.327                0.902498552     -118.527831
9.328                0.902256348     -118.762039
9.329                0.902014102     -118.996811
9.33                 0.901771825     -119.232147
9.331                0.901529522     -119.468046
9.332                0.901287202      -119.70451
9.333                0.901044872     -119.941538
9.334                 0.90080254      -120.17913
9.335                0.900560215     -120.417287
9.336                0.900317904     -120.656008
9.337                0.900075616     -120.895294
9.338                0.899833358     -121.135144
9.339                0.899591139     -121.375559
9.34                 0.899348966     -121.616538
9.341                0.899106849     -121.858081
9.342                0.898864796      -122.10019
9.343                0.898622815     -122.342862
9.344                0.898380915     -122.586099
9.345                0.898139104       -122.8299
9.346                0.897897391     -123.074265
9.347                0.897655785     -123.319193
9.348                0.897414295     -123.564686
9.349                 0.89717293     -123.810742
9.35                 0.896931698     -124.057361
9.351                0.896690609     -124.304543
9.352                0.896449671     -124.552289
9.353                0.896208895     -124.800596
9.354                0.895968289     -125.049466
9.355                0.895727862     -125.298898
9.356                0.895487624     -125.548891
9.357                0.895247584     -125.799446
9.358                0.895007752     -126.050561
9.359                0.894768137     -126.302236
9.36                 0.894528749     -126.554472
9.361                0.894289598     -126.807267
9.362                0.894050694     -127.060621
9.363                0.893812046     -127.314533
9.364                0.893573663     -127.569003
9.365                0.893335557     -127.824031
9.366                0.893097737     -128.079615
9.367                0.892860214     -128.335756
9.368                0.892622996     -128.592452
9.369                0.892386095     -128.849703
9.37                 0.892149521     -129.107508
9.371                0.891913284     -129.365866
9.372                0.891677395     -129.624778
9.373                0.891441863     -129.884241
9.374                  0.8912067     -130.144256
9.375                0.890971916     -130.404821
9.376                0.890737521     -130.665935
9.377                0.890503526     -130.927599
9.378                0.890269943      -131.18981
9.379                0.890036781     -131.452568
9.38                 0.889804052     -131.715872
9.381                0.889571766      -131.97972
9.382                0.889339934     -132.244113
9.383                0.889108568     -132.509049
9.384                0.888877677     -132.774527
9.385                0.888647275     -133.040546
9.386                0.888417371     -133.307104
9.387                0.888187976     -133.574201
9.388                0.887959103     -133.841836
9.389                0.887730762     -134.110006
9.39                 0.887502964     -134.378712
9.391                0.887275721     -134.647952
9.392                0.887049045     -134.917724
9.393                0.886822946     -135.188027
9.394                0.886597436      -135.45886
9.395                0.886372527     -135.730222
9.396                0.886148231     -136.002111
