! TOUCHSTONE file generated by CST DESIGN STUDIO
! Date and time: Tue Feb  4 17:52:46 2025
! Project name: C:\Work\MatlabApps\UnitCellOptimizationMatlab\CST\unitcell.cst
! Tree item: Tasks\Sweep1\SPara1\S-Parameters
! Header version: 2024
! Port assignment regex: !\s*Touchstone port\s*([0-9]+)\s*=\s*(CST MWS port|CST DES external port|CST DES block port)\s*(.+)\s* \(\"(.*)\"\)(\s*mode\s*([0-9]+))?.*
! Touchstone port assignment:
! Touchstone port 1 = CST DES external port 1 ("")
# GHz S MA R 50
9                    0.954068768     -79.4440893
9.001                0.953928534     -79.5755096
9.002                0.953787832     -79.7072775
9.003                0.953646661     -79.8393941
9.004                0.953505021     -79.9718604
9.005                 0.95336291     -80.1046776
9.006                0.953220328     -80.2378467
9.007                0.953077273     -80.3713688
9.008                0.952933745     -80.5052451
9.009                0.952789743     -80.6394766
9.01                 0.952645265     -80.7740644
9.011                0.952500311     -80.9090097
9.012                 0.95235488     -81.0443135
9.013                0.952208971      -81.179977
9.014                0.952062583     -81.3160013
9.015                0.951915715     -81.4523875
9.016                0.951768366     -81.5891366
9.017                0.951620535     -81.7262499
9.018                0.951472223     -81.8637284
9.019                0.951323426     -82.0015733
9.02                 0.951174146     -82.1397857
9.021                 0.95102438     -82.2783667
9.022                0.950874129     -82.4173175
9.023                0.950723391     -82.5566391
9.024                0.950572165     -82.6963328
9.025                0.950420451     -82.8363996
9.026                0.950268248     -82.9768407
9.027                0.950115555     -83.1176572
9.028                0.949962371     -83.2588503
9.029                0.949808696     -83.4004211
9.03                 0.949654528     -83.5423708
9.031                0.949499868     -83.6847004
9.032                0.949344714     -83.8274113
9.033                0.949189065     -83.9705044
9.034                0.949032921      -84.113981
9.035                0.948876281     -84.2578422
9.036                0.948719145     -84.4020891
9.037                0.948561511      -84.546723
9.038                 0.94840338      -84.691745
9.039                0.948244749     -84.8371562
9.04                  0.94808562     -84.9829579
9.041                0.947925991     -85.1291511
9.042                0.947765861      -85.275737
9.043                 0.94760523     -85.4227169
9.044                0.947444098     -85.5700918
9.045                0.947282463      -85.717863
9.046                0.947120326     -85.8660316
9.047                0.946957685     -86.0145987
9.048                 0.94679454     -86.1635657
9.049                0.946630891     -86.3129336
9.05                 0.946466737     -86.4627036
9.051                0.946302078     -86.6128769
9.052                0.946136912     -86.7634547
9.053                 0.94597124     -86.9144381
9.054                0.945805062     -87.0658284
9.055                0.945638376     -87.2176267
9.056                0.945471182     -87.3698342
9.057                0.945303481     -87.5224521
9.058                0.945135271     -87.6754816
9.059                0.944966552     -87.8289238
9.06                 0.944797324       -87.98278
9.061                0.944627586     -88.1370514
9.062                0.944457339      -88.291739
9.063                0.944286581     -88.4468442
9.064                0.944115313     -88.6023681
9.065                0.943943535     -88.7583119
9.066                0.943771245     -88.9146769
9.067                0.943598445     -89.0714641
9.068                0.943425133     -89.2286748
9.069                0.943251309     -89.3863101
9.07                 0.943076974     -89.5443714
9.071                0.942902128     -89.7028597
9.072                0.942726769     -89.8617763
9.073                0.942550898     -90.0211223
9.074                0.942374515      -90.180899
9.075                0.942197619     -90.3411076
9.076                0.942020212     -90.5017492
9.077                0.941842292     -90.6628251
9.078                 0.94166386     -90.8243364
9.079                0.941484916     -90.9862843
9.08                 0.941305459     -91.1486701
9.081                0.941125491     -91.3114949
9.082                 0.94094501       -91.47476
9.083                0.940764018     -91.6384664
9.084                0.940582513     -91.8026156
9.085                0.940400497     -91.9672085
9.086                 0.94021797     -92.1322464
9.087                0.940034931     -92.2977306
9.088                0.939851381     -92.4636621
9.089                0.939667321     -92.6300423
9.09                  0.93948275     -92.7968722
9.091                0.939297669     -92.9641532
9.092                0.939112078     -93.1318863
9.093                0.938925978     -93.3000727
9.094                0.938739369     -93.4687138
9.095                0.938552251     -93.6378106
9.096                0.938364625     -93.8073643
9.097                0.938176491     -93.9773761
9.098                 0.93798785     -94.1478472
9.099                0.937798702     -94.3187789
9.1                  0.937609048     -94.4901722
9.101                0.937418889     -94.6620284
9.102                0.937228225     -94.8343486
9.103                0.937037056      -95.007134
9.104                0.936845384     -95.1803858
9.105                0.936653209     -95.3541052
9.106                0.936460532     -95.5282933
9.107                0.936267353     -95.7029514
9.108                0.936073674     -95.8780805
9.109                0.935879495     -96.0536819
9.11                 0.935684817     -96.2297567
9.111                0.935489642     -96.4063061
9.112                0.935293969     -96.5833312
9.113                  0.9350978     -96.7608333
9.114                0.934901136     -96.9388134
9.115                0.934703978     -97.1172727
9.116                0.934506327     -97.2962124
9.117                0.934308185     -97.4756336
9.118                0.934109551     -97.6555375
9.119                0.933910428     -97.8359252
9.12                 0.933710816     -98.0167978
9.121                0.933510718     -98.1981566
9.122                0.933310133     -98.3800025
9.123                0.933109064     -98.5623368
9.124                0.932907512     -98.7451606
9.125                0.932705478      -98.928475
9.126                0.932502964     -99.1122812
9.127                0.932299971     -99.2965801
9.128                  0.9320965     -99.4813731
9.129                0.931892554     -99.6666611
9.13                 0.931688133     -99.8524453
9.131                 0.93148324     -100.038727
9.132                0.931277876     -100.225507
9.133                0.931072043     -100.412786
9.134                0.930865742     -100.600566
9.135                0.930658976     -100.788847
9.136                0.930451745     -100.977632
9.137                0.930244053      -101.16692
9.138                0.930035901     -101.356713
9.139                 0.92982729     -101.547012
9.14                 0.929618224     -101.737818
9.141                0.929408703     -101.929132
9.142                0.929198731     -102.120955
9.143                0.928988309     -102.313288
9.144                0.928777439     -102.506133
9.145                0.928566124     -102.699489
9.146                0.928354365      -102.89336
9.147                0.928142166     -103.087744
9.148                0.927929529     -103.282644
9.149                0.927716455      -103.47806
9.15                 0.927502948     -103.673993
9.151                 0.92728901     -103.870445
9.152                0.927074644     -104.067416
9.153                0.926859851     -104.264907
9.154                0.926644636     -104.462919
9.155                   0.926429     -104.661454
9.156                0.926212946     -104.860513
9.157                0.925996478     -105.060095
9.158                0.925779597     -105.260202
9.159                0.925562307     -105.460836
9.16                 0.925344611     -105.661997
9.161                0.925126512     -105.863685
9.162                0.924908013     -106.065903
9.163                0.924689117      -106.26865
9.164                0.924469827     -106.471928
9.165                0.924250147     -106.675738
9.166                0.924030079      -106.88008
9.167                0.923809627     -107.084956
9.168                0.923588795     -107.290366
9.169                0.923367585     -107.496311
9.17                 0.923146002     -107.702792
9.171                0.922924049     -107.909809
9.172                0.922701729     -108.117365
9.173                0.922479047     -108.325459
9.174                0.922256006     -108.534092
9.175                0.922032609     -108.743266
9.176                0.921808861     -108.952981
9.177                0.921584765     -109.163237
9.178                0.921360326     -109.374036
9.179                0.921135547     -109.585378
9.18                 0.920910432     -109.797264
9.181                0.920684986     -110.009695
9.182                0.920459214     -110.222671
9.183                0.920233118     -110.436194
9.184                0.920006703     -110.650264
9.185                0.919779974     -110.864881
9.186                0.919552936     -111.080047
9.187                0.919325592     -111.295762
9.188                0.919097947     -111.512027
9.189                0.918870006     -111.728842
9.19                 0.918641774     -111.946208
9.191                0.918413255     -112.164126
9.192                0.918184454     -112.382597
9.193                0.917955376      -112.60162
9.194                0.917726026     -112.821197
9.195                0.917496409     -113.041328
9.196                 0.91726653     -113.262014
9.197                0.917036394     -113.483255
9.198                0.916806006     -113.705052
9.199                0.916575372     -113.927405
9.2                  0.916344497     -114.150315
9.201                0.916113386     -114.373783
9.202                0.915882044     -114.597808
9.203                0.915650478     -114.822392
9.204                0.915418692     -115.047535
9.205                0.915186693     -115.273237
9.206                0.914954486     -115.499498
9.207                0.914722077      -115.72632
9.208                0.914489472     -115.953703
9.209                0.914256677     -116.181646
9.21                 0.914023697     -116.410151
9.211                0.913790539     -116.639218
9.212                0.913557209     -116.868847
9.213                0.913323712     -117.099038
9.214                0.913090056     -117.329791
9.215                0.912856247     -117.561108
9.216                0.912622291     -117.792988
9.217                0.912388194     -118.025432
9.218                0.912153963     -118.258439
9.219                0.911919605      -118.49201
9.22                 0.911685126     -118.726146
9.221                0.911450533     -118.960846
9.222                0.911215833     -119.196111
9.223                0.910981033     -119.431941
9.224                0.910746139     -119.668335
9.225                0.910511159     -119.905295
9.226                  0.9102761     -120.142819
9.227                0.910040968     -120.380909
9.228                0.909805771     -120.619564
9.229                0.909570517     -120.858785
9.23                 0.909335213     -121.098571
9.231                0.909099866     -121.338923
9.232                0.908864483      -121.57984
9.233                0.908629073     -121.821322
9.234                0.908393642      -122.06337
9.235                0.908158199     -122.305983
9.236                0.907922751     -122.549161
9.237                0.907687307     -122.792904
9.238                0.907451873     -123.037213
9.239                0.907216459     -123.282086
9.24                 0.906981072     -123.527524
9.241                 0.90674572     -123.773526
9.242                0.906510411     -124.020092
9.243                0.906275154     -124.267223
9.244                0.906039957     -124.514917
9.245                0.905804828     -124.763175
9.246                0.905569776     -125.011996
9.247                 0.90533481      -125.26138
9.248                0.905099937     -125.511326
9.249                0.904865167     -125.761835
9.25                 0.904630508     -126.012906
9.251                 0.90439597     -126.264537
9.252                 0.90416156      -126.51673
9.253                0.903927288     -126.769484
9.254                0.903693163     -127.022797
9.255                0.903459194      -127.27667
9.256                 0.90322539     -127.531102
9.257                 0.90299176     -127.786092
9.258                0.902758314      -128.04164
9.259                0.902525061     -128.297745
9.26                 0.902292009     -128.554407
9.261                0.902059169     -128.811625
9.262                0.901826551     -129.069399
9.263                0.901594163     -129.327727
9.264                0.901362015     -129.586608
9.265                0.901130117     -129.846043
9.266                0.900898479     -130.106031
9.267                 0.90066711      -130.36657
9.268                 0.90043602     -130.627659
9.269                 0.90020522     -130.889299
9.27                 0.899974719     -131.151487
9.271                0.899744528     -131.414224
9.272                0.899514656     -131.677508
9.273                0.899285113     -131.941338
9.274                 0.89905591     -132.205713
9.275                0.898827057     -132.470632
9.276                0.898598564     -132.736095
9.277                0.898370442     -133.002099
9.278                0.898142701     -133.268645
9.279                0.897915352      -133.53573
9.28                 0.897688405     -133.803354
9.281                 0.89746187     -134.071516
9.282                0.897235759     -134.340214
9.283                0.897010082     -134.609447
9.284                0.896784849     -134.879214
9.285                0.896560072     -135.149514
9.286                0.896335761     -135.420345
9.287                0.896111927     -135.691705
9.288                0.895888582     -135.963594
9.289                0.895665735      -136.23601
9.29                 0.895443398     -136.508952
9.291                0.895221582     -136.782418
9.292                0.895000299     -137.056406
9.293                0.894779558     -137.330916
9.294                0.894559372     -137.605945
9.295                0.894339752     -137.881493
9.296                0.894120708     -138.157556
9.297                0.893902253     -138.434135
9.298                0.893684396     -138.711226
9.299                0.893467151     -138.988829
9.3                  0.893250527     -139.266942
9.301                0.893034537     -139.545562
9.302                0.892819192     -139.824688
9.303                0.892604503     -140.104319
9.304                0.892390482     -140.384452
9.305                 0.89217714     -140.665085
9.306                0.891964489     -140.946217
9.307                0.891752541     -141.227845
9.308                0.891541306     -141.509969
9.309                0.891330797     -141.792584
9.31                 0.891121026     -142.075691
9.311                0.890912003     -142.359286
9.312                0.890703741     -142.643367
9.313                0.890496251     -142.927932
9.314                0.890289545      -143.21298
9.315                0.890083634     -143.498507
9.316                0.889878531     -143.784512
9.317                0.889674247     -144.070992
9.318                0.889470793     -144.357946
9.319                0.889268182      -144.64537
9.32                 0.889066426     -144.933262
9.321                0.888865535     -145.221621
9.322                0.888665522     -145.510443
9.323                0.888466399     -145.799726
9.324                0.888268177     -146.089468
9.325                0.888070868     -146.379666
9.326                0.887874484     -146.670318
9.327                0.887679037     -146.961421
9.328                0.887484538     -147.252972
9.329                0.887290999     -147.544968
9.33                 0.887098431     -147.837408
9.331                0.886906847     -148.130288
9.332                0.886716259     -148.423606
9.333                0.886526677     -148.717359
9.334                0.886338114     -149.011544
9.335                0.886150581     -149.306158
9.336                0.885964091     -149.601198
9.337                0.885778653     -149.896662
9.338                0.885594281     -150.192546
9.339                0.885410985     -150.488848
9.34                 0.885228778     -150.785565
9.341                 0.88504767     -151.082693
9.342                0.884867674      -151.38023
9.343                  0.8846888     -151.678172
9.344                0.884511061     -151.976517
9.345                0.884334467      -152.27526
9.346                 0.88415903       -152.5744
9.347                0.883984761     -152.873933
9.348                0.883811671     -153.173855
9.349                0.883639773     -153.474164
9.35                 0.883469076     -153.774856
9.351                0.883299592     -154.075927
9.352                0.883131333     -154.377375
9.353                0.882964309     -154.679196
9.354                0.882798531     -154.981386
9.355                 0.88263401     -155.283943
9.356                0.882470758     -155.586862
9.357                0.882308784     -155.890141
9.358                  0.8821481     -156.193775
9.359                0.881988717     -156.497761
9.36                 0.881830644     -156.802096
9.361                0.881673894     -157.106776
9.362                0.881518476     -157.411797
9.363                  0.8813644     -157.717155
9.364                0.881211678     -158.022848
9.365                0.881060319     -158.328871
9.366                0.880910334      -158.63522
9.367                0.880761733     -158.941892
9.368                0.880614527     -159.248883
9.369                0.880468724     -159.556188
9.37                 0.880324335     -159.863805
9.371                0.880181371      -160.17173
9.372                 0.88003984     -160.479957
9.373                0.879899752     -160.788484
9.374                0.879761118     -161.097307
9.375                0.879623947     -161.406421
9.376                0.879488247     -161.715822
9.377                0.879354029     -162.025507
9.378                0.879221302     -162.335472
9.379                0.879090075     -162.645711
9.38                 0.878960357     -162.956222
9.381                0.878832157        -163.267
9.382                0.878705484     -163.578041
9.383                0.878580346     -163.889341
9.384                0.878456753     -164.200895
9.385                0.878334713     -164.512699
9.386                0.878214234      -164.82475
9.387                0.878095325     -165.137042
9.388                0.877977994     -165.449572
9.389                0.877862249     -165.762335
9.39                 0.877748098     -166.075327
9.391                 0.87763555     -166.388543
9.392                0.877524612      -166.70198
9.393                0.877415291     -167.015632
9.394                0.877307595     -167.329496
9.395                0.877201532     -167.643566
9.396                0.877097109      -167.95784
