! TOUCHSTONE file generated by CST DESIGN STUDIO
! Date and time: Tue Feb  4 12:44:47 2025
! Project name: C:\Work\MatlabApps\UnitCellOptimizationMatlab\CST\unitcell.cst
! Tree item: Tasks\Sweep1\SPara1\S-Parameters
! Header version: 2024
! Port assignment regex: !\s*Touchstone port\s*([0-9]+)\s*=\s*(CST MWS port|CST DES external port|CST DES block port)\s*(.+)\s* \(\"(.*)\"\)(\s*mode\s*([0-9]+))?.*
! Touchstone port assignment:
! Touchstone port 1 = CST DES external port 1 ("")
# GHz S MA R 50
9                    0.974099826     -69.2719031
9.001                0.974041775     -69.3824568
9.002                0.973983326     -69.4932962
9.003                0.973924477     -69.6044223
9.004                0.973865227      -69.715836
9.005                0.973805574     -69.8275383
9.006                0.973745516     -69.9395301
9.007                0.973685051     -70.0518123
9.008                0.973624179     -70.1643859
9.009                0.973562897     -70.2772518
9.01                 0.973501204     -70.3904109
9.011                0.973439098     -70.5038643
9.012                0.973376578     -70.6176128
9.013                0.973313641     -70.7316574
9.014                0.973250287     -70.8459991
9.015                0.973186514     -70.9606388
9.016                 0.97312232     -71.0755776
9.017                0.973057703     -71.1908162
9.018                0.972992662     -71.3063559
9.019                0.972927196     -71.4221974
9.02                 0.972861301     -71.5383418
9.021                0.972794978       -71.65479
9.022                0.972728223     -71.7715431
9.023                0.972661036     -71.8886019
9.024                0.972593415     -72.0059676
9.025                0.972525359     -72.1236411
9.026                0.972456864     -72.2416234
9.027                0.972387931     -72.3599154
9.028                0.972318557     -72.4785182
9.029                 0.97224874     -72.5974328
9.03                 0.972178479     -72.7166601
9.031                0.972107772     -72.8362012
9.032                0.972036618     -72.9560571
9.033                0.971965015     -73.0762288
9.034                 0.97189296     -73.1967173
9.035                0.971820453     -73.3175237
9.036                0.971747492     -73.4386489
9.037                0.971674075     -73.5600939
9.038                  0.9716002     -73.6818599
9.039                0.971525866     -73.8039478
9.04                 0.971451071     -73.9263586
9.041                0.971375813     -74.0490934
9.042                 0.97130009     -74.1721532
9.043                0.971223902     -74.2955391
9.044                0.971147246     -74.4192521
9.045                 0.97107012     -74.5432933
9.046                0.970992523     -74.6676636
9.047                0.970914452     -74.7923642
9.048                0.970835908      -74.917396
9.049                0.970756887     -75.0427602
9.05                 0.970677387     -75.1684578
9.051                0.970597408     -75.2944899
9.052                0.970516948     -75.4208575
9.053                0.970436004     -75.5475617
9.054                0.970354576     -75.6746036
9.055                0.970272661     -75.8019842
9.056                0.970190257     -75.9297046
9.057                0.970107363     -76.0577659
9.058                0.970023978     -76.1861692
9.059                0.969940099     -76.3149154
9.06                 0.969855725     -76.4440059
9.061                0.969770854     -76.5734415
9.062                0.969685485     -76.7032234
9.063                0.969599615     -76.8333528
9.064                0.969513243     -76.9638306
9.065                0.969426368      -77.094658
9.066                0.969338987     -77.2258361
9.067                0.969251099     -77.3573659
9.068                0.969162702     -77.4892487
9.069                0.969073794     -77.6214855
9.07                 0.968984374     -77.7540773
9.071                0.968894441     -77.8870254
9.072                0.968803991     -78.0203308
9.073                0.968713024     -78.1539947
9.074                0.968621538     -78.2880181
9.075                0.968529532     -78.4224023
9.076                0.968437003     -78.5571482
9.077                0.968343949     -78.6922571
9.078                 0.96825037       -78.82773
9.079                0.968156264     -78.9635682
9.08                 0.968061628     -79.0997726
9.081                0.967966461     -79.2363446
9.082                0.967870762     -79.3732851
9.083                0.967774528     -79.5105954
9.084                0.967677759     -79.6482766
9.085                0.967580452     -79.7863298
9.086                0.967482605     -79.9247562
9.087                0.967384218     -80.0635569
9.088                0.967285288     -80.2027331
9.089                0.967185814     -80.3422859
9.09                 0.967085794     -80.4822165
9.091                0.966985226     -80.6225261
9.092                0.966884109     -80.7632157
9.093                0.966782442     -80.9042866
9.094                0.966680221       -81.04574
9.095                0.966577447     -81.1875769
9.096                0.966474117     -81.3297986
9.097                 0.96637023     -81.4724062
9.098                0.966265784      -81.615401
9.099                0.966160777     -81.7587839
9.1                  0.966055208     -81.9025564
9.101                0.965949075     -82.0467195
9.102                0.965842377     -82.1912743
9.103                0.965735112     -82.3362222
9.104                0.965627279     -82.4815642
9.105                0.965518875     -82.6273016
9.106                  0.9654099     -82.7734355
9.107                0.965300351     -82.9199672
9.108                0.965190228     -83.0668977
9.109                0.965079529     -83.2142284
9.11                 0.964968251     -83.3619603
9.111                0.964856394     -83.5100948
9.112                0.964743957     -83.6586329
9.113                0.964630937     -83.8075759
9.114                0.964517333      -83.956925
9.115                0.964403143     -84.1066813
9.116                0.964288367     -84.2568462
9.117                0.964173002     -84.4074207
9.118                0.964057048     -84.5584061
9.119                0.963940502     -84.7098036
9.12                 0.963823364     -84.8616144
9.121                0.963705631     -85.0138397
9.122                0.963587303     -85.1664807
9.123                0.963468378     -85.3195387
9.124                0.963348854     -85.4730147
9.125                 0.96322873     -85.6269102
9.126                0.963108006     -85.7812261
9.127                0.962986678     -85.9359639
9.128                0.962864747     -86.0911246
9.129                0.962742211     -86.2467095
9.13                 0.962619068     -86.4027199
9.131                0.962495317     -86.5591569
9.132                0.962370956     -86.7160217
9.133                0.962245985     -86.8733156
9.134                0.962120403     -87.0310398
9.135                0.961994207     -87.1891956
9.136                0.961867397      -87.347784
9.137                0.961739971     -87.5068064
9.138                0.961611929      -87.666264
9.139                0.961483268     -87.8261579
9.14                 0.961353988     -87.9864895
9.141                0.961224088     -88.1472599
9.142                0.961093566     -88.3084704
9.143                0.960962422     -88.4701222
9.144                0.960830653     -88.6322165
9.145                 0.96069826     -88.7947545
9.146                 0.96056524     -88.9577374
9.147                0.960431593     -89.1211666
9.148                0.960297318     -89.2850431
9.149                0.960162414     -89.4493683
9.15                  0.96002688     -89.6141433
9.151                0.959890714     -89.7793694
9.152                0.959753915     -89.9450477
9.153                0.959616484     -90.1111796
9.154                0.959478418     -90.2777662
9.155                0.959339717     -90.4448088
9.156                 0.95920038     -90.6123086
9.157                0.959060405     -90.7802667
9.158                0.958919793     -90.9486845
9.159                0.958778543     -91.1175631
9.16                 0.958636652     -91.2869037
9.161                0.958494121     -91.4567076
9.162                0.958350949      -91.626976
9.163                0.958207135     -91.7977101
9.164                0.958062679     -91.9689111
9.165                0.957917579     -92.1405802
9.166                0.957771834     -92.3127187
9.167                0.957625446     -92.4853277
9.168                0.957478411     -92.6584085
9.169                0.957330731     -92.8319622
9.17                 0.957182404     -93.0059901
9.171                0.957033429     -93.1804933
9.172                0.956883807     -93.3554732
9.173                0.956733537     -93.5309308
9.174                0.956582618     -93.7068674
9.175                0.956431049     -93.8832841
9.176                0.956278831     -94.0601822
9.177                0.956125963     -94.2375629
9.178                0.955972444     -94.4154273
9.179                0.955818275     -94.5937767
9.18                 0.955663454     -94.7726121
9.181                0.955507982     -94.9519349
9.182                0.955351858     -95.1317462
9.183                0.955195082     -95.3120471
9.184                0.955037653     -95.4928389
9.185                0.954879573     -95.6741227
9.186                 0.95472084     -95.8558997
9.187                0.954561454      -96.038171
9.188                0.954401416     -96.2209379
9.189                0.954240724     -96.4042014
9.19                  0.95407938     -96.5879628
9.191                0.953917384     -96.7722231
9.192                0.953754734     -96.9569836
9.193                0.953591432     -97.1422454
9.194                0.953427478     -97.3280096
9.195                0.953262871     -97.5142774
9.196                0.953097612     -97.7010499
9.197                0.952931701     -97.8883283
9.198                0.952765139     -98.0761136
9.199                0.952597925      -98.264407
9.2                   0.95243006     -98.4532097
9.201                0.952261545     -98.6425227
9.202                0.952092379     -98.8323471
9.203                0.951922564     -99.0226841
9.204                0.951752099     -99.2135347
9.205                0.951580986     -99.4049001
9.206                0.951409224     -99.5967813
9.207                0.951236815     -99.7891795
9.208                 0.95106376     -99.9820956
9.209                0.950890058     -100.175531
9.21                  0.95071571     -100.369486
9.211                0.950540719     -100.563963
9.212                0.950365083     -100.758962
9.213                0.950188804     -100.954484
9.214                0.950011884     -101.150531
9.215                0.949834322     -101.347103
9.216                0.949656121     -101.544202
9.217                 0.94947728     -101.741828
9.218                0.949297802     -101.939983
9.219                0.949117687     -102.138667
9.22                 0.948936936     -102.337882
9.221                0.948755551     -102.537628
9.222                0.948573534     -102.737907
9.223                0.948390884      -102.93872
9.224                0.948207605     -103.140067
9.225                0.948023696     -103.341949
9.226                0.947839161     -103.544368
9.227                0.947653999     -103.747325
9.228                0.947468214      -103.95082
9.229                0.947281806     -104.154854
9.23                 0.947094777     -104.359429
9.231                0.946907129     -104.564544
9.232                0.946718863     -104.770202
9.233                0.946529983     -104.976403
9.234                0.946340489     -105.183148
9.235                0.946150383     -105.390438
9.236                0.945959668     -105.598274
9.237                0.945768345     -105.806656
9.238                0.945576417     -106.015586
9.239                0.945383887     -106.225064
9.24                 0.945190755     -106.435092
9.241                0.944997024     -106.645669
9.242                0.944802698     -106.856798
9.243                0.944607778     -107.068478
9.244                0.944412266      -107.28071
9.245                0.944216166     -107.493496
9.246                 0.94401948     -107.706836
9.247                 0.94382221     -107.920731
9.248                 0.94362436     -108.135182
9.249                0.943425931     -108.350189
9.25                 0.943226928     -108.565754
9.251                0.943027352     -108.781876
9.252                0.942827208     -108.998557
9.253                0.942626497     -109.215797
9.254                0.942425223     -109.433598
9.255                0.942223389     -109.651959
9.256                0.942020999     -109.870882
9.257                0.941818055     -110.090367
9.258                0.941614562     -110.310414
9.259                0.941410521     -110.531025
9.26                 0.941205938     -110.752201
9.261                0.941000816      -110.97394
9.262                0.940795158     -111.196246
9.263                0.940588967     -111.419117
9.264                0.940382248     -111.642554
9.265                0.940175005     -111.866559
9.266                0.939967242     -112.091131
9.267                0.939758962     -112.316271
9.268                0.939550169      -112.54198
9.269                0.939340868     -112.768258
9.27                 0.939131063     -112.995106
9.271                0.938920758     -113.222524
9.272                0.938709957     -113.450513
9.273                0.938498665     -113.679072
9.274                0.938286887     -113.908203
9.275                0.938074627     -114.137906
9.276                0.937861889     -114.368182
9.277                0.937648678      -114.59903
9.278                   0.937435     -114.830451
9.279                0.937220859     -115.062446
9.28                 0.937006259     -115.295014
9.281                0.936791207     -115.528157
9.282                0.936575706     -115.761874
9.283                0.936359763     -115.996166
9.284                0.936143382     -116.231033
9.285                0.935926569     -116.466475
9.286                0.935709329     -116.702493
9.287                0.935491667     -116.939086
9.288                 0.93527359     -117.176256
9.289                0.935055103     -117.414002
9.29                 0.934836211     -117.652323
9.291                0.934616921     -117.891222
9.292                0.934397238     -118.130697
9.293                0.934177168     -118.370749
9.294                0.933956718     -118.611377
9.295                0.933735892     -118.852583
9.296                0.933514699     -119.094365
9.297                0.933293143     -119.336725
9.298                0.933071231     -119.579661
9.299                 0.93284897     -119.823175
9.3                  0.932626367     -120.067265
9.301                0.932403427     -120.311933
9.302                0.932180157     -120.557177
9.303                0.931956565     -120.802999
9.304                0.931732656     -121.049397
9.305                0.931508439     -121.296372
9.306                 0.93128392     -121.543923
9.307                0.931059106      -121.79205
9.308                0.930834004     -122.040754
9.309                0.930608621     -122.290033
9.31                 0.930382966     -122.539889
9.311                0.930157045     -122.790319
9.312                0.929930866     -123.041325
9.313                0.929704436     -123.292906
9.314                0.929477763     -123.545061
9.315                0.929250855      -123.79779
9.316                 0.92902372     -124.051094
9.317                0.928796366     -124.304971
9.318                  0.9285688      -124.55942
9.319                0.928341031     -124.814443
9.32                 0.928113066     -125.070037
9.321                0.927884915     -125.326204
9.322                0.927656586     -125.582941
9.323                0.927428086     -125.840249
9.324                0.927199425     -126.098127
9.325                 0.92697061     -126.356575
9.326                0.926741652     -126.615592
9.327                0.926512558     -126.875177
9.328                0.926283337     -127.135329
9.329                0.926053998     -127.396049
9.33                  0.92582455     -127.657334
9.331                0.925595002     -127.919185
9.332                0.925365364     -128.181601
9.333                0.925135645     -128.444581
9.334                0.924905853     -128.708124
9.335                0.924675999     -128.972229
9.336                0.924446091     -129.236896
9.337                 0.92421614     -129.502123
9.338                0.923986154      -129.76791
9.339                0.923756144     -130.034256
9.34                  0.92352612     -130.301159
9.341                0.923296091     -130.568619
9.342                0.923066067     -130.836635
9.343                0.922836059     -131.105205
9.344                0.922606075     -131.374329
9.345                0.922376127     -131.644006
9.346                0.922146225     -131.914233
9.347                0.921916379     -132.185011
9.348                  0.9216866     -132.456338
9.349                0.921456897     -132.728212
9.35                 0.921227281     -133.000633
9.351                0.920997764     -133.273599
9.352                0.920768355     -133.547109
9.353                0.920539066     -133.821162
9.354                0.920309907     -134.095755
9.355                0.920080889     -134.370889
9.356                0.919852023      -134.64656
9.357                0.919623321     -134.922769
9.358                0.919394792     -135.199513
9.359                0.919166449     -135.476791
9.36                 0.918938302     -135.754601
9.361                0.918710363     -136.032941
9.362                0.918482644     -136.311811
9.363                0.918255155     -136.591209
9.364                0.918027908     -136.871132
9.365                0.917800914     -137.151579
9.366                0.917574186     -137.432549
9.367                0.917347734     -137.714039
9.368                0.917121571     -137.996048
9.369                0.916895708     -138.278574
9.37                 0.916670157     -138.561615
9.371                 0.91644493     -138.845169
9.372                0.916220039     -139.129234
9.373                0.915995496     -139.413809
9.374                0.915771313     -139.698892
9.375                0.915547502     -139.984479
9.376                0.915324074      -140.27057
9.377                0.915101043     -140.557162
9.378                 0.91487842     -140.844253
9.379                0.914656218     -141.131841
9.38                 0.914434449     -141.419924
9.381                0.914213126       -141.7085
9.382                 0.91399226     -141.997566
9.383                0.913771864     -142.287119
9.384                0.913551951     -142.577159
9.385                0.913332533     -142.867682
9.386                0.913113623     -143.158686
9.387                0.912895233     -143.450169
9.388                0.912677376     -143.742128
9.389                0.912460064     -144.034561
9.39                 0.912243311     -144.327465
9.391                0.912027128     -144.620837
9.392                0.911811529     -144.914676
9.393                0.911596526     -145.208979
9.394                0.911382133     -145.503742
9.395                0.911168361     -145.798964
9.396                0.910955224     -146.094641
