! TOUCHSTONE file generated by CST DESIGN STUDIO
! Date and time: Tue Feb  4 12:44:50 2025
! Project name: C:\Work\MatlabApps\UnitCellOptimizationMatlab\CST\unitcell.cst
! Tree item: Tasks\Sweep1\SPara1\S-Parameters
! Header version: 2024
! Port assignment regex: !\s*Touchstone port\s*([0-9]+)\s*=\s*(CST MWS port|CST DES external port|CST DES block port)\s*(.+)\s* \(\"(.*)\"\)(\s*mode\s*([0-9]+))?.*
! Touchstone port assignment:
! Touchstone port 1 = CST DES external port 1 ("")
# GHz S MA R 50
9                    0.976324694     -62.8465643
9.001                0.976271957     -62.9411742
9.002                0.976218883     -63.0360164
9.003                 0.97616547     -63.1310918
9.004                0.976111717     -63.2264011
9.005                0.976057623     -63.3219449
9.006                0.976003185     -63.4177242
9.007                0.975948404     -63.5137396
9.008                0.975893277     -63.6099919
9.009                0.975837803     -63.7064818
9.01                 0.975781981     -63.8032102
9.011                0.975725811     -63.9001779
9.012                0.975669289     -63.9973854
9.013                0.975612416     -64.0948338
9.014                0.975555189     -64.1925237
9.015                0.975497607     -64.2904559
9.016                 0.97543967     -64.3886311
9.017                0.975381375     -64.4870503
9.018                0.975322722     -64.5857142
9.019                0.975263709     -64.6846235
9.02                 0.975204335     -64.7837791
9.021                0.975144598     -64.8831817
9.022                0.975084497     -64.9828322
9.023                 0.97502403     -65.0827314
9.024                0.974963197       -65.18288
9.025                0.974901996     -65.2832789
9.026                0.974840425     -65.3839289
9.027                0.974778484     -65.4848308
9.028                0.974716171     -65.5859853
9.029                0.974653484     -65.6873935
9.03                 0.974590422     -65.7890559
9.031                0.974526984     -65.8909736
9.032                0.974463168     -65.9931473
9.033                0.974398973     -66.0955778
9.034                0.974334397     -66.1982659
9.035                 0.97426944     -66.3012126
9.036                  0.9742041     -66.4044186
9.037                0.974138375     -66.5078848
9.038                0.974072264      -66.611612
9.039                0.974005766      -66.715601
9.04                 0.973938879     -66.8198528
9.041                0.973871601     -66.9243682
9.042                0.973803932      -67.029148
9.043                 0.97373587     -67.1341931
9.044                0.973667414     -67.2395043
9.045                0.973598562     -67.3450825
9.046                0.973529312     -67.4509286
9.047                0.973459664     -67.5570434
9.048                0.973389615     -67.6634278
9.049                0.973319165     -67.7700827
9.05                 0.973248313      -67.877009
9.051                0.973177055     -67.9842075
9.052                0.973105392     -68.0916792
9.053                0.973033322     -68.1994248
9.054                0.972960843     -68.3074454
9.055                0.972887953     -68.4157417
9.056                0.972814652     -68.5243147
9.057                0.972740939     -68.6331653
9.058                 0.97266681     -68.7422943
9.059                0.972592266     -68.8517028
9.06                 0.972517304     -68.9613915
9.061                0.972441924     -69.0713614
9.062                0.972366123     -69.1816134
9.063                  0.9722899     -69.2921484
9.064                0.972213255     -69.4029674
9.065                0.972136184     -69.5140712
9.066                0.972058688     -69.6254607
9.067                0.971980764      -69.737137
9.068                0.971902411     -69.8491009
9.069                0.971823627     -69.9613533
9.07                 0.971744411     -70.0738953
9.071                0.971664762     -70.1867276
9.072                0.971584679     -70.2998514
9.073                0.971504158     -70.4132674
9.074                  0.9714232     -70.5269767
9.075                0.971341803     -70.6409801
9.076                0.971259965     -70.7552787
9.077                0.971177684     -70.8698735
9.078                 0.97109496     -70.9847652
9.079                 0.97101179      -71.099955
9.08                 0.970928174     -71.2154438
9.081                 0.97084411     -71.3312325
9.082                0.970759596     -71.4473221
9.083                0.970674631     -71.5637136
9.084                0.970589213     -71.6804079
9.085                0.970503342     -71.7974061
9.086                0.970417014     -71.9147091
9.087                 0.97033023     -72.0323179
9.088                0.970242987     -72.1502334
9.089                0.970155284     -72.2684567
9.09                  0.97006712     -72.3869888
9.091                0.969978492     -72.5058306
9.092                0.969889401     -72.6249831
9.093                0.969799843     -72.7444474
9.094                0.969709818     -72.8642244
9.095                0.969619324     -72.9843151
9.096                0.969528359     -73.1047206
9.097                0.969436923     -73.2254419
9.098                0.969345013     -73.3464799
9.099                0.969252629     -73.4678358
9.1                  0.969159768     -73.5895104
9.101                 0.96906643     -73.7115049
9.102                0.968972612     -73.8338202
9.103                0.968878314     -73.9564574
9.104                0.968783533     -74.0794175
9.105                0.968688269     -74.2027015
9.106                0.968592519     -74.3263105
9.107                0.968496283     -74.4502455
9.108                0.968399559     -74.5745076
9.109                0.968302345     -74.6990978
9.11                 0.968204641     -74.8240171
9.111                0.968106444     -74.9492666
9.112                0.968007753     -75.0748473
9.113                0.967908566     -75.2007604
9.114                0.967808883     -75.3270068
9.115                0.967708701     -75.4535876
9.116                 0.96760802     -75.5805039
9.117                0.967506837     -75.7077567
9.118                0.967405152     -75.8353471
9.119                0.967302963     -75.9632762
9.12                 0.967200268     -76.0915451
9.121                0.967097066     -76.2201547
9.122                0.966993356     -76.3491063
9.123                0.966889136     -76.4784009
9.124                0.966784405     -76.6080395
9.125                 0.96667916     -76.7380233
9.126                0.966573402     -76.8683533
9.127                0.966467129     -76.9990307
9.128                0.966360338     -77.1300565
9.129                0.966253029     -77.2614318
9.13                   0.9661452     -77.3931577
9.131                 0.96603685     -77.5252354
9.132                0.965927977     -77.6576659
9.133                0.965818581     -77.7904503
9.134                0.965708659     -77.9235898
9.135                 0.96559821     -78.0570854
9.136                0.965487233     -78.1909383
9.137                0.965375727     -78.3251496
9.138                0.965263689     -78.4597204
9.139                 0.96515112     -78.5946518
9.14                 0.965038017      -78.729945
9.141                0.964924379      -78.865601
9.142                0.964810205      -79.001621
9.143                0.964695493     -79.1380062
9.144                0.964580242     -79.2747577
9.145                 0.96446445     -79.4118765
9.146                0.964348117     -79.5493639
9.147                0.964231242      -79.687221
9.148                0.964113822     -79.8254489
9.149                0.963995856     -79.9640488
9.15                 0.963877343     -80.1030218
9.151                0.963758283      -80.242369
9.152                0.963638673     -80.3820917
9.153                0.963518512     -80.5221909
9.154                0.963397799     -80.6626679
9.155                0.963276533     -80.8035238
9.156                0.963154713     -80.9447596
9.157                0.963032337     -81.0863767
9.158                0.962909404     -81.2283762
9.159                0.962785913     -81.3707592
9.16                 0.962661862     -81.5135269
9.161                0.962537251     -81.6566805
9.162                0.962412079     -81.8002211
9.163                0.962286343       -81.94415
9.164                0.962160043     -82.0884682
9.165                0.962033178      -82.233177
9.166                0.961905746     -82.3782776
9.167                0.961777747     -82.5237711
9.168                0.961649179     -82.6696587
9.169                0.961520041     -82.8159417
9.17                 0.961390332     -82.9626211
9.171                0.961260052     -83.1096982
9.172                0.961129198     -83.2571741
9.173                 0.96099777     -83.4050502
9.174                0.960865766     -83.5533274
9.175                0.960733186     -83.7020072
9.176                0.960600029     -83.8510905
9.177                0.960466294     -84.0005788
9.178                0.960331979      -84.150473
9.179                0.960197083     -84.3007745
9.18                 0.960061606     -84.4514845
9.181                0.959925547     -84.6026041
9.182                0.959788905     -84.7541345
9.183                0.959651678     -84.9060771
9.184                0.959513865     -85.0584329
9.185                0.959375467     -85.2112031
9.186                0.959236482     -85.3643891
9.187                0.959096909      -85.517992
9.188                0.958956746      -85.672013
9.189                0.958815995     -85.8264533
9.19                 0.958674652     -85.9813141
9.191                0.958532719     -86.1365968
9.192                0.958390193     -86.2923024
9.193                0.958247074     -86.4484322
9.194                0.958103362     -86.6049874
9.195                0.957959055     -86.7619692
9.196                0.957814153     -86.9193789
9.197                0.957668655     -87.0772177
9.198                 0.95752256     -87.2354867
9.199                0.957375868     -87.3941873
9.2                  0.957228578     -87.5533207
9.201                0.957080689      -87.712888
9.202                0.956932201     -87.8728904
9.203                0.956783113     -88.0333293
9.204                0.956633425     -88.1942059
9.205                0.956483135     -88.3555213
9.206                0.956332244     -88.5172768
9.207                0.956180751     -88.6794736
9.208                0.956028656      -88.842113
9.209                0.955875957     -89.0051961
9.21                 0.955722654     -89.1687242
9.211                0.955568748     -89.3326986
9.212                0.955414237     -89.4971204
9.213                0.955259122     -89.6619908
9.214                0.955103401     -89.8273112
9.215                0.954947074     -89.9930827
9.216                0.954790142     -90.1593066
9.217                0.954632604      -90.325984
9.218                0.954474459     -90.4931163
9.219                0.954315707     -90.6607046
9.22                 0.954156349     -90.8287501
9.221                0.953996383     -90.9972541
9.222                 0.95383581     -91.1662178
9.223                0.953674629     -91.3356425
9.224                0.953512841     -91.5055293
9.225                0.953350446     -91.6758794
9.226                0.953187442     -91.8466942
9.227                0.953023831     -92.0179747
9.228                0.952859612     -92.1897223
9.229                0.952694785     -92.3619381
9.23                  0.95252935     -92.5346234
9.231                0.952363308     -92.7077793
9.232                0.952196658     -92.8814072
9.233                0.952029401     -93.0555081
9.234                0.951861536     -93.2300834
9.235                0.951693065     -93.4051341
9.236                0.951523986     -93.5806616
9.237                0.951354301      -93.756667
9.238                 0.95118401     -93.9331516
9.239                0.951013112     -94.1101165
9.24                 0.950841609     -94.2875629
9.241                0.950669501     -94.4654921
9.242                0.950496788     -94.6439052
9.243                 0.95032347     -94.8228034
9.244                0.950149548      -95.002188
9.245                0.949975024     -95.1820601
9.246                0.949799896     -95.3624208
9.247                0.949624166     -95.5432714
9.248                0.949447834     -95.7246131
9.249                0.949270902     -95.9064471
9.25                 0.949093369     -96.0887744
9.251                0.948915237     -96.2715964
9.252                0.948736506     -96.4549141
9.253                0.948557177     -96.6387288
9.254                0.948377251     -96.8230415
9.255                0.948196729     -97.0078535
9.256                0.948015611     -97.1931659
9.257                0.947833899     -97.3789799
9.258                0.947651594     -97.5652966
9.259                0.947468697     -97.7521171
9.26                 0.947285209     -97.9394427
9.261                 0.94710113     -98.1272744
9.262                0.946916463     -98.3156134
9.263                0.946731208     -98.5044608
9.264                0.946545367     -98.6938178
9.265                0.946358941     -98.8836854
9.266                0.946171931     -99.0740648
9.267                0.945984338     -99.2649572
9.268                0.945796165     -99.4563635
9.269                0.945607412     -99.6482849
9.27                 0.945418082     -99.8407226
9.271                0.945228175     -100.033678
9.272                0.945037693     -100.227151
9.273                0.944846639     -100.421144
9.274                0.944655013     -100.615657
9.275                0.944462817     -100.810692
9.276                0.944270054      -101.00625
9.277                0.944076725     -101.202332
9.278                0.943882832     -101.398938
9.279                0.943688376      -101.59607
9.28                 0.943493361      -101.79373
9.281                0.943297788     -101.991917
9.282                0.943101658     -102.190633
9.283                0.942904975     -102.389879
9.284                0.942707741     -102.589656
9.285                0.942509957     -102.789966
9.286                0.942311626     -102.990808
9.287                0.942112751     -103.192185
9.288                0.941913334     -103.394096
9.289                0.941713376     -103.596544
9.29                 0.941512882     -103.799528
9.291                0.941311853     -104.003051
9.292                0.941110292     -104.207113
9.293                0.940908202     -104.411714
9.294                0.940705585     -104.616856
9.295                0.940502445     -104.822541
9.296                0.940298784     -105.028768
9.297                0.940094605     -105.235538
9.298                0.939889911     -105.442853
9.299                0.939684705     -105.650714
9.3                   0.93947899     -105.859121
9.301                 0.93927277     -106.068075
9.302                0.939066047     -106.277578
9.303                0.938858825     -106.487629
9.304                0.938651107     -106.698231
9.305                0.938442897     -106.909383
9.306                0.938234198     -107.121087
9.307                0.938025014     -107.333343
9.308                0.937815348     -107.546152
9.309                0.937605203     -107.759516
9.31                 0.937394585     -107.973434
9.311                0.937183495     -108.187908
9.312                0.936971939     -108.402939
9.313                 0.93675992     -108.618526
9.314                0.936547442     -108.834672
9.315                0.936334509     -109.051376
9.316                0.936121125      -109.26864
9.317                0.935907294     -109.486464
9.318                0.935693022     -109.704849
9.319                0.935478311     -109.923795
9.32                 0.935263166     -110.143304
9.321                0.935047592     -110.363376
9.322                0.934831594     -110.584011
9.323                0.934615175     -110.805211
9.324                0.934398341     -111.026975
9.325                0.934181095     -111.249305
9.326                0.933963444     -111.472202
9.327                0.933745392     -111.695665
9.328                0.933526943     -111.919695
9.329                0.933308104     -112.144294
9.33                 0.933088878     -112.369461
9.331                0.932869271     -112.595197
9.332                0.932649288     -112.821502
9.333                0.932428935     -113.048378
9.334                0.932208216     -113.275824
9.335                0.931987138     -113.503842
9.336                0.931765706     -113.732431
9.337                0.931543925     -113.961592
9.338                0.931321801     -114.191326
9.339                 0.93109934     -114.421633
9.34                 0.930876547     -114.652513
9.341                0.930653429     -114.883967
9.342                0.930429991     -115.115995
9.343                0.930206239     -115.348597
9.344                 0.92998218     -115.581774
9.345                 0.92975782     -115.815527
9.346                0.929533164     -116.049855
9.347                 0.92930822     -116.284759
9.348                0.929082994     -116.520239
9.349                0.928857491     -116.756296
9.35                  0.92863172     -116.992929
9.351                0.928405685     -117.230139
9.352                0.928179395     -117.467926
9.353                0.927952856     -117.706291
9.354                0.927726074     -117.945233
9.355                0.927499057     -118.184752
9.356                0.927271812      -118.42485
9.357                0.927044345     -118.665525
9.358                0.926816664     -118.906778
9.359                0.926588777      -119.14861
9.36                  0.92636069     -119.391019
9.361                0.926132411     -119.634007
9.362                0.925903948     -119.877574
9.363                0.925675308     -120.121718
9.364                0.925446498     -120.366441
9.365                0.925217527     -120.611742
9.366                0.924988402     -120.857621
9.367                0.924759131     -121.104078
9.368                0.924529722     -121.351113
9.369                0.924300183     -121.598727
9.37                 0.924070523     -121.846918
9.371                0.923840749     -122.095686
9.372                0.923610869     -122.345032
9.373                0.923380893     -122.594956
9.374                0.923150828     -122.845456
9.375                0.922920683     -123.096533
9.376                0.922690467     -123.348187
9.377                0.922460187     -123.600416
9.378                0.922229854     -123.853222
9.379                0.921999476     -124.106603
9.38                 0.921769061      -124.36056
9.381                0.921538619     -124.615091
9.382                0.921308159     -124.870197
9.383                0.921077689     -125.125877
9.384                 0.92084722      -125.38213
9.385                0.920616759     -125.638957
9.386                0.920386318     -125.896356
9.387                0.920155904     -126.154327
9.388                0.919925529      -126.41287
9.389                  0.9196952     -126.671983
9.39                 0.919464928     -126.931667
9.391                0.919234723      -127.19192
9.392                0.919004593     -127.452743
9.393                0.918774551     -127.714134
9.394                0.918544604     -127.976093
9.395                0.918314763     -128.238618
9.396                0.918085039      -128.50171
