! TOUCHSTONE file generated by CST DESIGN STUDIO
! Date and time: Tue Feb  4 12:44:40 2025
! Project name: C:\Work\MatlabApps\UnitCellOptimizationMatlab\CST\unitcell.cst
! Tree item: Tasks\Sweep1\SPara1\S-Parameters
! Header version: 2024
! Port assignment regex: !\s*Touchstone port\s*([0-9]+)\s*=\s*(CST MWS port|CST DES external port|CST DES block port)\s*(.+)\s* \(\"(.*)\"\)(\s*mode\s*([0-9]+))?.*
! Touchstone port assignment:
! Touchstone port 1 = CST DES external port 1 ("")
# GHz S MA R 50
9                    0.968685451       -86.95236
9.001                0.968653974      -87.112148
9.002                0.968621852     -87.2724034
9.003                0.968589081     -87.4331275
9.004                0.968555658     -87.5943215
9.005                0.968521578     -87.7559868
9.006                0.968486837     -87.9181246
9.007                0.968451432     -88.0807362
9.008                0.968415358     -88.2438229
9.009                0.968378612      -88.407386
9.01                 0.968341189     -88.5714267
9.011                0.968303086     -88.7359465
9.012                0.968264299     -88.9009464
9.013                0.968224823     -89.0664279
9.014                0.968184655     -89.2323922
9.015                0.968143791     -89.3988406
9.016                0.968102226     -89.5657743
9.017                0.968059958     -89.7331948
9.018                0.968016982     -89.9011031
9.019                0.967973294     -90.0695006
9.02                  0.96792889     -90.2383886
9.021                0.967883766     -90.4077684
9.022                0.967837919     -90.5776412
9.023                0.967791344     -90.7480083
9.024                0.967744038      -90.918871
9.025                0.967695997     -91.0902305
9.026                0.967647217     -91.2620881
9.027                0.967597694     -91.4344451
9.028                0.967547424     -91.6073027
9.029                0.967496403     -91.7806622
9.03                 0.967444628     -91.9545249
9.031                0.967392095     -92.1288919
9.032                  0.9673388     -92.3037647
9.033                0.967284739     -92.4791443
9.034                0.967229908     -92.6550321
9.035                0.967174304     -92.8314293
9.036                0.967117923     -93.0083372
9.037                 0.96706076      -93.185757
9.038                0.967002814     -93.3636899
9.039                0.966944079     -93.5421371
9.04                 0.966884551        -93.7211
9.041                0.966824229     -93.9005797
9.042                0.966763106     -94.0805775
9.043                0.966701181     -94.2610945
9.044                0.966638449     -94.4421321
9.045                0.966574907     -94.6236914
9.046                0.966510551     -94.8057736
9.047                0.966445378       -94.98838
9.048                0.966379383     -95.1715117
9.049                0.966312564       -95.35517
9.05                 0.966244917      -95.539356
9.051                0.966176439     -95.7240709
9.052                0.966107125      -95.909316
9.053                0.966036973     -96.0950925
9.054                0.965965979     -96.2814014
9.055                0.965894139      -96.468244
9.056                0.965821451     -96.6556214
9.057                0.965747911     -96.8435349
9.058                0.965673515     -97.0319855
9.059                 0.96559826     -97.2209745
9.06                 0.965522143      -97.410503
9.061                0.965445162     -97.6005721
9.062                0.965367311      -97.791183
9.063                0.965288589     -97.9823368
9.064                0.965208991     -98.1740347
9.065                0.965128516     -98.3662777
9.066                 0.96504716     -98.5590671
9.067                0.964964919     -98.7524038
9.068                 0.96488179     -98.9462891
9.069                0.964797772     -99.1407239
9.07                  0.96471286     -99.3357095
9.071                0.964627051     -99.5312469
9.072                0.964540343     -99.7273372
9.073                0.964452733     -99.9239814
9.074                0.964364218     -100.121181
9.075                0.964274795     -100.318936
9.076                0.964184462     -100.517249
9.077                0.964093214     -100.716119
9.078                0.964001051     -100.915549
9.079                0.963907969     -101.115539
9.08                 0.963813965     -101.316091
9.081                0.963719038     -101.517205
9.082                0.963623183     -101.718882
9.083                  0.9635264     -101.921123
9.084                0.963428685      -102.12393
9.085                0.963330035     -102.327303
9.086                 0.96323045     -102.531244
9.087                0.963129925     -102.735752
9.088                0.963028459      -102.94083
9.089                 0.96292605     -103.146478
9.09                 0.962822696     -103.352697
9.091                0.962718393     -103.559489
9.092                0.962613141     -103.766853
9.093                0.962506936     -103.974791
9.094                0.962399778     -104.183303
9.095                0.962291664     -104.392392
9.096                0.962182592     -104.602057
9.097                 0.96207256     -104.812299
9.098                0.961961566      -105.02312
9.099                 0.96184961      -105.23452
9.1                  0.961736688       -105.4465
9.101                0.961622799     -105.659061
9.102                0.961507943     -105.872203
9.103                0.961392116     -106.085928
9.104                0.961275318     -106.300236
9.105                0.961157548     -106.515128
9.106                0.961038803     -106.730605
9.107                0.960919083     -106.946668
9.108                0.960798386     -107.163317
9.109                0.960676712     -107.380553
9.11                 0.960554058     -107.598377
9.111                0.960430424     -107.816789
9.112                 0.96030581      -108.03579
9.113                0.960180213     -108.255382
9.114                0.960053634     -108.475564
9.115                0.959926071     -108.696337
9.116                0.959797524     -108.917703
9.117                0.959667991      -109.13966
9.118                0.959537474     -109.362211
9.119                0.959405969     -109.585356
9.12                 0.959273479     -109.809095
9.121                0.959140001      -110.03343
9.122                0.959005536     -110.258359
9.123                0.958870084     -110.483885
9.124                0.958733643     -110.710007
9.125                0.958596215     -110.936727
9.126                  0.9584578     -111.164044
9.127                0.958318396     -111.391959
9.128                0.958178005     -111.620473
9.129                0.958036626     -111.849586
9.13                 0.957894261     -112.079299
9.131                0.957750908     -112.309611
9.132                 0.95760657     -112.540524
9.133                0.957461245     -112.772038
9.134                0.957314936     -113.004153
9.135                0.957167642     -113.236869
9.136                0.957019365     -113.470188
9.137                0.956870104     -113.704108
9.138                0.956719862     -113.938631
9.139                 0.95656864     -114.173757
9.14                 0.956416437     -114.409486
9.141                0.956263256     -114.645818
9.142                0.956109099     -114.882753
9.143                0.955953965     -115.120293
9.144                0.955797857     -115.358437
9.145                0.955640777     -115.597184
9.146                0.955482726     -115.836536
9.147                0.955323705     -116.076493
9.148                0.955163717     -116.317054
9.149                0.955002764      -116.55822
9.15                 0.954840848     -116.799991
9.151                 0.95467797     -117.042367
9.152                0.954514134     -117.285347
9.153                0.954349341     -117.528933
9.154                0.954183593     -117.773123
9.155                0.954016895     -118.017919
9.156                0.953849247     -118.263319
9.157                0.953680653     -118.509325
9.158                0.953511115     -118.755935
9.159                0.953340638      -119.00315
9.16                 0.953169222     -119.250969
9.161                0.952996873     -119.499393
9.162                0.952823593     -119.748421
9.163                0.952649384     -119.998053
9.164                0.952474252     -120.248289
9.165                0.952298199     -120.499129
9.166                 0.95212123     -120.750572
9.167                0.951943347     -121.002618
9.168                0.951764555     -121.255267
9.169                0.951584857     -121.508519
9.17                 0.951404259     -121.762372
9.171                0.951222764     -122.016828
9.172                0.951040376     -122.271884
9.173                  0.9508571     -122.527542
9.174                 0.95067294       -122.7838
9.175                0.950487902     -123.040658
9.176                0.950301989     -123.298116
9.177                0.950115207     -123.556173
9.178                0.949927561     -123.814828
9.179                0.949739056     -124.074081
9.18                 0.949549697     -124.333931
9.181                0.949359489     -124.594378
9.182                0.949168439     -124.855421
9.183                0.948976551     -125.117059
9.184                0.948783831     -125.379292
9.185                0.948590286     -125.642119
9.186                 0.94839592     -125.905539
9.187                 0.94820074     -126.169552
9.188                0.948004753     -126.434156
9.189                0.947807964      -126.69935
9.19                  0.94761038     -126.965135
9.191                0.947412008     -127.231508
9.192                0.947212853      -127.49847
9.193                0.947012924     -127.766019
9.194                0.946812226     -128.034154
9.195                0.946610767     -128.302873
9.196                0.946408554     -128.572178
9.197                0.946205594     -128.842065
9.198                0.946001895     -129.112534
9.199                0.945797463     -129.383584
9.2                  0.945592307     -129.655213
9.201                0.945386435     -129.927421
9.202                0.945179853     -130.200206
9.203                0.944972571     -130.473568
9.204                0.944764596     -130.747504
9.205                0.944555936     -131.022014
9.206                  0.9443466     -131.297095
9.207                0.944136597     -131.572748
9.208                0.943925934      -131.84897
9.209                 0.94371462      -132.12576
9.21                 0.943502665     -132.403117
9.211                0.943290077     -132.681038
9.212                0.943076866     -132.959523
9.213                 0.94286304     -133.238571
9.214                0.942648608     -133.518178
9.215                0.942433581     -133.798345
9.216                0.942217967     -134.079069
9.217                0.942001777     -134.360348
9.218                 0.94178502     -134.642181
9.219                0.941567706     -134.924566
9.22                 0.941349845     -135.207502
9.221                0.941131447     -135.490986
9.222                0.940912523     -135.775017
9.223                0.940693082     -136.059592
9.224                0.940473135     -136.344711
9.225                0.940252693     -136.630371
9.226                0.940031767      -136.91657
9.227                0.939810366     -137.203306
9.228                0.939588503     -137.490577
9.229                0.939366189     -137.778381
9.23                 0.939143433     -138.066716
9.231                0.938920249      -138.35558
9.232                0.938696646      -138.64497
9.233                0.938472637     -138.934885
9.234                0.938248233     -139.225323
9.235                0.938023446      -139.51628
9.236                0.937798287     -139.807755
9.237                0.937572769     -140.099746
9.238                0.937346904     -140.392249
9.239                0.937120703     -140.685264
9.24                 0.936894179     -140.978786
9.241                0.936667345     -141.272814
9.242                0.936440212     -141.567346
9.243                0.936212793     -141.862378
9.244                0.935985101     -142.157909
9.245                0.935757149     -142.453936
9.246                0.935528949     -142.750455
9.247                0.935300514     -143.047465
9.248                0.935071858     -143.344963
9.249                0.934842993     -143.642945
9.25                 0.934613932      -143.94141
9.251                 0.93438469     -144.240354
9.252                0.934155279     -144.539775
9.253                0.933925713      -144.83967
9.254                0.933696005     -145.140035
9.255                0.933466169     -145.440869
9.256                0.933236219     -145.742168
9.257                0.933006168     -146.043928
9.258                0.932776031     -146.346148
9.259                0.932545821     -146.648824
9.26                 0.932315552     -146.951952
9.261                0.932085239     -147.255531
9.262                0.931854896     -147.559556
9.263                0.931624537     -147.864024
9.264                0.931394176     -148.168933
9.265                0.931163828     -148.474278
9.266                0.930933507     -148.780058
9.267                0.930703228     -149.086267
9.268                0.930473005     -149.392904
9.269                0.930242854     -149.699964
9.27                 0.930012788     -150.007445
9.271                0.929782822     -150.315342
9.272                0.929552972     -150.623653
9.273                0.929323253     -150.932374
9.274                0.929093678       -151.2415
9.275                0.928864264      -151.55103
9.276                0.928635025     -151.860958
9.277                0.928405977     -152.171283
9.278                0.928177134     -152.481998
9.279                0.927948512     -152.793102
9.28                 0.927720125     -153.104591
9.281                 0.92749199      -153.41646
9.282                0.927264122     -153.728705
9.283                0.927036535     -154.041324
9.284                0.926809245     -154.354312
9.285                0.926582268     -154.667666
9.286                0.926355619      -154.98138
9.287                0.926129313     -155.295453
9.288                0.925903367     -155.609878
9.289                0.925677794     -155.924653
9.29                 0.925452612     -156.239774
9.291                0.925227835     -156.555236
9.292                0.925003479     -156.871035
9.293                0.924779559     -157.187168
9.294                0.924556091      -157.50363
9.295                0.924333091     -157.820417
9.296                0.924110574     -158.137524
9.297                0.923888556     -158.454948
9.298                0.923667052     -158.772684
9.299                0.923446078     -159.090729
9.3                   0.92322565     -159.409077
9.301                0.923005782     -159.727724
9.302                0.922786491     -160.046667
9.303                0.922567792       -160.3659
9.304                0.922349701      -160.68542
9.305                0.922132232     -161.005221
9.306                0.921915402       -161.3253
9.307                0.921699226     -161.645652
9.308                0.921483719     -161.966272
9.309                0.921268898     -162.287156
9.31                 0.921054776       -162.6083
9.311                0.920841369     -162.929698
9.312                0.920628694     -163.251347
9.313                0.920416764     -163.573241
9.314                0.920205596     -163.895376
9.315                0.919995204     -164.217748
9.316                0.919785604     -164.540351
9.317                0.919576811     -164.863182
9.318                0.919368839     -165.186234
9.319                0.919161703     -165.509505
9.32                  0.91895542     -165.832988
9.321                0.918750003     -166.156679
9.322                0.918545467     -166.480573
9.323                0.918341827     -166.804666
9.324                0.918139098     -167.128952
9.325                0.917937294     -167.453427
9.326                 0.91773643     -167.778086
9.327                 0.91753652     -168.102925
9.328                0.917337579     -168.427937
9.329                0.917139621     -168.753118
9.33                 0.916942661     -169.078464
9.331                0.916746712     -169.403969
9.332                0.916551788     -169.729629
9.333                0.916357904     -170.055438
9.334                0.916165073     -170.381392
9.335                 0.91597331     -170.707485
9.336                0.915782628     -171.033712
9.337                 0.91559304     -171.360069
9.338                 0.91540456     -171.686551
9.339                0.915217202     -172.013151
9.34                 0.915030979     -172.339866
9.341                0.914845904     -172.666691
9.342                 0.91466199     -172.993619
9.343                 0.91447925     -173.320647
9.344                0.914297697     -173.647769
9.345                0.914117345      -173.97498
9.346                0.913938204     -174.302274
9.347                0.913760289     -174.629647
9.348                0.913583611     -174.957094
9.349                0.913408183     -175.284609
9.35                 0.913234017     -175.612188
9.351                0.913061125     -175.939824
9.352                 0.91288952     -176.267514
9.353                0.912719211     -176.595251
9.354                0.912550213     -176.923032
9.355                0.912382535      -177.25085
9.356                 0.91221619       -177.5787
9.357                0.912051188     -177.906577
9.358                0.911887541     -178.234477
9.359                 0.91172526     -178.562393
9.36                 0.911564355     -178.890321
9.361                0.911404838     -179.218256
9.362                0.911246719     -179.546192
9.363                0.911090008     -179.874124
9.364                0.910934716      179.797953
9.365                0.910780852      179.470044
9.366                0.910628427      179.142154
9.367                0.910477451      178.814289
9.368                0.910327933      178.486454
9.369                0.910179882      178.158653
9.37                 0.910033308      177.830892
9.371                0.909888221      177.503177
9.372                0.909744629      177.175511
9.373                0.909602541      176.847901
9.374                0.909461966      176.520352
9.375                0.909322912      176.192868
9.376                0.909185388      175.865456
9.377                0.909049403      175.538119
9.378                0.908914963      175.210863
9.379                0.908782077      174.883693
9.38                 0.908650753      174.556615
9.381                0.908520999      174.229633
9.382                0.908392821      173.902752
9.383                0.908266227      173.575978
9.384                0.908141224      173.249316
9.385                0.908017819       172.92277
9.386                0.907896018      172.596345
9.387                0.907775829      172.270048
9.388                0.907657257      171.943882
9.389                0.907540308      171.617852
9.39                  0.90742499      171.291965
9.391                0.907311307      170.966224
9.392                0.907199265      170.640634
9.393                0.907088871      170.315201
9.394                0.906980128       169.98993
9.395                0.906873042      169.664825
9.396                0.906767619      169.339891
