! TOUCHSTONE file generated by CST DESIGN STUDIO
! Date and time: Tue Feb  4 12:44:51 2025
! Project name: C:\Work\MatlabApps\UnitCellOptimizationMatlab\CST\unitcell.cst
! Tree item: Tasks\Sweep1\SPara1\S-Parameters
! Header version: 2024
! Port assignment regex: !\s*Touchstone port\s*([0-9]+)\s*=\s*(CST MWS port|CST DES external port|CST DES block port)\s*(.+)\s* \(\"(.*)\"\)(\s*mode\s*([0-9]+))?.*
! Touchstone port assignment:
! Touchstone port 1 = CST DES external port 1 ("")
# GHz S MA R 50
9                     0.97740794     -59.8184372
9.001                0.977375006     -59.9064476
9.002                0.977341774     -59.9946704
9.003                0.977308243     -60.0831065
9.004                 0.97727441     -60.1717564
9.005                0.977240275     -60.2606209
9.006                0.977205837     -60.3497006
9.007                0.977171095     -60.4389963
9.008                0.977136046     -60.5285086
9.009                 0.97710069     -60.6182382
9.01                 0.977065025     -60.7081859
9.011                0.977029051     -60.7983523
9.012                0.976992765     -60.8887381
9.013                0.976956166      -60.979344
9.014                0.976919254     -61.0701707
9.015                0.976882027      -61.161219
9.016                0.976844483     -61.2524895
9.017                0.976806621      -61.343983
9.018                0.976768439     -61.4357002
9.019                0.976729937     -61.5276417
9.02                 0.976691114     -61.6198084
9.021                0.976651967     -61.7122009
9.022                0.976612495     -61.8048199
9.023                0.976572697     -61.8976663
9.024                0.976532572     -61.9907407
9.025                0.976492118     -62.0840438
9.026                0.976451334     -62.1775764
9.027                0.976410218     -62.2713392
9.028                 0.97636877      -62.365333
9.029                0.976326987     -62.4595586
9.03                 0.976284869     -62.5540165
9.031                0.976242413     -62.6487077
9.032                0.976199619     -62.7436328
9.033                0.976156485     -62.8387927
9.034                 0.97611301      -62.934188
9.035                0.976069192     -63.0298195
9.036                0.976025029      -63.125688
9.037                0.975980522     -63.2217943
9.038                0.975935667      -63.318139
9.039                0.975890463     -63.4147231
9.04                  0.97584491     -63.5115472
9.041                0.975799006     -63.6086121
9.042                0.975752749     -63.7059186
9.043                0.975706137     -63.8034676
9.044                 0.97565917     -63.9012596
9.045                0.975611846     -63.9992956
9.046                0.975564163     -64.0975764
9.047                 0.97551612     -64.1961027
9.048                0.975467716     -64.2948753
9.049                0.975418948      -64.393895
9.05                 0.975369816     -64.4931626
9.051                0.975320318     -64.5926789
9.052                0.975270453     -64.6924448
9.053                0.975220219     -64.7924609
9.054                0.975169614     -64.8927282
9.055                0.975118638     -64.9932474
9.056                0.975067288     -65.0940194
9.057                0.975015563      -65.195045
9.058                0.974963461     -65.2963249
9.059                0.974910982       -65.39786
9.06                 0.974858123     -65.4996512
9.061                0.974804883     -65.6016992
9.062                0.974751261     -65.7040049
9.063                0.974697255     -65.8065691
9.064                0.974642863     -65.9093927
9.065                0.974588083     -66.0124765
9.066                0.974532916     -66.1158213
9.067                0.974477358      -66.219428
9.068                0.974421408     -66.3232974
9.069                0.974365065     -66.4274304
9.07                 0.974308327     -66.5318278
9.071                0.974251193     -66.6364905
9.072                0.974193661     -66.7414193
9.073                0.974135729     -66.8466152
9.074                0.974077397     -66.9520788
9.075                0.974018661     -67.0578112
9.076                0.973959521     -67.1638132
9.077                0.973899976     -67.2700857
9.078                0.973840023     -67.3766295
9.079                0.973779661     -67.4834455
9.08                 0.973718889     -67.5905346
9.081                0.973657704     -67.6978976
9.082                0.973596106     -67.8055356
9.083                0.973534092     -67.9134492
9.084                0.973471662     -68.0216395
9.085                0.973408813     -68.1301073
9.086                0.973345543     -68.2388536
9.087                0.973281852     -68.3478792
9.088                0.973217738      -68.457185
9.089                0.973153198     -68.5667719
9.09                 0.973088232     -68.6766408
9.091                0.973022838     -68.7867927
9.092                0.972957014     -68.8972285
9.093                0.972890759      -69.007949
9.094                 0.97282407     -69.1189553
9.095                0.972756947     -69.2302481
9.096                0.972689387     -69.3418285
9.097                0.972621389     -69.4536973
9.098                0.972552952     -69.5658555
9.099                0.972484074      -69.678304
9.1                  0.972414752     -69.7910438
9.101                0.972344986     -69.9040758
9.102                0.972274774      -70.017401
9.103                0.972204114     -70.1310202
9.104                0.972133005     -70.2449344
9.105                0.972061444     -70.3591446
9.106                 0.97198943     -70.4736518
9.107                0.971916963     -70.5884568
9.108                0.971844039     -70.7035606
9.109                0.971770657     -70.8189643
9.11                 0.971696816     -70.9346687
9.111                0.971622514     -71.0506748
9.112                0.971547749     -71.1669836
9.113                0.971472519     -71.2835961
9.114                0.971396824     -71.4005133
9.115                 0.97132066      -71.517736
9.116                0.971244028     -71.6352654
9.117                0.971166924     -71.7531023
9.118                0.971089348     -71.8712478
9.119                0.971011297     -71.9897029
9.12                  0.97093277     -72.1084685
9.121                0.970853765     -72.2275456
9.122                0.970774281     -72.3469353
9.123                0.970694315     -72.4666385
9.124                0.970613867     -72.5866562
9.125                0.970532935     -72.7069895
9.126                0.970451516     -72.8276393
9.127                0.970369609     -72.9486067
9.128                0.970287213     -73.0698927
9.129                0.970204326     -73.1914982
9.13                 0.970120946     -73.3134243
9.131                0.970037071     -73.4356721
9.132                  0.9699527     -73.5582425
9.133                0.969867832     -73.6811366
9.134                0.969782463     -73.8043554
9.135                0.969696594     -73.9278999
9.136                0.969610221     -74.0517713
9.137                0.969523344     -74.1759704
9.138                0.969435961     -74.3004983
9.139                0.969348069     -74.4253562
9.14                 0.969259668      -74.550545
9.141                0.969170756     -74.6760658
9.142                0.969081331     -74.8019196
9.143                0.968991391     -74.9281075
9.144                0.968900935     -75.0546306
9.145                0.968809961     -75.1814899
9.146                0.968718468     -75.3086864
9.147                0.968626453     -75.4362213
9.148                0.968533915     -75.5640956
9.149                0.968440852     -75.6923103
9.15                 0.968347264     -75.8208666
9.151                0.968253147     -75.9497655
9.152                0.968158501      -76.079008
9.153                0.968063324     -76.2085954
9.154                0.967967613     -76.3385286
9.155                0.967871368     -76.4688088
9.156                0.967774588     -76.5994369
9.157                0.967677269     -76.7304142
9.158                0.967579411     -76.8617417
9.159                0.967481012     -76.9934205
9.16                  0.96738207     -77.1254517
9.161                0.967282583     -77.2578364
9.162                0.967182551     -77.3905757
9.163                0.967081972     -77.5236707
9.164                0.966980843     -77.6571225
9.165                0.966879163     -77.7909322
9.166                0.966776931      -77.925101
9.167                0.966674145     -78.0596299
9.168                0.966570804     -78.1945201
9.169                0.966466905     -78.3297726
9.17                 0.966362448     -78.4653887
9.171                 0.96625743     -78.6013694
9.172                 0.96615185     -78.7377159
9.173                0.966045707     -78.8744292
9.174                0.965938999     -79.0115105
9.175                0.965831724      -79.148961
9.176                0.965723881     -79.2867818
9.177                0.965615469      -79.424974
9.178                0.965506485     -79.5635387
9.179                0.965396928     -79.7024772
9.18                 0.965286797     -79.8417905
9.181                 0.96517609     -79.9814798
9.182                0.965064806     -80.1215462
9.183                0.964952943     -80.2619909
9.184                  0.9648405      -80.402815
9.185                0.964727475     -80.5440197
9.186                0.964613866     -80.6856062
9.187                0.964499673     -80.8275756
9.188                0.964384894      -80.969929
9.189                0.964269526     -81.1126677
9.19                  0.96415357     -81.2557928
9.191                0.964037023     -81.3993054
9.192                0.963919884     -81.5432068
9.193                0.963802151      -81.687498
9.194                0.963683824     -81.8321803
9.195                  0.9635649     -81.9772549
9.196                0.963445379     -82.1227228
9.197                0.963325258     -82.2685854
9.198                0.963204537     -82.4148437
9.199                0.963083214      -82.561499
9.2                  0.962961289     -82.7085524
9.201                0.962838758     -82.8560051
9.202                0.962715622     -83.0038584
9.203                0.962591878     -83.1521133
9.204                0.962467527     -83.3007711
9.205                0.962342565     -83.4498329
9.206                0.962216992        -83.5993
9.207                0.962090807     -83.7491735
9.208                0.961964009     -83.8994547
9.209                0.961836595     -84.0501448
9.21                 0.961708566     -84.2012448
9.211                0.961579919     -84.3527561
9.212                0.961450654     -84.5046798
9.213                0.961320769     -84.6570172
9.214                0.961190264     -84.8097693
9.215                0.961059136     -84.9629375
9.216                0.960927385      -85.116523
9.217                 0.96079501     -85.2705269
9.218                 0.96066201     -85.4249504
9.219                0.960528383     -85.5797948
9.22                 0.960394128     -85.7350613
9.221                0.960259245      -85.890751
9.222                0.960123732     -86.0468652
9.223                0.959987588     -86.2034051
9.224                0.959850813     -86.3603719
9.225                0.959713404     -86.5177668
9.226                0.959575363      -86.675591
9.227                0.959436686     -86.8338458
9.228                0.959297373     -86.9925323
9.229                0.959157425     -87.1516518
9.23                 0.959016838     -87.3112055
9.231                0.958875613     -87.4711946
9.232                0.958733749     -87.6316202
9.233                0.958591245     -87.7924838
9.234                  0.9584481     -87.9537863
9.235                0.958304313     -88.1155291
9.236                0.958159883     -88.2777134
9.237                0.958014811     -88.4403404
9.238                0.957869094     -88.6034113
9.239                0.957722732     -88.7669274
9.24                 0.957575725     -88.9308898
9.241                0.957428071     -89.0952997
9.242                0.957279771     -89.2601584
9.243                0.957130824     -89.4254671
9.244                0.956981228     -89.5912271
9.245                0.956830983     -89.7574394
9.246                 0.95668009     -89.9241054
9.247                0.956528546     -90.0912263
9.248                0.956376353     -90.2588033
9.249                0.956223508     -90.4268375
9.25                 0.956070012     -90.5953302
9.251                0.955915865     -90.7642827
9.252                0.955761065      -90.933696
9.253                0.955605613     -91.1035716
9.254                0.955449508     -91.2739104
9.255                 0.95529275     -91.4447139
9.256                0.955135339      -91.615983
9.257                0.954977274     -91.7877192
9.258                0.954818554     -91.9599236
9.259                0.954659181     -92.1325973
9.26                 0.954499153     -92.3057416
9.261                0.954338471     -92.4793578
9.262                0.954177134     -92.6534469
9.263                0.954015142     -92.8280102
9.264                0.953852495     -93.0030489
9.265                0.953689194     -93.1785642
9.266                0.953525238     -93.3545573
9.267                0.953360627     -93.5310293
9.268                0.953195361     -93.7079815
9.269                 0.95302944     -93.8854151
9.27                 0.952862865     -94.0633312
9.271                0.952695636     -94.2417311
9.272                0.952527752     -94.4206158
9.273                0.952359215     -94.5999867
9.274                0.952190024     -94.7798448
9.275                0.952020179     -94.9601914
9.276                0.951849682     -95.1410275
9.277                0.951678532     -95.3223545
9.278                0.951506729     -95.5041734
9.279                0.951334275     -95.6864855
9.28                  0.95116117     -95.8692918
9.281                0.950987414     -96.0525936
9.282                0.950813008     -96.2363919
9.283                0.950637952      -96.420688
9.284                0.950462247      -96.605483
9.285                0.950285894     -96.7907781
9.286                0.950108894     -96.9765743
9.287                0.949931247     -97.1628729
9.288                0.949752954     -97.3496749
9.289                0.949574016     -97.5369815
9.29                 0.949394434     -97.7247938
9.291                0.949214208      -97.913113
9.292                0.949033341     -98.1019401
9.293                0.948851832     -98.2912763
9.294                0.948669683     -98.4811227
9.295                0.948486895     -98.6714804
9.296                0.948303469     -98.8623505
9.297                0.948119407     -99.0537341
9.298                0.947934709     -99.2456323
9.299                0.947749377     -99.4380461
9.3                  0.947563413     -99.6309767
9.301                0.947376817     -99.8244251
9.302                0.947189591     -100.018392
9.303                0.947001737      -100.21288
9.304                0.946813256     -100.407888
9.305                 0.94662415     -100.603419
9.306                 0.94643442     -100.799472
9.307                0.946244068      -100.99605
9.308                0.946053096     -101.193153
9.309                0.945861506     -101.390782
9.31                 0.945669299     -101.588939
9.311                0.945476478     -101.787624
9.312                0.945283044     -101.986838
9.313                0.945088999     -102.186582
9.314                0.944894346     -102.386858
9.315                0.944699086     -102.587666
9.316                0.944503222     -102.789008
9.317                0.944306756     -102.990884
9.318                 0.94410969     -103.193295
9.319                0.943912027     -103.396242
9.32                 0.943713768     -103.599727
9.321                0.943514918     -103.803749
9.322                0.943315477     -104.008311
9.323                0.943115448     -104.213413
9.324                0.942914835     -104.419056
9.325                0.942713639      -104.62524
9.326                0.942511865     -104.831968
9.327                0.942309513     -105.039239
9.328                0.942106588     -105.247054
9.329                0.941903092     -105.455416
9.33                 0.941699029     -105.664323
9.331                  0.9414944     -105.873778
9.332                 0.94128921      -106.08378
9.333                0.941083462     -106.294332
9.334                0.940877158     -106.505434
9.335                0.940670303     -106.717086
9.336                0.940462899     -106.929289
9.337                0.940254951     -107.142045
9.338                 0.94004646     -107.355354
9.339                0.939837432     -107.569216
9.34                  0.93962787     -107.783633
9.341                0.939417777     -107.998606
9.342                0.939207157     -108.214135
9.343                0.938996015      -108.43022
9.344                0.938784353     -108.646863
9.345                0.938572177     -108.864065
9.346                0.938359489     -109.081825
9.347                0.938146295     -109.300146
9.348                0.937932598     -109.519026
9.349                0.937718403     -109.738468
9.35                 0.937503714     -109.958472
9.351                0.937288535     -110.179038
9.352                0.937072871     -110.400168
9.353                0.936856726     -110.621861
9.354                0.936640106     -110.844118
9.355                0.936423014      -111.06694
9.356                0.936205456     -111.290328
9.357                0.935987437     -111.514282
9.358                0.935768961     -111.738803
9.359                0.935550033     -111.963891
9.36                 0.935330658     -112.189547
9.361                0.935110842     -112.415771
9.362                 0.93489059     -112.642564
9.363                0.934669907     -112.869926
9.364                0.934448799     -113.097859
9.365                 0.93422727     -113.326361
9.366                0.934005327     -113.555434
9.367                0.933782975     -113.785078
9.368                 0.93356022     -114.015294
9.369                0.933337067     -114.246082
9.37                 0.933113523     -114.477443
9.371                0.932889593     -114.709376
9.372                0.932665283     -114.941882
9.373                  0.9324406     -115.174962
9.374                 0.93221555     -115.408615
9.375                0.931990138     -115.642843
9.376                0.931764372     -115.877645
9.377                0.931538257     -116.113022
9.378                  0.9313118     -116.348974
9.379                0.931085008     -116.585501
9.38                 0.930857887     -116.822603
9.381                0.930630444     -117.060282
9.382                0.930402687     -117.298535
9.383                 0.93017462     -117.537365
9.384                0.929946253     -117.776772
9.385                0.929717591     -118.016754
9.386                0.929488642     -118.257313
9.387                0.929259414     -118.498449
9.388                0.929029913     -118.740161
9.389                0.928800147     -118.982449
9.39                 0.928570123     -119.225315
9.391                0.928339849     -119.468757
9.392                0.928109332     -119.712776
9.393                0.927878581     -119.957372
9.394                0.927647603     -120.202545
9.395                0.927416406     -120.448294
9.396                0.927184997     -120.694619
