! TOUCHSTONE file generated by CST DESIGN STUDIO
! Date and time: Tue Feb  4 12:44:38 2025
! Project name: C:\Work\MatlabApps\UnitCellOptimizationMatlab\CST\unitcell.cst
! Tree item: Tasks\Sweep1\SPara1\S-Parameters
! Header version: 2024
! Port assignment regex: !\s*Touchstone port\s*([0-9]+)\s*=\s*(CST MWS port|CST DES external port|CST DES block port)\s*(.+)\s* \(\"(.*)\"\)(\s*mode\s*([0-9]+))?.*
! Touchstone port assignment:
! Touchstone port 1 = CST DES external port 1 ("")
# GHz S MA R 50
9                     0.96774586     -90.5382102
9.001                0.967725683     -90.7075989
9.002                0.967704656     -90.8775401
9.003                0.967682776     -91.0480341
9.004                0.967660039     -91.2190812
9.005                 0.96763644     -91.3906816
9.006                0.967611977     -91.5628356
9.007                0.967586645     -91.7355435
9.008                0.967560443     -91.9088056
9.009                0.967533365     -92.0826223
9.01                 0.967505409     -92.2569939
9.011                0.967476572     -92.4319209
9.012                 0.96744685     -92.6074036
9.013                0.967416241     -92.7834424
9.014                0.967384742     -92.9600379
9.015                0.967352348     -93.1371904
9.016                0.967319059     -93.3149005
9.017                 0.96728487     -93.4931686
9.018                0.967249779     -93.6719952
9.019                0.967213783     -93.8513809
9.02                 0.967176879     -94.0313262
9.021                0.967139066     -94.2118316
9.022                0.967100339     -94.3928977
9.023                0.967060697     -94.5745251
9.024                0.967020136     -94.7567143
9.025                0.966978656      -94.939466
9.026                0.966936252     -95.1227806
9.027                0.966892922      -95.306659
9.028                0.966848665     -95.4911016
9.029                0.966803477     -95.6761091
9.03                 0.966757357     -95.8616822
9.031                0.966710301     -96.0478214
9.032                0.966662309     -96.2345275
9.033                0.966613377     -96.4218011
9.034                0.966563503     -96.6096429
9.035                0.966512685     -96.7980535
9.036                0.966460921     -96.9870337
9.037                0.966408209      -97.176584
9.038                0.966354546     -97.3667053
9.039                0.966299931     -97.5573982
9.04                 0.966244361     -97.7486635
9.041                0.966187835     -97.9405017
9.042                 0.96613035     -98.1329136
9.043                0.966071905        -98.3259
9.044                0.966012497     -98.5194616
9.045                0.965952124      -98.713599
9.046                0.965890786      -98.908313
9.047                0.965828479     -99.1036043
9.048                0.965765202     -99.2994736
9.049                0.965700953     -99.4959217
9.05                  0.96563573     -99.6929493
9.051                0.965569532     -99.8905571
9.052                0.965502357     -100.088746
9.053                0.965434203     -100.287516
9.054                0.965365068     -100.486869
9.055                0.965294951     -100.686805
9.056                0.965223851     -100.887325
9.057                0.965151764     -101.088429
9.058                0.965078691     -101.290119
9.059                0.965004629     -101.492394
9.06                 0.964929577     -101.695257
9.061                0.964853533     -101.898706
9.062                0.964776496     -102.102744
9.063                0.964698465     -102.307371
9.064                0.964619438     -102.512587
9.065                0.964539414     -102.718394
9.066                0.964458391     -102.924791
9.067                0.964376368     -103.131781
9.068                0.964293344     -103.339362
9.069                0.964209318     -103.547537
9.07                 0.964124288     -103.756305
9.071                0.964038253     -103.965668
9.072                0.963951213     -104.175626
9.073                0.963863166     -104.386179
9.074                0.963774111     -104.597329
9.075                0.963684047     -104.809076
9.076                0.963592973     -105.021421
9.077                0.963500888     -105.234364
9.078                0.963407791     -105.447906
9.079                0.963313682     -105.662048
9.08                 0.963218559     -105.876789
9.081                0.963122422     -106.092132
9.082                 0.96302527     -106.308076
9.083                0.962927102     -106.524622
9.084                0.962827918     -106.741771
9.085                0.962727717     -106.959522
9.086                0.962626499     -107.177878
9.087                0.962524262     -107.396838
9.088                0.962421008     -107.616402
9.089                0.962316734     -107.836573
9.09                 0.962211441     -108.057348
9.091                0.962105129     -108.278731
9.092                0.961997796      -108.50072
9.093                0.961889444     -108.723317
9.094                0.961780071     -108.946522
9.095                0.961669678     -109.170335
9.096                0.961558265     -109.394757
9.097                0.961445831     -109.619788
9.098                0.961332377     -109.845429
9.099                0.961217902      -110.07168
9.1                  0.961102407     -110.298542
9.101                0.960985892     -110.526015
9.102                0.960868358     -110.754099
9.103                0.960749804     -110.982795
9.104                0.960630231     -111.212103
9.105                 0.96050964     -111.442024
9.106                 0.96038803     -111.672557
9.107                0.960265403     -111.903703
9.108                0.960141759     -112.135463
9.109                0.960017099     -112.367837
9.11                 0.959891423     -112.600825
9.111                0.959764733     -112.834427
9.112                0.959637029     -113.068643
9.113                0.959508312     -113.303474
9.114                0.959378583      -113.53892
9.115                0.959247843     -113.774982
9.116                0.959116094     -114.011658
9.117                0.958983336      -114.24895
9.118                0.958849572     -114.486858
9.119                0.958714801     -114.725382
9.12                 0.958579027     -114.964521
9.121                0.958442249     -115.204277
9.122                 0.95830447     -115.444648
9.123                0.958165692     -115.685636
9.124                0.958025916      -115.92724
9.125                0.957885143      -116.16946
9.126                0.957743377     -116.412297
9.127                0.957600618     -116.655749
9.128                0.957456869     -116.899818
9.129                0.957312132     -117.144503
9.13                 0.957166409     -117.389804
9.131                0.957019702     -117.635721
9.132                0.956872014     -117.882253
9.133                0.956723348     -118.129402
9.134                0.956573705     -118.377166
9.135                0.956423088     -118.625546
9.136                0.956271501      -118.87454
9.137                0.956118945      -119.12415
9.138                0.955965423     -119.374374
9.139                 0.95581094     -119.625213
9.14                 0.955655496     -119.876667
9.141                0.955499097     -120.128734
9.142                0.955341745     -120.381414
9.143                0.955183443     -120.634708
9.144                0.955024194     -120.888615
9.145                0.954864003     -121.143135
9.146                0.954702872     -121.398266
9.147                0.954540806     -121.654009
9.148                0.954377808     -121.910363
9.149                0.954213882     -122.167328
9.15                 0.954049031     -122.424904
9.151                0.953883261     -122.683088
9.152                0.953716575     -122.941882
9.153                0.953548978     -123.201285
9.154                0.953380473     -123.461295
9.155                0.953211065     -123.721913
9.156                0.953040759     -123.983137
9.157                 0.95286956     -124.244967
9.158                0.952697471     -124.507402
9.159                0.952524498     -124.770442
9.16                 0.952350647     -125.034086
9.161                0.952175921     -125.298332
9.162                0.952000326     -125.563181
9.163                0.951823867     -125.828631
9.164                 0.95164655     -126.094681
9.165                 0.95146838     -126.361331
9.166                0.951289362     -126.628579
9.167                0.951109503     -126.896425
9.168                0.950928808     -127.164868
9.169                0.950747283     -127.433906
9.17                 0.950564933     -127.703539
9.171                0.950381765     -127.973765
9.172                0.950197786     -128.244584
9.173                0.950013001     -128.515994
9.174                0.949827416     -128.787995
9.175                0.949641039     -129.060584
9.176                0.949453876     -129.333761
9.177                0.949265933     -129.607525
9.178                0.949077218     -129.881874
9.179                0.948887737     -130.156807
9.18                 0.948697498     -130.432323
9.181                0.948506507      -130.70842
9.182                0.948314771     -130.985097
9.183                0.948122299     -131.262352
9.184                0.947929098     -131.540185
9.185                0.947735175     -131.818593
9.186                0.947540538     -132.097575
9.187                0.947345194      -132.37713
9.188                0.947149152     -132.657256
9.189                 0.94695242     -132.937951
9.19                 0.946755006     -133.219213
9.191                0.946556917     -133.501042
9.192                0.946358163     -133.783435
9.193                0.946158752     -134.066391
9.194                0.945958692     -134.349908
9.195                0.945757993     -134.633984
9.196                0.945556662     -134.918617
9.197                0.945354709     -135.203805
9.198                0.945152143     -135.489547
9.199                0.944948973     -135.775841
9.2                  0.944745208     -136.062684
9.201                0.944540857     -136.350075
9.202                 0.94433593     -136.638011
9.203                0.944130437     -136.926491
9.204                0.943924386     -137.215513
9.205                0.943717789     -137.505073
9.206                0.943510654     -137.795172
9.207                0.943302992     -138.085805
9.208                0.943094813     -138.376971
9.209                0.942886127     -138.668667
9.21                 0.942676944     -138.960892
9.211                0.942467274     -139.253643
9.212                0.942257129     -139.546917
9.213                0.942046519     -139.840713
9.214                0.941835454     -140.135027
9.215                0.941623945     -140.429858
9.216                0.941412003     -140.725203
9.217                0.941199639     -141.021059
9.218                0.940986865     -141.317424
9.219                0.940773691     -141.614295
9.22                 0.940560129      -141.91167
9.221                 0.94034619     -142.209545
9.222                0.940131886     -142.507919
9.223                0.939917228     -142.806789
9.224                0.939702228     -143.106151
9.225                0.939486897     -143.406003
9.226                0.939271248     -143.706343
9.227                0.939055293     -144.007166
9.228                0.938839043     -144.308471
9.229                0.938622511     -144.610255
9.23                 0.938405709     -144.912514
9.231                0.938188649     -145.215246
9.232                0.937971344     -145.518447
9.233                0.937753806     -145.822115
9.234                0.937536048     -146.126246
9.235                0.937318083     -146.430837
9.236                0.937099922     -146.735886
9.237                 0.93688158     -147.041388
9.238                0.936663069     -147.347341
9.239                0.936444401     -147.653742
9.24                 0.936225591     -147.960586
9.241                 0.93600665     -148.267872
9.242                0.935787593     -148.575595
9.243                0.935568433     -148.883752
9.244                0.935349182     -149.192339
9.245                0.935129855     -149.501354
9.246                0.934910465     -149.810792
9.247                0.934691025     -150.120651
9.248                0.934471549     -150.430926
9.249                0.934252051     -150.741615
9.25                 0.934032544     -151.052712
9.251                0.933813043     -151.364216
9.252                0.933593561     -151.676122
9.253                0.933374112     -151.988426
9.254                0.933154711     -152.301124
9.255                 0.93293537     -152.614214
9.256                0.932716105     -152.927691
9.257                0.932496929     -153.241551
9.258                0.932277856      -153.55579
9.259                0.932058901     -153.870405
9.26                 0.931840079     -154.185391
9.261                0.931621403     -154.500745
9.262                0.931402887     -154.816463
9.263                0.931184547      -155.13254
9.264                0.930966396     -155.448973
9.265                 0.93074845     -155.765757
9.266                0.930530722     -156.082889
9.267                0.930313227     -156.400364
9.268                0.930095979     -156.718178
9.269                0.929878995     -157.036327
9.27                 0.929662287     -157.354807
9.271                 0.92944587     -157.673613
9.272                 0.92922976     -157.992741
9.273                0.929013971     -158.312188
9.274                0.928798517     -158.631947
9.275                0.928583413     -158.952017
9.276                0.928368675     -159.272391
9.277                0.928154317     -159.593065
9.278                0.927940353     -159.914036
9.279                0.927726798     -160.235298
9.28                 0.927513667     -160.556847
9.281                0.927300976     -160.878679
9.282                0.927088737     -161.200789
9.283                0.926876968     -161.523172
9.284                0.926665681     -161.845825
9.285                0.926454892     -162.168742
9.286                0.926244616     -162.491918
9.287                0.926034867      -162.81535
9.288                0.925825659     -163.139032
9.289                0.925617009      -163.46296
9.29                  0.92540893     -163.787129
9.291                0.925201437     -164.111534
9.292                0.924994545     -164.436171
9.293                0.924788268     -164.761034
9.294                0.924582621      -165.08612
9.295                0.924377618     -165.411423
9.296                0.924173274     -165.736938
9.297                0.923969604     -166.062661
9.298                0.923766621     -166.388586
9.299                0.923564341     -166.714709
9.3                  0.923362778     -167.041025
9.301                0.923161945     -167.367529
9.302                0.922961857     -167.694216
9.303                0.922762529     -168.021081
9.304                0.922563975     -168.348119
9.305                0.922366208     -168.675325
9.306                0.922169243     -169.002694
9.307                0.921973094     -169.330222
9.308                0.921777775     -169.657902
9.309                0.921583299     -169.985731
9.31                 0.921389681     -170.313702
9.311                0.921196934     -170.641812
9.312                0.921005072     -170.970054
9.313                0.920814109     -171.298424
9.314                0.920624058     -171.626916
9.315                0.920434932     -171.955526
9.316                0.920246745     -172.284248
9.317                0.920059511     -172.613078
9.318                0.919873242      -172.94201
9.319                0.919687951     -173.271038
9.32                 0.919503653     -173.600159
9.321                0.919320359     -173.929366
9.322                0.919138083     -174.258654
9.323                0.918956837     -174.588019
9.324                0.918776634     -174.917454
9.325                0.918597487     -175.246956
9.326                0.918419408     -175.576518
9.327                0.918242409     -175.906135
9.328                0.918066504     -176.235803
9.329                0.917891703     -176.565515
9.33                  0.91771802     -176.895268
9.331                0.917545465     -177.225055
9.332                0.917374052     -177.554871
9.333                0.917203792     -177.884711
9.334                0.917034696      -178.21457
9.335                0.916866775     -178.544442
9.336                0.916700043     -178.874323
9.337                0.916534508     -179.204207
9.338                0.916370184     -179.534089
9.339                 0.91620708     -179.863963
9.34                 0.916045209      179.806176
9.341                0.915884579      179.476332
9.342                0.915725204      179.146511
9.343                0.915567091      178.816719
9.344                0.915410253       178.48696
9.345                  0.9152547       178.15724
9.346                0.915100441      177.827565
9.347                0.914947487      177.497938
9.348                0.914795847      177.168366
9.349                0.914645532      176.838854
9.35                  0.91449655      176.509406
9.351                0.914348912      176.180029
9.352                0.914202626      175.850727
9.353                0.914057702      175.521505
9.354                0.913914149      175.192369
9.355                0.913771975      174.863324
9.356                 0.91363119      174.534374
9.357                0.913491802      174.205526
9.358                 0.91335382      173.876784
9.359                0.913217251      173.548154
9.36                 0.913082104      173.219639
9.361                0.912948387      172.891247
9.362                0.912816107      172.562981
9.363                0.912685273      172.234847
9.364                0.912555892       171.90685
9.365                0.912427971      171.578995
9.366                0.912301517      171.251286
9.367                0.912176538       170.92373
9.368                 0.91205304      170.596331
9.369                0.911931031      170.269093
9.37                 0.911810516      169.942023
9.371                0.911691502      169.615125
9.372                0.911573996      169.288403
9.373                0.911458003      168.961863
9.374                 0.91134353       168.63551
9.375                0.911230582      168.309349
9.376                0.911119165      167.983384
9.377                0.911009284      167.657621
9.378                0.910900944      167.332064
9.379                0.910794151      167.006718
9.38                  0.91068891      166.681588
9.381                0.910585225      166.356678
9.382                0.910483101      166.031995
9.383                0.910382543      165.707541
9.384                0.910283555      165.383322
9.385                 0.91018614      165.059343
9.386                0.910090304      164.735608
9.387                0.909996049      164.412122
9.388                 0.90990338       164.08889
9.389                0.909812299      163.765916
9.39                 0.909722811      163.443204
9.391                0.909634918      163.120761
9.392                0.909548623      162.798589
9.393                 0.90946393      162.476693
9.394                 0.90938084      162.155079
9.395                0.909299357       161.83375
9.396                0.909219482       161.51271
