! TOUCHSTONE file generated by CST DESIGN STUDIO
! Date and time: Tue Feb  4 12:44:46 2025
! Project name: C:\Work\MatlabApps\UnitCellOptimizationMatlab\CST\unitcell.cst
! Tree item: Tasks\Sweep1\SPara1\S-Parameters
! Header version: 2024
! Port assignment regex: !\s*Touchstone port\s*([0-9]+)\s*=\s*(CST MWS port|CST DES external port|CST DES block port)\s*(.+)\s* \(\"(.*)\"\)(\s*mode\s*([0-9]+))?.*
! Touchstone port assignment:
! Touchstone port 1 = CST DES external port 1 ("")
# GHz S MA R 50
9                    0.972975454     -72.6563813
9.001                0.972916236     -72.7758086
9.002                0.972856583     -72.8955524
9.003                0.972796496     -73.0156137
9.004                0.972735971     -73.1359937
9.005                0.972675007     -73.2566932
9.006                0.972613602     -73.3777134
9.007                0.972551755     -73.4990553
9.008                0.972489463     -73.6207198
9.009                0.972426725     -73.7427081
9.01                 0.972363538     -73.8650212
9.011                0.972299902       -73.98766
9.012                0.972235813     -74.1106258
9.013                0.972171271     -74.2339194
9.014                0.972106274      -74.357542
9.015                0.972040819     -74.4814945
9.016                0.971974905     -74.6057782
9.017                 0.97190853     -74.7303939
9.018                0.971841692     -74.8553429
9.019                0.971774389     -74.9806261
9.02                 0.971706619     -75.1062445
9.021                0.971638381     -75.2321994
9.022                0.971569673     -75.3584917
9.023                0.971500492     -75.4851225
9.024                0.971430837      -75.612093
9.025                0.971360706      -75.739404
9.026                0.971290098     -75.8670569
9.027                0.971219009     -75.9950526
9.028                0.971147439     -76.1233922
9.029                0.971075386     -76.2520769
9.03                 0.971002847     -76.3811076
9.031                 0.97092982     -76.5104856
9.032                0.970856305     -76.6402118
9.033                0.970782299     -76.7702875
9.034                0.970707799     -76.9007137
9.035                0.970632805     -77.0314914
9.036                0.970557314     -77.1626219
9.037                0.970481325     -77.2941063
9.038                0.970404835     -77.4259455
9.039                0.970327842     -77.5581408
9.04                 0.970250346     -77.6906933
9.041                0.970172343     -77.8236041
9.042                0.970093832     -77.9568743
9.043                0.970014811      -78.090505
9.044                0.969935279     -78.2244975
9.045                0.969855232     -78.3588527
9.046                 0.96977467     -78.4935718
9.047                 0.96969359      -78.628656
9.048                0.969611991     -78.7641064
9.049                0.969529871     -78.8999241
9.05                 0.969447228     -79.0361103
9.051                0.969364059     -79.1726662
9.052                0.969280363     -79.3095928
9.053                0.969196139     -79.4468913
9.054                0.969111383     -79.5845629
9.055                0.969026095     -79.7226088
9.056                0.968940273       -79.86103
9.057                0.968853914     -79.9998277
9.058                0.968767016     -80.1390031
9.059                0.968679579     -80.2785574
9.06                 0.968591599     -80.4184917
9.061                0.968503076     -80.5588072
9.062                0.968414006      -80.699505
9.063                0.968324389     -80.8405863
9.064                0.968234222     -80.9820524
9.065                0.968143504     -81.1239043
9.066                0.968052233     -81.2661432
9.067                0.967960406     -81.4087704
9.068                0.967868022      -81.551787
9.069                0.967775079     -81.6951941
9.07                 0.967681576      -81.838993
9.071                 0.96758751     -81.9831848
9.072                 0.96749288     -82.1277708
9.073                0.967397683     -82.2727521
9.074                0.967301918     -82.4181299
9.075                0.967205583     -82.5639054
9.076                0.967108677     -82.7100798
9.077                0.967011196     -82.8566543
9.078                0.966913141     -83.0036301
9.079                0.966814508     -83.1510084
9.08                 0.966715296     -83.2987903
9.081                0.966615503     -83.4469772
9.082                0.966515128     -83.5955701
9.083                0.966414168     -83.7445704
9.084                0.966312622     -83.8939791
9.085                0.966210488     -84.0437975
9.086                0.966107764     -84.1940269
9.087                0.966004449     -84.3446684
9.088                 0.96590054     -84.4957232
9.089                0.965796036     -84.6471926
9.09                 0.965690936     -84.7990778
9.091                0.965585237     -84.9513799
9.092                0.965478938     -85.1041002
9.093                0.965372036       -85.25724
9.094                0.965264532     -85.4108003
9.095                0.965156421     -85.5647825
9.096                0.965047704     -85.7191878
9.097                0.964938378     -85.8740174
9.098                0.964828442     -86.0292725
9.099                0.964717893     -86.1849543
9.1                  0.964606731     -86.3410641
9.101                0.964494953     -86.4976031
9.102                0.964382558     -86.6545724
9.103                0.964269545     -86.8119734
9.104                0.964155912     -86.9698073
9.105                0.964041656     -87.1280753
9.106                0.963926777     -87.2867785
9.107                0.963811273     -87.4459183
9.108                0.963695143     -87.6054959
9.109                0.963578384     -87.7655125
9.11                 0.963460996     -87.9259693
9.111                0.963342976     -88.0868675
9.112                0.963224324     -88.2482085
9.113                0.963105037     -88.4099933
9.114                0.962985115     -88.5722233
9.115                0.962864556     -88.7348997
9.116                0.962743358     -88.8980237
9.117                0.962621519     -89.0615965
9.118                 0.96249904     -89.2256193
9.119                0.962375917     -89.3900935
9.12                  0.96225215     -89.5550201
9.121                0.962127737     -89.7204006
9.122                0.962002677      -89.886236
9.123                0.961876969     -90.0525275
9.124                0.961750611     -90.2192766
9.125                0.961623601     -90.3864842
9.126                 0.96149594     -90.5541518
9.127                0.961367624     -90.7222805
9.128                0.961238654     -90.8908715
9.129                0.961109028      -91.059926
9.13                 0.960978744     -91.2294454
9.131                0.960847801     -91.3994307
9.132                0.960716199     -91.5698833
9.133                0.960583935     -91.7408043
9.134                 0.96045101     -91.9121949
9.135                0.960317421     -92.0840565
9.136                0.960183168     -92.2563901
9.137                0.960048249     -92.4291971
9.138                0.959912664     -92.6024785
9.139                0.959776412     -92.7762357
9.14                  0.95963949     -92.9504698
9.141                  0.9595019     -93.1251821
9.142                0.959363638     -93.3003738
9.143                0.959224705      -93.476046
9.144                  0.9590851        -93.6522
9.145                0.958944822     -93.8288369
9.146                0.958803869      -94.005958
9.147                0.958662241     -94.1835645
9.148                0.958519937     -94.3616575
9.149                0.958376957     -94.5402383
9.15                 0.958233299      -94.719308
9.151                0.958088963     -94.8988678
9.152                0.957943949      -95.078919
9.153                0.957798254     -95.2594626
9.154                 0.95765188     -95.4404999
9.155                0.957504824     -95.6220321
9.156                0.957357087     -95.8040602
9.157                0.957208668     -95.9865856
9.158                0.957059566     -96.1696093
9.159                0.956909782     -96.3531325
9.16                 0.956759313     -96.5371565
9.161                0.956608161     -96.7216822
9.162                0.956456324      -96.906711
9.163                0.956303803     -97.0922438
9.164                0.956150596      -97.278282
9.165                0.955996703     -97.4648266
9.166                0.955842125     -97.6518788
9.167                0.955686861     -97.8394396
9.168                 0.95553091     -98.0275103
9.169                0.955374273      -98.216092
9.17                  0.95521695     -98.4051857
9.171                0.955058939     -98.5947926
9.172                0.954900242     -98.7849139
9.173                0.954740858     -98.9755505
9.174                0.954580788     -99.1667037
9.175                 0.95442003     -99.3583745
9.176                0.954258586     -99.5505639
9.177                0.954096455     -99.7432732
9.178                0.953933637     -99.9365034
9.179                0.953770134     -100.130256
9.18                 0.953605944     -100.324531
9.181                0.953441068      -100.51933
9.182                0.953275507     -100.714654
9.183                0.953109261     -100.910505
9.184                0.952942331     -101.106883
9.185                0.952774716     -101.303789
9.186                0.952606417     -101.501224
9.187                0.952437435      -101.69919
9.188                0.952267771     -101.897687
9.189                0.952097424     -102.096717
9.19                 0.951926396      -102.29628
9.191                0.951754687     -102.496378
9.192                0.951582299     -102.697011
9.193                0.951409231      -102.89818
9.194                0.951235485     -103.099887
9.195                0.951061062     -103.302132
9.196                0.950885963     -103.504916
9.197                0.950710188     -103.708241
9.198                0.950533738     -103.912107
9.199                0.950356616     -104.116515
9.2                  0.950178821     -104.321466
9.201                0.950000356     -104.526961
9.202                0.949821221     -104.733001
9.203                0.949641417     -104.939587
9.204                0.949460947      -105.14672
9.205                0.949279811     -105.354401
9.206                0.949098011      -105.56263
9.207                0.948915548     -105.771408
9.208                0.948732425     -105.980737
9.209                0.948548642     -106.190617
9.21                 0.948364201     -106.401049
9.211                0.948179105     -106.612034
9.212                0.947993354     -106.823572
9.213                0.947806952     -107.035665
9.214                0.947619899     -107.248313
9.215                0.947432197     -107.461517
9.216                 0.94724385     -107.675278
9.217                0.947054858     -107.889597
9.218                0.946865224     -108.104474
9.219                 0.94667495     -108.319911
9.22                 0.946484039     -108.535907
9.221                0.946292492     -108.752464
9.222                0.946100313     -108.969582
9.223                0.945907504     -109.187262
9.224                0.945714066     -109.405505
9.225                0.945520004     -109.624312
9.226                0.945325319     -109.843682
9.227                0.945130014     -110.063618
9.228                0.944934093     -110.284118
9.229                0.944737557     -110.505185
9.23                  0.94454041     -110.726819
9.231                0.944342655      -110.94902
9.232                0.944144295     -111.171788
9.233                0.943945333     -111.395125
9.234                0.943745772     -111.619032
9.235                0.943545615     -111.843507
9.236                0.943344867     -112.068553
9.237                 0.94314353      -112.29417
9.238                0.942941607     -112.520358
9.239                0.942739103     -112.747117
9.24                 0.942536021     -112.974449
9.241                0.942332364     -113.202353
9.242                0.942128137      -113.43083
9.243                0.941923344     -113.659881
9.244                0.941717987     -113.889506
9.245                0.941512072     -114.119705
9.246                0.941305602     -114.350479
9.247                0.941098581     -114.581828
9.248                0.940891014     -114.813752
9.249                0.940682905     -115.046253
9.25                 0.940474258     -115.279329
9.251                0.940265079     -115.512982
9.252                 0.94005537     -115.747212
9.253                0.939845138     -115.982019
9.254                0.939634386     -116.217403
9.255                0.939423119     -116.453365
9.256                0.939211343     -116.689904
9.257                0.938999062     -116.927022
9.258                0.938786281     -117.164717
9.259                0.938573005     -117.402991
9.26                  0.93835924     -117.641844
9.261                0.938144991     -117.881275
9.262                0.937930263     -118.121285
9.263                0.937715061     -118.361874
9.264                0.937499391     -118.603042
9.265                0.937283258     -118.844789
9.266                0.937066669     -119.087115
9.267                0.936849629     -119.330019
9.268                0.936632143     -119.573503
9.269                0.936414218     -119.817566
9.27                  0.93619586     -120.062209
9.271                0.935977075      -120.30743
9.272                0.935757868     -120.553229
9.273                0.935538247     -120.799608
9.274                0.935318217     -121.046566
9.275                0.935097785     -121.294101
9.276                0.934876958     -121.542216
9.277                0.934655741     -121.790908
9.278                0.934434143     -122.040178
9.279                0.934212168     -122.290026
9.28                 0.933989825     -122.540452
9.281                0.933767121     -122.791454
9.282                0.933544061     -123.043034
9.283                0.933320654      -123.29519
9.284                0.933096907     -123.547923
9.285                0.932872826     -123.801231
9.286                0.932648419     -124.055115
9.287                0.932423694     -124.309574
9.288                0.932198659     -124.564607
9.289                 0.93197332     -124.820215
9.29                 0.931747686     -125.076396
9.291                0.931521764     -125.333151
9.292                0.931295562     -125.590478
9.293                0.931069089     -125.848377
9.294                0.930842351     -126.106848
9.295                0.930615359      -126.36589
9.296                0.930388118     -126.625502
9.297                0.930160639     -126.885683
9.298                0.929932929     -127.146434
9.299                0.929704997     -127.407753
9.3                  0.929476852     -127.669639
9.301                0.929248502     -127.932092
9.302                0.929019955     -128.195111
9.303                0.928791221     -128.458695
9.304                0.928562309     -128.722844
9.305                0.928333228     -128.987555
9.306                0.928103986      -129.25283
9.307                0.927874593     -129.518666
9.308                0.927645058     -129.785062
9.309                0.927415391     -130.052019
9.31                   0.9271856     -130.319534
9.311                0.926955697     -130.587606
9.312                0.926725689     -130.856236
9.313                0.926495587     -131.125421
9.314                  0.9262654      -131.39516
9.315                0.926035139     -131.665452
9.316                0.925804812     -131.936297
9.317                0.925574432     -132.207692
9.318                0.925344006     -132.479637
9.319                0.925113546     -132.752131
9.32                 0.924883062     -133.025172
9.321                0.924652563     -133.298758
9.322                0.924422061     -133.572889
9.323                0.924191566     -133.847563
9.324                0.923961089     -134.122778
9.325                 0.92373064     -134.398534
9.326                0.923500229     -134.674829
9.327                0.923269868     -134.951661
9.328                0.923039567     -135.229028
9.329                0.922809338      -135.50693
9.33                 0.922579191     -135.785365
9.331                0.922349138      -136.06433
9.332                0.922119189     -136.343825
9.333                0.921889356     -136.623848
9.334                 0.92165965     -136.904396
9.335                0.921430082     -137.185469
9.336                0.921200664     -137.467064
9.337                0.920971408      -137.74918
9.338                0.920742324     -138.031814
9.339                0.920513425     -138.314966
9.34                 0.920284722     -138.598633
9.341                0.920056227     -138.882812
9.342                0.919827951     -139.167503
9.343                0.919599907     -139.452704
9.344                0.919372107     -139.738411
9.345                0.919144562     -140.024623
9.346                0.918917284     -140.311339
9.347                0.918690286     -140.598555
9.348                 0.91846358      -140.88627
9.349                0.918237178     -141.174482
9.35                 0.918011092     -141.463188
9.351                0.917785334     -141.752387
9.352                0.917559918     -142.042075
9.353                0.917334854      -142.33225
9.354                0.917110157     -142.622911
9.355                0.916885837     -142.914055
9.356                0.916661908     -143.205679
9.357                0.916438383     -143.497781
9.358                0.916215274     -143.790359
9.359                0.915992593     -144.083409
9.36                 0.915770354      -144.37693
9.361                0.915548569     -144.670919
9.362                0.915327251     -144.965374
9.363                0.915106413     -145.260291
9.364                0.914886067     -145.555668
9.365                0.914666227     -145.851502
9.366                0.914446905     -146.147791
9.367                0.914228115     -146.444531
9.368                0.914009869     -146.741721
9.369                0.913792181     -147.039357
9.37                 0.913575062     -147.337436
9.371                0.913358528     -147.635956
9.372                0.913142589     -147.934913
9.373                0.912927261     -148.234305
9.374                0.912712555     -148.534128
9.375                0.912498485      -148.83438
9.376                0.912285064     -149.135058
9.377                0.912072305     -149.436158
9.378                0.911860221     -149.737677
9.379                0.911648826     -150.039612
9.38                 0.911438133     -150.341961
9.381                0.911228154     -150.644719
9.382                0.911018903     -150.947884
9.383                0.910810394     -151.251452
9.384                0.910602639      -151.55542
9.385                0.910395652     -151.859784
9.386                0.910189445     -152.164542
9.387                0.909984032      -152.46969
9.388                0.909779427     -152.775225
9.389                0.909575642     -153.081142
9.39                  0.90937269     -153.387439
9.391                0.909170585     -153.694112
9.392                0.908969339     -154.001157
9.393                0.908768966     -154.308572
9.394                0.908569479     -154.616351
9.395                0.908370891     -154.924492
9.396                0.908173215     -155.232992
