! TOUCHSTONE file generated by CST DESIGN STUDIO
! Date and time: Tue Feb  4 18:32:35 2025
! Project name: C:\Work\MatlabApps\UnitCellOptimizationMatlab\CST\unitcell.cst
! Tree item: Tasks\Sweep1\SPara1\S-Parameters
! Header version: 2024
! Port assignment regex: !\s*Touchstone port\s*([0-9]+)\s*=\s*(CST MWS port|CST DES external port|CST DES block port)\s*(.+)\s* \(\"(.*)\"\)(\s*mode\s*([0-9]+))?.*
! Touchstone port assignment:
! Touchstone port 1 = CST DES external port 1 ("")
# GHz S MA R 50
9                    0.931748875     -62.8077514
9.001                0.931554481     -62.9024706
9.002                0.931359545     -62.9974453
9.003                0.931164065     -63.0926765
9.004                 0.93096804     -63.1881652
9.005                0.930771467     -63.2839125
9.006                0.930574344     -63.3799192
9.007                0.930376668     -63.4761865
9.008                0.930178437     -63.5727153
9.009                0.929979649     -63.6695066
9.01                 0.929780302     -63.7665614
9.011                0.929580393     -63.8638808
9.012                0.929379919     -63.9614659
9.013                0.929178879     -64.0593175
9.014                0.928977271     -64.1574368
9.015                0.928775091     -64.2558248
9.016                0.928572337     -64.3544825
9.017                0.928369008      -64.453411
9.018                  0.9281651     -64.5526114
9.019                0.927960612     -64.6520847
9.02                  0.92775554     -64.7518319
9.021                0.927549883     -64.8518541
9.022                0.927343638     -64.9521525
9.023                0.927136803      -65.052728
9.024                0.926929375     -65.1535817
9.025                0.926721351     -65.2547148
9.026                 0.92651273     -65.3561284
9.027                0.926303509     -65.4578234
9.028                0.926093685     -65.5598011
9.029                0.925883257     -65.6620624
9.03                  0.92567222     -65.7646086
9.031                0.925460573     -65.8674408
9.032                0.925248314       -65.97056
9.033                 0.92503544     -66.0739673
9.034                0.924821948      -66.177664
9.035                0.924607836     -66.2816511
9.036                0.924393102     -66.3859298
9.037                0.924177742     -66.4905012
9.038                0.923961755     -66.5953664
9.039                0.923745137     -66.7005267
9.04                 0.923527886     -66.8059831
9.041                    0.92331     -66.9117368
9.042                0.923091476     -67.0177891
9.043                0.922872311     -67.1241409
9.044                0.922652503     -67.2307937
9.045                 0.92243205     -67.3377484
9.046                0.922210948     -67.4450063
9.047                0.921989195     -67.5525686
9.048                0.921766788     -67.6604365
9.049                0.921543725     -67.7686112
9.05                 0.921320003     -67.8770939
9.051                0.921095619     -67.9858857
9.052                0.920870572      -68.094988
9.053                0.920644857     -68.2044019
9.054                0.920418473     -68.3141286
9.055                0.920191417     -68.4241695
9.056                0.919963686     -68.5345256
9.057                0.919735277     -68.6451984
9.058                0.919506188     -68.7561889
9.059                0.919276416     -68.8674985
9.06                 0.919045958     -68.9791284
9.061                0.918814812     -69.0910798
9.062                0.918582975     -69.2033542
9.063                0.918350444     -69.3159526
9.064                0.918117217     -69.4288764
9.065                 0.91788329     -69.5421269
9.066                0.917648661     -69.6557053
9.067                0.917413327      -69.769613
9.068                0.917177286     -69.8838513
9.069                0.916940535     -69.9984214
9.07                  0.91670307     -70.1133246
9.071                 0.91646489     -70.2285623
9.072                0.916225991     -70.3441359
9.073                0.915986371     -70.4600465
9.074                0.915746026     -70.5762956
9.075                0.915504955     -70.6928845
9.076                0.915263153     -70.8098145
9.077                0.915020619     -70.9270869
9.078                 0.91477735     -71.0447032
9.079                0.914533343     -71.1626647
9.08                 0.914288594     -71.2809727
9.081                0.914043102     -71.3996286
9.082                0.913796863     -71.5186338
9.083                0.913549875     -71.6379897
9.084                0.913302135     -71.7576976
9.085                0.913053639      -71.877759
9.086                0.912804385     -71.9981752
9.087                0.912554371     -72.1189476
9.088                0.912303593     -72.2400777
9.089                0.912052048     -72.3615668
9.09                 0.911799734     -72.4834164
9.091                0.911546648     -72.6056279
9.092                0.911292787     -72.7282027
9.093                0.911038148     -72.8511423
9.094                0.910782728     -72.9744481
9.095                0.910526525     -73.0981216
9.096                0.910269535     -73.2221641
9.097                0.910011756     -73.3465772
9.098                0.909753185     -73.4713623
9.099                0.909493818      -73.596521
9.1                  0.909233654     -73.7220546
9.101                0.908972689     -73.8479646
9.102                 0.90871092     -73.9742526
9.103                0.908448344       -74.10092
9.104                0.908184959     -74.2279683
9.105                0.907920762      -74.355399
9.106                 0.90765575     -74.4832137
9.107                 0.90738992     -74.6114139
9.108                0.907123268      -74.740001
9.109                0.906855793     -74.8689766
9.11                 0.906587492     -74.9983423
9.111                0.906318361     -75.1280995
9.112                0.906048397     -75.2582499
9.113                0.905777599     -75.3887949
9.114                0.905505962     -75.5197361
9.115                0.905233484     -75.6510752
9.116                0.904960163     -75.7828136
9.117                0.904685994     -75.9149529
9.118                0.904410977     -76.0474947
9.119                0.904135107     -76.1804406
9.12                 0.903858381     -76.3137922
9.121                0.903580798      -76.447551
9.122                0.903302354     -76.5817188
9.123                0.903023046      -76.716297
9.124                0.902742872     -76.8512874
9.125                0.902461828     -76.9866915
9.126                0.902179912     -77.1225109
9.127                0.901897121     -77.2587473
9.128                0.901613453     -77.3954024
9.129                0.901328904     -77.5324777
9.13                 0.901043471     -77.6699749
9.131                0.900757152     -77.8078957
9.132                0.900469945     -77.9462418
9.133                0.900181845     -78.0850147
9.134                0.899892851     -78.2242162
9.135                 0.89960296      -78.363848
9.136                0.899312169     -78.5039117
9.137                0.899020476     -78.6444091
9.138                0.898727876     -78.7853418
9.139                0.898434369     -78.9267115
9.14                 0.898139951       -79.06852
9.141                0.897844619     -79.2107689
9.142                0.897548371       -79.35346
9.143                0.897251204      -79.496595
9.144                0.896953115     -79.6401757
9.145                0.896654103     -79.7842037
9.146                0.896354163     -79.9286808
9.147                0.896053294     -80.0736088
9.148                0.895751492     -80.2189895
9.149                0.895448756     -80.3648245
9.15                 0.895145083     -80.5111157
9.151                0.894840469     -80.6578648
9.152                0.894534913     -80.8050736
9.153                0.894228413     -80.9527439
9.154                0.893920964     -81.1008775
9.155                0.893612566     -81.2494761
9.156                0.893303215     -81.3985417
9.157                0.892992909     -81.5480759
9.158                0.892681645     -81.6980806
9.159                0.892369422     -81.8485577
9.16                 0.892056236     -81.9995088
9.161                0.891742086      -82.150936
9.162                0.891426968      -82.302841
9.163                0.891110881     -82.4552256
9.164                0.890793822     -82.6080917
9.165                0.890475789     -82.7614412
9.166                0.890156779     -82.9152759
9.167                 0.88983679     -83.0695976
9.168                0.889515821     -83.2244083
9.169                0.889193868     -83.3797098
9.17                  0.88887093      -83.535504
9.171                0.888547004     -83.6917928
9.172                0.888222088     -83.8485781
9.173                0.887896181     -84.0058617
9.174                0.887569279     -84.1636456
9.175                0.887241381     -84.3219317
9.176                0.886912485     -84.4807218
9.177                0.886582589      -84.640018
9.178                0.886251691     -84.7998221
9.179                0.885919788     -84.9601361
9.18                 0.885586879     -85.1209619
9.181                0.885252962     -85.2823014
9.182                0.884918036     -85.4441565
9.183                0.884582097     -85.6065293
9.184                0.884245145     -85.7694217
9.185                0.883907178     -85.9328356
9.186                0.883568193      -86.096773
9.187                 0.88322819     -86.2612359
9.188                0.882887166     -86.4262262
9.189                 0.88254512     -86.5917459
9.19                  0.88220205      -86.757797
9.191                0.881857955     -86.9243815
9.192                0.881512833     -87.0915014
9.193                0.881166683     -87.2591586
9.194                0.880819502     -87.4273553
9.195                0.880471291     -87.5960933
9.196                0.880122047     -87.7653747
9.197                 0.87977177     -87.9352015
9.198                0.879420457     -88.1055758
9.199                0.879068108     -88.2764995
9.2                  0.878714721     -88.4479746
9.201                0.878360295     -88.6200033
9.202                0.878004829     -88.7925875
9.203                0.877648323     -88.9657293
9.204                0.877290775     -89.1394308
9.205                0.876932183     -89.3136939
9.206                0.876572548     -89.4885207
9.207                0.876211868     -89.6639133
9.208                0.875850143     -89.8398738
9.209                0.875487372     -90.0164042
9.21                 0.875123553     -90.1935065
9.211                0.874758687     -90.3711829
9.212                0.874392773     -90.5494354
9.213                 0.87402581      -90.728266
9.214                0.873657798      -90.907677
9.215                0.873288736     -91.0876703
9.216                0.872918624      -91.268248
9.217                0.872547462     -91.4494123
9.218                0.872175249     -91.6311652
9.219                0.871801985     -91.8135088
9.22                 0.871427671     -91.9964452
9.221                0.871052305     -92.1799765
9.222                0.870675889     -92.3641048
9.223                0.870298422     -92.5488323
9.224                0.869919904      -92.734161
9.225                0.869540335      -92.920093
9.226                0.869159716     -93.1066305
9.227                0.868778047     -93.2937756
9.228                0.868395329     -93.4815303
9.229                0.868011561     -93.6698968
9.23                 0.867626745     -93.8588773
9.231                0.867240882     -94.0484738
9.232                0.866853971     -94.2386885
9.233                0.866466013     -94.4295234
9.234                 0.86607701     -94.6209808
9.235                0.865686963     -94.8130627
9.236                0.865295872     -95.0057713
9.237                0.864903738     -95.1991087
9.238                0.864510563     -95.3930771
9.239                0.864116348     -95.5876784
9.24                 0.863721095      -95.782915
9.241                0.863324804     -95.9787889
9.242                0.862927477     -96.1753023
9.243                0.862529117     -96.3724573
9.244                0.862129723     -96.5702559
9.245                  0.8617293     -96.7687005
9.246                0.861327847      -96.967793
9.247                0.860925367     -97.1675356
9.248                0.860521863     -97.3679305
9.249                0.860117336     -97.5689798
9.25                 0.859711789     -97.7706855
9.251                0.859305224     -97.9730499
9.252                0.858897643     -98.1760751
9.253                0.858489049     -98.3797632
9.254                0.858079445     -98.5841162
9.255                0.857668834     -98.7891364
9.256                0.857257217     -98.9948259
9.257                0.856844599     -99.2011867
9.258                0.856430982     -99.4082211
9.259                 0.85601637      -99.615931
9.26                 0.855600765     -99.8243186
9.261                0.855184172     -100.033386
9.262                0.854766593     -100.243136
9.263                0.854348033     -100.453569
9.264                0.853928494     -100.664689
9.265                0.853507982     -100.876496
9.266                0.853086499     -101.088994
9.267                0.852664051     -101.302185
9.268                 0.85224064      -101.51607
9.269                0.851816273     -101.730652
9.27                 0.851390952     -101.945932
9.271                0.850964682     -102.161913
9.272                0.850537469     -102.378597
9.273                0.850109317     -102.595985
9.274                0.849680232     -102.814081
9.275                0.849250217     -103.032885
9.276                0.848819279       -103.2524
9.277                0.848387422     -103.472629
9.278                0.847954653     -103.693572
9.279                0.847520977     -103.915233
9.28                 0.847086399     -104.137613
9.281                0.846650926     -104.360714
9.282                0.846214564     -104.584538
9.283                0.845777318     -104.809087
9.284                0.845339195     -105.034363
9.285                0.844900202     -105.260368
9.286                0.844460346     -105.487104
9.287                0.844019632     -105.714574
9.288                0.843578068     -105.942778
9.289                0.843135662     -106.171719
9.29                 0.842692419     -106.401399
9.291                0.842248348      -106.63182
9.292                0.841803456     -106.862984
9.293                0.841357751     -107.094892
9.294                0.840911241     -107.327546
9.295                0.840463933     -107.560949
9.296                0.840015836     -107.795103
9.297                0.839566958     -108.030008
9.298                0.839117308     -108.265667
9.299                0.838666894     -108.502082
9.3                  0.838215725     -108.739255
9.301                 0.83776381     -108.977187
9.302                0.837311158     -109.215881
9.303                0.836857779     -109.455337
9.304                0.836403682     -109.695558
9.305                0.835948876     -109.936546
9.306                0.835493372     -110.178302
9.307                 0.83503718     -110.420828
9.308                0.834580309     -110.664126
9.309                 0.83412277     -110.908198
9.31                 0.833664574     -111.153044
9.311                0.833205731     -111.398667
9.312                0.832746253     -111.645069
9.313                 0.83228615     -111.892251
9.314                0.831825434     -112.140214
9.315                0.831364116     -112.388961
9.316                0.830902207     -112.638492
9.317                 0.83043972      -112.88881
9.318                0.829976667     -113.139916
9.319                 0.82951306     -113.391812
9.32                 0.829048911     -113.644498
9.321                0.828584232     -113.897977
9.322                0.828119038      -114.15225
9.323                 0.82765334     -114.407319
9.324                0.827187152     -114.663184
9.325                0.826720487     -114.919847
9.326                 0.82625336      -115.17731
9.327                0.825785782     -115.435574
9.328                 0.82531777     -115.694641
9.329                0.824849336     -115.954511
9.33                 0.824380495     -116.215186
9.331                0.823911262     -116.476667
9.332                0.823441652     -116.738955
9.333                0.822971679     -117.002052
9.334                0.822501359     -117.265959
9.335                0.822030708     -117.530677
9.336                 0.82155974     -117.796207
9.337                0.821088472      -118.06255
9.338                0.820616919     -118.329708
9.339                0.820145099     -118.597681
9.34                 0.819673027      -118.86647
9.341                 0.81920072     -119.136077
9.342                0.818728195     -119.406502
9.343                0.818255469     -119.677747
9.344                0.817782559     -119.949811
9.345                0.817309483     -120.222697
9.346                 0.81683626     -120.496405
9.347                0.816362905     -120.770935
9.348                0.815889439      -121.04629
9.349                0.815415878     -121.322468
9.35                 0.814942242     -121.599472
9.351                 0.81446855     -121.877301
9.352                0.813994821     -122.155957
9.353                0.813521073     -122.435439
9.354                0.813047327      -122.71575
9.355                0.812573601     -122.996888
9.356                0.812099917     -123.278855
9.357                0.811626293     -123.561652
9.358                0.811152751     -123.845277
9.359                0.810679311     -124.129733
9.36                 0.810205993      -124.41502
9.361                0.809732819     -124.701137
9.362                0.809259809     -124.988085
9.363                0.808786986     -125.275864
9.364                 0.80831437     -125.564475
9.365                0.807841984     -125.853917
9.366                 0.80736985     -126.144191
9.367                 0.80689799     -126.435297
9.368                0.806426426     -126.727235
9.369                0.805955181     -127.020005
9.37                 0.805484278     -127.313606
9.371                 0.80501374      -127.60804
9.372                0.804543591     -127.903305
9.373                0.804073854     -128.199401
9.374                0.803604552     -128.496329
9.375                0.803135709     -128.794088
9.376                0.802667351     -129.092677
9.377                0.802199501     -129.392097
9.378                0.801732183     -129.692347
9.379                0.801265422     -129.993426
9.38                 0.800799244     -130.295334
9.381                0.800333674     -130.598071
9.382                0.799868736     -130.901636
9.383                0.799404457     -131.206027
9.384                0.798940861     -131.511245
9.385                0.798477976     -131.817289
9.386                0.798015827     -132.124158
9.387                0.797554441     -132.431851
9.388                0.797093843     -132.740368
9.389                0.796634062     -133.049706
9.39                 0.796175122     -133.359866
9.391                0.795717053     -133.670846
9.392                 0.79525988     -133.982645
9.393                0.794803632     -134.295262
9.394                0.794348335     -134.608695
9.395                0.793894018     -134.922944
9.396                0.793440709     -135.238007
