! TOUCHSTONE file generated by CST DESIGN STUDIO
! Date and time: Tue Feb  4 18:32:37 2025
! Project name: C:\Work\MatlabApps\UnitCellOptimizationMatlab\CST\unitcell.cst
! Tree item: Tasks\Sweep1\SPara1\S-Parameters
! Header version: 2024
! Port assignment regex: !\s*Touchstone port\s*([0-9]+)\s*=\s*(CST MWS port|CST DES external port|CST DES block port)\s*(.+)\s* \(\"(.*)\"\)(\s*mode\s*([0-9]+))?.*
! Touchstone port assignment:
! Touchstone port 1 = CST DES external port 1 ("")
# GHz S MA R 50
9                    0.944623896     -57.0589719
9.001                0.944481989     -57.1392192
9.002                0.944339713     -57.2196675
9.003                0.944197067     -57.3003174
9.004                0.944054049     -57.3811697
9.005                0.943910658     -57.4622252
9.006                0.943766892     -57.5434847
9.007                 0.94362275     -57.6249488
9.008                0.943478228     -57.7066184
9.009                0.943333327     -57.7884943
9.01                 0.943188044     -57.8705771
9.011                0.943042378     -57.9528676
9.012                0.942896326     -58.0353667
9.013                0.942749887     -58.1180751
9.014                 0.94260306     -58.2009936
9.015                0.942455842     -58.2841229
9.016                0.942308232     -58.3674639
9.017                0.942160228     -58.4510174
9.018                0.942011828     -58.5347841
9.019                0.941863031     -58.6187649
9.02                 0.941713834     -58.7029605
9.021                0.941564236     -58.7873717
9.022                0.941414236     -58.8719994
9.023                 0.94126383     -58.9568444
9.024                0.941113018     -59.0419075
9.025                0.940961798     -59.1271894
9.026                0.940810167     -59.2126911
9.027                0.940658125     -59.2984133
9.028                0.940505668     -59.3843569
9.029                0.940352795     -59.4705227
9.03                 0.940199505     -59.5569115
9.031                0.940045795     -59.6435242
9.032                0.939891664     -59.7303617
9.033                0.939737109     -59.8174247
9.034                0.939582129     -59.9047141
9.035                0.939426721     -59.9922308
9.036                0.939270885     -60.0799756
9.037                0.939114617     -60.1679493
9.038                0.938957916      -60.256153
9.039                 0.93880078     -60.3445873
9.04                 0.938643207     -60.4332533
9.041                0.938485195     -60.5221516
9.042                0.938326742     -60.6112834
9.043                0.938167846     -60.7006493
9.044                0.938008505     -60.7902504
9.045                0.937848718     -60.8800874
9.046                0.937688481     -60.9701613
9.047                0.937527793      -61.060473
9.048                0.937366651     -61.1510234
9.049                0.937205055     -61.2418134
9.05                 0.937043002     -61.3328439
9.051                0.936880489     -61.4241157
9.052                0.936717515     -61.5156299
9.053                0.936554077     -61.6073874
9.054                0.936390174      -61.699389
9.055                0.936225803     -61.7916357
9.056                0.936060962     -61.8841284
9.057                 0.93589565      -61.976868
9.058                0.935729863     -62.0698556
9.059                  0.9355636      -62.163092
9.06                 0.935396859     -62.2565781
9.061                0.935229638      -62.350315
9.062                0.935061934     -62.4443036
9.063                0.934893745     -62.5385449
9.064                0.934725068     -62.6330397
9.065                0.934555903     -62.7277891
9.066                0.934386246     -62.8227941
9.067                0.934216096     -62.9180555
9.068                 0.93404545     -63.0135745
9.069                0.933874305     -63.1093519
9.07                 0.933702661     -63.2053888
9.071                0.933530513     -63.3016862
9.072                0.933357861      -63.398245
9.073                0.933184702     -63.4950663
9.074                0.933011033      -63.592151
9.075                0.932836853     -63.6895001
9.076                0.932662159     -63.7871148
9.077                0.932486948     -63.8849959
9.078                0.932311219     -63.9831445
9.079                0.932134969     -64.0815617
9.08                 0.931958195     -64.1802484
9.081                0.931780896     -64.2792056
9.082                0.931603069     -64.3784346
9.083                0.931424712     -64.4779361
9.084                0.931245822     -64.5777114
9.085                0.931066397     -64.6777615
9.086                0.930886435     -64.7780873
9.087                0.930705933       -64.87869
9.088                0.930524889     -64.9795707
9.089                  0.9303433     -65.0807304
9.09                 0.930161164     -65.1821701
9.091                0.929978478      -65.283891
9.092                0.929795241     -65.3858941
9.093                0.929611449     -65.4881805
9.094                  0.9294271     -65.5907513
9.095                0.929242193     -65.6936076
9.096                0.929056723     -65.7967505
9.097                0.928870689     -65.9001811
9.098                0.928684089     -66.0039005
9.099                0.928496919     -66.1079098
9.1                  0.928309178     -66.2122101
9.101                0.928120862     -66.3168025
9.102                 0.92793197     -66.4216883
9.103                0.927742499     -66.5268684
9.104                0.927552445     -66.6323441
9.105                0.927361808     -66.7381164
9.106                0.927170583     -66.8441866
9.107                 0.92697877     -66.9505557
9.108                0.926786364      -67.057225
9.109                0.926593363     -67.1641955
9.11                 0.926399766     -67.2714685
9.111                0.926205568      -67.379045
9.112                0.926010769     -67.4869263
9.113                0.925815364     -67.5951136
9.114                0.925619352      -67.703608
9.115                 0.92542273     -67.8124108
9.116                0.925225495      -67.921523
9.117                0.925027644     -68.0309459
9.118                0.924829175     -68.1406808
9.119                0.924630086     -68.2507287
9.12                 0.924430373      -68.361091
9.121                0.924230034     -68.4717688
9.122                0.924029067     -68.5827633
9.123                0.923827468     -68.6940758
9.124                0.923625235     -68.8057075
9.125                0.923422365     -68.9176597
9.126                0.923218856     -69.0299335
9.127                0.923014705     -69.1425302
9.128                0.922809908     -69.2554511
9.129                0.922604464     -69.3686975
9.13                  0.92239837     -69.4822705
9.131                0.922191623     -69.5961714
9.132                 0.92198422     -69.7104016
9.133                0.921776158     -69.8249622
9.134                0.921567436     -69.9398546
9.135                0.921358049     -70.0550801
9.136                0.921147995     -70.1706398
9.137                0.920937272     -70.2865352
9.138                0.920725876     -70.4027676
9.139                0.920513806     -70.5193381
9.14                 0.920301057     -70.6362482
9.141                0.920087628     -70.7534992
9.142                0.919873516     -70.8710923
9.143                0.919658717     -70.9890289
9.144                0.919443229     -71.1073104
9.145                0.919227049      -71.225938
9.146                0.919010175     -71.3449131
9.147                0.918792603      -71.464237
9.148                0.918574331     -71.5839111
9.149                0.918355356     -71.7039368
9.15                 0.918135674     -71.8243154
9.151                0.917915284     -71.9450483
9.152                0.917694183     -72.0661368
9.153                0.917472367     -72.1875823
9.154                0.917249833     -72.3093862
9.155                 0.91702658     -72.4315499
9.156                0.916802603     -72.5540748
9.157                0.916577901     -72.6769622
9.158                 0.91635247     -72.8002136
9.159                0.916126307     -72.9238305
9.16                  0.91589941     -73.0478141
9.161                0.915671776     -73.1721659
9.162                0.915443402     -73.2968873
9.163                0.915214284     -73.4219798
9.164                0.914984421     -73.5474448
9.165                0.914753809     -73.6732838
9.166                0.914522446     -73.7994981
9.167                0.914290328     -73.9260893
9.168                0.914057452     -74.0530587
9.169                0.913823816     -74.1804079
9.17                 0.913589418     -74.3081383
9.171                0.913354253     -74.4362514
9.172                0.913118319     -74.5647487
9.173                0.912881614     -74.6936316
9.174                0.912644134     -74.8229016
9.175                0.912405877     -74.9525602
9.176                0.912166839      -75.082609
9.177                0.911927018     -75.2130494
9.178                0.911686411     -75.3438829
9.179                0.911445014      -75.475111
9.18                 0.911202826     -75.6067353
9.181                0.910959844     -75.7387573
9.182                0.910716063     -75.8711786
9.183                0.910471483     -76.0040005
9.184                0.910226099     -76.1372248
9.185                0.909979908     -76.2708529
9.186                0.909732909     -76.4048864
9.187                0.909485098     -76.5393269
9.188                0.909236472     -76.6741759
9.189                0.908987028     -76.8094349
9.19                 0.908736764     -76.9451056
9.191                0.908485677     -77.0811896
9.192                0.908233764     -77.2176884
9.193                0.907981021     -77.3546035
9.194                0.907727447     -77.4919367
9.195                0.907473038     -77.6296895
9.196                0.907217792     -77.7678635
9.197                0.906961706     -77.9064603
9.198                0.906704777     -78.0454815
9.199                0.906447002     -78.1849288
9.2                  0.906188378     -78.3248038
9.201                0.905928903     -78.4651081
9.202                0.905668574     -78.6058433
9.203                0.905407387     -78.7470112
9.204                0.905145342     -78.8886133
9.205                0.904882433     -79.0306513
9.206                 0.90461866     -79.1731268
9.207                0.904354019     -79.3160416
9.208                0.904088507     -79.4593973
9.209                0.903822121     -79.6031955
9.21                  0.90355486      -79.747438
9.211                 0.90328672     -79.8921265
9.212                0.903017699     -80.0372625
9.213                0.902747793     -80.1828479
9.214                0.902477001     -80.3288843
9.215                 0.90220532     -80.4753735
9.216                0.901932746      -80.622317
9.217                0.901659278     -80.7697168
9.218                0.901384913     -80.9175744
9.219                0.901109648     -81.0658916
9.22                  0.90083348     -81.2146702
9.221                0.900556408     -81.3639119
9.222                0.900278428     -81.5136183
9.223                0.899999538     -81.6637914
9.224                0.899719735     -81.8144327
9.225                0.899439018     -81.9655442
9.226                0.899157383     -82.1171275
9.227                0.898874828     -82.2691844
9.228                 0.89859135     -82.4217166
9.229                0.898306948     -82.5747261
9.23                 0.898021619     -82.7282145
9.231                 0.89773536     -82.8821836
9.232                0.897448169     -83.0366352
9.233                0.897160043     -83.1915712
9.234                0.896870981     -83.3469933
9.235                 0.89658098     -83.5029033
9.236                0.896290037      -83.659303
9.237                0.895998152     -83.8161943
9.238                 0.89570532      -83.973579
9.239                 0.89541154     -84.1314589
9.24                  0.89511681     -84.2898359
9.241                0.894821128     -84.4487117
9.242                0.894524492     -84.6080882
9.243                0.894226899     -84.7679673
9.244                0.893928347     -84.9283507
9.245                0.893628834     -85.0892405
9.246                0.893328359     -85.2506383
9.247                0.893026919     -85.4125461
9.248                0.892724512     -85.5749658
9.249                0.892421136     -85.7378991
9.25                  0.89211679     -85.9013481
9.251                0.891811472     -86.0653145
9.252                0.891505179     -86.2298003
9.253                0.891197909     -86.3948073
9.254                0.890889662     -86.5603374
9.255                0.890580436     -86.7263926
9.256                0.890270227     -86.8929746
9.257                0.889959036     -87.0600855
9.258                 0.88964686     -87.2277272
9.259                0.889333697     -87.3959014
9.26                 0.889019547     -87.5646102
9.261                0.888704407     -87.7338555
9.262                0.888388276     -87.9036392
9.263                0.888071152     -88.0739633
9.264                0.887753035     -88.2448295
9.265                0.887433922       -88.41624
9.266                0.887113813     -88.5881965
9.267                0.886792706     -88.7607012
9.268                0.886470599     -88.9337558
9.269                0.886147493     -89.1073624
9.27                 0.885823384     -89.2815228
9.271                0.885498273     -89.4562391
9.272                0.885172158     -89.6315133
9.273                0.884845039     -89.8073471
9.274                0.884516913     -89.9837427
9.275                0.884187781      -90.160702
9.276                0.883857641     -90.3382269
9.277                0.883526493     -90.5163195
9.278                0.883194336     -90.6949816
9.279                0.882861168     -90.8742153
9.28                  0.88252699     -91.0540225
9.281                0.882191801     -91.2344053
9.282                  0.8818556     -91.4153655
9.283                0.881518386     -91.5969052
9.284                0.881180159     -91.7790264
9.285                 0.88084092      -91.961731
9.286                0.880500666     -92.1450211
9.287                0.880159399     -92.3288986
9.288                0.879817118     -92.5133655
9.289                0.879473822     -92.6984239
9.29                 0.879129512     -92.8840756
9.291                0.878784187     -93.0703227
9.292                0.878437848     -93.2571673
9.293                0.878090495     -93.4446112
9.294                0.877742128     -93.6326566
9.295                0.877392746     -93.8213053
9.296                0.877042351     -94.0105595
9.297                0.876690943      -94.200421
9.298                0.876338521      -94.390892
9.299                0.875985087     -94.5819744
9.3                  0.875630641     -94.7736701
9.301                0.875275185     -94.9659813
9.302                0.874918717     -95.1589099
9.303                 0.87456124      -95.352458
9.304                0.874202754     -95.5466274
9.305                 0.87384326     -95.7414203
9.306                0.873482759     -95.9368386
9.307                0.873121252     -96.1328843
9.308                0.872758741     -96.3295595
9.309                0.872395226     -96.5268661
9.31                 0.872030709     -96.7248062
9.311                0.871665191     -96.9233816
9.312                0.871298675     -97.1225945
9.313                0.870931161     -97.3224469
9.314                0.870562651     -97.5229406
9.315                0.870193147     -97.7240778
9.316                 0.86982265     -97.9258603
9.317                0.869451164     -98.1282903
9.318                0.869078689     -98.3313696
9.319                0.868705228     -98.5351003
9.32                 0.868330783     -98.7394843
9.321                0.867955357     -98.9445237
9.322                0.867578952     -99.1502203
9.323                 0.86720157     -99.3565762
9.324                0.866823214     -99.5635934
9.325                0.866443886     -99.7712738
9.326                0.866063591     -99.9796193
9.327                0.865682329     -100.188632
9.328                0.865300106     -100.398314
9.329                0.864916922     -100.608666
9.33                 0.864532783     -100.819692
9.331                0.864147691     -101.031393
9.332                 0.86376165      -101.24377
9.333                0.863374662     -101.456827
9.334                0.862986733     -101.670564
9.335                0.862597865     -101.884983
9.336                0.862208063     -102.100088
9.337                 0.86181733     -102.315878
9.338                0.861425672     -102.532358
9.339                0.861033091     -102.749527
9.34                 0.860639592     -102.967388
9.341                 0.86024518     -103.185944
9.342                 0.85984986     -103.405196
9.343                0.859453636     -103.625145
9.344                0.859056513     -103.845794
9.345                0.858658496     -104.067144
9.346                 0.85825959     -104.289198
9.347                  0.8578598     -104.511957
9.348                0.857459132     -104.735424
9.349                0.857057591     -104.959599
9.35                 0.856655183     -105.184484
9.351                0.856251914     -105.410083
9.352                0.855847789     -105.636395
9.353                0.855442815     -105.863424
9.354                0.855036997      -106.09117
9.355                0.854630342     -106.319636
9.356                0.854222857     -106.548824
9.357                0.853814548     -106.778734
9.358                0.853405422      -107.00937
9.359                0.852995485     -107.240732
9.36                 0.852584745     -107.472822
9.361                0.852173209     -107.705643
9.362                0.851760884     -107.939195
9.363                0.851347778     -108.173481
9.364                0.850933898     -108.408501
9.365                0.850519252     -108.644259
9.366                0.850103848     -108.880754
9.367                0.849687694      -109.11799
9.368                0.849270798     -109.355967
9.369                0.848853169     -109.594688
9.37                 0.848434815     -109.834153
9.371                0.848015744     -110.074364
9.372                0.847595967     -110.315324
9.373                0.847175491     -110.557033
9.374                0.846754326     -110.799493
9.375                0.846332481     -111.042705
9.376                0.845909967     -111.286671
9.377                0.845486791     -111.531393
9.378                0.845062965     -111.776872
9.379                0.844638499     -112.023109
9.38                 0.844213401     -112.270105
9.381                0.843787684     -112.517863
9.382                0.843361357     -112.766384
9.383                0.842934431     -113.015668
9.384                0.842506918     -113.265718
9.385                0.842078827     -113.516534
9.386                 0.84165017     -113.768118
9.387                0.841220959     -114.020472
9.388                0.840791206     -114.273596
9.389                0.840360921     -114.527491
9.39                 0.839930117      -114.78216
9.391                0.839498807     -115.037603
9.392                0.839067001     -115.293821
9.393                0.838634714     -115.550815
9.394                0.838201957     -115.808587
9.395                0.837768743     -116.067138
9.396                0.837335086     -116.326469
