! TOUCHSTONE file generated by CST DESIGN STUDIO
! Date and time: Tue Feb  4 18:32:26 2025
! Project name: C:\Work\MatlabApps\UnitCellOptimizationMatlab\CST\unitcell.cst
! Tree item: Tasks\Sweep1\SPara1\S-Parameters
! Header version: 2024
! Port assignment regex: !\s*Touchstone port\s*([0-9]+)\s*=\s*(CST MWS port|CST DES external port|CST DES block port)\s*(.+)\s* \(\"(.*)\"\)(\s*mode\s*([0-9]+))?.*
! Touchstone port assignment:
! Touchstone port 1 = CST DES external port 1 ("")
# GHz S MA R 50
9                    0.794820699       -119.2988
9.001                0.794015633     -119.583168
9.002                0.793209994     -119.868441
9.003                0.792403812     -120.154618
9.004                 0.79159712     -120.441703
9.005                0.790789951     -120.729697
9.006                0.789982339     -121.018601
9.007                0.789174316     -121.308418
9.008                0.788365916     -121.599147
9.009                0.787557174     -121.890792
9.01                 0.786748125     -122.183354
9.011                0.785938802     -122.476833
9.012                0.785129243     -122.771231
9.013                0.784319482     -123.066551
9.014                0.783509555     -123.362792
9.015                0.782699499     -123.659957
9.016                0.781889351     -123.958047
9.017                0.781079148     -124.257062
9.018                0.780268928     -124.557005
9.019                0.779458728     -124.857876
9.02                 0.778648588     -125.159676
9.021                0.777838545     -125.462406
9.022                0.777028638     -125.766069
9.023                0.776218908     -126.070663
9.024                0.775409394     -126.376191
9.025                0.774600136     -126.682654
9.026                0.773791175     -126.990052
9.027                0.772982551     -127.298385
9.028                0.772174306     -127.607656
9.029                0.771366482     -127.917864
9.03                  0.77055912      -128.22901
9.031                0.769752263     -128.541095
9.032                0.768945954      -128.85412
9.033                0.768140235     -129.168085
9.034                 0.76733515      -129.48299
9.035                0.766530743     -129.798836
9.036                0.765727058     -130.115623
9.037                0.764924139     -130.433352
9.038                0.764122031     -130.752023
9.039                0.763320779     -131.071636
9.04                 0.762520429     -131.392191
9.041                0.761721027     -131.713688
9.042                0.760922617     -132.036128
9.043                0.760125248     -132.359511
9.044                0.759328966     -132.683835
9.045                0.758533817     -133.009102
9.046                 0.75773985     -133.335311
9.047                0.756947111     -133.662462
9.048                 0.75615565     -133.990554
9.049                0.755365514     -134.319588
9.05                 0.754576751     -134.649562
9.051                0.753789412     -134.980476
9.052                0.753003544     -135.312329
9.053                0.752219198     -135.645122
9.054                0.751436423     -135.978853
9.055                 0.75065527     -136.313521
9.056                0.749875788     -136.649126
9.057                0.749098028     -136.985667
9.058                0.748322041     -137.323142
9.059                0.747547878     -137.661551
9.06                  0.74677559     -138.000892
9.061                 0.74600523     -138.341165
9.062                0.745236848     -138.682367
9.063                0.744470497     -139.024498
9.064                0.743706229     -139.367557
9.065                0.742944097     -139.711541
9.066                0.742184153     -140.056449
9.067                0.741426449     -140.402279
9.068                 0.74067104      -140.74903
9.069                0.739917978       -141.0967
9.07                 0.739167317     -141.445287
9.071                 0.73841911     -141.794788
9.072                0.737673412     -142.145202
9.073                0.736930275     -142.496527
9.074                0.736189754      -142.84876
9.075                0.735451904     -143.201899
9.076                0.734716778     -143.555942
9.077                0.733984431     -143.910885
9.078                0.733254917     -144.266727
9.079                0.732528292     -144.623464
9.08                 0.731804609     -144.981095
9.081                0.731083924     -145.339615
9.082                0.730366291     -145.699022
9.083                0.729651766     -146.059313
9.084                0.728940403     -146.420485
9.085                0.728232257     -146.782535
9.086                0.727527384     -147.145458
9.087                0.726825838     -147.509252
9.088                0.726127674     -147.873913
9.089                0.725432948     -148.239438
9.09                 0.724741714     -148.605822
9.091                0.724054027     -148.973062
9.092                0.723369943     -149.341154
9.093                0.722689516     -149.710094
9.094                0.722012801     -150.079877
9.095                0.721339852       -150.4505
9.096                0.720670724     -150.821958
9.097                0.720005472     -151.194246
9.098                 0.71934415     -151.567361
9.099                0.718686812     -151.941297
9.1                  0.718033511     -152.316049
9.101                0.717384303     -152.691614
9.102                 0.71673924     -153.067985
9.103                0.716098376     -153.445157
9.104                0.715461764     -153.823126
9.105                0.714829457     -154.201887
9.106                0.714201507     -154.581433
9.107                0.713577968     -154.961759
9.108                 0.71295889      -155.34286
9.109                0.712344326      -155.72473
9.11                 0.711734328     -156.107363
9.111                0.711128945     -156.490754
9.112                0.710528229     -156.874895
9.113                 0.70993223     -157.259781
9.114                0.709340998     -157.645407
9.115                0.708754582     -158.031764
9.116                 0.70817303     -158.418847
9.117                0.707596392      -158.80665
9.118                0.707024714     -159.195165
9.119                0.706458044     -159.584386
9.12                 0.705896429     -159.974306
9.121                0.705339913     -160.364918
9.122                0.704788544     -160.756214
9.123                0.704242364     -161.148188
9.124                0.703701419     -161.540833
9.125                 0.70316575      -161.93414
9.126                0.702635399     -162.328103
9.127                0.702110409     -162.722713
9.128                0.701590819     -163.117963
9.129                0.701076669     -163.513845
9.13                 0.700567997     -163.910352
9.131                 0.70006484     -164.307475
9.132                0.699567234     -164.705206
9.133                0.699075214     -165.103536
9.134                0.698588813     -165.502459
9.135                0.698108064     -165.901964
9.136                0.697632997     -166.302044
9.137                0.697163641     -166.702691
9.138                0.696700023     -167.103895
9.139                 0.69624217     -167.505649
9.14                 0.695790104     -167.907942
9.141                0.695343848     -168.310767
9.142                0.694903421     -168.714115
9.143                0.694468841     -169.117976
9.144                0.694040122     -169.522343
9.145                0.693617276     -169.927205
9.146                0.693200313     -170.332555
9.147                0.692789239     -170.738383
9.148                0.692384057      -171.14468
9.149                0.691984766     -171.551438
9.15                 0.691591362     -171.958648
9.151                0.691203836     -172.366301
9.152                0.690822176     -172.774389
9.153                0.690446363     -173.182904
9.154                0.690076375     -173.591838
9.155                0.689712184     -174.001182
9.156                0.689353755     -174.410931
9.157                0.689001047     -174.821076
9.158                0.688654013     -175.231612
9.159                0.688312598     -175.642534
9.16                  0.68797674     -176.053835
9.161                0.687646369     -176.465514
9.162                0.687321407     -176.877566
9.163                0.687001767     -177.289991
9.164                0.686687355      -177.70279
9.165                 0.68637807     -178.115965
9.166                0.686073804     -178.529521
9.167                0.685774444     -178.943467
9.168                0.685479877     -179.357813
9.169                0.685189992     -179.772575
9.17                 0.684904688      179.812227
9.171                0.684623879      179.396567
9.172                0.684347514      178.980413
9.173                0.684075583      178.563725
9.174                 0.68380815      178.146456
9.175                0.683545375       177.72855
9.176                0.683287555      177.309943
9.177                0.683035171      176.890561
9.178                0.682788947      176.470324
9.179                0.682549908      176.049151
9.18                 0.682319456      175.626958
9.181                0.682099428      175.203679
9.182                0.681892135      174.779265
9.183                0.681700354      174.353712
9.184                0.681527248      173.927071
9.185                0.681376174      173.499473
9.186                 0.68125038      173.071137
9.187                0.681152582      172.642383
9.188                  0.6810845      172.213611
9.189                0.681046437      171.785278
9.19                 0.681037035      171.357846
9.191                0.681053304      170.931729
9.192                0.681090946      170.507242
9.193                0.681144904      170.084573
9.194                    0.68121      169.663769
9.195                  0.6812815      169.244759
9.196                0.681355512      168.827376
9.197                0.681429165      168.411402
9.198                 0.68150061      167.996598
9.199                 0.68156889      167.582728
9.2                   0.68163376       167.16958
9.201                0.681695482      166.756973
9.202                0.681754653      166.344762
9.203                 0.68181206       165.93283
9.204                0.681868573      165.521094
9.205                0.681925078      165.109493
9.206                0.681982422      164.697987
9.207                0.682041392       164.28655
9.208                0.682102702      163.875171
9.209                0.682166983      163.463846
9.21                 0.682234792       163.05258
9.211                 0.68230661      162.641382
9.212                0.682382855      162.230263
9.213                0.682463881      161.819238
9.214                0.682549993      161.408326
9.215                0.682641449      160.997541
9.216                0.682738467      160.586904
9.217                 0.68284123      160.176432
9.218                0.682949892      159.766144
9.219                0.683064581      159.356058
9.22                 0.683185402      158.946191
9.221                0.683312444      158.536562
9.222                0.683445776      158.127187
9.223                0.683585456      157.718084
9.224                0.683731527      157.309268
9.225                0.683884024      156.900756
9.226                 0.68404297      156.492563
9.227                0.684208384      156.084705
9.228                0.684380274      155.677195
9.229                0.684558645      155.270049
9.23                 0.684743495       154.86328
9.231                0.684934818      154.456902
9.232                0.685132603      154.050928
9.233                0.685336836      153.645372
9.234                  0.6855475      153.240246
9.235                0.685764575      152.835563
9.236                0.685988037      152.431334
9.237                0.686217862      152.027571
9.238                0.686454022      151.624287
9.239                0.686696488      151.221493
9.24                 0.686945229        150.8192
9.241                0.687200213      150.417418
9.242                0.687461404      150.016159
9.243                0.687728768      149.615434
9.244                0.688002268      149.215253
9.245                0.688281866      148.815625
9.246                0.688567523      148.416562
9.247                  0.6888592      148.018073
9.248                0.689156856      147.620167
9.249                0.689460448      147.222854
9.25                 0.689769934      146.826144
9.251                0.690085272      146.430046
9.252                0.690406416      146.034569
9.253                0.690733323      145.639722
9.254                0.691065947      145.245513
9.255                0.691404243      144.851951
9.256                0.691748163      144.459045
9.257                0.692097661      144.066804
9.258                0.692452689      143.675234
9.259                0.692813199      143.284345
9.26                 0.693179143      142.894144
9.261                0.693550472      142.504639
9.262                0.693927136      142.115838
9.263                0.694309087      141.727748
9.264                0.694696272      141.340377
9.265                0.695088643      140.953732
9.266                0.695486149       140.56782
9.267                0.695888738      140.182648
9.268                0.696296359      139.798224
9.269                 0.69670896      139.414553
9.27                 0.697126489      139.031643
9.271                0.697548894      138.649499
9.272                0.697976123      138.268129
9.273                0.698408123      137.887539
9.274                0.698844841      137.507735
9.275                0.699286224      137.128723
9.276                0.699732218      136.750509
9.277                0.700182771      136.373098
9.278                0.700637829      135.996497
9.279                0.701097338       135.62071
9.28                 0.701561244      135.245745
9.281                0.702029493      134.871605
9.282                0.702502031      134.498296
9.283                0.702978805      134.125823
9.284                0.703459759      133.754191
9.285                 0.70394484      133.383406
9.286                0.704433993      133.013471
9.287                0.704927164      132.644392
9.288                0.705424298      132.276174
9.289                0.705925342      131.908819
9.29                  0.70643024      131.542334
9.291                0.706938938      131.176722
9.292                0.707451382      130.811987
9.293                0.707967518      130.448133
9.294                 0.70848729      130.085165
9.295                0.709010646      129.723086
9.296                0.709537529        129.3619
9.297                0.710067887       129.00161
9.298                0.710601666       128.64222
9.299                 0.71113881      128.283734
9.3                  0.711679266      127.926154
9.301                0.712222981      127.569485
9.302                0.712769901      127.213728
9.303                0.713319971      126.858887
9.304                0.713873139      126.504966
9.305                0.714429351      126.151966
9.306                0.714988554       125.79989
9.307                0.715550695      125.448742
9.308                0.716115721      125.098524
9.309                0.716683579      124.749238
9.31                 0.717254217      124.400886
9.311                0.717827582      124.053471
9.312                0.718403622      123.706995
9.313                0.718982286      123.361461
9.314                0.719563521      123.016869
9.315                0.720147276      122.673222
9.316                0.720733499      122.330523
9.317                 0.72132214      121.988771
9.318                0.721913147       121.64797
9.319                 0.72250647      121.308121
9.32                 0.723102058      120.969226
9.321                0.723699862      120.631284
9.322                0.724299831      120.294299
9.323                0.724901916      119.958272
9.324                0.725506068      119.623203
9.325                0.726112236      119.289093
9.326                0.726720373      118.955944
9.327                 0.72733043      118.623757
9.328                0.727942359      118.292532
9.329                0.728556111       117.96227
9.33                 0.729171639      117.632973
9.331                0.729788896       117.30464
9.332                0.730407835      116.977272
9.333                0.731028408       116.65087
9.334                0.731650569      116.325434
9.335                0.732274273      116.000965
9.336                0.732899473      115.677462
9.337                0.733526124      115.354927
9.338                0.734154181      115.033359
9.339                0.734783599      114.712758
9.34                 0.735414333      114.393124
9.341                0.736046339      114.074458
9.342                0.736679574       113.75676
9.343                0.737313994      113.440028
9.344                0.737949555      113.124264
9.345                0.738586216      112.809467
9.346                0.739223933      112.495635
9.347                0.739862665       112.18277
9.348                0.740502369      111.870871
9.349                0.741143005      111.559936
9.35                 0.741784531      111.249967
9.351                0.742426906      110.940961
9.352                0.743070091      110.632919
9.353                0.743714046      110.325839
9.354                 0.74435873      110.019722
9.355                0.745004105      109.714566
9.356                0.745650131      109.410369
9.357                0.746296771      109.107133
9.358                0.746943986      108.804855
9.359                0.747591738      108.503534
9.36                 0.748239991       108.20317
9.361                0.748888706      107.903761
9.362                0.749537848      107.605307
9.363                 0.75018738      107.307805
9.364                0.750837266      107.011256
9.365                0.751487471      106.715657
9.366                0.752137959      106.421008
9.367                0.752788697      106.127306
9.368                0.753439648      105.834552
9.369                 0.75409078      105.542742
9.37                 0.754742058      105.251876
9.371                 0.75539345      104.961953
9.372                0.756044923      104.672971
9.373                0.756696443      104.384927
9.374                0.757347979      104.097822
9.375                0.757999499      103.811652
9.376                0.758650971      103.526417
9.377                0.759302365      103.242115
9.378                0.759953649      102.958743
9.379                0.760604794      102.676301
9.38                  0.76125577      102.394786
9.381                0.761906546      102.114197
9.382                0.762557094      101.834531
9.383                0.763207384      101.555788
9.384                0.763857389      101.277964
9.385                0.764507079      101.001059
9.386                0.765156428      100.725069
9.387                0.765805408      100.449994
9.388                0.766453991      100.175831
9.389                0.767102152      99.9025777
9.39                 0.767749863      99.6302327
9.391                0.768397098      99.3587936
9.392                0.769043833      99.0882583
9.393                0.769690042      98.8186247
9.394                0.770335699      98.5498907
9.395                 0.77098078      98.2820541
9.396                0.771625261      98.0151128
