! TOUCHSTONE file generated by CST DESIGN STUDIO
! Date and time: Tue Feb  4 18:32:25 2025
! Project name: C:\Work\MatlabApps\UnitCellOptimizationMatlab\CST\unitcell.cst
! Tree item: Tasks\Sweep1\SPara1\S-Parameters
! Header version: 2024
! Port assignment regex: !\s*Touchstone port\s*([0-9]+)\s*=\s*(CST MWS port|CST DES external port|CST DES block port)\s*(.+)\s* \(\"(.*)\"\)(\s*mode\s*([0-9]+))?.*
! Touchstone port assignment:
! Touchstone port 1 = CST DES external port 1 ("")
# GHz S MA R 50
9                    0.757867341     -138.960485
9.001                 0.75700922      -139.31143
9.002                0.756152891     -139.663313
9.003                0.755298417     -140.016133
9.004                0.754445856     -140.369886
9.005                0.753595271     -140.724571
9.006                0.752746723     -141.080187
9.007                0.751900274     -141.436731
9.008                0.751055985     -141.794202
9.009                0.750213918     -142.152596
9.01                 0.749374136     -142.511912
9.011                0.748536702     -142.872147
9.012                0.747701677     -143.233298
9.013                0.746869126     -143.595364
9.014                 0.74603911     -143.958342
9.015                0.745211694     -144.322228
9.016                0.744386941      -144.68702
9.017                0.743564914     -145.052715
9.018                0.742745678     -145.419311
9.019                0.741929296     -145.786803
9.02                 0.741115832     -146.155189
9.021                0.740305351     -146.524465
9.022                0.739497917     -146.894628
9.023                0.738693594     -147.265675
9.024                0.737892447     -147.637601
9.025                 0.73709454     -148.010404
9.026                0.736299937     -148.384079
9.027                0.735508705     -148.758622
9.028                0.734720907      -149.13403
9.029                0.733936608     -149.510299
9.03                 0.733155872     -149.887423
9.031                0.732378766       -150.2654
9.032                0.731605353     -150.644224
9.033                0.730835698     -151.023891
9.034                0.730069866     -151.404396
9.035                0.729307921     -151.785735
9.036                0.728549929     -152.167903
9.037                0.727795954     -152.550895
9.038                 0.72704606     -152.934706
9.039                0.726300312      -153.31933
9.04                 0.725558774     -153.704763
9.041                 0.72482151     -154.090999
9.042                0.724088584     -154.478032
9.043                0.723360061     -154.865858
9.044                0.722636003      -155.25447
9.045                0.721916475     -155.643863
9.046                 0.72120154     -156.034031
9.047                 0.72049126     -156.424967
9.048                0.719785699     -156.816666
9.049                 0.71908492     -157.209121
9.05                 0.718388985     -157.602327
9.051                0.717697957     -157.996276
9.052                0.717011896     -158.390962
9.053                0.716330866     -158.786378
9.054                0.715654927     -159.182518
9.055                 0.71498414     -159.579374
9.056                0.714318566     -159.976941
9.057                0.713658265      -160.37521
9.058                0.713003298     -160.774174
9.059                0.712353724     -161.173826
9.06                 0.711709602     -161.574159
9.061                0.711070991     -161.975165
9.062                0.710437949     -162.376837
9.063                0.709810536     -162.779166
9.064                0.709188807     -163.182145
9.065                 0.70857282     -163.585766
9.066                0.707962632      -163.99002
9.067                0.707358299       -164.3949
9.068                0.706759876     -164.800397
9.069                0.706167419     -165.206503
9.07                 0.705580982      -165.61321
9.071                0.705000619     -166.020508
9.072                0.704426384     -166.428389
9.073                0.703858329     -166.836844
9.074                0.703296507     -167.245864
9.075                 0.70274097     -167.655441
9.076                0.702191768     -168.065565
9.077                0.701648952     -168.476226
9.078                0.701112571     -168.887416
9.079                0.700582676     -169.299126
9.08                 0.700059314     -169.711344
9.081                0.699542533     -170.124063
9.082                 0.69903238     -170.537272
9.083                0.698528902     -170.950962
9.084                0.698032144     -171.365122
9.085                0.697542151     -171.779743
9.086                0.697058967     -172.194814
9.087                0.696582636     -172.610326
9.088                  0.6961132     -173.026268
9.089                0.695650702     -173.442629
9.09                 0.695195181       -173.8594
9.091                0.694746679      -174.27657
9.092                0.694305235     -174.694128
9.093                0.693870887     -175.112064
9.094                0.693443673     -175.530367
9.095                 0.69302363     -175.949026
9.096                0.692610794      -176.36803
9.097                  0.6922052     -176.787368
9.098                0.691806883     -177.207029
9.099                0.691415875     -177.627003
9.1                  0.691032209     -178.047277
9.101                0.690655917     -178.467842
9.102                 0.69028703     -178.888684
9.103                0.689925577     -179.309794
9.104                0.689571586     -179.731159
9.105                0.689225086      179.847231
9.106                0.688886103      179.425389
9.107                0.688554664      179.003326
9.108                0.688230793      178.581053
9.109                0.687914515      178.158583
9.11                 0.687605851      177.735926
9.111                0.687304825      177.313095
9.112                0.687011457      176.890102
9.113                0.686725767      176.466958
9.114                0.686447774      176.043676
9.115                0.686177496      175.620266
9.116                 0.68591495      175.196742
9.117                0.685660152      174.773115
9.118                0.685413117      174.349397
9.119                0.685173858        173.9256
9.12                 0.684942389      173.501737
9.121                0.684718722      173.077819
9.122                0.684502866      172.653858
9.123                0.684294833      172.229867
9.124                 0.68409463      171.805858
9.125                0.683902265      171.381843
9.126                0.683717745      170.957834
9.127                0.683541075      170.533843
9.128                 0.68337226      170.109882
9.129                0.683211304      169.685964
9.13                 0.683058208      169.262101
9.131                0.682912974      168.838304
9.132                0.682775603      168.414587
9.133                0.682646094       167.99096
9.134                0.682524445      167.567437
9.135                0.682410654       167.14403
9.136                0.682304715       166.72075
9.137                0.682206626       166.29761
9.138                0.682116379      165.874622
9.139                0.682033968      165.451797
9.14                 0.681959385      165.029149
9.141                0.681892621      164.606688
9.142                0.681833667      164.184427
9.143                 0.68178251      163.762377
9.144                 0.68173914      163.340552
9.145                0.681703542      162.918962
9.146                0.681675704      162.497619
9.147                 0.68165561      162.076535
9.148                0.681643245      161.655722
9.149                0.681638591      161.235192
9.15                 0.681641631      160.814956
9.151                0.681652345      160.395025
9.152                0.681670714      159.975412
9.153                0.681696718      159.556128
9.154                0.681730334      159.137184
9.155                 0.68177154      158.718592
9.156                0.681820312      158.300363
9.157                0.681876627      157.882507
9.158                0.681940459      157.465037
9.159                 0.68201178      157.047964
9.16                 0.682090566      156.631298
9.161                0.682176787       156.21505
9.162                0.682270414      155.799232
9.163                0.682371419      155.383854
9.164                0.682479769      154.968927
9.165                0.682595435      154.554461
9.166                0.682718384      154.140468
9.167                0.682848583      153.726957
9.168                0.682985998      153.313939
9.169                0.683130595      152.901424
9.17                 0.683282338      152.489424
9.171                0.683441191      152.077947
9.172                0.683607117      151.667003
9.173                 0.68378008      151.256604
9.174                0.683960039      150.846758
9.175                0.684146958      150.437476
9.176                0.684340795      150.028767
9.177                 0.68454151      149.620641
9.178                0.684749063      149.213107
9.179                0.684963411      148.806174
9.18                 0.685184513      148.399853
9.181                0.685412325      147.994152
9.182                0.685646804      147.589079
9.183                0.685887905      147.184646
9.184                0.686135583      146.780859
9.185                0.686389794      146.377728
9.186                0.686650491      145.975261
9.187                0.686917628      145.573468
9.188                0.687191158      145.172356
9.189                0.687471033      144.771934
9.19                 0.687757205       144.37221
9.191                0.688049626      143.973192
9.192                0.688348246      143.574888
9.193                0.688653016      143.177307
9.194                0.688963887      142.780456
9.195                0.689280807      142.384342
9.196                0.689603726      141.988973
9.197                0.689932592      141.594357
9.198                0.690267355        141.2005
9.199                0.690607962      140.807411
9.2                   0.69095436      140.415096
9.201                0.691306497      140.023562
9.202                0.691664321      139.632817
9.203                0.692027777      139.242866
9.204                0.692396811      138.853717
9.205                0.692771371      138.465375
9.206                0.693151401      138.077849
9.207                0.693536847      137.691142
9.208                0.693927655      137.305263
9.209                0.694323768      136.920217
9.21                 0.694725133       136.53601
9.211                0.695131693      136.152647
9.212                0.695543392      135.770135
9.213                0.695960176      135.388479
9.214                0.696381988      135.007684
9.215                0.696808771      134.627757
9.216                0.697240469      134.248701
9.217                0.697677026      133.870523
9.218                0.698118385      133.493227
9.219                0.698564489      133.116819
9.22                 0.699015282      132.741302
9.221                0.699470707      132.366683
9.222                0.699930706      131.992965
9.223                0.700395223      131.620152
9.224                  0.7008642       131.24825
9.225                 0.70133758      130.877262
9.226                0.701815306      130.507193
9.227                0.702297321      130.138046
9.228                0.702783567      129.769826
9.229                0.703273988      129.402537
9.23                 0.703768526      129.036181
9.231                0.704267124      128.670763
9.232                0.704769725      128.306286
9.233                0.705276272      127.942754
9.234                0.705786707      127.580169
9.235                0.706300975      127.218536
9.236                0.706819017      126.857856
9.237                0.707340777      126.498134
9.238                0.707866199      126.139372
9.239                0.708395225      125.781572
9.24                   0.7089278      125.424738
9.241                0.709463867      125.068871
9.242                 0.71000337      124.713976
9.243                0.710546252      124.360053
9.244                0.711092459      124.007105
9.245                0.711641933      123.655134
9.246                 0.71219462      123.304143
9.247                0.712750464      122.954133
9.248                 0.71330941      122.605106
9.249                0.713871403      122.257065
9.25                 0.714436388      121.910011
9.251                 0.71500431      121.563945
9.252                0.715575115      121.218869
9.253                0.716148749      120.874784
9.254                0.716725158      120.531693
9.255                0.717304288      120.189595
9.256                0.717886086      119.848494
9.257                0.718470498      119.508388
9.258                0.719057472       119.16928
9.259                0.719646955      118.831171
9.26                 0.720238894      118.494061
9.261                0.720833237      118.157952
9.262                0.721429932      117.822843
9.263                0.722028929      117.488736
9.264                0.722630174      117.155631
9.265                0.723233618      116.823528
9.266                 0.72383921      116.492429
9.267                0.724446899      116.162333
9.268                0.725056636      115.833241
9.269                0.725668369      115.505152
9.27                 0.726282051      115.178068
9.271                0.726897631      114.851987
9.272                0.727515062      114.526911
9.273                0.728134294      114.202839
9.274                0.728755279       113.87977
9.275                 0.72937797      113.557705
9.276                0.730002319      113.236644
9.277                0.730628278      112.916586
9.278                0.731255802       112.59753
9.279                0.731884844      112.279476
9.28                 0.732515357      111.962424
9.281                0.733147296      111.646373
9.282                0.733780616      111.331322
9.283                0.734415271      111.017272
9.284                0.735051217       110.70422
9.285                0.735688409      110.392166
9.286                0.736326805       110.08111
9.287                0.736966359       109.77105
9.288                0.737607029      109.461986
9.289                0.738248773      109.153916
9.29                 0.738891547      108.846839
9.291                 0.73953531      108.540755
9.292                 0.74018002      108.235662
9.293                0.740825636      107.931558
9.294                0.741472117      107.628444
9.295                0.742119422      107.326316
9.296                0.742767511      107.025175
9.297                0.743416345      106.725018
9.298                0.744065883      106.425844
9.299                0.744716088      106.127651
9.3                   0.74536692      105.830439
9.301                0.746018342      105.534206
9.302                0.746670314      105.238949
9.303                0.747322801      104.944668
9.304                0.747975764       104.65136
9.305                0.748629168      104.359024
9.306                0.749282975      104.067658
9.307                 0.74993715       103.77726
9.308                0.750591658      103.487829
9.309                0.751246462      103.199363
9.31                  0.75190153      102.911859
9.311                0.752556825      102.625316
9.312                0.753212314      102.339732
9.313                0.753867964      102.055104
9.314                0.754523741      101.771432
9.315                0.755179613      101.488712
9.316                0.755835546      101.206943
9.317                0.756491509      100.926122
9.318                 0.75714747      100.646248
9.319                0.757803398      100.367318
9.32                 0.758459262       100.08933
9.321                0.759115031       99.812282
9.322                0.759770674      99.5361714
9.323                0.760426163       99.260996
9.324                0.761081468      98.9867537
9.325                0.761736559       98.713442
9.326                0.762391408      98.4410586
9.327                0.763045986      98.1696012
9.328                0.763700266      97.8990673
9.329                 0.76435422      97.6294547
9.33                  0.76500782      97.3607608
9.331                 0.76566104      97.0929831
9.332                0.766313852      96.8261193
9.333                0.766966232      96.5601668
9.334                0.767618152      96.2951232
9.335                0.768269588      96.0309859
9.336                0.768920515      95.7677524
9.337                0.769570906      95.5054202
9.338                0.770220739      95.2439865
9.339                0.770869989       94.983449
9.34                 0.771518632       94.723805
9.341                0.772166645      94.4650518
9.342                0.772814004      94.2071869
9.343                0.773460688      93.9502076
9.344                0.774106673      93.6941113
9.345                0.774751937      93.4388952
9.346                0.775396459      93.1845568
9.347                0.776040218      92.9310933
9.348                0.776683192       92.678502
9.349                 0.77732536      92.4267803
9.35                 0.777966701      92.1759253
9.351                0.778607197      91.9259344
9.352                0.779246827      91.6768049
9.353                0.779885571       91.428534
9.354                0.780523411      91.1811189
9.355                0.781160327      90.9345569
9.356                0.781796301      90.6888451
9.357                0.782431314       90.443981
9.358                0.783065349      90.1999615
9.359                0.783698388       89.956784
9.36                 0.784330413      89.7144457
9.361                0.784961408      89.4729437
9.362                0.785591356      89.2322753
9.363                 0.78622024      88.9924376
9.364                0.786848044      88.7534278
9.365                0.787474752      88.5152431
9.366                0.788100348      88.2778807
9.367                0.788724817      88.0413377
9.368                0.789348145      87.8056114
9.369                0.789970315      87.5706988
9.37                 0.790591314      87.3365971
9.371                0.791211128      87.1033036
9.372                0.791829742      86.8708153
9.373                0.792447142      86.6391294
9.374                0.793063316       86.408243
9.375                 0.79367825      86.1781534
9.376                0.794291931      85.9488576
9.377                0.794904345      85.7203529
9.378                0.795515482      85.4926363
9.379                0.796125329       85.265705
9.38                 0.796733873      85.0395562
9.381                0.797341103      84.8141869
9.382                0.797947008      84.5895945
9.383                0.798551576      84.3657759
9.384                0.799154796      84.1427285
9.385                0.799756658      83.9204492
9.386                0.800357151      83.6989353
9.387                0.800956264      83.4781839
9.388                0.801553989      83.2581922
9.389                0.802150314      83.0389574
9.39                 0.802745231      82.8204765
9.391                0.803338729      82.6027468
9.392                  0.8039308      82.3857655
9.393                0.804521435      82.1695296
9.394                0.805110625      81.9540365
9.395                0.805698361      81.7392831
9.396                0.806284635      81.5252669
