! TOUCHSTONE file generated by CST DESIGN STUDIO
! Date and time: Tue Feb  4 18:32:23 2025
! Project name: C:\Work\MatlabApps\UnitCellOptimizationMatlab\CST\unitcell.cst
! Tree item: Tasks\Sweep1\SPara1\S-Parameters
! Header version: 2024
! Port assignment regex: !\s*Touchstone port\s*([0-9]+)\s*=\s*(CST MWS port|CST DES external port|CST DES block port)\s*(.+)\s* \(\"(.*)\"\)(\s*mode\s*([0-9]+))?.*
! Touchstone port assignment:
! Touchstone port 1 = CST DES external port 1 ("")
# GHz S MA R 50
9                    0.730692581     -160.668105
9.001                0.729932047     -161.077441
9.002                 0.72917678     -161.487464
9.003                 0.72842685     -161.898166
9.004                0.727682325     -162.309537
9.005                0.726943272      -162.72157
9.006                0.726209759     -163.134258
9.007                0.725481852      -163.54759
9.008                0.724759618     -163.961559
9.009                0.724043123     -164.376157
9.01                 0.723332431     -164.791374
9.011                0.722627607     -165.207201
9.012                0.721928717     -165.623631
9.013                0.721235822     -166.040652
9.014                0.720548987     -166.458258
9.015                0.719868274     -166.876437
9.016                0.719193744     -167.295181
9.017                0.718525459      -167.71448
9.018                0.717863479     -168.134325
9.019                0.717207865     -168.554706
9.02                 0.716558675     -168.975614
9.021                0.715915969     -169.397037
9.022                0.715279803     -169.818967
9.023                0.714650235     -170.241392
9.024                0.714027321     -170.664304
9.025                0.713411117     -171.087692
9.026                0.712801678     -171.511544
9.027                0.712199057     -171.935852
9.028                0.711603309     -172.360603
9.029                0.711014484     -172.785788
9.03                 0.710432636     -173.211396
9.031                0.709857814     -173.637416
9.032                0.709290069     -174.063836
9.033                0.708729449     -174.490647
9.034                0.708176003     -174.917836
9.035                0.707629778     -175.345393
9.036                 0.70709082     -175.773306
9.037                0.706559174     -176.201564
9.038                0.706034886     -176.630155
9.039                0.705517998     -177.059069
9.04                 0.705008554     -177.488293
9.041                0.704506594     -177.917815
9.042                0.704012159     -178.347625
9.043                0.703525289      -178.77771
9.044                0.703046022     -179.208058
9.045                0.702574397     -179.638658
9.046                0.702110449      179.930503
9.047                0.701654214      179.499437
9.048                0.701205727      179.068155
9.049                0.700765021       178.63667
9.05                 0.700332128      178.204994
9.051                 0.69990708       177.77314
9.052                0.699489907      177.341119
9.053                0.699080637      176.908944
9.054                  0.6986793      176.476628
9.055                0.698285922      176.044183
9.056                0.697900528       175.61162
9.057                0.697523144      175.178954
9.058                0.697153794      174.746196
9.059                0.696792499       174.31336
9.06                 0.696439281      173.880457
9.061                 0.69609416        173.4475
9.062                0.695757155      173.014502
9.063                0.695428285      172.581476
9.064                0.695107566      172.148434
9.065                0.694795014      171.715389
9.066                0.694490643      171.282354
9.067                0.694194466      170.849341
9.068                0.693906496      170.416364
9.069                0.693626745      169.983435
9.07                 0.693355221      169.550567
9.071                0.693091934      169.117772
9.072                 0.69283689      168.685063
9.073                0.692590098      168.252454
9.074                0.692351561      167.819956
9.075                0.692121285      167.387584
9.076                0.691899271      166.955348
9.077                0.691685523      166.523263
9.078                 0.69148004       166.09134
9.079                0.691282822      165.659592
9.08                 0.691093867      165.228033
9.081                0.690913173      164.796674
9.082                0.690740737      164.365529
9.083                0.690576552      163.934609
9.084                0.690420613      163.503928
9.085                0.690272913      163.073498
9.086                0.690133443      162.643331
9.087                0.690002193      162.213439
9.088                0.689879154      161.783836
9.089                0.689764314      161.354533
9.09                 0.689657659      160.925543
9.091                0.689559176      160.496877
9.092                0.689468851      160.068549
9.093                0.689386666       159.64057
9.094                0.689312606      159.212952
9.095                0.689246652      158.785708
9.096                0.689188785      158.358848
9.097                0.689138984      157.932386
9.098                 0.68909723      157.506332
9.099                0.689063498      157.080699
9.1                  0.689037767      156.655498
9.101                0.689020013      156.230741
9.102                0.689010209      155.806439
9.103                 0.68900833      155.382604
9.104                0.689014349      154.959247
9.105                0.689028238      154.536379
9.106                0.689049968      154.114012
9.107                0.689079509      153.692156
9.108                 0.68911683      153.270823
9.109                0.689161899      152.850023
9.11                 0.689214685      152.429767
9.111                0.689275153      152.010067
9.112                 0.68934327      151.590932
9.113                0.689418999      151.172373
9.114                0.689502306      150.754401
9.115                0.689593153      150.337026
9.116                0.689691503      149.920258
9.117                0.689797317      149.504107
9.118                0.689910556      149.088584
9.119                0.690031181      148.673697
9.12                  0.69015915      148.259458
9.121                0.690294422      147.845875
9.122                0.690436956      147.432959
9.123                0.690586707      147.020719
9.124                0.690743634      146.609164
9.125                0.690907691      146.198303
9.126                0.691078833      145.788145
9.127                0.691257016      145.378701
9.128                0.691442193      144.969977
9.129                0.691634317      144.561984
9.13                 0.691833341       144.15473
9.131                0.692039217      143.748224
9.132                0.692251896      143.342473
9.133                 0.69247133      142.937487
9.134                0.692697469      142.533273
9.135                0.692930263      142.129839
9.136                0.693169661      141.727194
9.137                0.693415612      141.325346
9.138                0.693668065      140.924301
9.139                0.693926967      140.524068
9.14                 0.694192267      140.124654
9.141                 0.69446391      139.726066
9.142                0.694741844      139.328311
9.143                0.695026016      138.931398
9.144                 0.69531637      138.535332
9.145                0.695612853       138.14012
9.146                 0.69591541      137.745769
9.147                0.696223985      137.352286
9.148                0.696538524      136.959678
9.149                 0.69685897       136.56795
9.15                 0.697185267      136.177108
9.151                0.697517359      135.787159
9.152                 0.69785519      135.398109
9.153                0.698198701      135.009964
9.154                0.698547838      134.622729
9.155                0.698902541      134.236409
9.156                0.699262754      133.851011
9.157                0.699628418       133.46654
9.158                0.699999477      133.083001
9.159                0.700375871      132.700398
9.16                 0.700757543      132.318738
9.161                0.701144434      131.938024
9.162                0.701536487      131.558262
9.163                0.701933641      131.179455
9.164                0.702335839       130.80161
9.165                0.702743022      130.424729
9.166                0.703155131      130.048818
9.167                0.703572107       129.67388
9.168                0.703993891      129.299919
9.169                0.704420425      128.926939
9.17                 0.704851648      128.554945
9.171                0.705287503      128.183939
9.172                0.705727931      127.813926
9.173                0.706172871      127.444908
9.174                0.706622266      127.076889
9.175                0.707076056      126.709872
9.176                0.707534183       126.34386
9.177                0.707996588      125.978857
9.178                0.708463211      125.614865
9.179                0.708933995      125.251887
9.18                 0.709408881      124.889925
9.181                0.709887809      124.528982
9.182                0.710370723      124.169061
9.183                0.710857564      123.810164
9.184                0.711348273      123.452293
9.185                0.711842792      123.095451
9.186                0.712341064      122.739638
9.187                0.712843032      122.384858
9.188                0.713348637      122.031112
9.189                0.713857822      121.678402
9.19                  0.71437053      121.326729
9.191                0.714886704      120.976095
9.192                0.715406288      120.626502
9.193                0.715929225       120.27795
9.194                0.716455458      119.930442
9.195                0.716984931      119.583978
9.196                0.717517589      119.238559
9.197                0.718053376      118.894186
9.198                0.718592236       118.55086
9.199                0.719134114      118.208583
9.2                  0.719678956      117.867354
9.201                0.720226707      117.527174
9.202                0.720777312      117.188044
9.203                0.721330718      116.849965
9.204                0.721886869      116.512936
9.205                0.722445714      116.176959
9.206                0.723007199      115.842032
9.207                0.723571271      115.508158
9.208                0.724137877      115.175334
9.209                0.724706964      114.843562
9.21                 0.725278482      114.512842
9.211                0.725852378      114.183172
9.212                0.726428601      113.854554
9.213                0.727007099      113.526986
9.214                0.727587823      113.200469
9.215                0.728170722      112.875002
9.216                0.728755745      112.550584
9.217                0.729342843      112.227215
9.218                0.729931968      111.904894
9.219                0.730523068       111.58362
9.22                 0.731116097      111.263394
9.221                0.731711006      110.944213
9.222                0.732307747      110.626077
9.223                0.732906272      110.308985
9.224                0.733506534      109.992936
9.225                0.734108486      109.677929
9.226                0.734712082      109.363963
9.227                0.735317276      109.051036
9.228                0.735924022      108.739148
9.229                0.736532275      108.428297
9.23                 0.737141989      108.118481
9.231                 0.73775312        107.8097
9.232                0.738365625      107.501952
9.233                0.738979458      107.195235
9.234                0.739594577      106.889548
9.235                0.740210939      106.584889
9.236                  0.7408285      106.281256
9.237                0.741447219      105.978649
9.238                0.742067054      105.677064
9.239                0.742687963      105.376501
9.24                 0.743309904      105.076958
9.241                0.743932839      104.778432
9.242                0.744556725      104.480921
9.243                0.745181523      104.184425
9.244                0.745807194       103.88894
9.245                0.746433698      103.594465
9.246                0.747060996      103.300998
9.247                0.747689051      103.008536
9.248                0.748317823      102.717078
9.249                0.748947276      102.426621
9.25                 0.749577373      102.137163
9.251                0.750208075      101.848701
9.252                0.750839348      101.561235
9.253                0.751471155       101.27476
9.254                0.752103459      100.989275
9.255                0.752736227      100.704778
9.256                0.753369423      100.421266
9.257                0.754003012      100.138736
9.258                0.754636961       99.857187
9.259                0.755271235      99.5766154
9.26                 0.755905802      99.2970189
9.261                0.756540628      99.0183952
9.262                0.757175681      98.7407415
9.263                0.757810928      98.4640554
9.264                0.758446338      98.1883341
9.265                0.759081879      97.9135751
9.266                0.759717521      97.6397757
9.267                0.760353231      97.3669333
9.268                0.760988981       97.095045
9.269                 0.76162474      96.8241083
9.27                 0.762260478      96.5541204
9.271                0.762896166      96.2850785
9.272                0.763531776      96.0169798
9.273                0.764167279      95.7498216
9.274                0.764802646       95.483601
9.275                 0.76543785      95.2183153
9.276                0.766072864      94.9539615
9.277                 0.76670766      94.6905368
9.278                0.767342212      94.4280384
9.279                0.767976493      94.1664634
9.28                 0.768610478      93.9058087
9.281                 0.76924414      93.6460717
9.282                0.769877454      93.3872492
9.283                0.770510396      93.1293385
9.284                 0.77114294      92.8723365
9.285                0.771775063      92.6162402
9.286                0.772406741      92.3610468
9.287                0.773037949      92.1067531
9.288                0.773668665      91.8533563
9.289                0.774298865      91.6008534
9.29                 0.774928527      91.3492412
9.291                0.775557629      91.0985169
9.292                0.776186149      90.8486774
9.293                0.776814065      90.5997196
9.294                0.777441355      90.3516405
9.295                0.778067999      90.1044371
9.296                0.778693977      89.8581063
9.297                0.779319266      89.6126451
9.298                0.779943848      89.3680504
9.299                0.780567703      89.1243191
9.3                  0.781190812      88.8814482
9.301                0.781813154      88.6394346
9.302                0.782434712      88.3982752
9.303                0.783055466       88.157967
9.304                0.783675398      87.9185068
9.305                0.784294491      87.6798916
9.306                0.784912727      87.4421183
9.307                0.785530088      87.2051837
9.308                0.786146557      86.9690849
9.309                0.786762118      86.7338187
9.31                 0.787376753      86.4993819
9.311                0.787990447      86.2657716
9.312                0.788603184      86.0329846
9.313                0.789214947      85.8010179
9.314                0.789825722      85.5698683
9.315                0.790435493      85.3395327
9.316                0.791044245       85.110008
9.317                0.791651963      84.8812913
9.318                0.792258634      84.6533792
9.319                0.792864243      84.4262689
9.32                 0.793468776      84.1999571
9.321                 0.79407222      83.9744408
9.322                 0.79467456       83.749717
9.323                0.795275785      83.5257825
9.324                0.795875881      83.3026342
9.325                0.796474835      83.0802692
9.326                0.797072635      82.8586842
9.327                0.797669269      82.6378763
9.328                0.798264725      82.4178424
9.329                0.798858991      82.1985794
9.33                 0.799452056      81.9800842
9.331                0.800043909      81.7623539
9.332                0.800634538      81.5453854
9.333                0.801223933      81.3291756
9.334                0.801812083      81.1137214
9.335                0.802398978      80.8990199
9.336                0.802984607      80.6850681
9.337                0.803568961      80.4718628
9.338                0.804152031      80.2594012
9.339                0.804733805      80.0476801
9.34                 0.805314276      79.8366966
9.341                0.805893435      79.6264477
9.342                0.806471271      79.4169303
9.343                0.807047777      79.2081416
9.344                0.807622945      79.0000785
9.345                0.808196765       78.792738
9.346                0.808769229      78.5861172
9.347                0.809340331      78.3802131
9.348                0.809910062      78.1750228
9.349                0.810478414      77.9705433
9.35                  0.81104538      77.7667716
9.351                0.811610954       77.563705
9.352                0.812175128      77.3613403
9.353                0.812737895      77.1596748
9.354                0.813299248      76.9587055
9.355                0.813859182      76.7584294
9.356                 0.81441769      76.5588438
9.357                0.814974765      76.3599457
9.358                0.815530403      76.1617323
9.359                0.816084596      75.9642006
9.36                  0.81663734      75.7673478
9.361                0.817188629      75.5711711
9.362                0.817738458      75.3756677
9.363                0.818286821      75.1808346
9.364                0.818833714       74.986669
9.365                0.819379131      74.7931683
9.366                0.819923069      74.6003294
9.367                0.820465522      74.4081497
9.368                0.821006487      74.2166263
9.369                0.821545958      74.0257564
9.37                 0.822083932      73.8355374
9.371                0.822620406      73.6459663
9.372                0.823155374      73.4570405
9.373                0.823688834      73.2687573
9.374                0.824220781      73.0811137
9.375                0.824751213      72.8941073
9.376                0.825280127      72.7077351
9.377                0.825807518      72.5219946
9.378                0.826333385       72.336883
9.379                0.826857723      72.1523976
9.38                 0.827380531      71.9685357
9.381                0.827901806      71.7852947
9.382                0.828421546      71.6026719
9.383                0.828939747      71.4206647
9.384                0.829456408      71.2392703
9.385                0.829971527      71.0584862
9.386                0.830485101      70.8783098
9.387                0.830997128      70.6987384
9.388                0.831507607      70.5197694
9.389                0.832016537      70.3414002
9.39                 0.832523915      70.1636283
9.391                 0.83302974       69.986451
9.392                 0.83353401      69.8098658
9.393                0.834036725      69.6338701
9.394                0.834537883      69.4584615
9.395                0.835037483      69.2836373
9.396                0.835535524       69.109395
