! TOUCHSTONE file generated by CST DESIGN STUDIO
! Date and time: Tue Feb  4 13:04:50 2025
! Project name: C:\Work\MatlabApps\UnitCellOptimizationMatlab\CST\unitcell.cst
! Tree item: Tasks\Sweep1\SPara1\S-Parameters
! Header version: 2024
! Port assignment regex: !\s*Touchstone port\s*([0-9]+)\s*=\s*(CST MWS port|CST DES external port|CST DES block port)\s*(.+)\s* \(\"(.*)\"\)(\s*mode\s*([0-9]+))?.*
! Touchstone port assignment:
! Touchstone port 1 = CST DES external port 1 ("")
# GHz S MA R 50
9                    0.940650726      -57.547765
9.001                0.940534359     -57.6305975
9.002                0.940417671     -57.7136545
9.003                0.940300661     -57.7969369
9.004                0.940183326     -57.8804457
9.005                0.940065665     -57.9641816
9.006                0.939947676     -58.0481455
9.007                0.939829357     -58.1323384
9.008                0.939710705     -58.2167611
9.009                0.939591719     -58.3014146
9.01                 0.939472396     -58.3862996
9.011                0.939352735     -58.4714172
9.012                0.939232734     -58.5567682
9.013                 0.93911239     -58.6423536
9.014                0.938991701     -58.7281742
9.015                0.938870666      -58.814231
9.016                0.938749281     -58.9005249
9.017                0.938627546     -58.9870568
9.018                0.938505458     -59.0738276
9.019                0.938383014     -59.1608384
9.02                 0.938260213     -59.2480899
9.021                0.938137053     -59.3355832
9.022                 0.93801353     -59.4233193
9.023                0.937889644      -59.511299
9.024                0.937765392     -59.5995233
9.025                0.937640771     -59.6879932
9.026                0.937515779     -59.7767096
9.027                0.937390415     -59.8656736
9.028                0.937264676      -59.954886
9.029                0.937138559     -60.0443479
9.03                 0.937012062     -60.1340602
9.031                0.936885183      -60.224024
9.032                 0.93675792     -60.3142401
9.033                0.936630271     -60.4047097
9.034                0.936502232     -60.4954337
9.035                0.936373802      -60.586413
9.036                0.936244978     -60.6776488
9.037                0.936115758      -60.769142
9.038                0.935986139     -60.8608936
9.039                 0.93585612     -60.9529047
9.04                 0.935725697     -61.0451763
9.041                0.935594868     -61.1377093
9.042                0.935463631     -61.2305049
9.043                0.935331984     -61.3235641
9.044                0.935199923     -61.4168879
9.045                0.935067446     -61.5104773
9.046                0.934934551     -61.6043335
9.047                0.934801235     -61.6984574
9.048                0.934667496     -61.7928502
9.049                0.934533331     -61.8875128
9.05                 0.934398738     -61.9824465
9.051                0.934263714     -62.0776521
9.052                0.934128256     -62.1731309
9.053                0.933992362     -62.2688838
9.054                0.933856029     -62.3649121
9.055                0.933719254     -62.4612167
9.056                0.933582035     -62.5577988
9.057                 0.93344437     -62.6546594
9.058                0.933306255     -62.7517998
9.059                0.933167688     -62.8492209
9.06                 0.933028666     -62.9469239
9.061                0.932889186       -63.04491
9.062                0.932749246     -63.1431802
9.063                0.932608842     -63.2417357
9.064                0.932467973     -63.3405776
9.065                0.932326636     -63.4397071
9.066                0.932184826     -63.5391253
9.067                0.932042543     -63.6388333
9.068                0.931899782     -63.7388324
9.069                0.931756541     -63.8391236
9.07                 0.931612818     -63.9397081
9.071                0.931468608     -64.0405872
9.072                 0.93132391     -64.1417619
9.073                0.931178721     -64.2432335
9.074                0.931033037     -64.3450031
9.075                0.930886856      -64.447072
9.076                0.930740175     -64.5494413
9.077                 0.93059299     -64.6521122
9.078                0.930445299     -64.7550859
9.079                0.930297099     -64.8583637
9.08                 0.930148387     -64.9619467
9.081                0.929999159     -65.0658362
9.082                0.929849413     -65.1700335
9.083                0.929699146     -65.2745396
9.084                0.929548355     -65.3793559
9.085                0.929397035     -65.4844836
9.086                0.929245186      -65.589924
9.087                0.929092802     -65.6956783
9.088                0.928939882     -65.8017478
9.089                0.928786422     -65.9081336
9.09                 0.928632419     -66.0148372
9.091                 0.92847787     -66.1218598
9.092                0.928322771     -66.2292026
9.093                0.928167119     -66.3368669
9.094                0.928010912      -66.444854
9.095                0.927854145     -66.5531653
9.096                0.927696816     -66.6618019
9.097                0.927538922     -66.7707653
9.098                0.927380458     -66.8800567
9.099                0.927221423     -66.9896774
9.1                  0.927061812     -67.0996289
9.101                0.926901622     -67.2099123
9.102                 0.92674085      -67.320529
9.103                0.926579493     -67.4314804
9.104                0.926417547     -67.5427678
9.105                0.926255008     -67.6543925
9.106                0.926091874      -67.766356
9.107                0.925928141     -67.8786595
9.108                0.925763806     -67.9913045
9.109                0.925598865     -68.1042923
9.11                 0.925433315     -68.2176243
9.111                0.925267151     -68.3313018
9.112                0.925100372     -68.4453263
9.113                0.924932973     -68.5596991
9.114                0.924764951     -68.6744217
9.115                0.924596302     -68.7894955
9.116                0.924427023     -68.9049218
9.117                 0.92425711     -69.0207021
9.118                0.924086559     -69.1368378
9.119                0.923915368     -69.2533304
9.12                 0.923743532     -69.3701812
9.121                0.923571048     -69.4873917
9.122                0.923397912     -69.6049634
9.123                0.923224121     -69.7228977
9.124                0.923049671     -69.8411961
9.125                0.922874559     -69.9598599
9.126                0.922698779     -70.0788908
9.127                 0.92252233     -70.1982902
9.128                0.922345208     -70.3180595
9.129                0.922167407     -70.4382003
9.13                 0.921988926      -70.558714
9.131                 0.92180976     -70.6796021
9.132                0.921629905     -70.8008662
9.133                0.921449358     -70.9225077
9.134                0.921268114     -71.0445282
9.135                0.921086171     -71.1669292
9.136                0.920903524     -71.2897122
9.137                 0.92072017     -71.4128787
9.138                0.920536104     -71.5364304
9.139                0.920351323     -71.6603687
9.14                 0.920165822     -71.7846952
9.141                0.919979599     -71.9094114
9.142                 0.91979265      -72.034519
9.143                0.919604969     -72.1600194
9.144                0.919416554     -72.2859143
9.145                0.919227401     -72.4122053
9.146                0.919037505     -72.5388939
9.147                0.918846863     -72.6659817
9.148                 0.91865547     -72.7934704
9.149                0.918463324     -72.9213615
9.15                 0.918270419     -73.0496567
9.151                0.918076752     -73.1783575
9.152                0.917882319     -73.3074657
9.153                0.917687117     -73.4369828
9.154                 0.91749114     -73.5669104
9.155                0.917294385     -73.6972503
9.156                0.917096847     -73.8280041
9.157                0.916898524     -73.9591733
9.158                0.916699411     -74.0907598
9.159                0.916499503     -74.2227651
9.16                 0.916298797      -74.355191
9.161                0.916097289     -74.4880391
9.162                0.915894975      -74.621311
9.163                 0.91569185     -74.7550086
9.164                 0.91548791     -74.8891335
9.165                0.915283152     -75.0236873
9.166                0.915077571     -75.1586719
9.167                0.914871163     -75.2940889
9.168                0.914663924     -75.4299401
9.169                 0.91445585     -75.5662272
9.17                 0.914246937     -75.7029519
9.171                0.914037181      -75.840116
9.172                0.913826577     -75.9777212
9.173                0.913615121     -76.1157693
9.174                0.913402809      -76.254262
9.175                0.913189638     -76.3932011
9.176                0.912975602     -76.5325884
9.177                0.912760698     -76.6724257
9.178                0.912544922     -76.8127147
9.179                0.912328269     -76.9534573
9.18                 0.912110735     -77.0946552
9.181                0.911892316     -77.2363103
9.182                0.911673007     -77.3784243
9.183                0.911452806     -77.5209991
9.184                0.911231707     -77.6640365
9.185                0.911009706     -77.8075384
9.186                0.910786799     -77.9515065
9.187                0.910562982     -78.0959427
9.188                 0.91033825     -78.2408489
9.189                  0.9101126     -78.3862269
9.19                 0.909886027     -78.5320786
9.191                0.909658527     -78.6784059
9.192                0.909430096     -78.8252105
9.193                0.909200729     -78.9724945
9.194                0.908970423     -79.1202596
9.195                0.908739173     -79.2685078
9.196                0.908506975      -79.417241
9.197                0.908273825     -79.5664611
9.198                0.908039718     -79.7161699
9.199                0.907804651     -79.8663694
9.2                  0.907568619     -80.0170616
9.201                0.907331618     -80.1682483
9.202                0.907093644     -80.3199315
9.203                0.906854693     -80.4721131
9.204                 0.90661476     -80.6247951
9.205                0.906373842     -80.7779794
9.206                0.906131934      -80.931668
9.207                0.905889032     -81.0858628
9.208                0.905645132     -81.2405658
9.209                0.905400229      -81.395779
9.21                  0.90515432     -81.5515043
9.211                0.904907401     -81.7077438
9.212                0.904659468     -81.8644994
9.213                0.904410515     -82.0217732
9.214                 0.90416054     -82.1795671
9.215                0.903909538     -82.3378831
9.216                0.903657505     -82.4967233
9.217                0.903404437     -82.6560896
9.218                0.903150331     -82.8159842
9.219                0.902895181      -82.976409
9.22                 0.902638984      -83.137366
9.221                0.902381736     -83.2988574
9.222                0.902123433     -83.4608851
9.223                0.901864071     -83.6234512
9.224                0.901603646     -83.7865578
9.225                0.901342154     -83.9502069
9.226                0.901079592     -84.1144006
9.227                0.900815955     -84.2791409
9.228                0.900551239       -84.44443
9.229                 0.90028544     -84.6102699
9.23                 0.900018556     -84.7766628
9.231                0.899750581     -84.9436106
9.232                0.899481512     -85.1111155
9.233                0.899211346     -85.2791796
9.234                0.898940078      -85.447805
9.235                0.898667705     -85.6169939
9.236                0.898394223     -85.7867483
9.237                0.898119628     -85.9570703
9.238                0.897843918     -86.1279621
9.239                0.897567087     -86.2994259
9.24                 0.897289133     -86.4714637
9.241                0.897010052     -86.6440777
9.242                 0.89672984       -86.81727
9.243                0.896448494     -86.9910427
9.244                 0.89616601     -87.1653981
9.245                0.895882386     -87.3403383
9.246                0.895597617     -87.5158655
9.247                  0.8953117     -87.6919817
9.248                0.895024632     -87.8686892
9.249                0.894736409     -88.0459902
9.25                 0.894447029     -88.2238868
9.251                0.894156487     -88.4023812
9.252                0.893864782     -88.5814756
9.253                0.893571908     -88.7611721
9.254                0.893277865      -88.941473
9.255                0.892982647     -89.1223805
9.256                0.892686253     -89.3038967
9.257                 0.89238868     -89.4860239
9.258                0.892089923     -89.6687642
9.259                0.891789981     -89.8521198
9.26                 0.891488851     -90.0360931
9.261                0.891186529     -90.2206861
9.262                0.890883013     -90.4059011
9.263                0.890578301     -90.5917402
9.264                0.890272389     -90.7782059
9.265                0.889965275     -90.9653001
9.266                0.889656957     -91.1530252
9.267                0.889347431     -91.3413835
9.268                0.889036695      -91.530377
9.269                0.888724748     -91.7200081
9.27                 0.888411586     -91.9102789
9.271                0.888097208     -92.1011918
9.272                0.887781611     -92.2927489
9.273                0.887464792     -92.4849525
9.274                0.887146751     -92.6778049
9.275                0.886827484     -92.8713082
9.276                 0.88650699     -93.0654647
9.277                0.886185267     -93.2602766
9.278                0.885862312     -93.4557462
9.279                0.885538125     -93.6518757
9.28                 0.885212704     -93.8486674
9.281                0.884886046     -94.0461235
9.282                 0.88455815     -94.2442463
9.283                0.884229016     -94.4430379
9.284                 0.88389864     -94.6425007
9.285                0.883567023     -94.8426369
9.286                0.883234162     -95.0434487
9.287                0.882900056     -95.2449384
9.288                0.882564705     -95.4471082
9.289                0.882228108     -95.6499603
9.29                 0.881890262      -95.853497
9.291                0.881551168     -96.0577206
9.292                0.881210825     -96.2626332
9.293                0.880869232     -96.4682371
9.294                0.880526388     -96.6745346
9.295                0.880182293     -96.8815278
9.296                0.879836946      -97.089219
9.297                0.879490347     -97.2976105
9.298                0.879142496     -97.5067044
9.299                0.878793393      -97.716503
9.3                  0.878443037     -97.9270085
9.301                0.878091429     -98.1382231
9.302                0.877738569      -98.350149
9.303                0.877384456     -98.5627885
9.304                0.877029092     -98.7761437
9.305                0.876672477     -98.9902169
9.306                0.876314611     -99.2050102
9.307                0.875955495     -99.4205259
9.308                 0.87559513     -99.6367661
9.309                0.875233517     -99.8537331
9.31                 0.874870656     -100.071429
9.311                0.874506549     -100.289856
9.312                0.874141197     -100.509016
9.313                0.873774601     -100.728912
9.314                0.873406764     -100.949545
9.315                0.873037685     -101.170918
9.316                0.872667368     -101.393033
9.317                0.872295813     -101.615892
9.318                0.871923024     -101.839497
9.319                0.871549001      -102.06385
9.32                 0.871173747     -102.288954
9.321                0.870797266      -102.51481
9.322                0.870419558     -102.741421
9.323                0.870040626     -102.968789
9.324                0.869660474     -103.196915
9.325                0.869279105     -103.425802
9.326                 0.86889652     -103.655453
9.327                0.868512724     -103.885868
9.328                 0.86812772      -104.11705
9.329                0.867741511     -104.349002
9.33                 0.867354101     -104.581725
9.331                0.866965493     -104.815221
9.332                0.866575692     -105.049492
9.333                0.866184702      -105.28454
9.334                0.865792526     -105.520367
9.335                 0.86539917     -105.756976
9.336                0.865004637     -105.994368
9.337                0.864608932     -106.232545
9.338                0.864212061     -106.471509
9.339                0.863814028     -106.711261
9.34                 0.863414838     -106.951805
9.341                0.863014497     -107.193142
9.342                 0.86261301     -107.435273
9.343                0.862210383       -107.6782
9.344                0.861806622     -107.921926
9.345                0.861401732     -108.166453
9.346                0.860995721     -108.411781
9.347                0.860588594     -108.657913
9.348                0.860180358     -108.904851
9.349                 0.85977102     -109.152597
9.35                 0.859360586     -109.401151
9.351                0.858949064     -109.650517
9.352                0.858536462     -109.900695
9.353                0.858122785     -110.151688
9.354                0.857708043     -110.403497
9.355                0.857292243     -110.656124
9.356                0.856875394      -110.90957
9.357                0.856457502     -111.163837
9.358                0.856038578     -111.418927
9.359                0.855618629     -111.674842
9.36                 0.855197664     -111.931582
9.361                0.854775693     -112.189149
9.362                0.854352725     -112.447546
9.363                0.853928769     -112.706773
9.364                0.853503835     -112.966832
9.365                0.853077932     -113.227725
9.366                0.852651072     -113.489452
9.367                0.852223263     -113.752016
9.368                0.851794518     -114.015417
9.369                0.851364846     -114.279658
9.37                 0.850934258     -114.544739
9.371                0.850502766     -114.810661
9.372                0.850070381     -115.077427
9.373                0.849637115     -115.345037
9.374                0.849202979     -115.613493
9.375                0.848767986     -115.882796
9.376                0.848332147     -116.152946
9.377                0.847895476     -116.423946
9.378                0.847457985     -116.695796
9.379                0.847019688     -116.968497
9.38                 0.846580596     -117.242051
9.381                0.846140725     -117.516458
9.382                0.845700087      -117.79172
9.383                0.845258696     -118.067837
9.384                0.844816567      -118.34481
9.385                0.844373714     -118.622641
9.386                0.843930152     -118.901331
9.387                0.843485895     -119.180879
9.388                0.843040958     -119.461287
9.389                0.842595358     -119.742556
9.39                 0.842149109     -120.024687
9.391                0.841702228     -120.307679
9.392                 0.84125473     -120.591535
9.393                0.840806632     -120.876254
9.394                0.840357951     -121.161837
9.395                0.839908703     -121.448285
9.396                0.839458905     -121.735597
