! TOUCHSTONE file generated by CST DESIGN STUDIO
! Date and time: Tue Feb  4 13:04:39 2025
! Project name: C:\Work\MatlabApps\UnitCellOptimizationMatlab\CST\unitcell.cst
! Tree item: Tasks\Sweep1\SPara1\S-Parameters
! Header version: 2024
! Port assignment regex: !\s*Touchstone port\s*([0-9]+)\s*=\s*(CST MWS port|CST DES external port|CST DES block port)\s*(.+)\s* \(\"(.*)\"\)(\s*mode\s*([0-9]+))?.*
! Touchstone port assignment:
! Touchstone port 1 = CST DES external port 1 ("")
# GHz S MA R 50
9                    0.680568266     -167.780815
9.001                0.680066021     -168.216898
9.002                0.679570273     -168.653678
9.003                0.679081037     -169.091141
9.004                0.678598326     -169.529274
9.005                 0.67812215     -169.968064
9.006                0.677652519     -170.407495
9.007                0.677189441     -170.847553
9.008                0.676732921     -171.288223
9.009                0.676282965     -171.729489
9.01                 0.675839576     -172.171334
9.011                0.675402757     -172.613742
9.012                0.674972511     -173.056696
9.013                 0.67454884     -173.500176
9.014                0.674131745     -173.944166
9.015                0.673721232     -174.388645
9.016                0.673317302     -174.833594
9.017                0.672919964     -175.278993
9.018                0.672529224     -175.724819
9.019                0.672145096     -176.171052
9.02                 0.671767593     -176.617669
9.021                0.671396737     -177.064646
9.022                0.671032552      -177.51196
9.023                0.670675071     -177.959585
9.024                0.670324334     -178.407498
9.025                0.669980388     -178.855671
9.026                0.669643292      -179.30408
9.027                0.669313113     -179.752696
9.028                0.668989931      179.798507
9.029                 0.66867384      179.349557
9.03                 0.668364944      178.900482
9.031                0.668063365      178.451308
9.032                0.667769237      178.002065
9.033                0.667482713      177.552778
9.034                0.667203959      177.103476
9.035                0.666933158      176.654184
9.036                0.666670509      176.204928
9.037                0.666416226      175.755733
9.038                0.666170538      175.306622
9.039                0.665933686      174.857617
9.04                 0.665705924      174.408737
9.041                0.665487515      173.960002
9.042                 0.66527873      173.511428
9.043                0.665079843      173.063028
9.044                0.664891131      172.614816
9.045                0.664712871      172.166801
9.046                0.664545333      171.718991
9.047                0.664388779      171.271389
9.048                0.664243462         170.824
9.049                0.664109618      170.376824
9.05                 0.663987463      169.929858
9.051                0.663877197      169.483101
9.052                0.663778993      169.036547
9.053                0.663692999      168.590189
9.054                0.663619335       168.14402
9.055                0.663558093      167.698032
9.056                0.663509338      167.252216
9.057                0.663473102      166.806562
9.058                 0.66344939      166.361063
9.059                 0.66343818      165.915708
9.06                 0.663439421      165.470491
9.061                0.663453039      165.025404
9.062                0.663478937       164.58044
9.063                0.663516995      164.135596
9.064                0.663567077      163.690867
9.065                0.663629031      163.246252
9.066                 0.66370269      162.801751
9.067                0.663787879      162.357363
9.068                0.663884411      161.913093
9.069                0.663992096      161.468944
9.07                 0.664110739      161.024922
9.071                0.664240143      160.581035
9.072                 0.66438011      160.137291
9.073                0.664530444        159.6937
9.074                0.664690951      159.250275
9.075                0.664861443      158.807026
9.076                0.665041733      158.363967
9.077                0.665231642      157.921113
9.078                0.665430996      157.478478
9.079                0.665639628      157.036079
9.08                 0.665857376      156.593931
9.081                0.666084086      156.152051
9.082                0.666319611      155.710456
9.083                 0.66656381      155.269164
9.084                0.666816548      154.828193
9.085                0.667077698      154.387559
9.086                0.667347138      153.947282
9.087                0.667624751      153.507379
9.088                0.667910428      153.067867
9.089                0.668204062      152.628765
9.09                 0.668505554       152.19009
9.091                0.668814808      151.751861
9.092                0.669131731      151.314094
9.093                0.669456237      150.876807
9.094                0.669788239      150.440016
9.095                0.670127658      150.003739
9.096                0.670474415      149.567992
9.097                0.670828434      149.132792
9.098                0.671189641      148.698154
9.099                0.671557966      148.264095
9.1                  0.671933338      147.830629
9.101                0.672315691      147.397773
9.102                0.672704957       146.96554
9.103                0.673101072      146.533946
9.104                 0.67350397      146.103005
9.105                0.673913589      145.672731
9.106                0.674329866      145.243138
9.107                 0.67475274       144.81424
9.108                0.675182148      144.386049
9.109                 0.67561803      143.958578
9.11                 0.676060324      143.531841
9.111                0.676508971      143.105849
9.112                0.676963909      142.680616
9.113                0.677425078      142.256152
9.114                0.677892418      141.832469
9.115                0.678365868       141.40958
9.116                0.678845368      140.987494
9.117                0.679330856      140.566223
9.118                0.679822272      140.145777
9.119                0.680319554      139.726168
9.12                 0.680822641      139.307404
9.121                0.681331471      138.889496
9.122                0.681845983      138.472454
9.123                0.682366114      138.056288
9.124                0.682891802      137.641005
9.125                0.683422983      137.226617
9.126                0.683959595       136.81313
9.127                0.684501574      136.400555
9.128                0.685048856      135.988899
9.129                0.685601378      135.578171
9.13                 0.686159076      135.168379
9.131                0.686721884       134.75953
9.132                0.687289737      134.351633
9.133                0.687862572      133.944694
9.134                0.688440321      133.538721
9.135                0.689022921      133.133721
9.136                0.689610304      132.729701
9.137                0.690202406      132.326667
9.138                0.690799159      131.924626
9.139                0.691400497      131.523585
9.14                 0.692006354       131.12355
9.141                0.692616664      130.724526
9.142                0.693231358       130.32652
9.143                0.693850371      129.929537
9.144                0.694473635      129.533582
9.145                0.695101084      129.138661
9.146                0.695732649       128.74478
9.147                0.696368263      128.351943
9.148                 0.69700786      127.960154
9.149                0.697651372       127.56942
9.15                 0.698298731      127.179743
9.151                 0.69894987       126.79113
9.152                0.699604723      126.403583
9.153                0.700263221      126.017107
9.154                0.700925297      125.631707
9.155                0.701590885      125.247385
9.156                0.702259917      124.864145
9.157                0.702932326      124.481992
9.158                0.703608045      124.100928
9.159                0.704287009      123.720957
9.16                 0.704969149      123.342081
9.161                  0.7056544      122.964304
9.162                0.706342696      122.587629
9.163                 0.70703397      122.212058
9.164                0.707728157      121.837594
9.165                0.708425191       121.46424
9.166                0.709125007      121.091997
9.167                0.709827539      120.720869
9.168                0.710532723      120.350857
9.169                0.711240493      119.981962
9.17                 0.711950786      119.614188
9.171                0.712663538      119.247536
9.172                0.713378684      118.882006
9.173                0.714096161      118.517602
9.174                0.714815906      118.154325
9.175                0.715537857      117.792175
9.176                 0.71626195      117.431153
9.177                0.716988123      117.071262
9.178                0.717716315      116.712502
9.179                0.718446465      116.354874
9.18                  0.71917851      115.998378
9.181                0.719912391      115.643016
9.182                0.720648047      115.288788
9.183                0.721385418      114.935694
9.184                0.722124445      114.583735
9.185                0.722865069      114.232912
9.186                 0.72360723      113.883223
9.187                0.724350871      113.534671
9.188                0.725095934      113.187253
9.189                0.725842362      112.840972
9.19                 0.726590097      112.495826
9.191                0.727339083      112.151815
9.192                0.728089264      111.808939
9.193                0.728840584      111.467197
9.194                0.729592989       111.12659
9.195                0.730346423      110.787116
9.196                0.731100833      110.448775
9.197                0.731856165      110.111567
9.198                0.732612365      109.775489
9.199                 0.73336938      109.440543
9.2                   0.73412716      109.106726
9.201                0.734885651      108.774038
9.202                0.735644803      108.442478
9.203                0.736404564      108.112044
9.204                0.737164885      107.782736
9.205                0.737925716      107.454552
9.206                0.738687008      107.127491
9.207                 0.73944871      106.801552
9.208                0.740210777      106.476732
9.209                0.740973159      106.153031
9.21                  0.74173581      105.830448
9.211                0.742498683      105.508979
9.212                0.743261731      105.188625
9.213                0.744024909      104.869382
9.214                0.744788172       104.55125
9.215                0.745551475      104.234227
9.216                0.746314775       103.91831
9.217                0.747078026      103.603498
9.218                0.747841187      103.289789
9.219                0.748604215       102.97718
9.22                 0.749367067       102.66567
9.221                0.750129703      102.355257
9.222                0.750892081      102.045938
9.223                 0.75165416      101.737711
9.224                0.752415901      101.430574
9.225                0.753177264      101.124525
9.226                 0.75393821      100.819561
9.227                0.754698701      100.515681
9.228                0.755458699       100.21288
9.229                0.756218167      99.9111586
9.23                 0.756977066      99.6105124
9.231                0.757735362      99.3109394
9.232                0.758493018       99.012437
9.233                0.759249999      98.7150028
9.234                 0.76000627       98.418634
9.235                0.760761796       98.123328
9.236                0.761516544      97.8290821
9.237                 0.76227048      97.5358937
9.238                0.763023571        97.24376
9.239                0.763775785      96.9526783
9.24                 0.764527091      96.6626457
9.241                0.765277455      96.3736595
9.242                0.766026849      96.0857167
9.243                 0.76677524      95.7988146
9.244                  0.7675226      95.5129503
9.245                0.768268898      95.2281208
9.246                0.769014106      94.9443231
9.247                0.769758195      94.6615544
9.248                0.770501137      94.3798116
9.249                0.771242905      94.0990918
9.25                  0.77198347      93.8193919
9.251                0.772722808      93.5407089
9.252                 0.77346089      93.2630397
9.253                0.774197692      92.9863812
9.254                0.774933188      92.7107304
9.255                0.775667354      92.4360841
9.256                0.776400164      92.1624391
9.257                0.777131595      91.8897925
9.258                0.777861624      91.6181409
9.259                0.778590226      91.3474812
9.26                  0.77931738      91.0778103
9.261                0.780043064      90.8091249
9.262                0.780767254      90.5414218
9.263                0.781489931      90.2746978
9.264                0.782211073      90.0089496
9.265                0.782930659       89.744174
9.266                0.783648669      89.4803678
9.267                0.784365083      89.2175276
9.268                0.785079883      88.9556502
9.269                0.785793048      88.6947324
9.27                 0.786504561      88.4347707
9.271                0.787214404       88.175762
9.272                0.787922557      87.9177028
9.273                0.788629005        87.66059
9.274                 0.78933373      87.4044201
9.275                0.790036716      87.1491898
9.276                0.790737946      86.8948958
9.277                0.791437403      86.6415347
9.278                0.792135074      86.3891032
9.279                0.792830942       86.137598
9.28                 0.793524993      85.8870157
9.281                0.794217212      85.6373529
9.282                0.794907585      85.3886063
9.283                0.795596098      85.1407725
9.284                0.796282739      84.8938482
9.285                0.796967493      84.6478299
9.286                0.797650348      84.4027144
9.287                0.798331292      84.1584982
9.288                0.799010313      83.9151779
9.289                0.799687398      83.6727502
9.29                 0.800362537      83.4312117
9.291                0.801035719      83.1905591
9.292                0.801706931       82.950789
9.293                0.802376165      82.7118979
9.294                 0.80304341      82.4738825
9.295                0.803708655      82.2367395
9.296                0.804371892      82.0004655
9.297                0.805033111      81.7650571
9.298                0.805692303      81.5305109
9.299                0.806349459      81.2968236
9.3                  0.807004571      81.0639918
9.301                0.807657631      80.8320122
9.302                0.808308631      80.6008813
9.303                0.808957563       80.370596
9.304                0.809604421      80.1411527
9.305                0.810249196      79.9125481
9.306                0.810891882       79.684779
9.307                0.811532473      79.4578419
9.308                0.812170963      79.2317336
9.309                0.812807345      79.0064507
9.31                 0.813441613      78.7819898
9.311                0.814073763      78.5583478
9.312                0.814703788      78.3355211
9.313                0.815331684      78.1135066
9.314                0.815957446       77.892301
9.315                 0.81658107      77.6719008
9.316                 0.81720255       77.452303
9.317                0.817821884       77.233504
9.318                0.818439066      77.0155008
9.319                0.819054094        76.79829
9.32                 0.819666964      76.5818683
9.321                0.820277673      76.3662324
9.322                0.820886218      76.1513792
9.323                0.821492595      75.9373054
9.324                0.822096803      75.7240077
9.325                0.822698838      75.5114829
9.326                  0.8232987      75.2997278
9.327                0.823896385      75.0887392
9.328                0.824491891      74.8785138
9.329                0.825085218      74.6690485
9.33                 0.825676364        74.46034
9.331                0.826265328      74.2523852
9.332                0.826852107      74.0451808
9.333                0.827436703      73.8387238
9.334                0.828019113       73.633011
9.335                0.828599337      73.4280391
9.336                0.829177375      73.2238052
9.337                0.829753227      73.0203059
9.338                0.830326893      72.8175382
9.339                0.830898372      72.6154991
9.34                 0.831467665      72.4141852
9.341                0.832034773      72.2135937
9.342                0.832599695      72.0137213
9.343                0.833162434       71.814565
9.344                0.833722989      71.6161218
9.345                0.834281361      71.4183885
9.346                0.834837553      71.2213621
9.347                0.835391564      71.0250395
9.348                0.835943397      70.8294178
9.349                0.836493053      70.6344938
9.35                 0.837040534      70.4402646
9.351                0.837585841      70.2467272
9.352                0.838128978      70.0538786
9.353                0.838669944      69.8617157
9.354                0.839208744      69.6702356
9.355                0.839745379      69.4794354
9.356                0.840279852       69.289312
9.357                0.840812166      69.0998626
9.358                0.841342322      68.9110841
9.359                0.841870324      68.7229737
9.36                 0.842396175      68.5355285
9.361                0.842919878      68.3487455
9.362                0.843441436      68.1626218
9.363                0.843960852      67.9771545
9.364                0.844478129      67.7923408
9.365                0.844993272      67.6081779
9.366                0.845506283      67.4246627
9.367                0.846017166      67.2417926
9.368                0.846525925      67.0595646
9.369                0.847032563      66.8779759
9.37                 0.847537085      66.6970238
9.371                0.848039495      66.5167054
9.372                0.848539797      66.3370179
9.373                0.849037994      66.1579585
9.374                0.849534091      65.9795244
9.375                0.850028093       65.801713
9.376                0.850520004      65.6245214
9.377                0.851009828      65.4479469
9.378                 0.85149757      65.2719867
9.379                0.851983235      65.0966382
9.38                 0.852466827      64.9218986
9.381                0.852948351      64.7477653
9.382                0.853427812      64.5742355
9.383                0.853905214      64.4013065
9.384                0.854380564      64.2289757
9.385                0.854853865      64.0572405
9.386                0.855325123      63.8860981
9.387                0.855794344       63.715546
9.388                0.856261532      63.5455815
9.389                0.856726692      63.3762019
9.39                 0.857189831      63.2074048
9.391                0.857650953      63.0391875
9.392                0.858110064      62.8715474
9.393                0.858567169      62.7044819
9.394                0.859022274      62.5379884
9.395                0.859475385      62.3720645
9.396                0.859926507      62.2067076
