! TOUCHSTONE file generated by CST DESIGN STUDIO
! Date and time: Tue Feb  4 17:32:07 2025
! Project name: C:\Work\MatlabApps\UnitCellOptimizationMatlab\CST\unitcell.cst
! Tree item: Tasks\Sweep1\SPara1\S-Parameters
! Header version: 2024
! Port assignment regex: !\s*Touchstone port\s*([0-9]+)\s*=\s*(CST MWS port|CST DES external port|CST DES block port)\s*(.+)\s* \(\"(.*)\"\)(\s*mode\s*([0-9]+))?.*
! Touchstone port assignment:
! Touchstone port 1 = CST DES external port 1 ("")
# GHz S MA R 50
9                    0.987125549     -77.6912871
9.001                0.987094144     -77.8089799
9.002                0.987062647     -77.9269603
9.003                0.987031057     -78.0452292
9.004                0.986999373     -78.1637875
9.005                0.986967596      -78.282636
9.006                0.986935724     -78.4017755
9.007                0.986903759     -78.5212069
9.008                  0.9868717      -78.640931
9.009                0.986839547     -78.7609487
9.01                 0.986807299     -78.8812608
9.011                0.986774957     -79.0018681
9.012                0.986742519     -79.1227715
9.013                0.986709987     -79.2439718
9.014                0.986677359       -79.36547
9.015                0.986644636     -79.4872668
9.016                0.986611817     -79.6093631
9.017                0.986578903     -79.7317598
9.018                0.986545893     -79.8544577
9.019                0.986512786     -79.9774577
9.02                 0.986479584     -80.1007606
9.021                0.986446285     -80.2243673
9.022                0.986412889     -80.3482787
9.023                0.986379396     -80.4724957
9.024                0.986345807      -80.597019
9.025                 0.98631212     -80.7218497
9.026                0.986278336     -80.8469884
9.027                0.986244455     -80.9724362
9.028                0.986210476     -81.0981939
9.029                0.986176399     -81.2242623
9.03                 0.986142224     -81.3506424
9.031                0.986107952     -81.4773351
9.032                0.986073581     -81.6043411
9.033                0.986039111     -81.7316614
9.034                0.986004543     -81.8592968
9.035                0.985969876     -81.9872484
9.036                0.985935111     -82.1155168
9.037                0.985900246     -82.2441031
9.038                0.985865282     -82.3730081
9.039                0.985830219     -82.5022327
9.04                 0.985795056     -82.6317778
9.041                0.985759794     -82.7616442
9.042                0.985724432      -82.891833
9.043                0.985688971     -83.0223449
9.044                0.985653409     -83.1531808
9.045                0.985617747     -83.2843418
9.046                0.985581985     -83.4158286
9.047                0.985546122     -83.5476421
9.048                0.985510159     -83.6797834
9.049                0.985474096     -83.8122532
9.05                 0.985437931     -83.9450524
9.051                0.985401666      -84.078182
9.052                0.985365299     -84.2116429
9.053                0.985328832      -84.345436
9.054                0.985292263     -84.4795622
9.055                0.985255593     -84.6140224
9.056                0.985218822     -84.7488174
9.057                0.985181949     -84.8839483
9.058                0.985144974      -85.019416
9.059                0.985107898     -85.1552212
9.06                 0.985070719      -85.291365
9.061                0.985033439     -85.4278483
9.062                0.984996057      -85.564672
9.063                0.984958572     -85.7018369
9.064                0.984920986     -85.8393441
9.065                0.984883297     -85.9771944
9.066                0.984845505     -86.1153888
9.067                0.984807611     -86.2539281
9.068                0.984769615     -86.3928134
9.069                0.984731516     -86.5320454
9.07                 0.984693314     -86.6716252
9.071                 0.98465501     -86.8115536
9.072                0.984616602     -86.9518315
9.073                0.984578092       -87.09246
9.074                0.984539479     -87.2334399
9.075                0.984500763     -87.3747722
9.076                0.984461943     -87.5164577
9.077                0.984423021     -87.6584974
9.078                0.984383996     -87.8008922
9.079                0.984344867     -87.9436431
9.08                 0.984305635      -88.086751
9.081                  0.9842663     -88.2302167
9.082                0.984226861     -88.3740413
9.083                0.984187319     -88.5182256
9.084                0.984147674     -88.6627706
9.085                0.984107926     -88.8076772
9.086                0.984068074     -88.9529463
9.087                0.984028118     -89.0985789
9.088                0.983988059     -89.2445759
9.089                0.983947897     -89.3909382
9.09                 0.983907632     -89.5376667
9.091                0.983867263     -89.6847625
9.092                 0.98382679     -89.8322263
9.093                0.983786214     -89.9800592
9.094                0.983745535      -90.128262
9.095                0.983704752     -90.2768357
9.096                0.983663866     -90.4257812
9.097                0.983622876     -90.5750995
9.098                0.983581784     -90.7247914
9.099                0.983540588     -90.8748579
9.1                  0.983499288        -91.0253
9.101                0.983457886     -91.1761185
9.102                 0.98341638     -91.3273144
9.103                0.983374772     -91.4788886
9.104                 0.98333306      -91.630842
9.105                0.983291245     -91.7831755
9.106                0.983249327     -91.9358902
9.107                0.983207307     -92.0889868
9.108                0.983165184     -92.2424664
9.109                0.983122958     -92.3963298
9.11                 0.983080629     -92.5505779
9.111                0.983038198     -92.7052118
9.112                0.982995664     -92.8602323
9.113                0.982953028     -93.0156402
9.114                 0.98291029     -93.1714367
9.115                 0.98286745     -93.3276225
9.116                0.982824508     -93.4841985
9.117                0.982781464     -93.6411658
9.118                0.982738318     -93.7985251
9.119                 0.98269507     -93.9562775
9.12                 0.982651721     -94.1144238
9.121                0.982608271      -94.272965
9.122                 0.98256472     -94.4319019
9.123                0.982521067     -94.5912354
9.124                0.982477314     -94.7509665
9.125                0.982433459     -94.9110961
9.126                0.982389505      -95.071625
9.127                 0.98234545     -95.2325543
9.128                0.982301294     -95.3938847
9.129                0.982257039     -95.5556171
9.13                 0.982212684     -95.7177525
9.131                0.982168229     -95.8802918
9.132                0.982123675     -96.0432359
9.133                0.982079022     -96.2065855
9.134                0.982034269     -96.3703418
9.135                0.981989418     -96.5345054
9.136                0.981944469     -96.6990774
9.137                0.981899421     -96.8640585
9.138                0.981854275     -97.0294497
9.139                0.981809031     -97.1952518
9.14                  0.98176369     -97.3614658
9.141                0.981718251     -97.5280925
9.142                0.981672716     -97.6951327
9.143                0.981627084     -97.8625874
9.144                0.981581355     -98.0304574
9.145                0.981535531     -98.1987435
9.146                 0.98148961     -98.3674467
9.147                0.981443594     -98.5365678
9.148                0.981397483     -98.7061076
9.149                0.981351276      -98.876067
9.15                 0.981304976     -99.0464469
9.151                0.981258581      -99.217248
9.152                0.981212092     -99.3884713
9.153                0.981165509     -99.5601175
9.154                0.981118834     -99.7321876
9.155                0.981072065     -99.9046823
9.156                0.981025204     -100.077602
9.157                0.980978251     -100.250949
9.158                0.980931207     -100.424723
9.159                0.980884071     -100.598924
9.16                 0.980836844     -100.773554
9.161                0.980789527     -100.948614
9.162                 0.98074212     -101.124104
9.163                0.980694623     -101.300026
9.164                0.980647037     -101.476379
9.165                0.980599363     -101.653166
9.166                  0.9805516     -101.830385
9.167                0.980503749      -102.00804
9.168                0.980455811     -102.186129
9.169                0.980407786     -102.364654
9.17                 0.980359675     -102.543616
9.171                0.980311478     -102.723015
9.172                0.980263196     -102.902853
9.173                0.980214829      -103.08313
9.174                0.980166377     -103.263846
9.175                0.980117842     -103.445003
9.176                0.980069224     -103.626601
9.177                0.980020523     -103.808641
9.178                0.979971739     -103.991124
9.179                0.979922875     -104.174051
9.18                 0.979873929     -104.357421
9.181                0.979824903     -104.541237
9.182                0.979775797     -104.725498
9.183                0.979726612     -104.910205
9.184                0.979677349      -105.09536
9.185                0.979628007     -105.280962
9.186                0.979578588     -105.467012
9.187                0.979529093     -105.653512
9.188                0.979479522     -105.840462
9.189                0.979429875     -106.027862
9.19                 0.979380154     -106.215713
9.191                0.979330359     -106.404016
9.192                0.979280491     -106.592771
9.193                 0.97923055      -106.78198
9.194                0.979180538     -106.971642
9.195                0.979130454     -107.161759
9.196                  0.9790803     -107.352331
9.197                0.979030076     -107.543358
9.198                0.978979784     -107.734842
9.199                0.978929424     -107.926782
9.2                  0.978878996      -108.11918
9.201                0.978828502     -108.312037
9.202                0.978777942     -108.505351
9.203                0.978727318     -108.699125
9.204                0.978676629     -108.893359
9.205                0.978625878     -109.088053
9.206                0.978575063     -109.283208
9.207                0.978524188     -109.478825
9.208                0.978473252     -109.674903
9.209                0.978422256     -109.871445
9.21                 0.978371201     -110.068449
9.211                0.978320089     -110.265916
9.212                0.978268919     -110.463848
9.213                0.978217694     -110.662245
9.214                0.978166413     -110.861106
9.215                0.978115078     -111.060434
9.216                 0.97806369     -111.260227
9.217                 0.97801225     -111.460487
9.218                0.977960758     -111.661213
9.219                0.977909217     -111.862407
9.22                 0.977857626     -112.064069
9.221                0.977805986       -112.2662
9.222                  0.9777543     -112.468799
9.223                0.977702567     -112.671867
9.224                 0.97765079     -112.875404
9.225                0.977598968     -113.079412
9.226                0.977547104     -113.283889
9.227                0.977495197     -113.488838
9.228                 0.97744325     -113.694257
9.229                0.977391264     -113.900148
9.23                 0.977339239      -114.10651
9.231                0.977287176     -114.313345
9.232                0.977235078     -114.520652
9.233                0.977182944     -114.728431
9.234                0.977130777     -114.936684
9.235                0.977078577     -115.145409
9.236                0.977026346     -115.354609
9.237                0.976974084     -115.564282
9.238                0.976921794     -115.774429
9.239                0.976869475      -115.98505
9.24                 0.976817131     -116.196146
9.241                0.976764761     -116.407716
9.242                0.976712367     -116.619762
9.243                0.976659951     -116.832282
9.244                0.976607514     -117.045278
9.245                0.976555056     -117.258749
9.246                 0.97650258     -117.472696
9.247                0.976450087     -117.687119
9.248                0.976397577     -117.902017
9.249                0.976345053     -118.117392
9.25                 0.976292516     -118.333243
9.251                0.976239967     -118.549569
9.252                0.976187408     -118.766373
9.253                 0.97613484     -118.983652
9.254                0.976082265     -119.201408
9.255                0.976029683     -119.419641
9.256                0.975977097      -119.63835
9.257                0.975924508     -119.857536
9.258                0.975871917     -120.077198
9.259                0.975819326     -120.297336
9.26                 0.975766737     -120.517951
9.261                 0.97571415     -120.739043
9.262                0.975661568     -120.960611
9.263                0.975608992     -121.182655
9.264                0.975556424     -121.405176
9.265                0.975503865     -121.628172
9.266                0.975451316     -121.851645
9.267                 0.97539878     -122.075593
9.268                0.975346258     -122.300018
9.269                0.975293752     -122.524918
9.27                 0.975241263     -122.750293
9.271                0.975188793     -122.976144
9.272                0.975136343     -123.202469
9.273                0.975083916      -123.42927
9.274                0.975031513     -123.656545
9.275                0.974979136     -123.884294
9.276                0.974926786     -124.112518
9.277                0.974874465     -124.341215
9.278                0.974822175     -124.570386
9.279                0.974769918      -124.80003
9.28                 0.974717696     -125.030147
9.281                0.974665509     -125.260736
9.282                0.974613361     -125.491798
9.283                0.974561252     -125.723331
9.284                0.974509185     -125.955336
9.285                0.974457162     -126.187811
9.286                0.974405184     -126.420758
9.287                0.974353253     -126.654174
9.288                0.974301371      -126.88806
9.289                0.974249541     -127.122415
9.29                 0.974197763     -127.357239
9.291                 0.97414604     -127.592531
9.292                0.974094373      -127.82829
9.293                0.974042765     -128.064517
9.294                0.973991218      -128.30121
9.295                0.973939733     -128.538369
9.296                0.973888313     -128.775993
9.297                0.973836959     -129.014082
9.298                0.973785674     -129.252635
9.299                0.973734459     -129.491651
9.3                  0.973683316      -129.73113
9.301                0.973632248     -129.971071
9.302                0.973581256     -130.211473
9.303                0.973530343     -130.452336
9.304                0.973479511     -130.693659
9.305                0.973428761      -130.93544
9.306                0.973378096      -131.17768
9.307                0.973327518     -131.420377
9.308                0.973277028     -131.663531
9.309                 0.97322663     -131.907141
9.31                 0.973176325     -132.151205
9.311                0.973126114     -132.395724
9.312                0.973076002     -132.640695
9.313                0.973025989     -132.886119
9.314                0.972976077     -133.131994
9.315                0.972926269     -133.378319
9.316                0.972876568     -133.625093
9.317                0.972826974     -133.872316
9.318                0.972777491     -134.119985
9.319                 0.97272812     -134.368101
9.32                 0.972678864     -134.616662
9.321                0.972629726     -134.865667
9.322                0.972580706     -135.115115
9.323                0.972531808     -135.365005
9.324                0.972483033     -135.615335
9.325                0.972434384     -135.866105
9.326                0.972385864     -136.117313
9.327                0.972337474     -136.368958
9.328                0.972289216     -136.621039
9.329                0.972241094     -136.873555
9.33                 0.972193109     -137.126503
9.331                0.972145263     -137.379884
9.332                0.972097559     -137.633695
9.333                0.972049999     -137.887936
9.334                0.972002586     -138.142605
9.335                0.971955321       -138.3977
9.336                0.971908207      -138.65322
9.337                0.971861247     -138.909165
9.338                0.971814442     -139.165531
9.339                0.971767796     -139.422319
9.34                  0.97172131     -139.679525
9.341                0.971674986      -139.93715
9.342                0.971628828     -140.195191
9.343                0.971582837     -140.453646
9.344                0.971537015     -140.712515
9.345                0.971491366     -140.971796
9.346                0.971445891     -141.231486
9.347                0.971400593     -141.491585
9.348                0.971355474      -141.75209
9.349                0.971310537     -142.013001
9.35                 0.971265784     -142.274314
9.351                0.971221216     -142.536029
9.352                0.971176838     -142.798144
9.353                 0.97113265     -143.060657
9.354                0.971088656     -143.323567
9.355                0.971044858     -143.586871
9.356                0.971001258     -143.850567
9.357                0.970957858     -144.114654
9.358                0.970914662      -144.37913
9.359                 0.97087167     -144.643993
9.36                 0.970828887      -144.90924
9.361                0.970786313     -145.174871
9.362                0.970743952     -145.440883
9.363                0.970701805     -145.707274
9.364                0.970659876     -145.974043
9.365                0.970618166     -146.241186
9.366                0.970576678     -146.508702
9.367                0.970535415     -146.776589
9.368                0.970494378     -147.044845
9.369                 0.97045357     -147.313468
9.37                 0.970412993     -147.582455
9.371                 0.97037265     -147.851805
9.372                0.970332543     -148.121515
9.373                0.970292675     -148.391583
9.374                0.970253047     -148.662006
9.375                0.970213663     -148.932783
9.376                0.970174524     -149.203912
9.377                0.970135632     -149.475389
9.378                0.970096991     -149.747213
9.379                0.970058602     -150.019381
9.38                 0.970020468     -150.291891
9.381                 0.96998259     -150.564741
9.382                0.969944972     -150.837928
9.383                0.969907616     -151.111449
9.384                0.969870523     -151.385303
9.385                0.969833697     -151.659487
9.386                0.969797139     -151.933998
9.387                0.969760852     -152.208834
9.388                0.969724837     -152.483992
9.389                0.969689098      -152.75947
9.39                 0.969653636     -153.035265
9.391                0.969618454     -153.311374
9.392                0.969583553     -153.587796
9.393                0.969548936     -153.864526
9.394                0.969514606     -154.141564
9.395                0.969480564     -154.418906
9.396                0.969446813     -154.696549
