! TOUCHSTONE file generated by CST DESIGN STUDIO
! Date and time: Tue Feb  4 17:32:15 2025
! Project name: C:\Work\MatlabApps\UnitCellOptimizationMatlab\CST\unitcell.cst
! Tree item: Tasks\Sweep1\SPara1\S-Parameters
! Header version: 2024
! Port assignment regex: !\s*Touchstone port\s*([0-9]+)\s*=\s*(CST MWS port|CST DES external port|CST DES block port)\s*(.+)\s* \(\"(.*)\"\)(\s*mode\s*([0-9]+))?.*
! Touchstone port assignment:
! Touchstone port 1 = CST DES external port 1 ("")
# GHz S MA R 50
9                    0.987781764     -73.5600141
9.001                0.987753594     -73.6682621
9.002                 0.98772534      -73.776771
9.003                0.987697001     -73.8855413
9.004                0.987668579      -73.994574
9.005                0.987640071     -74.1038698
9.006                0.987611479     -74.2134295
9.007                0.987582802     -74.3232539
9.008                 0.98755404     -74.4333437
9.009                0.987525193     -74.5436997
9.01                 0.987496259     -74.6543227
9.011                 0.98746724     -74.7652136
9.012                0.987438135      -74.876373
9.013                0.987408944     -74.9878018
9.014                0.987379666     -75.0995009
9.015                0.987350302     -75.2114709
9.016                0.987320851     -75.3237127
9.017                0.987291313     -75.4362271
9.018                0.987261688     -75.5490149
9.019                0.987231976     -75.6620769
9.02                 0.987202176     -75.7754139
9.021                0.987172288     -75.8890267
9.022                0.987142312     -76.0029161
9.023                0.987112248      -76.117083
9.024                0.987082096     -76.2315281
9.025                0.987051855     -76.3462523
9.026                0.987021526     -76.4612564
9.027                0.986991107     -76.5765412
9.028                  0.9869606     -76.6921075
9.029                0.986930003     -76.8079562
9.03                 0.986899317     -76.9240881
9.031                0.986868541      -77.040504
9.032                0.986837676     -77.1572047
9.033                 0.98680672     -77.2741911
9.034                0.986775675      -77.391464
9.035                0.986744538     -77.5090243
9.036                0.986713312     -77.6268727
9.037                0.986681994     -77.7450101
9.038                0.986650586     -77.8634375
9.039                0.986619087     -77.9821555
9.04                 0.986587496      -78.101165
9.041                0.986555814      -78.220467
9.042                 0.98652404     -78.3400621
9.043                0.986492174     -78.4599514
9.044                0.986460217     -78.5801356
9.045                0.986428167     -78.7006156
9.046                0.986396025     -78.8213923
9.047                0.986363791     -78.9424665
9.048                0.986331464      -79.063839
9.049                0.986299044     -79.1855108
9.05                 0.986266531     -79.3074826
9.051                0.986233925     -79.4297554
9.052                0.986201226       -79.55233
9.053                0.986168433     -79.6752073
9.054                0.986135547     -79.7983882
9.055                0.986102567     -79.9218734
9.056                0.986069493      -80.045664
9.057                0.986036325     -80.1697607
9.058                0.986003062     -80.2941645
9.059                0.985969706     -80.4188761
9.06                 0.985936254     -80.5438966
9.061                0.985902708     -80.6692268
9.062                0.985869067     -80.7948675
9.063                0.985835331     -80.9208196
9.064                  0.9858015     -81.0470841
9.065                0.985767574     -81.1736617
9.066                0.985733552     -81.3005535
9.067                0.985699435     -81.4277603
9.068                0.985665222     -81.5552829
9.069                0.985630913     -81.6831223
9.07                 0.985596508     -81.8112793
9.071                0.985562007     -81.9397549
9.072                 0.98552741       -82.06855
9.073                0.985492717     -82.1976654
9.074                0.985457926      -82.327102
9.075                 0.98542304     -82.4568608
9.076                0.985388056     -82.5869427
9.077                0.985352976     -82.7173485
9.078                0.985317799     -82.8480791
9.079                0.985282524     -82.9791355
9.08                 0.985247152     -83.1105186
9.081                0.985211683     -83.2422292
9.082                0.985176117     -83.3742684
9.083                0.985140453     -83.5066369
9.084                0.985104691     -83.6393357
9.085                0.985068832     -83.7723657
9.086                0.985032874     -83.9057279
9.087                0.984996819     -84.0394231
9.088                0.984960666     -84.1734523
9.089                0.984924414     -84.3078163
9.09                 0.984888064     -84.4425162
9.091                0.984851616     -84.5775527
9.092                 0.98481507     -84.7129269
9.093                0.984778425     -84.8486397
9.094                0.984741681     -84.9846919
9.095                0.984704839     -85.1210845
9.096                0.984667897     -85.2578185
9.097                0.984630857     -85.3948947
9.098                0.984593718     -85.5323141
9.099                0.984556481     -85.6700775
9.1                  0.984519144     -85.8081861
9.101                0.984481708     -85.9466405
9.102                0.984444173     -86.0854419
9.103                0.984406538     -86.2245911
9.104                0.984368804      -86.364089
9.105                0.984330971     -86.5039366
9.106                0.984293039     -86.6441348
9.107                0.984255007     -86.7846846
9.108                0.984216876     -86.9255868
9.109                0.984178645     -87.0668425
9.11                 0.984140315     -87.2084524
9.111                0.984101885     -87.3504177
9.112                0.984063355     -87.4927392
9.113                0.984024726     -87.6354179
9.114                0.983985998     -87.7784546
9.115                0.983947169     -87.9218503
9.116                0.983908241     -88.0656061
9.117                0.983869213     -88.2097227
9.118                0.983830086     -88.3542011
9.119                0.983790858     -88.4990423
9.12                 0.983751531     -88.6442473
9.121                0.983712105     -88.7898169
9.122                0.983672578     -88.9357521
9.123                0.983632952     -89.0820538
9.124                0.983593227      -89.228723
9.125                0.983553401     -89.3757606
9.126                0.983513476     -89.5231675
9.127                0.983473452     -89.6709447
9.128                0.983433328     -89.8190932
9.129                0.983393104     -89.9676138
9.13                 0.983352781     -90.1165075
9.131                0.983312358     -90.2657753
9.132                0.983271836      -90.415418
9.133                0.983231214     -90.5654367
9.134                0.983190494     -90.7158322
9.135                0.983149674     -90.8666056
9.136                0.983108755     -91.0177576
9.137                0.983067736     -91.1692894
9.138                0.983026619     -91.3212017
9.139                0.982985403     -91.4734956
9.14                 0.982944087     -91.6261719
9.141                0.982902673     -91.7792317
9.142                0.982861161     -91.9326758
9.143                 0.98281955     -92.0865053
9.144                 0.98277784     -92.2407209
9.145                0.982736032     -92.3953237
9.146                0.982694125     -92.5503145
9.147                0.982652121     -92.7056944
9.148                0.982610018     -92.8614642
9.149                0.982567818     -93.0176249
9.15                 0.982525519     -93.1741775
9.151                0.982483123     -93.3311227
9.152                 0.98244063     -93.4884616
9.153                0.982398039      -93.646195
9.154                0.982355351      -93.804324
9.155                0.982312566     -93.9628494
9.156                0.982269685     -94.1217722
9.157                0.982226706     -94.2810932
9.158                0.982183631     -94.4408134
9.159                 0.98214046     -94.6009338
9.16                 0.982097192     -94.7614551
9.161                0.982053829     -94.9223784
9.162                 0.98201037     -95.0837045
9.163                0.981966815     -95.2454345
9.164                0.981923165      -95.407569
9.165                 0.98187942     -95.5701092
9.166                 0.98183558     -95.7330559
9.167                0.981791645     -95.8964099
9.168                0.981747616     -96.0601722
9.169                0.981703493     -96.2243438
9.17                 0.981659275     -96.3889254
9.171                0.981614965      -96.553918
9.172                 0.98157056     -96.7193226
9.173                0.981526063     -96.8851399
9.174                0.981481473     -97.0513708
9.175                 0.98143679     -97.2180163
9.176                0.981392015     -97.3850773
9.177                0.981347148     -97.5525546
9.178                0.981302189     -97.7204491
9.179                0.981257139     -97.8887616
9.18                 0.981211998     -98.0574932
9.181                0.981166766     -98.2266445
9.182                0.981121444     -98.3962166
9.183                0.981076032     -98.5662102
9.184                 0.98103053     -98.7366263
9.185                0.980984939     -98.9074657
9.186                0.980939258     -99.0787292
9.187                 0.98089349     -99.2504177
9.188                0.980847633      -99.422532
9.189                0.980801688     -99.5950731
9.19                 0.980755655     -99.7680417
9.191                0.980709536     -99.9414388
9.192                 0.98066333     -100.115265
9.193                0.980617037     -100.289521
9.194                0.980570659     -100.464209
9.195                0.980524196     -100.639327
9.196                0.980477648     -100.814879
9.197                0.980431015     -100.990864
9.198                0.980384298     -101.167283
9.199                0.980337497     -101.344137
9.2                  0.980290614     -101.521427
9.201                0.980243648     -101.699153
9.202                  0.9801966     -101.877317
9.203                 0.98014947     -102.055919
9.204                0.980102259      -102.23496
9.205                0.980054968     -102.414441
9.206                0.980007596     -102.594362
9.207                0.979960145     -102.774725
9.208                0.979912615      -102.95553
9.209                0.979865007     -103.136777
9.21                  0.97981732     -103.318469
9.211                0.979769557     -103.500605
9.212                0.979721717     -103.683185
9.213                  0.9796738     -103.866212
9.214                0.979625809     -104.049686
9.215                0.979577742     -104.233606
9.216                0.979529601     -104.417975
9.217                0.979481386     -104.602793
9.218                0.979433099      -104.78806
9.219                0.979384739     -104.973778
9.22                 0.979336307     -105.159947
9.221                0.979287804     -105.346567
9.222                0.979239231     -105.533639
9.223                0.979190588     -105.721165
9.224                0.979141876     -105.909145
9.225                0.979093096     -106.097578
9.226                0.979044249     -106.286467
9.227                0.978995334     -106.475812
9.228                0.978946354     -106.665613
9.229                0.978897308     -106.855872
9.23                 0.978848197     -107.046588
9.231                0.978799023     -107.237762
9.232                0.978749786     -107.429395
9.233                0.978700486     -107.621488
9.234                0.978651125     -107.814042
9.235                0.978601704     -108.007056
9.236                0.978552222     -108.200531
9.237                0.978502682     -108.394469
9.238                0.978453084     -108.588869
9.239                0.978403428     -108.783733
9.24                 0.978353716      -108.97906
9.241                0.978303948     -109.174852
9.242                0.978254126     -109.371109
9.243                 0.97820425     -109.567831
9.244                0.978154321     -109.765019
9.245                 0.97810434     -109.962673
9.246                0.978054309     -110.160795
9.247                0.978004227     -110.359385
9.248                0.977954096     -110.558442
9.249                0.977903917     -110.757968
9.25                 0.977853691     -110.957963
9.251                0.977803419     -111.158428
9.252                0.977753102     -111.359363
9.253                0.977702741     -111.560768
9.254                0.977652336     -111.762644
9.255                 0.97760189     -111.964992
9.256                0.977551403     -112.167811
9.257                0.977500875     -112.371103
9.258                0.977450309     -112.574867
9.259                0.977399705     -112.779105
9.26                 0.977349065     -112.983816
9.261                0.977298388     -113.189001
9.262                0.977247678      -113.39466
9.263                0.977196934     -113.600794
9.264                0.977146158     -113.807403
9.265                0.977095351     -114.014487
9.266                0.977044514     -114.222046
9.267                0.976993649     -114.430082
9.268                0.976942756     -114.638594
9.269                0.976891837     -114.847583
9.27                 0.976840893     -115.057048
9.271                0.976789925     -115.266991
9.272                0.976738935     -115.477411
9.273                0.976687924     -115.688309
9.274                0.976636892     -115.899684
9.275                0.976585842     -116.111538
9.276                0.976534774     -116.323871
9.277                0.976483691     -116.536681
9.278                0.976432592     -116.749971
9.279                 0.97638148      -116.96374
9.28                 0.976330356     -117.177988
9.281                0.976279221     -117.392715
9.282                0.976228077     -117.607921
9.283                0.976176925     -117.823608
9.284                0.976125767     -118.039774
9.285                0.976074603     -118.256419
9.286                0.976023436     -118.473545
9.287                0.975972266     -118.691151
9.288                0.975921095     -118.909237
9.289                0.975869925     -119.127803
9.29                 0.975818757     -119.346849
9.291                0.975767593     -119.566375
9.292                0.975716434     -119.786382
9.293                0.975665281     -120.006869
9.294                0.975614137     -120.227836
9.295                0.975563002     -120.449283
9.296                0.975511878     -120.671211
9.297                0.975460768     -120.893619
9.298                0.975409671     -121.116506
9.299                0.975358591     -121.339874
9.3                  0.975307528     -121.563722
9.301                0.975256484     -121.788049
9.302                0.975205461     -122.012856
9.303                0.975154461     -122.238142
9.304                0.975103484     -122.463908
9.305                0.975052533     -122.690153
9.306                 0.97500161     -122.916877
9.307                0.974950716      -123.14408
9.308                0.974899853     -123.371761
9.309                0.974849022      -123.59992
9.31                 0.974798226     -123.828558
9.311                0.974747466     -124.057673
9.312                0.974696743     -124.287266
9.313                 0.97464606     -124.517336
9.314                0.974595418     -124.747883
9.315                 0.97454482     -124.978907
9.316                0.974494266     -125.210407
9.317                0.974443759     -125.442382
9.318                0.974393301     -125.674833
9.319                0.974342893     -125.907759
9.32                 0.974292537      -126.14116
9.321                0.974242235     -126.375035
9.322                 0.97419199     -126.609384
9.323                0.974141802     -126.844206
9.324                0.974091674     -127.079501
9.325                0.974041607     -127.315268
9.326                0.973991605     -127.551507
9.327                0.973941667     -127.788217
9.328                0.973891798     -128.025398
9.329                0.973841997     -128.263049
9.33                 0.973792268     -128.501169
9.331                0.973742613     -128.739759
9.332                0.973693032     -128.978816
9.333                0.973643529     -129.218341
9.334                0.973594106     -129.458334
9.335                0.973544764     -129.698792
9.336                0.973495505     -129.939716
9.337                0.973446332     -130.181105
9.338                0.973397246     -130.422957
9.339                0.973348249     -130.665274
9.34                 0.973299345     -130.908052
9.341                0.973250534     -131.151293
9.342                0.973201819     -131.394994
9.343                0.973153201     -131.639155
9.344                0.973104684     -131.883776
9.345                0.973056269     -132.128855
9.346                0.973007958     -132.374391
9.347                0.972959754     -132.620384
9.348                0.972911658     -132.866832
9.349                0.972863672     -133.113735
9.35                   0.9728158     -133.361092
9.351                0.972768043     -133.608901
9.352                0.972720402     -133.857162
9.353                0.972672882     -134.105873
9.354                0.972625482     -134.355034
9.355                0.972578207     -134.604643
9.356                0.972531057       -134.8547
9.357                0.972484036     -135.105203
9.358                0.972437145      -135.35615
9.359                0.972390387     -135.607542
9.36                 0.972343764     -135.859376
9.361                0.972297278     -136.111652
9.362                0.972250932     -136.364368
9.363                0.972204727     -136.617523
9.364                0.972158666     -136.871115
9.365                0.972112751     -137.125144
9.366                0.972066985     -137.379609
9.367                 0.97202137     -137.634507
9.368                0.971975908     -137.889837
9.369                0.971930601     -138.145598
9.37                 0.971885451     -138.401789
9.371                0.971840462     -138.658408
9.372                0.971795635     -138.915454
9.373                0.971750973     -139.172925
9.374                0.971706477      -139.43082
9.375                0.971662151     -139.689138
9.376                0.971617997     -139.947876
9.377                0.971574016     -140.207033
9.378                0.971530211     -140.466608
9.379                0.971486585     -140.726598
9.38                  0.97144314     -140.987004
9.381                0.971399879     -141.247822
9.382                0.971356802     -141.509051
9.383                0.971313914     -141.770689
9.384                0.971271216     -142.032735
9.385                0.971228711     -142.295187
9.386                0.971186401     -142.558044
9.387                0.971144288     -142.821302
9.388                0.971102374     -143.084962
9.389                0.971060663      -143.34902
9.39                 0.971019156     -143.613475
9.391                0.970977856     -143.878325
9.392                0.970936765     -144.143569
9.393                0.970895885     -144.409203
9.394                0.970855219     -144.675227
9.395                0.970814769     -144.941639
9.396                0.970774538     -145.208436
