! TOUCHSTONE file generated by CST DESIGN STUDIO
! Date and time: Tue Feb  4 17:46:20 2025
! Project name: C:\Work\MatlabApps\UnitCellOptimizationMatlab\CST\unitcell.cst
! Tree item: Tasks\Sweep1\SPara1\S-Parameters
! Header version: 2024
! Port assignment regex: !\s*Touchstone port\s*([0-9]+)\s*=\s*(CST MWS port|CST DES external port|CST DES block port)\s*(.+)\s* \(\"(.*)\"\)(\s*mode\s*([0-9]+))?.*
! Touchstone port assignment:
! Touchstone port 1 = CST DES external port 1 ("")
# GHz S MA R 50
9                    0.985279282     -71.5377327
9.001                0.985245833     -71.6420119
9.002                0.985212284     -71.7465417
9.003                0.985178636     -71.8513227
9.004                0.985144888     -71.9563558
9.005                0.985111039     -72.0616417
9.006                 0.98507709     -72.1671812
9.007                0.985043039      -72.272975
9.008                0.985008888      -72.379024
9.009                0.984974635     -72.4853288
9.01                 0.984940281     -72.5918902
9.011                0.984905825     -72.6987091
9.012                0.984871266     -72.8057861
9.013                0.984836606     -72.9131221
9.014                0.984801842     -73.0207179
9.015                0.984766976     -73.1285741
9.016                0.984732006     -73.2366917
9.017                0.984696933     -73.3450713
9.018                0.984661756     -73.4537139
9.019                0.984626476       -73.56262
9.02                 0.984591091     -73.6717907
9.021                0.984555602     -73.7812265
9.022                0.984520008     -73.8909284
9.023                0.984484309     -74.0008972
9.024                0.984448505     -74.1111336
9.025                0.984412596     -74.2216384
9.026                0.984376581     -74.3324124
9.027                 0.98434046     -74.4434565
9.028                0.984304233     -74.5547714
9.029                0.984267899      -74.666358
9.03                 0.984231459      -74.778217
9.031                0.984194912     -74.8903494
9.032                0.984158258     -75.0027558
9.033                0.984121496     -75.1154371
9.034                0.984084627     -75.2283942
9.035                0.984047649     -75.3416278
9.036                0.984010564     -75.4551387
9.037                 0.98397337     -75.5689279
9.038                0.983936068     -75.6829961
9.039                0.983898657     -75.7973441
9.04                 0.983861137     -75.9119728
9.041                0.983823507     -76.0268831
9.042                0.983785768     -76.1420756
9.043                0.983747919     -76.2575514
9.044                 0.98370996     -76.3733112
9.045                0.983671891     -76.4893559
9.046                0.983633712     -76.6056862
9.047                0.983595421     -76.7223031
9.048                 0.98355702     -76.8392074
9.049                0.983518508        -76.9564
9.05                 0.983479884     -77.0738816
9.051                0.983441148     -77.1916532
9.052                0.983402301     -77.3097156
9.053                0.983363341     -77.4280697
9.054                 0.98332427     -77.5467163
9.055                0.983285085     -77.6656562
9.056                0.983245788     -77.7848904
9.057                0.983206378     -77.9044197
9.058                0.983166855     -78.0242449
9.059                0.983127218      -78.144367
9.06                 0.983087468     -78.2647867
9.061                0.983047604     -78.3855051
9.062                0.983007626     -78.5065229
9.063                0.982967534      -78.627841
9.064                0.982927327     -78.7494603
9.065                0.982887005     -78.8713817
9.066                0.982846569      -78.993606
9.067                0.982806017     -79.1161341
9.068                 0.98276535      -79.238967
9.069                0.982724568     -79.3621055
9.07                  0.98268367     -79.4855504
9.071                0.982642656     -79.6093028
9.072                0.982601526     -79.7333634
9.073                 0.98256028     -79.8577331
9.074                0.982518917      -79.982413
9.075                0.982477438     -80.1074037
9.076                0.982435841     -80.2327063
9.077                0.982394128     -80.3583217
9.078                0.982352297     -80.4842507
9.079                0.982310349     -80.6104942
9.08                 0.982268284     -80.7370532
9.081                  0.9822261     -80.8639285
9.082                0.982183799     -80.9911211
9.083                 0.98214138     -81.1186319
9.084                0.982098842     -81.2464617
9.085                0.982056186     -81.3746115
9.086                0.982013411     -81.5030822
9.087                0.981970517     -81.6318748
9.088                0.981927504     -81.7609901
9.089                0.981884373      -81.890429
9.09                 0.981841121     -82.0201925
9.091                0.981797751     -82.1502815
9.092                0.981754261     -82.2806969
9.093                0.981710651     -82.4114396
9.094                0.981666921     -82.5425106
9.095                0.981623071     -82.6739107
9.096                0.981579101      -82.805641
9.097                0.981535011     -82.9377023
9.098                  0.9814908     -83.0700956
9.099                0.981446468     -83.2028217
9.1                  0.981402016     -83.3358817
9.101                0.981357443     -83.4692765
9.102                0.981312749      -83.603007
9.103                0.981267933     -83.7370741
9.104                0.981222997     -83.8714788
9.105                0.981177939      -84.006222
9.106                 0.98113276     -84.1413046
9.107                0.981087459     -84.2767276
9.108                0.981042036      -84.412492
9.109                0.980996491     -84.5485987
9.11                 0.980950825     -84.6850485
9.111                0.980905037     -84.8218426
9.112                0.980859126     -84.9589817
9.113                0.980813093     -85.0964669
9.114                0.980766938     -85.2342991
9.115                0.980720661     -85.3724793
9.116                0.980674261     -85.5110084
9.117                0.980627738     -85.6498873
9.118                0.980581093      -85.789117
9.119                0.980534326     -85.9286985
9.12                 0.980487435     -86.0686327
9.121                0.980440422     -86.2089206
9.122                0.980393286     -86.3495631
9.123                0.980346027     -86.4905612
9.124                0.980298645     -86.6319159
9.125                0.980251139      -86.773628
9.126                0.980203511     -86.9156985
9.127                 0.98015576     -87.0581285
9.128                0.980107886     -87.2009189
9.129                0.980059888     -87.3440705
9.13                 0.980011767     -87.4875845
9.131                0.979963523     -87.6314617
9.132                0.979915156     -87.7757031
9.133                0.979866665     -87.9203097
9.134                0.979818051     -88.0652824
9.135                0.979769314     -88.2106223
9.136                0.979720454     -88.3563301
9.137                 0.97967147      -88.502407
9.138                0.979622363     -88.6488539
9.139                0.979573133     -88.7956717
9.14                 0.979523779     -88.9428615
9.141                0.979474303     -89.0904241
9.142                0.979424703     -89.2383605
9.143                 0.97937498     -89.3866718
9.144                0.979325134     -89.5353588
9.145                0.979275165     -89.6844225
9.146                0.979225072     -89.8338639
9.147                0.979174857      -89.983684
9.148                0.979124519     -90.1338837
9.149                0.979074059      -90.284464
9.15                 0.979023475     -90.4354259
9.151                0.978972769     -90.5867702
9.152                 0.97892194     -90.7384981
9.153                0.978870989     -90.8906103
9.154                0.978819915      -91.043108
9.155                0.978768719      -91.195992
9.156                  0.9787174     -91.3492634
9.157                 0.97866596      -91.502923
9.158                0.978614398     -91.6569719
9.159                0.978562713      -91.811411
9.16                 0.978510908     -91.9662412
9.161                 0.97845898     -92.1214636
9.162                0.978406931     -92.2770791
9.163                0.978354761     -92.4330886
9.164                0.978302469     -92.5894931
9.165                0.978250057     -92.7462935
9.166                0.978197524     -92.9034908
9.167                 0.97814487      -93.061086
9.168                0.978092096     -93.2190801
9.169                0.978039201     -93.3774738
9.17                 0.977986186     -93.5362683
9.171                0.977933052     -93.6954645
9.172                0.977879798     -93.8550633
9.173                0.977826424     -94.0150656
9.174                0.977772932     -94.1754725
9.175                 0.97771932     -94.3362847
9.176                0.977665589     -94.4975034
9.177                 0.97761174     -94.6591294
9.178                0.977557773     -94.8211637
9.179                0.977503688     -94.9836072
9.18                 0.977449485     -95.1464609
9.181                0.977395165     -95.3097257
9.182                0.977340727     -95.4734024
9.183                0.977286173     -95.6374921
9.184                0.977231502     -95.8019957
9.185                0.977176715     -95.9669141
9.186                0.977121812     -96.1322483
9.187                0.977066793     -96.2979991
9.188                0.977011659     -96.4641675
9.189                 0.97695641     -96.6307544
9.19                 0.976901047     -96.7977607
9.191                0.976845569     -96.9651873
9.192                0.976789978     -97.1330352
9.193                0.976734273     -97.3013052
9.194                0.976678454     -97.4699983
9.195                0.976622524     -97.6391154
9.196                0.976566481     -97.8086573
9.197                0.976510326      -97.978625
9.198                0.976454059     -98.1490194
9.199                0.976397682     -98.3198414
9.2                  0.976341194     -98.4910918
9.201                0.976284596     -98.6627715
9.202                0.976227888     -98.8348815
9.203                0.976171071     -99.0074226
9.204                0.976114145     -99.1803956
9.205                0.976057111     -99.3538016
9.206                0.975999969     -99.5276413
9.207                 0.97594272     -99.7019156
9.208                0.975885364     -99.8766253
9.209                0.975827902     -100.051771
9.21                 0.975770334     -100.227355
9.211                0.975712662     -100.403376
9.212                0.975654884     -100.579836
9.213                0.975597003     -100.756736
9.214                0.975539018     -100.934077
9.215                0.975480931     -101.111859
9.216                0.975422741     -101.290083
9.217                 0.97536445     -101.468751
9.218                0.975306057     -101.647862
9.219                0.975247564     -101.827418
9.22                 0.975188972      -102.00742
9.221                 0.97513028     -102.187868
9.222                 0.97507149     -102.368763
9.223                0.975012603     -102.550106
9.224                0.974953618     -102.731898
9.225                0.974894537      -102.91414
9.226                0.974835361     -103.096831
9.227                0.974776089     -103.279975
9.228                0.974716723      -103.46357
9.229                0.974657264     -103.647617
9.23                 0.974597712     -103.832119
9.231                0.974538069     -104.017074
9.232                0.974478334     -104.202485
9.233                0.974418509     -104.388351
9.234                0.974358594     -104.574674
9.235                0.974298591     -104.761453
9.236                  0.9742385     -104.948691
9.237                0.974178322     -105.136388
9.238                0.974118057     -105.324544
9.239                0.974057708     -105.513161
9.24                 0.973997274     -105.702238
9.241                0.973936756     -105.891776
9.242                0.973876156     -106.081777
9.243                0.973815474     -106.272241
9.244                0.973754712     -106.463169
9.245                0.973693869     -106.654561
9.246                0.973632948     -106.846417
9.247                0.973571949      -107.03874
9.248                0.973510873     -107.231529
9.249                0.973449721     -107.424785
9.25                 0.973388495     -107.618508
9.251                0.973327194       -107.8127
9.252                0.973265821      -108.00736
9.253                0.973204375      -108.20249
9.254                 0.97314286      -108.39809
9.255                0.973081274     -108.594161
9.256                 0.97301962     -108.790703
9.257                0.972957899     -108.987717
9.258                0.972896111     -109.185204
9.259                0.972834258     -109.383163
9.26                 0.972772342     -109.581597
9.261                0.972710362     -109.780504
9.262                0.972648321     -109.979886
9.263                0.972586219     -110.179743
9.264                0.972524058     -110.380076
9.265                0.972461839     -110.580886
9.266                0.972399564     -110.782172
9.267                0.972337233     -110.983936
9.268                0.972274847     -111.186177
9.269                0.972212409     -111.388897
9.27                 0.972149919     -111.592095
9.271                0.972087378     -111.795773
9.272                0.972024789      -111.99993
9.273                0.971962152     -112.204568
9.274                0.971899468     -112.409686
9.275                 0.97183674     -112.615285
9.276                0.971773968     -112.821366
9.277                0.971711154     -113.027929
9.278                0.971648299     -113.234973
9.279                0.971585405     -113.442501
9.28                 0.971522473     -113.650511
9.281                0.971459504     -113.859005
9.282                0.971396501     -114.067982
9.283                0.971333465     -114.277444
9.284                0.971270396     -114.487389
9.285                0.971207297      -114.69782
9.286                0.971144169     -114.908735
9.287                0.971081015     -115.120136
9.288                0.971017834     -115.332023
9.289                0.970954629     -115.544395
9.29                 0.970891402     -115.757254
9.291                0.970828154     -115.970598
9.292                0.970764887      -116.18443
9.293                0.970701602     -116.398748
9.294                0.970638301     -116.613553
9.295                0.970574986     -116.828846
9.296                0.970511659     -117.044626
9.297                0.970448321     -117.260894
9.298                0.970384974     -117.477649
9.299                0.970321619     -117.694893
9.3                  0.970258259     -117.912624
9.301                0.970194896     -118.130844
9.302                 0.97013153     -118.349552
9.303                0.970068164     -118.568748
9.304                  0.9700048     -118.788433
9.305                 0.96994144     -119.008606
9.306                0.969878085     -119.229268
9.307                0.969814737     -119.450418
9.308                0.969751399     -119.672058
9.309                0.969688071     -119.894186
9.31                 0.969624757     -120.116802
9.311                0.969561458     -120.339907
9.312                0.969498175     -120.563501
9.313                0.969434912     -120.787584
9.314                 0.96937167     -121.012155
9.315                 0.96930845     -121.237214
9.316                0.969245256     -121.462762
9.317                0.969182088     -121.688798
9.318                 0.96911895     -121.915322
9.319                0.969055842     -122.142334
9.32                 0.968992768     -122.369834
9.321                 0.96892973     -122.597822
9.322                0.968866728     -122.826297
9.323                0.968803767     -123.055259
9.324                0.968740847     -123.284709
9.325                0.968677971     -123.514645
9.326                0.968615141     -123.745068
9.327                 0.96855236     -123.975977
9.328                0.968489629     -124.207372
9.329                0.968426951     -124.439253
9.33                 0.968364328     -124.671619
9.331                0.968301762     -124.904471
9.332                0.968239255     -125.137807
9.333                0.968176811     -125.371627
9.334                 0.96811443     -125.605932
9.335                0.968052116      -125.84072
9.336                0.967989871     -126.075991
9.337                0.967927697     -126.311745
9.338                0.967865597     -126.547981
9.339                0.967803572     -126.784698
9.34                 0.967741626     -127.021898
9.341                0.967679761     -127.259577
9.342                0.967617979     -127.497738
9.343                0.967556282     -127.736377
9.344                0.967494673     -127.975496
9.345                0.967433155     -128.215094
9.346                 0.96737173     -128.455169
9.347                  0.9673104     -128.695722
9.348                0.967249168     -128.936751
9.349                0.967188037     -129.178257
9.35                 0.967127009     -129.420237
9.351                0.967066086     -129.662693
9.352                0.967005272     -129.905622
9.353                0.966944568     -130.149024
9.354                0.966883978     -130.392899
9.355                0.966823503     -130.637245
9.356                0.966763147     -130.882062
9.357                0.966702913     -131.127349
9.358                0.966642802     -131.373106
9.359                0.966582817      -131.61933
9.36                 0.966522962     -131.866022
9.361                0.966463238     -132.113181
9.362                0.966403649     -132.360805
9.363                0.966344197     -132.608894
9.364                0.966284885     -132.857446
9.365                0.966225716     -133.106461
9.366                0.966166692     -133.355938
9.367                0.966107816     -133.605876
9.368                0.966049091     -133.856273
9.369                0.965990519     -134.107129
9.37                 0.965932104     -134.358442
9.371                0.965873848     -134.610211
9.372                0.965815753     -134.862436
9.373                0.965757824     -135.115115
9.374                0.965700062     -135.368247
9.375                 0.96564247      -135.62183
9.376                0.965585052     -135.875864
9.377                0.965527809     -136.130347
9.378                0.965470746     -136.385278
9.379                0.965413864     -136.640656
9.38                 0.965357166     -136.896479
9.381                0.965300656     -137.152746
9.382                0.965244337     -137.409456
9.383                 0.96518821     -137.666608
9.384                 0.96513228     -137.924199
9.385                0.965076548     -138.182228
9.386                0.965021018     -138.440695
9.387                0.964965693     -138.699598
9.388                0.964910576     -138.958934
9.389                0.964855669     -139.218703
9.39                 0.964800976     -139.478903
9.391                0.964746499     -139.739533
9.392                0.964692242     -140.000591
9.393                0.964638207     -140.262075
9.394                0.964584396     -140.523984
9.395                0.964530815     -140.786316
9.396                0.964477464     -141.049069
