! TOUCHSTONE file generated by CST DESIGN STUDIO
! Date and time: Tue Feb  4 15:47:18 2025
! Project name: C:\Work\MatlabApps\UnitCellOptimizationMatlab\CST\unitcell.cst
! Tree item: Tasks\Sweep1\SPara1\S-Parameters
! Header version: 2024
! Port assignment regex: !\s*Touchstone port\s*([0-9]+)\s*=\s*(CST MWS port|CST DES external port|CST DES block port)\s*(.+)\s* \(\"(.*)\"\)(\s*mode\s*([0-9]+))?.*
! Touchstone port assignment:
! Touchstone port 1 = CST DES external port 1 ("")
# GHz S MA R 50
9                    0.990540344     -74.0895577
9.001                0.990518627      -74.198346
9.002                0.990496845      -74.307395
9.003                0.990474998     -74.4167056
9.004                0.990453086     -74.5262786
9.005                0.990431107     -74.6361146
9.006                0.990409063     -74.7462144
9.007                0.990386953     -74.8565789
9.008                0.990364776     -74.9672088
9.009                0.990342533     -75.0781049
9.01                 0.990320224      -75.189268
9.011                0.990297848     -75.3006987
9.012                0.990275406     -75.4123981
9.013                0.990252896     -75.5243667
9.014                 0.99023032     -75.6366054
9.015                0.990207676      -75.749115
9.016                0.990184965     -75.8618963
9.017                0.990162186     -75.9749501
9.018                 0.99013934     -76.0882771
9.019                0.990116426     -76.2018782
9.02                 0.990093444     -76.3157542
9.021                0.990070394     -76.4299058
9.022                0.990047276     -76.5443339
9.023                0.990024089     -76.6590392
9.024                0.990000834     -76.7740226
9.025                0.989977511     -76.8892849
9.026                0.989954118     -77.0048269
9.027                0.989930657     -77.1206494
9.028                0.989907127     -77.2367532
9.029                0.989883527     -77.3531391
9.03                 0.989859858      -77.469808
9.031                 0.98983612     -77.5867606
9.032                0.989812312     -77.7039979
9.033                0.989788435     -77.8215205
9.034                0.989764487     -77.9393293
9.035                 0.98974047     -78.0574252
9.036                0.989716382      -78.175809
9.037                0.989692225     -78.2944814
9.038                0.989667997     -78.4134434
9.039                0.989643698     -78.5326958
9.04                 0.989619329     -78.6522394
9.041                0.989594889      -78.772075
9.042                0.989570378     -78.8922035
9.043                0.989545796     -79.0126256
9.044                0.989521143     -79.1333424
9.045                0.989496418     -79.2543545
9.046                0.989471623     -79.3756629
9.047                0.989446755     -79.4972683
9.048                0.989421816     -79.6191717
9.049                0.989396806     -79.7413739
9.05                 0.989371723     -79.8638756
9.051                0.989346569     -79.9866779
9.052                0.989321342     -80.1097815
9.053                0.989296043     -80.2331872
9.054                0.989270672      -80.356896
9.055                0.989245228     -80.4809087
9.056                0.989219712     -80.6052262
9.057                0.989194123     -80.7298493
9.058                0.989168461     -80.8547788
9.059                0.989142727     -80.9800157
9.06                 0.989116919     -81.1055608
9.061                0.989091038      -81.231415
9.062                0.989065084     -81.3575791
9.063                0.989039057     -81.4840541
9.064                0.989012956     -81.6108407
9.065                0.988986782     -81.7379398
9.066                0.988960534     -81.8653524
9.067                0.988934212     -81.9930793
9.068                0.988907816     -82.1211214
9.069                0.988881347     -82.2494795
9.07                 0.988854803     -82.3781546
9.071                0.988828186     -82.5071475
9.072                0.988801494     -82.6364591
9.073                0.988774728     -82.7660902
9.074                0.988747887     -82.8960418
9.075                0.988720972     -83.0263148
9.076                0.988693982       -83.15691
9.077                0.988666918     -83.2878283
9.078                0.988639779     -83.4190706
9.079                0.988612565     -83.5506379
9.08                 0.988585277     -83.6825309
9.081                0.988557913     -83.8147506
9.082                0.988530474     -83.9472979
9.083                 0.98850296     -84.0801736
9.084                0.988475371     -84.2133787
9.085                0.988447707     -84.3469141
9.086                0.988419967     -84.4807806
9.087                0.988392152     -84.6149792
9.088                0.988364262     -84.7495108
9.089                0.988336296     -84.8843762
9.09                 0.988308254     -85.0195764
9.091                0.988280137     -85.1551122
9.092                0.988251944     -85.2909846
9.093                0.988223675     -85.4271944
9.094                0.988195331     -85.5637427
9.095                 0.98816691     -85.7006302
9.096                0.988138414     -85.8378579
9.097                0.988109841     -85.9754267
9.098                0.988081193     -86.1133375
9.099                0.988052469     -86.2515912
9.1                  0.988023668     -86.3901887
9.101                0.987994792      -86.529131
9.102                0.987965839     -86.6684188
9.103                 0.98793681     -86.8080533
9.104                0.987907705     -86.9480352
9.105                0.987878523     -87.0883654
9.106                0.987849266      -87.229045
9.107                0.987819932     -87.3700748
9.108                0.987790521     -87.5114556
9.109                0.987761035     -87.6531885
9.11                 0.987731471     -87.7952744
9.111                0.987701832     -87.9377141
9.112                0.987672116     -88.0805086
9.113                0.987642324     -88.2236587
9.114                0.987612455     -88.3671655
9.115                 0.98758251     -88.5110298
9.116                0.987552489     -88.6552525
9.117                0.987522391     -88.7998346
9.118                0.987492217      -88.944777
9.119                0.987461967     -89.0900805
9.12                  0.98743164     -89.2357462
9.121                0.987401236     -89.3817749
9.122                0.987370757     -89.5281675
9.123                0.987340201      -89.674925
9.124                0.987309569     -89.8220483
9.125                 0.98727886     -89.9695382
9.126                0.987248075     -90.1173958
9.127                0.987217214     -90.2656219
9.128                0.987186277     -90.4142174
9.129                0.987155264     -90.5631833
9.13                 0.987124175     -90.7125205
9.131                 0.98709301     -90.8622299
9.132                0.987061768     -91.0123124
9.133                0.987030451     -91.1627689
9.134                0.986999058     -91.3136003
9.135                0.986967589     -91.4648076
9.136                0.986936044     -91.6163917
9.137                0.986904424     -91.7683534
9.138                0.986872728     -91.9206937
9.139                0.986840956     -92.0734136
9.14                 0.986809109     -92.2265139
9.141                0.986777187     -92.3799954
9.142                0.986745189     -92.5338593
9.143                0.986713116     -92.6881062
9.144                0.986680968     -92.8427373
9.145                0.986648745     -92.9977533
9.146                0.986616447     -93.1531551
9.147                0.986584074     -93.3089438
9.148                0.986551627     -93.4651201
9.149                0.986519104      -93.621685
9.15                 0.986486508     -93.7786394
9.151                0.986453837     -93.9359842
9.152                0.986421092     -94.0937203
9.153                0.986388272     -94.2518485
9.154                0.986355379     -94.4103699
9.155                0.986322412     -94.5692852
9.156                0.986289371     -94.7285954
9.157                0.986256257     -94.8883014
9.158                0.986223069      -95.048404
9.159                0.986189809     -95.2089042
9.16                 0.986156475     -95.3698028
9.161                0.986123068     -95.5311007
9.162                0.986089588     -95.6927989
9.163                0.986056036     -95.8548981
9.164                0.986022411     -96.0173993
9.165                0.985988715     -96.1803034
9.166                0.985954946     -96.3436112
9.167                0.985921105     -96.5073236
9.168                0.985887193     -96.6714415
9.169                0.985853209     -96.8359658
9.17                 0.985819155     -97.0008973
9.171                0.985785029     -97.1662368
9.172                0.985750832     -97.3319854
9.173                0.985716565     -97.4981437
9.174                0.985682228     -97.6647127
9.175                 0.98564782     -97.8316933
9.176                0.985613343     -97.9990862
9.177                0.985578796     -98.1668924
9.178                0.985544179     -98.3351126
9.179                0.985509494     -98.5037478
9.18                  0.98547474     -98.6727988
9.181                0.985439917     -98.8422664
9.182                0.985405026     -99.0121515
9.183                0.985370066     -99.1824548
9.184                 0.98533504     -99.3531773
9.185                0.985299945     -99.5243198
9.186                0.985264784      -99.695883
9.187                0.985229555     -99.8678678
9.188                0.985194261     -100.040275
9.189                  0.9851589     -100.213106
9.19                 0.985123473      -100.38636
9.191                 0.98508798      -100.56004
9.192                0.985052422     -100.734145
9.193                  0.9850168     -100.908676
9.194                0.984981112     -101.083635
9.195                0.984945361     -101.259022
9.196                0.984909545     -101.434837
9.197                0.984873667     -101.611083
9.198                0.984837725     -101.787759
9.199                 0.98480172     -101.964866
9.2                  0.984765653     -102.142404
9.201                0.984729524     -102.320376
9.202                0.984693333     -102.498781
9.203                0.984657081     -102.677621
9.204                0.984620769     -102.856895
9.205                0.984584396     -103.036605
9.206                0.984547963     -103.216752
9.207                 0.98451147     -103.397336
9.208                0.984474919     -103.578358
9.209                0.984438309     -103.759818
9.21                  0.98440164     -103.941718
9.211                0.984364914     -104.124059
9.212                0.984328131      -104.30684
9.213                0.984291291     -104.490063
9.214                0.984254395     -104.673728
9.215                0.984217442     -104.857836
9.216                0.984180435     -105.042387
9.217                0.984143373     -105.227383
9.218                0.984106256     -105.412825
9.219                0.984069086     -105.598712
9.22                 0.984031862     -105.785045
9.221                0.983994585     -105.971825
9.222                0.983957257     -106.159053
9.223                0.983919876      -106.34673
9.224                0.983882445     -106.534855
9.225                0.983844963     -106.723431
9.226                0.983807431     -106.912456
9.227                0.983769849     -107.101933
9.228                0.983732219     -107.291861
9.229                0.983694541     -107.482241
9.23                 0.983656815     -107.673074
9.231                0.983619042      -107.86436
9.232                0.983581222     -108.056101
9.233                0.983543357     -108.248296
9.234                0.983505447     -108.440946
9.235                0.983467492     -108.634052
9.236                0.983429493     -108.827614
9.237                0.983391451     -109.021632
9.238                0.983353367     -109.216109
9.239                 0.98331524     -109.411043
9.24                 0.983277073     -109.606435
9.241                0.983238865     -109.802287
9.242                0.983200617     -109.998598
9.243                0.983162331     -110.195369
9.244                0.983124006     -110.392601
9.245                0.983085643     -110.590293
9.246                0.983047243     -110.788447
9.247                0.983008808     -110.987063
9.248                0.982970337     -111.186142
9.249                0.982931831     -111.385683
9.25                 0.982893291     -111.585688
9.251                0.982854719     -111.786156
9.252                0.982816114     -111.987089
9.253                0.982777477     -112.188486
9.254                 0.98273881     -112.390348
9.255                0.982700113     -112.592676
9.256                0.982661387      -112.79547
9.257                0.982622633     -112.998729
9.258                0.982583851     -113.202456
9.259                0.982545043     -113.406649
9.26                 0.982506209      -113.61131
9.261                0.982467351     -113.816438
9.262                0.982428468     -114.022034
9.263                0.982389563     -114.228099
9.264                0.982350635     -114.434632
9.265                0.982311686     -114.641634
9.266                0.982272717     -114.849105
9.267                0.982233729     -115.057046
9.268                0.982194722     -115.265457
9.269                0.982155697     -115.474337
9.27                 0.982116656     -115.683688
9.271                  0.9820776      -115.89351
9.272                0.982038528     -116.103802
9.273                0.981999444     -116.314565
9.274                0.981960346     -116.525799
9.275                0.981921237     -116.737505
9.276                0.981882117     -116.949682
9.277                0.981842988     -117.162331
9.278                 0.98180385     -117.375451
9.279                0.981764705     -117.589044
9.28                 0.981725553     -117.803109
9.281                0.981686396     -118.017646
9.282                0.981647234     -118.232655
9.283                0.981608069     -118.448137
9.284                0.981568902     -118.664092
9.285                0.981529733     -118.880518
9.286                0.981490565     -119.097418
9.287                0.981451398      -119.31479
9.288                0.981412233     -119.532635
9.289                0.981373072     -119.750953
9.29                 0.981333915     -119.969743
9.291                0.981294764     -120.189007
9.292                0.981255619     -120.408742
9.293                0.981216483     -120.628951
9.294                0.981177356     -120.849632
9.295                0.981138239     -121.070786
9.296                0.981099134     -121.292412
9.297                0.981060041      -121.51451
9.298                0.981020963     -121.737081
9.299                  0.9809819     -121.960124
9.3                  0.980942854     -122.183639
9.301                0.980903825     -122.407625
9.302                0.980864815     -122.632084
9.303                0.980825826     -122.857014
9.304                0.980786858     -123.082415
9.305                0.980747913     -123.308287
9.306                0.980708992      -123.53463
9.307                0.980670097     -123.761443
9.308                0.980631228     -123.988727
9.309                0.980592387     -124.216481
9.31                 0.980553576     -124.444705
9.311                0.980514796     -124.673398
9.312                0.980476048      -124.90256
9.313                0.980437333     -125.132191
9.314                0.980398653     -125.362291
9.315                 0.98036001     -125.592859
9.316                0.980321404     -125.823894
9.317                0.980282837     -126.055396
9.318                0.980244311     -126.287366
9.319                0.980205826     -126.519802
9.32                 0.980167385     -126.752703
9.321                0.980128988     -126.986071
9.322                0.980090638     -127.219903
9.323                0.980052335       -127.4542
9.324                0.980014081      -127.68896
9.325                0.979975878     -127.924184
9.326                0.979937727     -128.159871
9.327                0.979899629      -128.39602
9.328                0.979861587     -128.632631
9.329                  0.9798236     -128.869703
9.33                 0.979785672     -129.107236
9.331                0.979747804     -129.345228
9.332                0.979709996     -129.583679
9.333                0.979672251     -129.822589
9.334                 0.97963457     -130.061957
9.335                0.979596955     -130.301781
9.336                0.979559407     -130.542062
9.337                0.979521928     -130.782798
9.338                0.979484519     -131.023989
9.339                0.979447182     -131.265634
9.34                 0.979409918     -131.507732
9.341                 0.97937273     -131.750283
9.342                0.979335619     -131.993284
9.343                0.979298585     -132.236737
9.344                0.979261632     -132.480639
9.345                 0.97922476      -132.72499
9.346                0.979187972     -132.969788
9.347                0.979151268     -133.215034
9.348                0.979114651     -133.460725
9.349                0.979078122     -133.706861
9.35                 0.979041683     -133.953441
9.351                0.979005335     -134.200465
9.352                 0.97896908     -134.447929
9.353                 0.97893292     -134.695835
9.354                0.978896857      -134.94418
9.355                0.978860891     -135.192964
9.356                0.978825026     -135.442185
9.357                0.978789262     -135.691843
9.358                0.978753601     -135.941935
9.359                0.978718045     -136.192462
9.36                 0.978682595     -136.443421
9.361                0.978647254     -136.694812
9.362                0.978612024     -136.946633
9.363                0.978576904     -137.198882
9.364                0.978541899      -137.45156
9.365                0.978507008     -137.704663
9.366                0.978472235     -137.958192
9.367                 0.97843758     -138.212144
9.368                0.978403046     -138.466519
9.369                0.978368634     -138.721314
9.37                 0.978334346     -138.976529
9.371                0.978300184     -139.232162
9.372                0.978266149     -139.488211
9.373                0.978232243     -139.744676
9.374                0.978198469     -140.001553
9.375                0.978164827     -140.258843
9.376                0.978131319     -140.516544
9.377                0.978097948     -140.774653
9.378                0.978064715     -141.033169
9.379                0.978031622     -141.292091
9.38                  0.97799867     -141.551417
9.381                0.977965862     -141.811146
9.382                0.977933199     -142.071275
9.383                0.977900683     -142.331803
9.384                0.977868316     -142.592729
9.385                0.977836099      -142.85405
9.386                0.977804034     -143.115765
9.387                0.977772123     -143.377872
9.388                0.977740369     -143.640369
9.389                0.977708772     -143.903254
9.39                 0.977677334     -144.166526
9.391                0.977646057     -144.430182
9.392                0.977614944     -144.694222
9.393                0.977583995     -144.958642
9.394                0.977553213     -145.223441
9.395                0.977522599     -145.488616
9.396                0.977492155     -145.754167
