! TOUCHSTONE file generated by CST DESIGN STUDIO
! Date and time: Tue Feb  4 15:47:27 2025
! Project name: C:\Work\MatlabApps\UnitCellOptimizationMatlab\CST\unitcell.cst
! Tree item: Tasks\Sweep1\SPara1\S-Parameters
! Header version: 2024
! Port assignment regex: !\s*Touchstone port\s*([0-9]+)\s*=\s*(CST MWS port|CST DES external port|CST DES block port)\s*(.+)\s* \(\"(.*)\"\)(\s*mode\s*([0-9]+))?.*
! Touchstone port assignment:
! Touchstone port 1 = CST DES external port 1 ("")
# GHz S MA R 50
9                    0.991365466     -69.9081929
9.001                0.991346962     -70.0081008
9.002                0.991328403     -70.1082444
9.003                0.991309788     -70.2086244
9.004                0.991291118     -70.3092416
9.005                0.991272392     -70.4100966
9.006                 0.99125361     -70.5111901
9.007                0.991234773     -70.6125229
9.008                0.991215879     -70.7140957
9.009                0.991196929     -70.8159092
9.01                 0.991177922     -70.9179641
9.011                0.991158859     -71.0202612
9.012                0.991139739     -71.1228012
9.013                0.991120563     -71.2255847
9.014                0.991101329     -71.3286126
9.015                0.991082039     -71.4318855
9.016                0.991062691     -71.5354042
9.017                0.991043286     -71.6391694
9.018                0.991023823     -71.7431819
9.019                0.991004302     -71.8474424
9.02                 0.990984724     -71.9519516
9.021                0.990965088     -72.0567103
9.022                0.990945394     -72.1617192
9.023                0.990925641     -72.2669791
9.024                 0.99090583     -72.3724907
9.025                0.990885961     -72.4782548
9.026                0.990866033     -72.5842721
9.027                0.990846046     -72.6905433
9.028                   0.990826     -72.7970693
9.029                0.990805895     -72.9038508
9.03                 0.990785731     -73.0108886
9.031                0.990765508     -73.1181833
9.032                0.990745225     -73.2257358
9.033                0.990724882     -73.3335469
9.034                 0.99070448     -73.4416173
9.035                0.990684018     -73.5499477
9.036                0.990663496      -73.658539
9.037                0.990642913      -73.767392
9.038                0.990622271     -73.8765073
9.039                0.990601568     -73.9858858
9.04                 0.990580804     -74.0955283
9.041                 0.99055998     -74.2054355
9.042                0.990539094     -74.3156083
9.043                0.990518148     -74.4260473
9.044                0.990497141     -74.5367535
9.045                0.990476072     -74.6477275
9.046                0.990454942     -74.7589703
9.047                0.990433751     -74.8704825
9.048                0.990412498      -74.982265
9.049                0.990391183     -75.0943185
9.05                 0.990369806     -75.2066439
9.051                0.990348367      -75.319242
9.052                0.990326866     -75.4321136
9.053                0.990305303     -75.5452594
9.054                0.990283677     -75.6586803
9.055                0.990261989     -75.7723772
9.056                0.990240238     -75.8863507
9.057                0.990218424     -76.0006017
9.058                0.990196547     -76.1151311
9.059                0.990174607     -76.2299396
9.06                 0.990152604     -76.3450281
9.061                0.990130538     -76.4603974
9.062                0.990108408     -76.5760483
9.063                0.990086215     -76.6919816
9.064                0.990063958     -76.8081982
9.065                0.990041637     -76.9246989
9.066                0.990019252     -77.0414845
9.067                0.989996803     -77.1585559
9.068                 0.98997429     -77.2759138
9.069                0.989951713     -77.3935592
9.07                 0.989929071     -77.5114928
9.071                0.989906365     -77.6297155
9.072                0.989883594     -77.7482282
9.073                0.989860758     -77.8670316
9.074                0.989837857     -77.9861266
9.075                0.989814892     -78.1055141
9.076                0.989791861      -78.225195
9.077                0.989768765       -78.34517
9.078                0.989745604       -78.46544
9.079                0.989722377     -78.5860059
9.08                 0.989699085     -78.7068685
9.081                0.989675727     -78.8280286
9.082                0.989652303     -78.9494873
9.083                0.989628813     -79.0712452
9.084                0.989605257     -79.1933033
9.085                0.989581636     -79.3156624
9.086                0.989557948     -79.4383234
9.087                0.989534193     -79.5612871
9.088                0.989510372     -79.6845545
9.089                0.989486485     -79.8081264
9.09                 0.989462531     -79.9320036
9.091                0.989438511      -80.056187
9.092                0.989414423     -80.1806776
9.093                0.989390269     -80.3054762
9.094                0.989366048     -80.4305836
9.095                0.989341759     -80.5560008
9.096                0.989317403     -80.6817285
9.097                 0.98929298     -80.8077678
9.098                 0.98926849     -80.9341195
9.099                0.989243932     -81.0607845
9.1                  0.989219307     -81.1877636
9.101                0.989194614     -81.3150578
9.102                0.989169853     -81.4426679
9.103                0.989145024     -81.5705949
9.104                0.989120128     -81.6988395
9.105                0.989095163     -81.8274028
9.106                 0.98907013     -81.9562856
9.107                 0.98904503     -82.0854888
9.108                0.989019861     -82.2150134
9.109                0.988994623     -82.3448601
9.11                 0.988969318     -82.4750299
9.111                0.988943943     -82.6055238
9.112                0.988918501     -82.7363425
9.113                0.988892989     -82.8674871
9.114                 0.98886741     -82.9989584
9.115                0.988841761     -83.1307574
9.116                0.988816043     -83.2628848
9.117                0.988790257     -83.3953418
9.118                0.988764402      -83.528129
9.119                0.988738478     -83.6612476
9.12                 0.988712484     -83.7946983
9.121                0.988686422     -83.9284822
9.122                 0.98866029     -84.0626001
9.123                 0.98863409     -84.1970528
9.124                 0.98860782     -84.3318415
9.125                 0.98858148     -84.4669669
9.126                0.988555072       -84.60243
9.127                0.988528594     -84.7382317
9.128                0.988502046     -84.8743729
9.129                0.988475429     -85.0108546
9.13                 0.988448743     -85.1476776
9.131                0.988421987      -85.284843
9.132                0.988395161     -85.4223516
9.133                0.988368266     -85.5602043
9.134                0.988341301     -85.6984021
9.135                0.988314266     -85.8369459
9.136                0.988287162     -85.9758366
9.137                0.988259987     -86.1150752
9.138                0.988232744     -86.2546626
9.139                 0.98820543     -86.3945997
9.14                 0.988178047     -86.5348874
9.141                0.988150593     -86.6755268
9.142                 0.98812307     -86.8165186
9.143                0.988095477     -86.9578639
9.144                0.988067814     -87.0995636
9.145                0.988040082     -87.2416186
9.146                0.988012279     -87.3840298
9.147                0.987984407     -87.5267983
9.148                0.987956465     -87.6699248
9.149                0.987928453     -87.8134104
9.15                 0.987900371      -87.957256
9.151                0.987872219     -88.1014626
9.152                0.987843997      -88.246031
9.153                0.987815706     -88.3909622
9.154                0.987787345     -88.5362571
9.155                0.987758914     -88.6819167
9.156                0.987730413      -88.827942
9.157                0.987701843     -88.9743338
9.158                0.987673203      -89.121093
9.159                0.987644493     -89.2682207
9.16                 0.987615714     -89.4157178
9.161                0.987586865     -89.5635852
9.162                0.987557946     -89.7118238
9.163                0.987528958     -89.8604346
9.164                0.987499901     -90.0094186
9.165                0.987470774     -90.1587765
9.166                0.987441578     -90.3085095
9.167                0.987412313     -90.4586184
9.168                0.987382978     -90.6091042
9.169                0.987353574     -90.7599678
9.17                 0.987324101     -90.9112101
9.171                0.987294559     -91.0628321
9.172                0.987264948     -91.2148347
9.173                0.987235269     -91.3672189
9.174                 0.98720552     -91.5199855
9.175                0.987175703     -91.6731356
9.176                0.987145817       -91.82667
9.177                0.987115862     -91.9805897
9.178                 0.98708584     -92.1348956
9.179                0.987055748     -92.2895886
9.18                 0.987025589     -92.4446698
9.181                0.986995361     -92.6001399
9.182                0.986965066         -92.756
9.183                0.986934702     -92.9122509
9.184                0.986904271     -93.0688936
9.185                0.986873772     -93.2259291
9.186                0.986843206     -93.3833581
9.187                0.986812572     -93.5411818
9.188                0.986781871     -93.6994009
9.189                0.986751103     -93.8580165
9.19                 0.986720267     -94.0170293
9.191                0.986689365     -94.1764404
9.192                0.986658396     -94.3362507
9.193                0.986627361     -94.4964611
9.194                0.986596259     -94.6570724
9.195                0.986565091     -94.8180857
9.196                0.986533857     -94.9795018
9.197                0.986502558     -95.1413216
9.198                0.986471192     -95.3035461
9.199                0.986439761     -95.4661761
9.2                  0.986408264     -95.6292125
9.201                0.986376703     -95.7926563
9.202                0.986345076     -95.9565083
9.203                0.986313385     -96.1207695
9.204                0.986281629     -96.2854408
9.205                0.986249809      -96.450523
9.206                0.986217925      -96.616017
9.207                0.986185977     -96.7819238
9.208                0.986153965     -96.9482441
9.209                 0.98612189      -97.114979
9.21                 0.986089751     -97.2821292
9.211                 0.98605755     -97.4496958
9.212                0.986025285     -97.6176794
9.213                0.985992959     -97.7860811
9.214                 0.98596057     -97.9549016
9.215                0.985928119      -98.124142
9.216                0.985895606     -98.2938029
9.217                0.985863032     -98.4638854
9.218                0.985830397     -98.6343902
9.219                0.985797701     -98.8053182
9.22                 0.985764944     -98.9766703
9.221                0.985732127     -99.1484473
9.222                0.985699251       -99.32065
9.223                0.985666314     -99.4932794
9.224                0.985633318     -99.6663363
9.225                0.985600263     -99.8398215
9.226                0.985567149     -100.013736
9.227                0.985533977      -100.18808
9.228                0.985500747     -100.362855
9.229                0.985467459     -100.538062
9.23                 0.985434113     -100.713701
9.231                0.985400711     -100.889773
9.232                0.985367252      -101.06628
9.233                0.985333736     -101.243221
9.234                0.985300165     -101.420598
9.235                0.985266538     -101.598412
9.236                0.985232855     -101.776662
9.237                0.985199118     -101.955351
9.238                0.985165327     -102.134479
9.239                0.985131481     -102.314046
9.24                 0.985097582     -102.494054
9.241                 0.98506363     -102.674503
9.242                0.985029625     -102.855394
9.243                0.984995567     -103.036728
9.244                0.984961458     -103.218505
9.245                0.984927297     -103.400727
9.246                0.984893085     -103.583393
9.247                0.984858823     -103.766506
9.248                 0.98482451     -103.950064
9.249                0.984790148      -104.13407
9.25                 0.984755737     -104.318524
9.251                0.984721277     -104.503427
9.252                0.984686768     -104.688779
9.253                0.984652212     -104.874581
9.254                0.984617609     -105.060834
9.255                0.984582959     -105.247538
9.256                0.984548263     -105.434695
9.257                0.984513521     -105.622304
9.258                0.984478734     -105.810367
9.259                0.984443903     -105.998885
9.26                 0.984409028     -106.187857
9.261                0.984374109     -106.377285
9.262                0.984339147     -106.567169
9.263                0.984304142      -106.75751
9.264                0.984269096     -106.948308
9.265                0.984234009     -107.139565
9.266                0.984198881      -107.33128
9.267                0.984163714     -107.523455
9.268                0.984128506      -107.71609
9.269                 0.98409326     -107.909186
9.27                 0.984057976     -108.102742
9.271                0.984022655     -108.296761
9.272                0.983987296     -108.491242
9.273                0.983951901     -108.686186
9.274                0.983916471     -108.881594
9.275                0.983881006     -109.077465
9.276                0.983845506     -109.273802
9.277                0.983809973     -109.470604
9.278                0.983774407     -109.667871
9.279                0.983738809     -109.865605
9.28                 0.983703179     -110.063805
9.281                0.983667519     -110.262473
9.282                0.983631828     -110.461609
9.283                0.983596108     -110.661213
9.284                 0.98356036     -110.861286
9.285                0.983524583     -111.061828
9.286                 0.98348878      -111.26284
9.287                 0.98345295     -111.464322
9.288                0.983417095     -111.666275
9.289                0.983381215     -111.868699
9.29                 0.983345311     -112.071594
9.291                0.983309384     -112.274962
9.292                0.983273434     -112.478802
9.293                0.983237463     -112.683114
9.294                0.983201471       -112.8879
9.295                0.983165459      -113.09316
9.296                0.983129428     -113.298893
9.297                0.983093379     -113.505101
9.298                0.983057312     -113.711783
9.299                0.983021229      -113.91894
9.3                   0.98298513     -114.126573
9.301                0.982949017     -114.334681
9.302                0.982912889     -114.543265
9.303                0.982876749     -114.752326
9.304                0.982840597     -114.961863
9.305                0.982804433     -115.171877
9.306                 0.98276826     -115.382367
9.307                0.982732077     -115.593336
9.308                0.982695885     -115.804781
9.309                0.982659687     -116.016705
9.31                 0.982623482     -116.229107
9.311                0.982587271     -116.441986
9.312                0.982551056     -116.655345
9.313                0.982514838     -116.869181
9.314                0.982478617     -117.083497
9.315                0.982442395     -117.298292
9.316                0.982406172     -117.513565
9.317                 0.98236995     -117.729318
9.318                 0.98233373      -117.94555
9.319                0.982297512     -118.162262
9.32                 0.982261298     -118.379453
9.321                0.982225089     -118.597124
9.322                0.982188886     -118.815274
9.323                 0.98215269     -119.033904
9.324                0.982116502     -119.253014
9.325                0.982080323     -119.472604
9.326                0.982044154     -119.692673
9.327                0.982007997     -119.913222
9.328                0.981971852     -120.134251
9.329                0.981935721      -120.35576
9.33                 0.981899604     -120.577749
9.331                0.981863504     -120.800217
9.332                0.981827421     -121.023164
9.333                0.981791356     -121.246592
9.334                 0.98175531     -121.470498
9.335                0.981719285     -121.694884
9.336                0.981683282     -121.919749
9.337                0.981647303     -122.145093
9.338                0.981611347     -122.370916
9.339                0.981575417     -122.597218
9.34                 0.981539514     -122.823998
9.341                0.981503639     -123.051256
9.342                0.981467793     -123.278992
9.343                0.981431977     -123.507206
9.344                0.981396194     -123.735898
9.345                0.981360443     -123.965067
9.346                0.981324727     -124.194713
9.347                0.981289047     -124.424835
9.348                0.981253403     -124.655434
9.349                0.981217798     -124.886509
9.35                 0.981182232     -125.118059
9.351                0.981146708     -125.350085
9.352                0.981111225     -125.582586
9.353                0.981075787     -125.815561
9.354                0.981040393      -126.04901
9.355                0.981005046     -126.282933
9.356                0.980969746     -126.517329
9.357                0.980934495     -126.752198
9.358                0.980899295     -126.987539
9.359                0.980864147     -127.223352
9.36                 0.980829053     -127.459636
9.361                0.980794012      -127.69639
9.362                0.980759029     -127.933615
9.363                0.980724102     -128.171309
9.364                0.980689235     -128.409472
9.365                0.980654428     -128.648103
9.366                0.980619683     -128.887202
9.367                0.980585001     -129.126768
9.368                0.980550384       -129.3668
9.369                0.980515834     -129.607298
9.37                 0.980481351     -129.848261
9.371                0.980446938     -130.089688
9.372                0.980412595     -130.331578
9.373                0.980378325     -130.573931
9.374                0.980344128     -130.816746
9.375                0.980310007     -131.060021
9.376                0.980275962     -131.303758
9.377                0.980241996     -131.547953
9.378                 0.98020811     -131.792607
9.379                0.980174305     -132.037719
9.38                 0.980140583     -132.283287
9.381                0.980106946     -132.529311
9.382                0.980073395      -132.77579
9.383                0.980039931     -133.022723
9.384                0.980006557     -133.270109
9.385                0.979973273     -133.517947
9.386                0.979940082     -133.766235
9.387                0.979906985     -134.014974
9.388                0.979873984     -134.264161
9.389                0.979841079     -134.513796
9.39                 0.979808274     -134.763877
9.391                0.979775569     -135.014404
9.392                0.979742965     -135.265375
9.393                0.979710466     -135.516789
9.394                0.979678072     -135.768646
9.395                0.979645784     -136.020942
9.396                0.979613606     -136.273679
