! TOUCHSTONE file generated by CST DESIGN STUDIO
! Date and time: Tue Feb  4 15:47:10 2025
! Project name: C:\Work\MatlabApps\UnitCellOptimizationMatlab\CST\unitcell.cst
! Tree item: Tasks\Sweep1\SPara1\S-Parameters
! Header version: 2024
! Port assignment regex: !\s*Touchstone port\s*([0-9]+)\s*=\s*(CST MWS port|CST DES external port|CST DES block port)\s*(.+)\s* \(\"(.*)\"\)(\s*mode\s*([0-9]+))?.*
! Touchstone port assignment:
! Touchstone port 1 = CST DES external port 1 ("")
# GHz S MA R 50
9                    0.989707295     -77.9965111
9.001                0.989682225     -78.1141985
9.002                 0.98965708     -78.2321719
9.003                0.989631861     -78.3504319
9.004                0.989606566     -78.4689795
9.005                0.989581197     -78.5878153
9.006                0.989555752     -78.7069403
9.007                0.989530232     -78.8263553
9.008                0.989504636     -78.9460611
9.009                0.989478964     -79.0660586
9.01                 0.989453217     -79.1863485
9.011                0.989427393     -79.3069317
9.012                0.989401494      -79.427809
9.013                0.989375518     -79.5489813
9.014                0.989349466     -79.6704495
9.015                0.989323337     -79.7922142
9.016                0.989297131     -79.9142765
9.017                0.989270849      -80.036637
9.018                0.989244489     -80.1592968
9.019                0.989218053     -80.2822565
9.02                 0.989191539     -80.4055172
9.021                0.989164948     -80.5290795
9.022                0.989138279     -80.6529444
9.023                0.989111533     -80.7771127
9.024                0.989084709     -80.9015853
9.025                0.989057807      -81.026363
9.026                0.989030827     -81.1514467
9.027                0.989003768     -81.2768372
9.028                0.988976632     -81.4025354
9.029                0.988949417     -81.5285421
9.03                 0.988922123     -81.6548583
9.031                0.988894751     -81.7814847
9.032                  0.9888673     -81.9084223
9.033                 0.98883977     -82.0356718
9.034                0.988812161     -82.1632343
9.035                0.988784473     -82.2911104
9.036                0.988756706     -82.4193012
9.037                0.988728859     -82.5478075
9.038                0.988700933     -82.6766301
9.039                0.988672927     -82.8057699
9.04                 0.988644842     -82.9352278
9.041                0.988616676     -83.0650047
9.042                0.988588431     -83.1951014
9.043                0.988560106     -83.3255189
9.044                0.988531701     -83.4562579
9.045                0.988503215     -83.5873195
9.046                0.988474649     -83.7187044
9.047                0.988446003     -83.8504135
9.048                0.988417276     -83.9824478
9.049                0.988388468     -84.1148081
9.05                  0.98835958     -84.2474953
9.051                0.988330611     -84.3805103
9.052                0.988301561     -84.5138539
9.053                0.988272431     -84.6475272
9.054                0.988243219     -84.7815308
9.055                0.988213926     -84.9158658
9.056                0.988184551     -85.0505331
9.057                0.988155096     -85.1855335
9.058                0.988125559     -85.3208678
9.059                 0.98809594     -85.4565371
9.06                  0.98806624     -85.5925423
9.061                0.988036459     -85.7288841
9.062                0.988006595     -85.8655635
9.063                 0.98797665     -86.0025814
9.064                0.987946623     -86.1399387
9.065                0.987916515     -86.2776363
9.066                0.987886324      -86.415675
9.067                0.987856051     -86.5540559
9.068                0.987825697     -86.6927798
9.069                 0.98779526     -86.8318475
9.07                 0.987764741     -86.9712601
9.071                 0.98773414     -87.1110183
9.072                0.987703456     -87.2511232
9.073                 0.98767269     -87.3915755
9.074                0.987641842     -87.5323763
9.075                0.987610912     -87.6735264
9.076                0.987579899     -87.8150266
9.077                0.987548804     -87.9568781
9.078                0.987517626     -88.0990815
9.079                0.987486365     -88.2416378
9.08                 0.987455022      -88.384548
9.081                0.987423597      -88.527813
9.082                0.987392089     -88.6714336
9.083                0.987360498     -88.8154107
9.084                0.987328825     -88.9597453
9.085                0.987297069     -89.1044383
9.086                 0.98726523     -89.2494906
9.087                0.987233309      -89.394903
9.088                0.987201305     -89.5406766
9.089                0.987169219     -89.6868121
9.09                  0.98713705     -89.8333106
9.091                0.987104798     -89.9801728
9.092                0.987072463     -90.1273998
9.093                0.987040046     -90.2749924
9.094                0.987007547     -90.4229516
9.095                0.986974964     -90.5712782
9.096                  0.9869423     -90.7199731
9.097                0.986909552     -90.8690373
9.098                0.986876722     -91.0184716
9.099                 0.98684381      -91.168277
9.1                  0.986810815     -91.3184544
9.101                0.986777738     -91.4690047
9.102                0.986744578     -91.6199287
9.103                0.986711336     -91.7712274
9.104                0.986678012     -91.9229017
9.105                0.986644606     -92.0749525
9.106                0.986611117     -92.2273806
9.107                0.986577546     -92.3801871
9.108                0.986543894     -92.5333728
9.109                0.986510159     -92.6869385
9.11                 0.986476342     -92.8408852
9.111                0.986442444     -92.9952138
9.112                0.986408464     -93.1499252
9.113                0.986374402     -93.3050203
9.114                0.986340259     -93.4604999
9.115                0.986306034      -93.616365
9.116                0.986271728     -93.7726165
9.117                 0.98623734     -93.9292552
9.118                0.986202871     -94.0862821
9.119                0.986168322      -94.243698
9.12                 0.986133691     -94.4015038
9.121                0.986098979     -94.5597004
9.122                0.986064187     -94.7182888
9.123                0.986029314     -94.8772696
9.124                0.985994361      -95.036644
9.125                0.985959327     -95.1964127
9.126                0.985924214     -95.3565766
9.127                 0.98588902     -95.5171366
9.128                0.985853746     -95.6780936
9.129                0.985818393     -95.8394484
9.13                  0.98578296     -96.0012019
9.131                0.985747447     -96.1633551
9.132                0.985711856     -96.3259086
9.133                0.985676185     -96.4888635
9.134                0.985640436     -96.6522206
9.135                0.985604607     -96.8159808
9.136                  0.9855687     -96.9801449
9.137                0.985532715     -97.1447137
9.138                0.985496652     -97.3096881
9.139                0.985460511     -97.4750691
9.14                 0.985424292     -97.6408574
9.141                0.985387996     -97.8070538
9.142                0.985351622     -97.9736593
9.143                0.985315172     -98.1406746
9.144                0.985278644     -98.3081007
9.145                0.985242041     -98.4759383
9.146                 0.98520536     -98.6441883
9.147                0.985168604     -98.8128515
9.148                0.985131772     -98.9819288
9.149                0.985094864     -99.1514209
9.15                 0.985057881     -99.3213288
9.151                0.985020823     -99.4916532
9.152                 0.98498369     -99.6623949
9.153                0.984946483     -99.8335547
9.154                0.984909202     -100.005134
9.155                0.984871846     -100.177132
9.156                0.984834417     -100.349551
9.157                0.984796915     -100.522392
9.158                 0.98475934     -100.695655
9.159                0.984721693      -100.86934
9.16                 0.984683973      -101.04345
9.161                0.984646181     -101.217984
9.162                0.984608317     -101.392943
9.163                0.984570382     -101.568329
9.164                0.984532377     -101.744141
9.165                  0.9844943     -101.920381
9.166                0.984456154      -102.09705
9.167                0.984417938     -102.274147
9.168                0.984379652     -102.451675
9.169                0.984341297     -102.629633
9.17                 0.984302874     -102.808023
9.171                0.984264382     -102.986845
9.172                0.984225822     -103.166099
9.173                0.984187195     -103.345788
9.174                0.984148501     -103.525911
9.175                0.984109741     -103.706469
9.176                0.984070914     -103.887463
9.177                0.984032021     -104.068893
9.178                0.983993064     -104.250761
9.179                0.983954041     -104.433067
9.18                 0.983914954     -104.615811
9.181                0.983875804     -104.798995
9.182                 0.98383659     -104.982619
9.183                0.983797313     -105.166683
9.184                0.983757973     -105.351189
9.185                0.983718572     -105.536137
9.186                0.983679109     -105.721528
9.187                0.983639586     -105.907362
9.188                0.983600002     -106.093641
9.189                0.983560359     -106.280364
9.19                 0.983520656     -106.467532
9.191                0.983480894     -106.655147
9.192                0.983441075     -106.843208
9.193                0.983401198     -107.031717
9.194                0.983361263     -107.220673
9.195                0.983321273     -107.410078
9.196                0.983281226     -107.599932
9.197                0.983241125     -107.790235
9.198                0.983200969     -107.980989
9.199                0.983160758     -108.172194
9.2                  0.983120495      -108.36385
9.201                0.983080179     -108.555958
9.202                 0.98303981     -108.748519
9.203                 0.98299939     -108.941533
9.204                 0.98295892     -109.135001
9.205                0.982918399     -109.328922
9.206                0.982877829     -109.523299
9.207                 0.98283721     -109.718131
9.208                0.982796543     -109.913419
9.209                0.982755829     -110.109163
9.21                 0.982715068     -110.305363
9.211                0.982674261     -110.502022
9.212                0.982633409     -110.699137
9.213                0.982592513     -110.896712
9.214                0.982551573     -111.094744
9.215                 0.98251059     -111.293236
9.216                0.982469565     -111.492188
9.217                0.982428498       -111.6916
9.218                0.982387391     -111.891472
9.219                0.982346244     -112.091805
9.22                 0.982305058       -112.2926
9.221                0.982263834     -112.493856
9.222                0.982222573     -112.695575
9.223                0.982181275     -112.897756
9.224                0.982139941       -113.1004
9.225                0.982098573     -113.303507
9.226                 0.98205717     -113.507078
9.227                0.982015735     -113.711112
9.228                0.981974267     -113.915611
9.229                0.981932768     -114.120575
9.23                 0.981891239     -114.326004
9.231                 0.98184968     -114.531898
9.232                0.981808092     -114.738257
9.233                0.981766477     -114.945083
9.234                0.981724835     -115.152374
9.235                0.981683167     -115.360132
9.236                0.981641475     -115.568357
9.237                0.981599759     -115.777048
9.238                0.981558019     -115.986207
9.239                0.981516258     -116.195833
9.24                 0.981474476     -116.405926
9.241                0.981432675     -116.616488
9.242                0.981390854     -116.827517
9.243                0.981349016     -117.039014
9.244                 0.98130716      -117.25098
9.245                 0.98126529     -117.463414
9.246                0.981223404     -117.676316
9.247                0.981181505     -117.889687
9.248                0.981139593     -118.103527
9.249                 0.98109767     -118.317836
9.25                 0.981055737     -118.532614
9.251                0.981013794     -118.747861
9.252                0.980971843     -118.963578
9.253                0.980929886     -119.179763
9.254                0.980887922     -119.396417
9.255                0.980845954     -119.613541
9.256                0.980803982     -119.831134
9.257                0.980762008     -120.049197
9.258                0.980720033     -120.267728
9.259                0.980678058     -120.486729
9.26                 0.980636084     -120.706199
9.261                0.980594113     -120.926139
9.262                0.980552145     -121.146547
9.263                0.980510182     -121.367424
9.264                0.980468225      -121.58877
9.265                0.980426276     -121.810585
9.266                0.980384336     -122.032869
9.267                0.980342405     -122.255621
9.268                0.980300486     -122.478841
9.269                0.980258579      -122.70253
9.27                 0.980216686     -122.926686
9.271                0.980174808     -123.151311
9.272                0.980132946     -123.376402
9.273                0.980091103     -123.601962
9.274                0.980049278     -123.827988
9.275                0.980007474     -124.054482
9.276                0.979965692     -124.281441
9.277                0.979923933     -124.508868
9.278                0.979882199      -124.73676
9.279                 0.97984049     -124.965118
9.28                 0.979798809     -125.193941
9.281                0.979757157     -125.423229
9.282                0.979715535     -125.652982
9.283                0.979673945     -125.883199
9.284                0.979632388     -126.113879
9.285                0.979590866     -126.345024
9.286                0.979549379     -126.576631
9.287                 0.97950793       -126.8087
9.288                 0.97946652     -127.041232
9.289                0.979425151     -127.274225
9.29                 0.979383823      -127.50768
9.291                0.979342539     -127.741594
9.292                  0.9793013     -127.975969
9.293                0.979260108     -128.210803
9.294                0.979218963     -128.446097
9.295                0.979177868     -128.681848
9.296                0.979136824     -128.918057
9.297                0.979095833     -129.154723
9.298                0.979054897     -129.391846
9.299                0.979014016     -129.629424
9.3                  0.978973192     -129.867458
9.301                0.978932428     -130.105945
9.302                0.978891724     -130.344887
9.303                0.978851083     -130.584281
9.304                0.978810505     -130.824128
9.305                0.978769993     -131.064426
9.306                0.978729548     -131.305174
9.307                0.978689172     -131.546372
9.308                0.978648866      -131.78802
9.309                0.978608633     -132.030115
9.31                 0.978568473     -132.272658
9.311                0.978528389     -132.515647
9.312                0.978488382     -132.759082
9.313                0.978448453     -133.002961
9.314                0.978408606     -133.247284
9.315                 0.97836884     -133.492049
9.316                0.978329159     -133.737257
9.317                0.978289563     -133.982905
9.318                0.978250054     -134.228992
9.319                0.978210635     -134.475518
9.32                 0.978171306     -134.722482
9.321                0.978132071     -134.969883
9.322                0.978092929     -135.217718
9.323                0.978053884     -135.465988
9.324                0.978014937     -135.714691
9.325                0.977976089     -135.963827
9.326                0.977937343     -136.213393
9.327                  0.9778987     -136.463388
9.328                0.977860162     -136.713812
9.329                 0.97782173     -136.964663
9.33                 0.977783408     -137.215941
9.331                0.977745196     -137.467642
9.332                0.977707096     -137.719767
9.333                 0.97766911     -137.972314
9.334                 0.97763124     -138.225282
9.335                0.977593488     -138.478669
9.336                0.977555855     -138.732474
9.337                0.977518344     -138.986696
9.338                0.977480956     -139.241332
9.339                0.977443693     -139.496382
9.34                 0.977406556     -139.751845
9.341                0.977369549     -140.007718
9.342                0.977332672        -140.264
9.343                0.977295927      -140.52069
9.344                0.977259317     -140.777786
9.345                0.977222843     -141.035287
9.346                0.977186507      -141.29319
9.347                 0.97715031     -141.551495
9.348                0.977114256       -141.8102
9.349                0.977078345     -142.069302
9.35                 0.977042579     -142.328801
9.351                0.977006961     -142.588695
9.352                0.976971492     -142.848982
9.353                0.976936174     -143.109659
9.354                0.976901009     -143.370727
9.355                0.976865999     -143.632182
9.356                0.976831146     -143.894022
9.357                0.976796451     -144.156247
9.358                0.976761916     -144.418854
9.359                0.976727544     -144.681842
9.36                 0.976693336     -144.945207
9.361                0.976659295      -145.20895
9.362                0.976625421     -145.473067
9.363                0.976591717     -145.737556
9.364                0.976558184     -146.002416
9.365                0.976524826     -146.267645
9.366                0.976491642     -146.533241
9.367                0.976458636     -146.799201
9.368                0.976425809     -147.065523
9.369                0.976393164     -147.332206
9.37                 0.976360701     -147.599248
9.371                0.976328422     -147.866646
9.372                0.976296331     -148.134397
9.373                0.976264428     -148.402501
9.374                0.976232715     -148.670955
9.375                0.976201194     -148.939756
9.376                0.976169868     -149.208902
9.377                0.976138737     -149.478392
9.378                0.976107804     -149.748222
9.379                 0.97607707     -150.018391
9.38                 0.976046538     -150.288895
9.381                0.976016209     -150.559734
9.382                0.975986085     -150.830905
9.383                0.975956167     -151.102404
9.384                0.975926458      -151.37423
9.385                 0.97589696     -151.646381
9.386                0.975867673     -151.918853
9.387                0.975838601     -152.191645
9.388                0.975809744     -152.464754
9.389                0.975781105     -152.738178
9.39                 0.975752684     -153.011913
9.391                0.975724485     -153.285958
9.392                0.975696509     -153.560309
9.393                0.975668757     -153.834965
9.394                0.975641231     -154.109923
9.395                0.975613933      -154.38518
9.396                0.975586865     -154.660733
