! TOUCHSTONE file generated by CST DESIGN STUDIO
! Date and time: Tue Feb  4 17:42:41 2025
! Project name: C:\Work\MatlabApps\UnitCellOptimizationMatlab\CST\unitcell.cst
! Tree item: Tasks\Sweep1\SPara1\S-Parameters
! Header version: 2024
! Port assignment regex: !\s*Touchstone port\s*([0-9]+)\s*=\s*(CST MWS port|CST DES external port|CST DES block port)\s*(.+)\s* \(\"(.*)\"\)(\s*mode\s*([0-9]+))?.*
! Touchstone port assignment:
! Touchstone port 1 = CST DES external port 1 ("")
# GHz S MA R 50
9                    0.945423595     -63.9256025
9.001                0.945311615     -64.0155679
9.002                0.945199478     -64.1057606
9.003                0.945087186     -64.1961814
9.004                0.944974735     -64.2868311
9.005                0.944862126     -64.3777105
9.006                0.944749358     -64.4688205
9.007                0.944636429     -64.5601617
9.008                0.944523339     -64.6517351
9.009                0.944410087     -64.7435414
9.01                 0.944296671     -64.8355815
9.011                0.944183091     -64.9278562
9.012                0.944069346     -65.0203663
9.013                0.943955435     -65.1131126
9.014                0.943841357     -65.2060959
9.015                 0.94372711     -65.2993172
9.016                0.943612695     -65.3927772
9.017                0.943498109     -65.4864768
9.018                0.943383353     -65.5804167
9.019                0.943268424      -65.674598
9.02                 0.943153323     -65.7690213
9.021                0.943038047     -65.8636876
9.022                0.942922596     -65.9585976
9.023                 0.94280697     -66.0537523
9.024                0.942691166     -66.1491526
9.025                0.942575184     -66.2447992
9.026                0.942459023     -66.3406931
9.027                0.942342682      -66.436835
9.028                 0.94222616      -66.533226
9.029                0.942109456     -66.6298667
9.03                 0.941992569     -66.7267583
9.031                0.941875497     -66.8239014
9.032                0.941758241      -66.921297
9.033                0.941640798      -67.018946
9.034                0.941523168     -67.1168493
9.035                0.941405349     -67.2150077
9.036                0.941287341     -67.3134222
9.037                0.941169143     -67.4120936
9.038                0.941050753     -67.5110229
9.039                 0.94093217     -67.6102109
9.04                 0.940813394     -67.7096586
9.041                0.940694424     -67.8093669
9.042                0.940575257     -67.9093366
9.043                0.940455894     -68.0095688
9.044                0.940336333     -68.1100643
9.045                0.940216573      -68.210824
9.046                0.940096613     -68.3118489
9.047                0.939976452     -68.4131399
9.048                0.939856089     -68.5146979
9.049                0.939735523     -68.6165239
9.05                 0.939614752     -68.7186188
9.051                0.939493775     -68.8209836
9.052                0.939372593     -68.9236191
9.053                0.939251202     -69.0265264
9.054                0.939129603     -69.1297064
9.055                0.939007794     -69.2331601
9.056                0.938885775     -69.3368883
9.057                0.938763543     -69.4408921
9.058                0.938641098     -69.5451725
9.059                0.938518439     -69.6497303
9.06                 0.938395564     -69.7545666
9.061                0.938272473     -69.8596824
9.062                0.938149165     -69.9650785
9.063                0.938025638     -70.0707561
9.064                0.937901891     -70.1767161
9.065                0.937777923     -70.2829594
9.066                0.937653733     -70.3894871
9.067                0.937529319     -70.4963001
9.068                0.937404682     -70.6033995
9.069                0.937279819     -70.7107862
9.07                  0.93715473     -70.8184613
9.071                0.937029413     -70.9264257
9.072                0.936903867     -71.0346805
9.073                0.936778091     -71.1432267
9.074                0.936652084     -71.2520653
9.075                0.936525844     -71.3611973
9.076                0.936399372     -71.4706237
9.077                0.936272665     -71.5803456
9.078                0.936145722      -71.690364
9.079                0.936018542     -71.8006799
9.08                 0.935891124     -71.9112943
9.081                0.935763468     -72.0222084
9.082                0.935635571     -72.1334231
9.083                0.935507432     -72.2449395
9.084                0.935379051     -72.3567586
9.085                0.935250427     -72.4688815
9.086                0.935121557     -72.5813092
9.087                0.934992442     -72.6940429
9.088                0.934863079     -72.8070835
9.089                0.934733468     -72.9204321
9.09                 0.934603608     -73.0340898
9.091                0.934473497     -73.1480577
9.092                0.934343134     -73.2623368
9.093                0.934212518     -73.3769283
9.094                0.934081648     -73.4918331
9.095                0.933950523     -73.6070524
9.096                0.933819142     -73.7225873
9.097                0.933687503     -73.8384389
9.098                0.933555605     -73.9546082
9.099                0.933423447     -74.0710964
9.1                  0.933291029     -74.1879046
9.101                0.933158348     -74.3050338
9.102                0.933025403     -74.4224852
9.103                0.932892195     -74.5402598
9.104                 0.93275872     -74.6583589
9.105                0.932624979     -74.7767835
9.106                 0.93249097     -74.8955347
9.107                0.932356692     -75.0146137
9.108                0.932222143     -75.1340216
9.109                0.932087323     -75.2537594
9.11                 0.931952231     -75.3738285
9.111                0.931816865     -75.4942298
9.112                0.931681224     -75.6149646
9.113                0.931545306     -75.7360339
9.114                0.931409112      -75.857439
9.115                 0.93127264     -75.9791809
9.116                0.931135888     -76.1012609
9.117                0.930998855     -76.2236801
9.118                0.930861541     -76.3464396
9.119                0.930723944     -76.4695406
9.12                 0.930586062     -76.5929843
9.121                0.930447896     -76.7167718
9.122                0.930309444     -76.8409043
9.123                0.930170704     -76.9653831
9.124                0.930031675     -77.0902092
9.125                0.929892357     -77.2153839
9.126                0.929752748     -77.3409083
9.127                0.929612848     -77.4667836
9.128                0.929472654     -77.5930111
9.129                0.929332166     -77.7195919
9.13                 0.929191383     -77.8465272
9.131                0.929050304     -77.9738182
9.132                0.928908927     -78.1014662
9.133                0.928767252     -78.2294722
9.134                0.928625277     -78.3578377
9.135                0.928483002     -78.4865636
9.136                0.928340424     -78.6156514
9.137                0.928197544     -78.7451022
9.138                 0.92805436     -78.8749171
9.139                0.927910871     -79.0050975
9.14                 0.927767076     -79.1356446
9.141                0.927622973     -79.2665596
9.142                0.927478563     -79.3978438
9.143                0.927333843     -79.5294983
9.144                0.927188813     -79.6615244
9.145                0.927043471     -79.7939234
9.146                0.926897817     -79.9266966
9.147                 0.92675185      -80.059845
9.148                0.926605568     -80.1933701
9.149                0.926458971     -80.3272731
9.15                 0.926312057     -80.4615552
9.151                0.926164825     -80.5962177
9.152                0.926017275     -80.7312619
9.153                0.925869406      -80.866689
9.154                0.925721216     -81.0025003
9.155                0.925572704      -81.138697
9.156                 0.92542387     -81.2752805
9.157                0.925274712      -81.412252
9.158                 0.92512523     -81.5496129
9.159                0.924975423     -81.6873643
9.16                 0.924825289     -81.8255076
9.161                0.924674828     -81.9640441
9.162                0.924524039      -82.102975
9.163                0.924372921     -82.2423017
9.164                0.924221472     -82.3820255
9.165                0.924069693     -82.5221476
9.166                0.923917582     -82.6626693
9.167                0.923765137      -82.803592
9.168                 0.92361236      -82.944917
9.169                0.923459248     -83.0866456
9.17                   0.9233058      -83.228779
9.171                0.923152016     -83.3713187
9.172                0.922997895     -83.5142659
9.173                0.922843436     -83.6576219
9.174                0.922688638     -83.8013881
9.175                0.922533501     -83.9455658
9.176                0.922378023     -84.0901563
9.177                0.922222205      -84.235161
9.178                0.922066044     -84.3805811
9.179                 0.92190954     -84.5264181
9.18                 0.921752693     -84.6726732
9.181                0.921595502     -84.8193478
9.182                0.921437966     -84.9664432
9.183                0.921280084     -85.1139608
9.184                0.921121856     -85.2619019
9.185                 0.92096328     -85.4102679
9.186                0.920804357       -85.55906
9.187                0.920645085     -85.7082798
9.188                0.920485464     -85.8579284
9.189                0.920325494     -86.0080073
9.19                 0.920165173     -86.1585179
9.191                  0.9200045     -86.3094614
9.192                0.919843477     -86.4608392
9.193                0.919682101     -86.6126528
9.194                0.919520372     -86.7649034
9.195                0.919358289     -86.9175924
9.196                0.919195853     -87.0707213
9.197                0.919033063     -87.2242912
9.198                0.918869917     -87.3783038
9.199                0.918706416     -87.5327602
9.2                  0.918542559     -87.6876619
9.201                0.918378345     -87.8430102
9.202                0.918213775     -87.9988065
9.203                0.918048847     -88.1550522
9.204                0.917883562     -88.3117487
9.205                0.917717918     -88.4688974
9.206                0.917551916     -88.6264996
9.207                0.917385555     -88.7845566
9.208                0.917218835       -88.94307
9.209                0.917051755      -89.102041
9.21                 0.916884316     -89.2614711
9.211                0.916716516     -89.4213617
9.212                0.916548356      -89.581714
9.213                0.916379835     -89.7425296
9.214                0.916210953     -89.9038097
9.215                 0.91604171     -90.0655558
9.216                0.915872106     -90.2277693
9.217                0.915702141     -90.3904515
9.218                0.915531813     -90.5536039
9.219                0.915361125     -90.7172278
9.22                 0.915190074     -90.8813246
9.221                0.915018661     -91.0458957
9.222                0.914846887     -91.2109426
9.223                 0.91467475     -91.3764665
9.224                0.914502252     -91.5424688
9.225                0.914329391     -91.7089511
9.226                0.914156168     -91.8759146
9.227                0.913982584     -92.0433607
9.228                0.913808638     -92.2112909
9.229                 0.91363433     -92.3797064
9.23                  0.91345966     -92.5486088
9.231                0.913284629     -92.7179994
9.232                0.913109237     -92.8878795
9.233                0.912933484     -93.0582506
9.234                 0.91275737     -93.2291141
9.235                0.912580896     -93.4004713
9.236                0.912404061     -93.5723236
9.237                0.912226867     -93.7446725
9.238                0.912049313     -93.9175192
9.239                  0.9118714     -94.0908652
9.24                 0.911693128     -94.2647118
9.241                0.911514498     -94.4390604
9.242                 0.91133551     -94.6139125
9.243                0.911156164     -94.7892693
9.244                0.910976462     -94.9651323
9.245                0.910796404     -95.1415028
9.246                0.910615989     -95.3183822
9.247                 0.91043522     -95.4957719
9.248                0.910254096     -95.6736732
9.249                0.910072619     -95.8520875
9.25                 0.909890789     -96.0310161
9.251                0.909708606     -96.2104605
9.252                0.909526072      -96.390422
9.253                0.909343187     -96.5709019
9.254                0.909159952     -96.7519015
9.255                0.908976369     -96.9334224
9.256                0.908792437     -97.1154657
9.257                0.908608158     -97.2980328
9.258                0.908423533     -97.4811252
9.259                0.908238564      -97.664744
9.26                  0.90805325     -97.8488907
9.261                0.907867593     -98.0335666
9.262                0.907681594     -98.2187731
9.263                0.907495255     -98.4045113
9.264                0.907308576     -98.5907828
9.265                 0.90712156     -98.7775887
9.266                0.906934206     -98.9649305
9.267                0.906746517     -99.1528093
9.268                0.906558494     -99.3412266
9.269                0.906370137     -99.5301836
9.27                  0.90618145     -99.7196817
9.271                0.905992433     -99.9097221
9.272                0.905803087     -100.100306
9.273                0.905613415     -100.291435
9.274                0.905423418      -100.48311
9.275                0.905233097     -100.675333
9.276                0.905042454     -100.868104
9.277                0.904851492     -101.061425
9.278                0.904660211     -101.255298
9.279                0.904468614     -101.449723
9.28                 0.904276702     -101.644702
9.281                0.904084477     -101.840236
9.282                0.903891942     -102.036326
9.283                0.903699099     -102.232973
9.284                0.903505948      -102.43018
9.285                0.903312494     -102.627946
9.286                0.903118736     -102.826273
9.287                0.902924679     -103.025163
9.288                0.902730324     -103.224616
9.289                0.902535674     -103.424634
9.29                  0.90234073     -103.625218
9.291                0.902145495     -103.826369
9.292                0.901949972     -104.028089
9.293                0.901754163     -104.230378
9.294                 0.90155807     -104.433237
9.295                0.901361697     -104.636668
9.296                0.901165046     -104.840673
9.297                0.900968119     -105.045251
9.298                 0.90077092     -105.250404
9.299                0.900573451     -105.456134
9.3                  0.900375715     -105.662441
9.301                0.900177715     -105.869326
9.302                0.899979453     -106.076792
9.303                0.899780934     -106.284837
9.304                 0.89958216     -106.493465
9.305                0.899383133     -106.702675
9.306                0.899183858      -106.91247
9.307                0.898984338     -107.122849
9.308                0.898784575     -107.333814
9.309                0.898584574     -107.545366
9.31                 0.898384337     -107.757506
9.311                0.898183869     -107.970235
9.312                0.897983172     -108.183554
9.313                 0.89778225     -108.397464
9.314                0.897581107     -108.611966
9.315                0.897379747     -108.827061
9.316                0.897178173     -109.042749
9.317                0.896976389     -109.259033
9.318                0.896774399     -109.475912
9.319                0.896572208     -109.693388
9.32                 0.896369818     -109.911461
9.321                0.896167234     -110.130133
9.322                0.895964461     -110.349404
9.323                0.895761502     -110.569275
9.324                0.895558362     -110.789747
9.325                0.895355045     -111.010821
9.326                0.895151555     -111.232498
9.327                0.894947897     -111.454778
9.328                0.894744076     -111.677663
9.329                0.894540095     -111.901152
9.33                  0.89433596     -112.125248
9.331                0.894131676      -112.34995
9.332                0.893927246     -112.575259
9.333                0.893722676     -112.801177
9.334                0.893517971     -113.027703
9.335                0.893313136     -113.254839
9.336                0.893108176     -113.482584
9.337                0.892903096     -113.710941
9.338                0.892697901     -113.939909
9.339                0.892492596     -114.169489
9.34                 0.892287187     -114.399682
9.341                0.892081679     -114.630489
9.342                0.891876078     -114.861909
9.343                0.891670389     -115.093944
9.344                0.891464617     -115.326593
9.345                0.891258768     -115.559859
9.346                0.891052849      -115.79374
9.347                0.890846864     -116.028238
9.348                 0.89064082     -116.263353
9.349                0.890434722     -116.499086
9.35                 0.890228578     -116.735436
9.351                0.890022391     -116.972405
9.352                 0.88981617     -117.209993
9.353                0.889609919       -117.4482
9.354                0.889403646     -117.687026
9.355                0.889197357     -117.926473
9.356                0.888991057     -118.166539
9.357                0.888784754     -118.407226
9.358                0.888578455     -118.648534
9.359                0.888372165     -118.890463
9.36                 0.888165892     -119.133014
9.361                0.887959641     -119.376186
9.362                0.887753421     -119.619979
9.363                0.887547239     -119.864395
9.364                  0.8873411     -120.109433
9.365                0.887135012     -120.355093
9.366                0.886928983     -120.601375
9.367                0.886723019      -120.84828
9.368                0.886517127     -121.095808
9.369                0.886311316     -121.343958
9.37                 0.886105593      -121.59273
9.371                0.885899965     -121.842126
9.372                0.885694439     -122.092144
9.373                0.885489023     -122.342784
9.374                0.885283726     -122.594047
9.375                0.885078554     -122.845932
9.376                0.884873516      -123.09844
9.377                 0.88466862      -123.35157
9.378                0.884463873     -123.605321
9.379                0.884259283     -123.859695
9.38                  0.88405486      -124.11469
9.381                 0.88385061     -124.370306
9.382                0.883646543     -124.626544
9.383                0.883442666     -124.883402
9.384                0.883238989     -125.140881
9.385                0.883035519     -125.398979
9.386                0.882832265     -125.657698
9.387                0.882629235     -125.917036
9.388                0.882426439     -126.176992
9.389                0.882223886     -126.437567
9.39                 0.882021583      -126.69876
9.391                 0.88181954     -126.960571
9.392                0.881617766     -127.222998
9.393                 0.88141627     -127.486041
9.394                0.881215061     -127.749701
9.395                0.881014148     -128.013975
9.396                0.880813541     -128.278864
