! TOUCHSTONE file generated by CST DESIGN STUDIO
! Date and time: Tue Feb  4 17:42:39 2025
! Project name: C:\Work\MatlabApps\UnitCellOptimizationMatlab\CST\unitcell.cst
! Tree item: Tasks\Sweep1\SPara1\S-Parameters
! Header version: 2024
! Port assignment regex: !\s*Touchstone port\s*([0-9]+)\s*=\s*(CST MWS port|CST DES external port|CST DES block port)\s*(.+)\s* \(\"(.*)\"\)(\s*mode\s*([0-9]+))?.*
! Touchstone port assignment:
! Touchstone port 1 = CST DES external port 1 ("")
# GHz S MA R 50
9                    0.940625159     -68.4624111
9.001                0.940490757     -68.5627718
9.002                0.940356156     -68.6633931
9.003                0.940221357     -68.7642761
9.004                0.940086358     -68.8654216
9.005                0.939951158     -68.9668307
9.006                0.939815756     -69.0685041
9.007                0.939680152     -69.1704428
9.008                0.939544345     -69.2726479
9.009                0.939408334     -69.3751201
9.01                 0.939272118     -69.4778606
9.011                0.939135697     -69.5808701
9.012                0.938999069     -69.6841497
9.013                0.938862233     -69.7877002
9.014                0.938725189     -69.8915228
9.015                0.938587937     -69.9956183
9.016                0.938450474     -70.0999876
9.017                0.938312801     -70.2046319
9.018                0.938174916     -70.3095519
9.019                0.938036819     -70.4147487
9.02                 0.937898509     -70.5202233
9.021                0.937759985     -70.6259767
9.022                0.937621246     -70.7320097
9.023                0.937482291     -70.8383235
9.024                0.937343119      -70.944919
9.025                 0.93720373     -71.0517972
9.026                0.937064123     -71.1589591
9.027                0.936924296     -71.2664056
9.028                0.936784249     -71.3741379
9.029                0.936643982     -71.4821569
9.03                 0.936503493     -71.5904635
9.031                0.936362781     -71.6990589
9.032                0.936221846      -71.807944
9.033                0.936080686     -71.9171199
9.034                0.935939302     -72.0265875
9.035                0.935797691     -72.1363479
9.036                0.935655853     -72.2464022
9.037                0.935513788     -72.3567513
9.038                0.935371494     -72.4673963
9.039                0.935228971     -72.5783382
9.04                 0.935086217     -72.6895781
9.041                0.934943232      -72.801117
9.042                0.934800015      -72.912956
9.043                0.934656565     -73.0250961
9.044                0.934512881     -73.1375384
9.045                0.934368963     -73.2502839
9.046                0.934224809     -73.3633337
9.047                0.934080418     -73.4766889
9.048                0.933935791     -73.5903505
9.049                0.933790925     -73.7043196
9.05                  0.93364582     -73.8185973
9.051                0.933500476     -73.9331846
9.052                 0.93335489     -74.0480826
9.053                0.933209063     -74.1632925
9.054                0.933062994     -74.2788153
9.055                0.932916682     -74.3946521
9.056                0.932770125      -74.510804
9.057                0.932623323     -74.6272721
9.058                0.932476275     -74.7440575
9.059                0.932328981     -74.8611613
9.06                 0.932181439     -74.9785846
9.061                0.932033648     -75.0963285
9.062                0.931885608     -75.2143942
9.063                0.931737318     -75.3327827
9.064                0.931588778     -75.4514953
9.065                0.931439985     -75.5705329
9.066                0.931290939     -75.6898968
9.067                 0.93114164      -75.809588
9.068                0.930992086     -75.9296077
9.069                0.930842278     -76.0499571
9.07                 0.930692213     -76.1706373
9.071                0.930541891     -76.2916494
9.072                0.930391311     -76.4129946
9.073                0.930240473      -76.534674
9.074                0.930089375     -76.6566888
9.075                0.929938017     -76.7790402
9.076                0.929786398     -76.9017293
9.077                0.929634517     -77.0247572
9.078                0.929482373     -77.1481252
9.079                0.929329965     -77.2718344
9.08                 0.929177294      -77.395886
9.081                0.929024357     -77.5202812
9.082                0.928871153     -77.6450212
9.083                0.928717683      -77.770107
9.084                0.928563946       -77.89554
9.085                 0.92840994     -78.0213213
9.086                0.928255665     -78.1474522
9.087                0.928101119     -78.2739337
9.088                0.927946303     -78.4007672
9.089                0.927791215     -78.5279537
9.09                 0.927635855     -78.6554946
9.091                0.927480222     -78.7833911
9.092                0.927324314     -78.9116443
9.093                0.927168132     -79.0402554
9.094                0.927011675     -79.1692258
9.095                0.926854941     -79.2985565
9.096                 0.92669793     -79.4282489
9.097                0.926540641     -79.5583041
9.098                0.926383074     -79.6887235
9.099                0.926225228     -79.8195082
9.1                  0.926067102     -79.9506595
9.101                0.925908694     -80.0821786
9.102                0.925750006     -80.2140667
9.103                0.925591035     -80.3463252
9.104                0.925431782     -80.4789552
9.105                0.925272245      -80.611958
9.106                0.925112423      -80.745335
9.107                0.924952317     -80.8790872
9.108                0.924791925     -81.0132161
9.109                0.924631247     -81.1477228
9.11                 0.924470281     -81.2826086
9.111                0.924309028     -81.4178749
9.112                0.924147487     -81.5535228
9.113                0.923985657     -81.6895537
9.114                0.923823537     -81.8259688
9.115                0.923661127     -81.9627695
9.116                0.923498426     -82.0999569
9.117                0.923335433     -82.2375325
9.118                0.923172148     -82.3754974
9.119                0.923008571      -82.513853
9.12                   0.9228447     -82.6526007
9.121                0.922680535     -82.7917415
9.122                0.922516076      -82.931277
9.123                0.922351322     -83.0712084
9.124                0.922186272     -83.2115369
9.125                0.922020926      -83.352264
9.126                0.921855283     -83.4933909
9.127                0.921689343     -83.6349189
9.128                0.921523105     -83.7768494
9.129                0.921356569     -83.9191836
9.13                 0.921189734      -84.061923
9.131                  0.9210226     -84.2050688
9.132                0.920855167     -84.3486223
9.133                0.920687433     -84.4925849
9.134                0.920519398      -84.636958
9.135                0.920351062     -84.7817428
9.136                0.920182425     -84.9269406
9.137                0.920013485     -85.0725529
9.138                0.919844244      -85.218581
9.139                0.919674699     -85.3650262
9.14                 0.919504851     -85.5118899
9.141                  0.9193347     -85.6591733
9.142                0.919164245      -85.806878
9.143                0.918993486     -85.9550051
9.144                0.918822422     -86.1035562
9.145                0.918651053     -86.2525324
9.146                0.918479379     -86.4019352
9.147                  0.9183074      -86.551766
9.148                0.918135114     -86.7020261
9.149                0.917962523     -86.8527169
9.15                 0.917789626     -87.0038397
9.151                0.917616421     -87.1553959
9.152                0.917442911     -87.3073869
9.153                0.917269093     -87.4598141
9.154                0.917094968     -87.6126788
9.155                0.916920536     -87.7659824
9.156                0.916745796     -87.9197262
9.157                0.916570749     -88.0739117
9.158                0.916395394     -88.2285403
9.159                0.916219731     -88.3836132
9.16                 0.916043761      -88.539132
9.161                0.915867482     -88.6950979
9.162                0.915690895     -88.8515124
9.163                   0.915514     -89.0083769
9.164                0.915336798     -89.1656927
9.165                0.915159287     -89.3234612
9.166                0.914981468     -89.4816838
9.167                0.914803341      -89.640362
9.168                0.914624906      -89.799497
9.169                0.914446163     -89.9590903
9.17                 0.914267112     -90.1191433
9.171                0.914087754     -90.2796574
9.172                0.913908088      -90.440634
9.173                0.913728115     -90.6020744
9.174                0.913547835     -90.7639801
9.175                0.913367247     -90.9263525
9.176                0.913186353     -91.0891929
9.177                0.913005153     -91.2525028
9.178                0.912823646     -91.4162835
9.179                0.912641833     -91.5805365
9.18                 0.912459715     -91.7452632
9.181                0.912277291     -91.9104649
9.182                0.912094563      -92.076143
9.183                0.911911529      -92.242299
9.184                0.911728192     -92.4089342
9.185                0.911544551     -92.5760501
9.186                0.911360607      -92.743648
9.187                 0.91117636     -92.9117294
9.188                0.910991811     -93.0802956
9.189                 0.91080696      -93.249348
9.19                 0.910621808     -93.4188881
9.191                0.910436355     -93.5889172
9.192                0.910250602     -93.7594367
9.193                 0.91006455     -93.9304481
9.194                  0.9098782     -94.1019527
9.195                0.909691551     -94.2739519
9.196                0.909504605     -94.4464471
9.197                0.909317363     -94.6194397
9.198                0.909129825      -94.792931
9.199                0.908941992     -94.9669226
9.2                  0.908753865     -95.1414157
9.201                0.908565445     -95.3164118
9.202                0.908376733     -95.4919122
9.203                0.908187729     -95.6679184
9.204                0.907998435     -95.8444316
9.205                0.907808852     -96.0214534
9.206                 0.90761898      -96.198985
9.207                0.907428821     -96.3770278
9.208                0.907238376     -96.5555833
9.209                0.907047645     -96.7346528
9.21                 0.906856631     -96.9142376
9.211                0.906665334     -97.0943391
9.212                0.906473755     -97.2749588
9.213                0.906281896     -97.4560979
9.214                0.906089758     -97.6377578
9.215                0.905897343     -97.8199399
9.216                0.905704651     -98.0026455
9.217                0.905511684     -98.1858761
9.218                0.905318444     -98.3696328
9.219                0.905124932     -98.5539172
9.22                 0.904931149     -98.7387305
9.221                0.904737098      -98.924074
9.222                0.904542779     -99.1099492
9.223                0.904348194     -99.2963572
9.224                0.904153345     -99.4832996
9.225                0.903958234     -99.6707775
9.226                0.903762862     -99.8587924
9.227                0.903567232     -100.047345
9.228                0.903371344     -100.236438
9.229                0.903175201     -100.426072
9.23                 0.902978805     -100.616247
9.231                0.902782157     -100.806966
9.232                 0.90258526      -100.99823
9.233                0.902388116      -101.19004
9.234                0.902190726     -101.382397
9.235                0.901993093     -101.575303
9.236                0.901795219     -101.768759
9.237                0.901597106     -101.962766
9.238                0.901398757     -102.157325
9.239                0.901200173     -102.352438
9.24                 0.901001357     -102.548106
9.241                0.900802312      -102.74433
9.242                0.900603039     -102.941112
9.243                0.900403542     -103.138452
9.244                0.900203822     -103.336352
9.245                0.900003882     -103.534813
9.246                0.899803726     -103.733836
9.247                0.899603355     -103.933423
9.248                0.899402772     -104.133575
9.249                0.899201981     -104.334293
9.25                 0.899000983     -104.535578
9.251                0.898799781     -104.737431
9.252                 0.89859838     -104.939853
9.253                 0.89839678     -105.142847
9.254                0.898194986     -105.346412
9.255                0.897993001      -105.55055
9.256                0.897790827     -105.755262
9.257                0.897588469     -105.960549
9.258                0.897385928     -106.166413
9.259                0.897183208     -106.372854
9.26                 0.896980312     -106.579873
9.261                0.896777245     -106.787473
9.262                0.896574009     -106.995653
9.263                0.896370608     -107.204415
9.264                0.896167044      -107.41376
9.265                0.895963323     -107.623689
9.266                0.895759447     -107.834202
9.267                0.895555421     -108.045302
9.268                0.895351247     -108.256989
9.269                 0.89514693     -108.469265
9.27                 0.894942473     -108.682129
9.271                0.894737881     -108.895583
9.272                0.894533157     -109.109629
9.273                0.894328306     -109.324266
9.274                0.894123331     -109.539497
9.275                0.893918237     -109.755322
9.276                0.893713027     -109.971742
9.277                0.893507707     -110.188757
9.278                 0.89330228     -110.406369
9.279                0.893096751      -110.62458
9.28                 0.892891124     -110.843388
9.281                0.892685404     -111.062796
9.282                0.892479595     -111.282805
9.283                0.892273702     -111.503415
9.284                 0.89206773     -111.724627
9.285                0.891861682     -111.946441
9.286                0.891655565      -112.16886
9.287                0.891449383     -112.391883
9.288                0.891243141     -112.615511
9.289                0.891036843     -112.839745
9.29                 0.890830496     -113.064587
9.291                0.890624103     -113.290035
9.292                0.890417671     -113.516092
9.293                0.890211204     -113.742758
9.294                0.890004708     -113.970034
9.295                0.889798188      -114.19792
9.296                0.889591649     -114.426418
9.297                0.889385097     -114.655527
9.298                0.889178538     -114.885248
9.299                0.888971978     -115.115582
9.3                  0.888765421      -115.34653
9.301                0.888558873     -115.578092
9.302                0.888352341     -115.810269
9.303                0.888145831     -116.043061
9.304                0.887939348     -116.276469
9.305                0.887732898     -116.510493
9.306                0.887526487     -116.745135
9.307                0.887320122     -116.980393
9.308                0.887113809     -117.216269
9.309                0.886907554     -117.452764
9.31                 0.886701363     -117.689877
9.311                0.886495243     -117.927609
9.312                  0.8862892     -118.165961
9.313                0.886083241     -118.404932
9.314                0.885877372     -118.644523
9.315                0.885671601     -118.884736
9.316                0.885465933     -119.125568
9.317                0.885260376     -119.367022
9.318                0.885054937     -119.609098
9.319                0.884849622     -119.851794
9.32                 0.884644439     -120.095113
9.321                0.884439394     -120.339054
9.322                0.884234495     -120.583617
9.323                 0.88402975     -120.828802
9.324                0.883825164     -121.074609
9.325                0.883620746      -121.32104
9.326                0.883416503     -121.568093
9.327                0.883212443     -121.815768
9.328                0.883008572     -122.064067
9.329                  0.8828049     -122.312988
9.33                 0.882601432     -122.562532
9.331                0.882398178     -122.812699
9.332                0.882195145     -123.063489
9.333                0.881992341     -123.314902
9.334                0.881789773     -123.566937
9.335                0.881587451     -123.819594
9.336                0.881385381     -124.072874
9.337                0.881183572     -124.326776
9.338                0.880982033     -124.581299
9.339                0.880780771     -124.836445
9.34                 0.880579795     -125.092212
9.341                0.880379113       -125.3486
9.342                0.880178734     -125.605609
9.343                0.879978667     -125.863238
9.344                0.879778919     -126.121488
9.345                0.879579499     -126.380358
9.346                0.879380417     -126.639847
9.347                0.879181681     -126.899955
9.348                  0.8789833     -127.160681
9.349                0.878785283     -127.422025
9.35                 0.878587638     -127.683987
9.351                0.878390376     -127.946566
9.352                0.878193504     -128.209761
9.353                0.877997032     -128.473572
9.354                0.877800969     -128.737998
9.355                0.877605325     -129.003038
9.356                0.877410109     -129.268692
9.357                 0.87721533     -129.534959
9.358                0.877020998     -129.801838
9.359                0.876827121     -130.069329
9.36                 0.876633711      -130.33743
9.361                0.876440775     -130.606142
9.362                0.876248325     -130.875462
9.363                0.876056369      -131.14539
9.364                0.875864918     -131.415925
9.365                0.875673981     -131.687066
9.366                0.875483568     -131.958812
9.367                0.875293689     -132.231162
9.368                0.875104354     -132.504116
9.369                0.874915573     -132.777671
9.37                 0.874727356     -133.051826
9.371                0.874539713     -133.326582
9.372                0.874352655     -133.601935
9.373                0.874166191     -133.877886
9.374                0.873980332     -134.154433
9.375                0.873795088     -134.431574
9.376                0.873610469     -134.709308
9.377                0.873426486     -134.987634
9.378                 0.87324315     -135.266551
9.379                 0.87306047     -135.546057
9.38                 0.872878457      -135.82615
9.381                0.872697122     -136.106829
9.382                0.872516475     -136.388092
9.383                0.872336527     -136.669939
9.384                0.872157289     -136.952367
9.385                0.871978771     -137.235374
9.386                0.871800983      -137.51896
9.387                0.871623938     -137.803121
9.388                0.871447644     -138.087857
9.389                0.871272114     -138.373166
9.39                 0.871097358     -138.659046
9.391                0.870923387     -138.945495
9.392                0.870750212      -139.23251
9.393                0.870577843     -139.520091
9.394                0.870406292     -139.808236
9.395                 0.87023557     -140.096941
9.396                0.870065686     -140.386205
