! TOUCHSTONE file generated by CST DESIGN STUDIO
! Date and time: Tue Feb  4 17:42:31 2025
! Project name: C:\Work\MatlabApps\UnitCellOptimizationMatlab\CST\unitcell.cst
! Tree item: Tasks\Sweep1\SPara1\S-Parameters
! Header version: 2024
! Port assignment regex: !\s*Touchstone port\s*([0-9]+)\s*=\s*(CST MWS port|CST DES external port|CST DES block port)\s*(.+)\s* \(\"(.*)\"\)(\s*mode\s*([0-9]+))?.*
! Touchstone port assignment:
! Touchstone port 1 = CST DES external port 1 ("")
# GHz S MA R 50
9                    0.920000221     -88.5951033
9.001                0.919756322     -88.7477917
9.002                0.919512183     -88.9009053
9.003                0.919267804     -89.0544455
9.004                0.919023186     -89.2084136
9.005                 0.91877833     -89.3628111
9.006                0.918533238     -89.5176393
9.007                 0.91828791     -89.6728997
9.008                0.918042348     -89.8285936
9.009                0.917796552     -89.9847225
9.01                 0.917550524     -90.1412878
9.011                0.917304264     -90.2982909
9.012                0.917057775     -90.4557332
9.013                0.916811058      -90.613616
9.014                0.916564112     -90.7719409
9.015                0.916316941     -90.9307092
9.016                0.916069545     -91.0899224
9.017                0.915821926     -91.2495818
9.018                0.915574084     -91.4096889
9.019                0.915326021     -91.5702451
9.02                 0.915077739     -91.7312519
9.021                0.914829239     -91.8927105
9.022                0.914580522     -92.0546226
9.023                 0.91433159     -92.2169894
9.024                0.914082445     -92.3798124
9.025                0.913833087     -92.5430931
9.026                0.913583519     -92.7068328
9.027                0.913333742      -92.871033
9.028                0.913083758     -93.0356951
9.029                0.912833567     -93.2008206
9.03                 0.912583173     -93.3664108
9.031                0.912332576     -93.5324672
9.032                0.912081779     -93.6989912
9.033                0.911830782     -93.8659843
9.034                0.911579589     -94.0334479
9.035                  0.9113282     -94.2013834
9.036                0.911076617     -94.3697922
9.037                0.910824843     -94.5386757
9.038                0.910572878     -94.7080355
9.039                0.910320726     -94.8778729
9.04                 0.910068389     -95.0481893
9.041                0.909815867     -95.2189862
9.042                0.909563163     -95.3902651
9.043                0.909310279     -95.5620272
9.044                0.909057218     -95.7342741
9.045                0.908803981     -95.9070073
9.046                0.908550571      -96.080228
9.047                0.908296989     -96.2539377
9.048                0.908043238     -96.4281379
9.049                 0.90778932       -96.60283
9.05                 0.907535238     -96.7780154
9.051                0.907280994     -96.9536955
9.052                 0.90702659     -97.1298718
9.053                0.906772028     -97.3065456
9.054                0.906517311     -97.4837184
9.055                0.906262442     -97.6613916
9.056                0.906007423     -97.8395666
9.057                0.905752256     -98.0182448
9.058                0.905496945     -98.1974277
9.059                0.905241491     -98.3771166
9.06                 0.904985898     -98.5573129
9.061                0.904730168      -98.738018
9.062                0.904474304     -98.9192335
9.063                0.904218308     -99.1009605
9.064                0.903962184     -99.2832007
9.065                0.903705934     -99.4659552
9.066                0.903449561     -99.6492256
9.067                0.903193069     -99.8330132
9.068                 0.90293646     -100.017319
9.069                0.902679737     -100.202146
9.07                 0.902422903     -100.387493
9.071                0.902165962     -100.573364
9.072                0.901908916     -100.759758
9.073                 0.90165177     -100.946678
9.074                0.901394525     -101.134125
9.075                0.901137185       -101.3221
9.076                0.900879754     -101.510605
9.077                0.900622236      -101.69964
9.078                0.900364632     -101.889208
9.079                0.900106948      -102.07931
9.08                 0.899849186     -102.269946
9.081                 0.89959135     -102.461119
9.082                0.899333444      -102.65283
9.083                0.899075471     -102.845079
9.084                0.898817435     -103.037869
9.085                0.898559339     -103.231201
9.086                0.898301189     -103.425075
9.087                0.898042987     -103.619494
9.088                0.897784737     -103.814458
9.089                0.897526443      -104.00997
9.09                  0.89726811     -104.206029
9.091                0.897009741     -104.402638
9.092                0.896751341     -104.599798
9.093                0.896492913     -104.797509
9.094                0.896234462     -104.995774
9.095                0.895975992     -105.194594
9.096                0.895717508     -105.393969
9.097                0.895459013     -105.593902
9.098                0.895200512     -105.794393
9.099                0.894942011     -105.995443
9.1                  0.894683512     -106.197054
9.101                0.894425021     -106.399228
9.102                0.894166542     -106.601964
9.103                0.893908081     -106.805265
9.104                0.893649641     -107.009132
9.105                0.893391228     -107.213565
9.106                0.893132847     -107.418567
9.107                0.892874502     -107.624137
9.108                0.892616198     -107.830279
9.109                0.892357941     -108.036991
9.11                 0.892099735     -108.244277
9.111                0.891841585     -108.452136
9.112                0.891583498      -108.66057
9.113                0.891325477     -108.869581
9.114                0.891067529     -109.079168
9.115                0.890809659     -109.289334
9.116                0.890551871      -109.50008
9.117                0.890294173     -109.711406
9.118                0.890036568     -109.923313
9.119                0.889779064     -110.135803
9.12                 0.889521664     -110.348877
9.121                0.889264376     -110.562536
9.122                0.889007205     -110.776781
9.123                0.888750157     -110.991612
9.124                0.888493238     -111.207032
9.125                0.888236453      -111.42304
9.126                0.887979809     -111.639638
9.127                0.887723311     -111.856827
9.128                0.887466967     -112.074608
9.129                0.887210782     -112.292981
9.13                 0.886954762     -112.511949
9.131                0.886698914     -112.731511
9.132                0.886443245     -112.951668
9.133                 0.88618776     -113.172422
9.134                0.885932466     -113.393774
9.135                 0.88567737     -113.615723
9.136                0.885422479     -113.838272
9.137                0.885167798     -114.061421
9.138                0.884913336      -114.28517
9.139                0.884659098     -114.509521
9.14                 0.884405093     -114.734475
9.141                0.884151326     -114.960032
9.142                0.883897804     -115.186193
9.143                0.883644536     -115.412958
9.144                0.883391527      -115.64033
9.145                0.883138786     -115.868307
9.146                0.882886319     -116.096892
9.147                0.882634134     -116.326084
9.148                0.882382239     -116.555885
9.149                 0.88213064     -116.786294
9.15                 0.881879346     -117.017314
9.151                0.881628364     -117.248943
9.152                0.881377701     -117.481184
9.153                0.881127366     -117.714037
9.154                0.880877366     -117.947501
9.155                0.880627709     -118.181578
9.156                0.880378404     -118.416269
9.157                0.880129457     -118.651573
9.158                0.879880878     -118.887492
9.159                0.879632674     -119.124026
9.16                 0.879384854     -119.361175
9.161                0.879137425     -119.598939
9.162                0.878890397      -119.83732
9.163                0.878643777     -120.076318
9.164                0.878397574     -120.315933
9.165                0.878151797     -120.556165
9.166                0.877906454     -120.797015
9.167                0.877661553     -121.038482
9.168                0.877417104     -121.280569
9.169                0.877173116     -121.523274
9.17                 0.876929597     -121.766598
9.171                0.876686555     -122.010542
9.172                0.876444001     -122.255105
9.173                0.876201943     -122.500287
9.174                 0.87596039      -122.74609
9.175                0.875719351     -122.992513
9.176                0.875478836     -123.239555
9.177                0.875238854     -123.487219
9.178                0.874999414     -123.735502
9.179                0.874760525     -123.984406
9.18                 0.874522198     -124.233931
9.181                0.874284441     -124.484077
9.182                0.874047265     -124.734842
9.183                0.873810678     -124.986229
9.184                0.873574691     -125.238236
9.185                0.873339313     -125.490864
9.186                0.873104554     -125.744111
9.187                0.872870425      -125.99798
9.188                0.872636934     -126.252468
9.189                0.872404092     -126.507576
9.19                 0.872171909     -126.763304
9.191                0.871940395     -127.019651
9.192                0.871709561     -127.276618
9.193                0.871479416     -127.534204
9.194                 0.87124997     -127.792408
9.195                0.871021235     -128.051231
9.196                 0.87079322     -128.310671
9.197                0.870565936     -128.570729
9.198                0.870339393     -128.831405
9.199                0.870113602     -129.092697
9.2                  0.869888574     -129.354605
9.201                0.869664319     -129.617129
9.202                0.869440847     -129.880269
9.203                 0.86921817     -130.144023
9.204                0.868996298     -130.408391
9.205                0.868775242     -130.673373
9.206                0.868555012     -130.938967
9.207                0.868335621     -131.205174
9.208                0.868117079     -131.471991
9.209                0.867899396      -131.73942
9.21                 0.867682583     -132.007459
9.211                0.867466653     -132.276106
9.212                0.867251616     -132.545362
9.213                0.867037482     -132.815226
9.214                0.866824264     -133.085696
9.215                0.866611972     -133.356771
9.216                0.866400618     -133.628451
9.217                0.866190214     -133.900735
9.218                0.865980769     -134.173622
9.219                0.865772296      -134.44711
9.22                 0.865564806     -134.721198
9.221                0.865358311     -134.995886
9.222                0.865152822     -135.271172
9.223                 0.86494835     -135.547055
9.224                0.864744906     -135.823534
9.225                0.864542504     -136.100607
9.226                0.864341153     -136.378274
9.227                0.864140866     -136.656533
9.228                0.863941654     -136.935382
9.229                0.863743529      -137.21482
9.23                 0.863546502     -137.494846
9.231                0.863350586     -137.775458
9.232                0.863155791     -138.056655
9.233                0.862962129     -138.338435
9.234                0.862769612     -138.620797
9.235                0.862578253     -138.903739
9.236                0.862388061     -139.187259
9.237                 0.86219905     -139.471356
9.238                0.862011231     -139.756028
9.239                0.861824616     -140.041273
9.24                 0.861639216      -140.32709
9.241                0.861455043     -140.613476
9.242                0.861272109      -140.90043
9.243                0.861090425      -141.18795
9.244                0.860910005     -141.476034
9.245                0.860730858      -141.76468
9.246                0.860552997     -142.053886
9.247                0.860376433      -142.34365
9.248                0.860201179     -142.633969
9.249                0.860027246     -142.924843
9.25                 0.859854646     -143.216268
9.251                 0.85968339     -143.508242
9.252                 0.85951349     -143.800763
9.253                0.859344957     -144.093829
9.254                0.859177804     -144.387438
9.255                0.859012042     -144.681587
9.256                0.858847683     -144.976274
9.257                0.858684737     -145.271496
9.258                0.858523217     -145.567251
9.259                0.858363134     -145.863537
9.26                   0.8582045      -146.16035
9.261                0.858047326     -146.457688
9.262                0.857891623      -146.75555
9.263                0.857737403     -147.053931
9.264                0.857584677      -147.35283
9.265                0.857433456     -147.652243
9.266                0.857283752     -147.952168
9.267                0.857135576     -148.252602
9.268                0.856988939     -148.553542
9.269                0.856843852     -148.854986
9.27                 0.856700326     -149.156929
9.271                0.856558373     -149.459371
9.272                0.856418002     -149.762306
9.273                0.856279226     -150.065733
9.274                0.856142055     -150.369648
9.275                0.856006499     -150.674049
9.276                 0.85587257     -150.978931
9.277                0.855740278     -151.284292
9.278                0.855609634     -151.590129
9.279                0.855480648     -151.896438
9.28                  0.85535333     -152.203215
9.281                0.855227692     -152.510459
9.282                0.855103743     -152.818165
9.283                0.854981494     -153.126329
9.284                0.854860954     -153.434949
9.285                0.854742135     -153.744021
9.286                0.854625045     -154.053541
9.287                0.854509695     -154.363506
9.288                0.854396095     -154.673913
9.289                0.854284254     -154.984756
9.29                 0.854174182     -155.296034
9.291                0.854065889     -155.607741
9.292                0.853959383     -155.919875
9.293                0.853854675     -156.232431
9.294                0.853751774     -156.545406
9.295                0.853650688     -156.858796
9.296                0.853551428     -157.172597
9.297                0.853454001     -157.486805
9.298                0.853358417     -157.801416
9.299                0.853264684     -158.116426
9.3                  0.853172811     -158.431831
9.301                0.853082807     -158.747626
9.302                 0.85299468     -159.063809
9.303                0.852908438     -159.380374
9.304                 0.85282409     -159.697318
9.305                0.852741643     -160.014636
9.306                0.852661106     -160.332323
9.307                0.852582486     -160.650377
9.308                 0.85250579     -160.968792
9.309                0.852431027     -161.287564
9.31                 0.852358204     -161.606688
9.311                0.852287329     -161.926161
9.312                0.852218407     -162.245978
9.313                0.852151447     -162.566133
9.314                0.852086455     -162.886624
9.315                0.852023438     -163.207445
9.316                0.851962402     -163.528592
9.317                0.851903355     -163.850059
9.318                0.851846302     -164.171843
9.319                0.851791249     -164.493939
9.32                 0.851738203     -164.816342
9.321                0.851687169     -165.139047
9.322                0.851638153      -165.46205
9.323                0.851591161     -165.785346
9.324                0.851546198      -166.10893
9.325                 0.85150327     -166.432797
9.326                0.851462381     -166.756942
9.327                0.851423536     -167.081361
9.328                 0.85138674     -167.406049
9.329                0.851351998        -167.731
9.33                 0.851319315     -168.056209
9.331                0.851288694     -168.381672
9.332                 0.85126014     -168.707384
9.333                0.851233656      -169.03334
9.334                0.851209247     -169.359534
9.335                0.851186916     -169.685961
9.336                0.851166666     -170.012617
9.337                0.851148501     -170.339496
9.338                0.851132424     -170.666593
9.339                0.851118438     -170.993903
9.34                 0.851106546     -171.321421
9.341                 0.85109675     -171.649141
9.342                0.851089052     -171.977058
9.343                0.851083455     -172.305168
9.344                0.851079961     -172.633464
9.345                0.851078572     -172.961941
9.346                0.851079289     -173.290595
9.347                0.851082115     -173.619419
9.348                0.851087049     -173.948409
9.349                0.851094094     -174.277559
9.35                 0.851103251     -174.606864
9.351                 0.85111452     -174.936318
9.352                0.851127901     -175.265916
9.353                0.851143396     -175.595652
9.354                0.851161004     -175.925522
9.355                0.851180726     -176.255519
9.356                 0.85120256     -176.585638
9.357                0.851226508     -176.915874
9.358                0.851252569     -177.246221
9.359                0.851280741     -177.576674
9.36                 0.851311024     -177.907227
9.361                0.851343417     -178.237875
9.362                0.851377918     -178.568612
9.363                0.851414526     -178.899432
9.364                 0.85145324     -179.230331
9.365                0.851494057     -179.561302
9.366                0.851536976      -179.89234
9.367                0.851581994      179.776561
9.368                0.851629109      179.445405
9.369                0.851678319        179.1142
9.37                  0.85172962       178.78295
9.371                0.851783009       178.45166
9.372                0.851838484      178.120337
9.373                0.851896041      177.788986
9.374                0.851955677      177.457613
9.375                0.852017387      177.126223
9.376                0.852081169      176.794822
9.377                0.852147017      176.463415
9.378                0.852214928      176.132009
9.379                0.852284897      175.800608
9.38                 0.852356919      175.469218
9.381                0.852430991      175.137845
9.382                0.852507106      174.806494
9.383                0.852585259      174.475172
9.384                0.852665446      174.143883
9.385                 0.85274766      173.812633
9.386                0.852831896      173.481428
9.387                0.852918148      173.150273
9.388                 0.85300641      172.819174
9.389                0.853096676      172.488137
9.39                 0.853188939      172.157166
9.391                0.853283192      171.826268
9.392                 0.85337943      171.495449
9.393                0.853477644      171.164712
9.394                0.853577828      170.834065
9.395                0.853679975      170.503513
9.396                0.853784077       170.17306
