! TOUCHSTONE file generated by CST DESIGN STUDIO
! Date and time: Tue Feb  4 13:59:09 2025
! Project name: C:\Work\MatlabApps\UnitCellOptimizationMatlab\CST\unitcell.cst
! Tree item: Tasks\Sweep1\SPara1\S-Parameters
! Header version: 2024
! Port assignment regex: !\s*Touchstone port\s*([0-9]+)\s*=\s*(CST MWS port|CST DES external port|CST DES block port)\s*(.+)\s* \(\"(.*)\"\)(\s*mode\s*([0-9]+))?.*
! Touchstone port assignment:
! Touchstone port 1 = CST DES external port 1 ("")
# GHz S MA R 50
9                    0.980184916     -80.6101008
9.001                0.980134217     -80.7367853
9.002                0.980083368     -80.8637882
9.003                0.980032367     -80.9911103
9.004                0.979981215     -81.1187525
9.005                0.979929911     -81.2467158
9.006                0.979878456     -81.3750011
9.007                0.979826848     -81.5036093
9.008                0.979775088     -81.6325413
9.009                0.979723175     -81.7617981
9.01                 0.979671109     -81.8913806
9.011                 0.97961889     -82.0212897
9.012                0.979566518     -82.1515263
9.013                0.979513992     -82.2820915
9.014                0.979461312     -82.4129861
9.015                0.979408477     -82.5442111
9.016                0.979355489     -82.6757673
9.017                0.979302345     -82.8076559
9.018                0.979249047     -82.9398776
9.019                0.979195593     -83.0724334
9.02                 0.979141985     -83.2053244
9.021                 0.97908822     -83.3385513
9.022                  0.9790343     -83.4721153
9.023                0.978980224     -83.6060171
9.024                0.978925991     -83.7402579
9.025                0.978871602     -83.8748384
9.026                0.978817056     -84.0097597
9.027                0.978762354     -84.1450228
9.028                0.978707494     -84.2806286
9.029                0.978652477     -84.4165779
9.03                 0.978597303     -84.5528719
9.031                 0.97854197     -84.6895115
9.032                0.978486481     -84.8264976
9.033                0.978430832     -84.9638311
9.034                0.978375026     -85.1015131
9.035                0.978319062     -85.2395445
9.036                0.978262938     -85.3779263
9.037                0.978206656     -85.5166593
9.038                0.978150216     -85.6557447
9.039                0.978093616     -85.7951834
9.04                 0.978036856     -85.9349763
9.041                0.977979938     -86.0751244
9.042                 0.97792286     -86.2156286
9.043                0.977865622       -86.35649
9.044                0.977808224     -86.4977095
9.045                0.977750667     -86.6392881
9.046                0.977692949     -86.7812268
9.047                0.977635072     -86.9235265
9.048                0.977577033     -87.0661882
9.049                0.977518835     -87.2092128
9.05                 0.977460476     -87.3526014
9.051                0.977401956      -87.496355
9.052                0.977343276     -87.6404744
9.053                0.977284434     -87.7849608
9.054                0.977225432      -87.929815
9.055                0.977166268      -88.075038
9.056                0.977106944     -88.2206309
9.057                0.977047458     -88.3665945
9.058                0.976987811     -88.5129299
9.059                0.976928003     -88.6596381
9.06                 0.976868034       -88.80672
9.061                0.976807903     -88.9541766
9.062                 0.97674761     -89.1020089
9.063                0.976687156     -89.2502179
9.064                 0.97662654     -89.3988046
9.065                0.976565763     -89.5477699
9.066                0.976504824     -89.6971148
9.067                0.976443724     -89.8468403
9.068                0.976382462     -89.9969473
9.069                0.976321038      -90.147437
9.07                 0.976259452     -90.2983102
9.071                0.976197705     -90.4495679
9.072                0.976135797     -90.6012111
9.073                0.976073726     -90.7532407
9.074                0.976011494     -90.9056579
9.075                0.975949101     -91.0584635
9.076                0.975886546     -91.2116585
9.077                0.975823829     -91.3652439
9.078                0.975760951     -91.5192207
9.079                0.975697912     -91.6735898
9.08                 0.975634712     -91.8283523
9.081                 0.97557135     -91.9835091
9.082                0.975507827     -92.1390612
9.083                0.975444143     -92.2950095
9.084                0.975380298     -92.4513551
9.085                0.975316293     -92.6080989
9.086                0.975252126     -92.7652419
9.087                0.975187799      -92.922785
9.088                0.975123312     -93.0807293
9.089                0.975058664     -93.2390757
9.09                 0.974993856     -93.3978252
9.091                0.974928888     -93.5569787
9.092                 0.97486376     -93.7165372
9.093                0.974798472     -93.8765017
9.094                0.974733025     -94.0368731
9.095                0.974667419     -94.1976525
9.096                0.974601653     -94.3588407
9.097                0.974535728     -94.5204387
9.098                0.974469645     -94.6824476
9.099                0.974403403     -94.8448682
9.1                  0.974337003     -95.0077015
9.101                0.974270444     -95.1709484
9.102                0.974203728       -95.33461
9.103                0.974136855     -95.4986872
9.104                0.974069824     -95.6631809
9.105                0.974002636      -95.828092
9.106                0.973935292     -95.9934216
9.107                0.973867791     -96.1591705
9.108                0.973800133     -96.3253397
9.109                0.973732321     -96.4919302
9.11                 0.973664352     -96.6589429
9.111                0.973596229     -96.8263787
9.112                 0.97352795     -96.9942385
9.113                0.973459518     -97.1625234
9.114                0.973390931     -97.3312341
9.115                 0.97332219     -97.5003717
9.116                0.973253297     -97.6699371
9.117                 0.97318425     -97.8399312
9.118                0.973115051     -98.0103549
9.119                  0.9730457     -98.1812091
9.12                 0.972976197     -98.3524947
9.121                0.972906543     -98.5242127
9.122                0.972836738      -98.696364
9.123                0.972766783     -98.8689494
9.124                0.972696678     -99.0419699
9.125                0.972626423     -99.2154264
9.126                 0.97255602     -99.3893197
9.127                0.972485469     -99.5636508
9.128                 0.97241477     -99.7384205
9.129                0.972343924     -99.9136298
9.13                  0.97227293     -100.089279
9.131                0.972201791      -100.26537
9.132                0.972130506     -100.441904
9.133                0.972059077      -100.61888
9.134                0.971987503       -100.7963
9.135                0.971915785     -100.974165
9.136                0.971843924     -101.152475
9.137                 0.97177192     -101.331232
9.138                0.971699775     -101.510436
9.139                0.971627488     -101.690089
9.14                 0.971555061      -101.87019
9.141                0.971482494     -102.050742
9.142                0.971409788     -102.231744
9.143                0.971336943     -102.413197
9.144                0.971263961     -102.595103
9.145                0.971190841     -102.777462
9.146                0.971117586     -102.960275
9.147                0.971044195     -103.143543
9.148                 0.97097067     -103.327266
9.149                0.970897011     -103.511446
9.15                 0.970823218     -103.696083
9.151                0.970749294     -103.881178
9.152                0.970675238     -104.066732
9.153                0.970601052     -104.252745
9.154                0.970526736     -104.439218
9.155                0.970452291     -104.626153
9.156                0.970377718     -104.813549
9.157                0.970303019     -105.001409
9.158                0.970228194     -105.189731
9.159                0.970153243     -105.378517
9.16                 0.970078169     -105.567769
9.161                0.970002971     -105.757485
9.162                0.969927652     -105.947669
9.163                0.969852211     -106.138319
9.164                 0.96977665     -106.329436
9.165                 0.96970097     -106.521023
9.166                0.969625173     -106.713078
9.167                0.969549258     -106.905603
9.168                0.969473228     -107.098598
9.169                0.969397083     -107.292065
9.17                 0.969320824     -107.486004
9.171                0.969244453     -107.680415
9.172                0.969167971     -107.875299
9.173                0.969091379     -108.070657
9.174                0.969014678     -108.266489
9.175                0.968937869     -108.462797
9.176                0.968860954      -108.65958
9.177                0.968783933     -108.856839
9.178                0.968706809     -109.054575
9.179                0.968629582     -109.252789
9.18                 0.968552253     -109.451481
9.181                0.968474825     -109.650652
9.182                0.968397298     -109.850301
9.183                0.968319674     -110.050431
9.184                0.968241953     -110.251041
9.185                0.968164138     -110.452132
9.186                 0.96808623     -110.653705
9.187                 0.96800823     -110.855759
9.188                0.967930139     -111.058296
9.189                 0.96785196     -111.261316
9.19                 0.967773693     -111.464819
9.191                0.967695341     -111.668807
9.192                0.967616904     -111.873279
9.193                0.967538384     -112.078236
9.194                0.967459783     -112.283678
9.195                0.967381102     -112.489607
9.196                0.967302344     -112.696021
9.197                0.967223508     -112.902923
9.198                0.967144598     -113.110311
9.199                0.967065614     -113.318188
9.2                  0.966986559     -113.526552
9.201                0.966907434     -113.735404
9.202                0.966828241     -113.944746
9.203                0.966748981     -114.154576
9.204                0.966669657     -114.364897
9.205                 0.96659027     -114.575706
9.206                0.966510821     -114.787007
9.207                0.966431314     -114.998797
9.208                0.966351748     -115.211079
9.209                0.966272127     -115.423851
9.21                 0.966192453     -115.637115
9.211                0.966112726     -115.850871
9.212                0.966032949     -116.065118
9.213                0.965953125     -116.279858
9.214                0.965873254      -116.49509
9.215                0.965793339     -116.710815
9.216                0.965713381     -116.927033
9.217                0.965633384     -117.143744
9.218                0.965553348     -117.360948
9.219                0.965473277     -117.578645
9.22                 0.965393171     -117.796837
9.221                0.965313033     -118.015521
9.222                0.965232866       -118.2347
9.223                0.965152671     -118.454373
9.224                 0.96507245      -118.67454
9.225                0.964992206     -118.895201
9.226                0.964911941     -119.116356
9.227                0.964831657     -119.338006
9.228                0.964751356      -119.56015
9.229                 0.96467104     -119.782789
9.23                 0.964590713     -120.005922
9.231                0.964510375     -120.229549
9.232                 0.96443003     -120.453671
9.233                 0.96434968     -120.678288
9.234                0.964269327     -120.903399
9.235                0.964188973     -121.129004
9.236                0.964108621     -121.355103
9.237                0.964028274     -121.581697
9.238                0.963947933     -121.808785
9.239                0.963867601     -122.036366
9.24                 0.963787281     -122.264442
9.241                0.963706976     -122.493011
9.242                0.963626687     -122.722074
9.243                0.963546417      -122.95163
9.244                0.963466169      -123.18168
9.245                0.963385946     -123.412222
9.246                 0.96330575     -123.643257
9.247                0.963225583     -123.874785
9.248                0.963145449     -124.106805
9.249                0.963065349     -124.339316
9.25                 0.962985287      -124.57232
9.251                0.962905266     -124.805815
9.252                0.962825288       -125.0398
9.253                0.962745355     -125.274277
9.254                0.962665471     -125.509244
9.255                0.962585639       -125.7447
9.256                 0.96250586     -125.980646
9.257                0.962426139     -126.217082
9.258                0.962346478     -126.454006
9.259                0.962266879     -126.691418
9.26                 0.962187346     -126.929317
9.261                0.962107882     -127.167705
9.262                0.962028488     -127.406578
9.263                 0.96194917     -127.645938
9.264                0.961869928     -127.885784
9.265                0.961790767     -128.126114
9.266                 0.96171169      -128.36693
9.267                0.961632699     -128.608229
9.268                0.961553797     -128.850011
9.269                0.961474987     -129.092276
9.27                 0.961396273     -129.335023
9.271                0.961317658     -129.578251
9.272                0.961239144     -129.821959
9.273                0.961160735     -130.066148
9.274                0.961082435     -130.310815
9.275                0.961004245     -130.555961
9.276                 0.96092617     -130.801584
9.277                0.960848212     -131.047684
9.278                0.960770375      -131.29426
9.279                0.960692661     -131.541311
9.28                 0.960615076     -131.788836
9.281                 0.96053762     -132.036835
9.282                0.960460298     -132.285306
9.283                0.960383114     -132.534248
9.284                0.960306069     -132.783661
9.285                0.960229169     -133.033543
9.286                0.960152415     -133.283894
9.287                0.960075812     -133.534712
9.288                0.959999362     -133.785997
9.289                 0.95992307     -134.037748
9.29                 0.959846938     -134.289962
9.291                 0.95977097      -134.54264
9.292                0.959695169      -134.79578
9.293                 0.95961954     -135.049381
9.294                0.959544084     -135.303442
9.295                0.959468806     -135.557961
9.296                 0.95939371     -135.812938
9.297                0.959318798     -136.068371
9.298                0.959244074     -136.324258
9.299                0.959169542       -136.5806
9.3                  0.959095205     -136.837393
9.301                0.959021067     -137.094638
9.302                0.958947132     -137.352333
9.303                0.958873402     -137.610475
9.304                0.958799882     -137.869065
9.305                0.958726574       -138.1281
9.306                0.958653484     -138.387579
9.307                0.958580613       -138.6475
9.308                0.958507967     -138.907863
9.309                0.958435547     -139.168665
9.31                 0.958363359     -139.429906
9.311                0.958291406     -139.691583
9.312                0.958219691     -139.953694
9.313                0.958148218     -140.216239
9.314                0.958076991     -140.479216
9.315                0.958006013     -140.742623
9.316                0.957935288     -141.006458
9.317                 0.95786482      -141.27072
9.318                0.957794612     -141.535407
9.319                0.957724668     -141.800517
9.32                 0.957654992     -142.066048
9.321                0.957585587     -142.331999
9.322                0.957516457     -142.598368
9.323                0.957447606     -142.865153
9.324                0.957379038     -143.132353
9.325                0.957310756     -143.399964
9.326                0.957242764     -143.667986
9.327                0.957175066     -143.936416
9.328                0.957107665     -144.205253
9.329                0.957040565     -144.474494
9.33                  0.95697377     -144.744138
9.331                0.956907283     -145.014182
9.332                0.956841109     -145.284625
9.333                0.956775251     -145.555464
9.334                0.956709712     -145.826697
9.335                0.956644497     -146.098323
9.336                0.956579609     -146.370338
9.337                0.956515051     -146.642742
9.338                0.956450829     -146.915531
9.339                0.956386944     -147.188703
9.34                 0.956323401     -147.462257
9.341                0.956260204     -147.736189
9.342                0.956197357     -148.010498
9.343                0.956134862     -148.285182
9.344                0.956072724     -148.560237
9.345                0.956010946     -148.835663
9.346                0.955949532     -149.111455
9.347                0.955888486     -149.387613
9.348                0.955827811     -149.664133
9.349                0.955767511     -149.941012
9.35                  0.95570759      -150.21825
9.351                0.955648051     -150.495842
9.352                0.955588898     -150.773787
9.353                0.955530134     -151.052082
9.354                0.955471763     -151.330725
9.355                0.955413789     -151.609712
9.356                0.955356215     -151.889042
9.357                0.955299045     -152.168711
9.358                0.955242282     -152.448717
9.359                 0.95518593     -152.729057
9.36                 0.955129992     -153.009729
9.361                0.955074472      -153.29073
9.362                0.955019374     -153.572057
9.363                  0.9549647     -153.853707
9.364                0.954910454     -154.135678
9.365                0.954856641     -154.417967
9.366                0.954803262      -154.70057
9.367                0.954750322     -154.983486
9.368                0.954697824     -155.266711
9.369                0.954645771     -155.550242
9.37                 0.954594166     -155.834077
9.371                0.954543014     -156.118212
9.372                0.954492317     -156.402644
9.373                0.954442079     -156.687372
9.374                0.954392302      -156.97239
9.375                0.954342991     -157.257698
9.376                0.954294148      -157.54329
9.377                0.954245777     -157.829166
9.378                 0.95419788      -158.11532
9.379                0.954150461     -158.401751
9.38                 0.954103524     -158.688455
9.381                 0.95405707     -158.975429
9.382                0.954011104      -159.26267
9.383                0.953965628     -159.550174
9.384                0.953920645     -159.837939
9.385                0.953876159     -160.125961
9.386                0.953832172     -160.414237
9.387                0.953788687     -160.702764
9.388                0.953745708     -160.991539
9.389                0.953703236     -161.280557
9.39                 0.953661276     -161.569817
9.391                 0.95361983     -161.859314
9.392                  0.9535789     -162.149046
9.393                0.953538489     -162.439008
9.394                0.953498601     -162.729198
9.395                0.953459237     -163.019612
9.396                0.953420402     -163.310246
