! TOUCHSTONE file generated by CST DESIGN STUDIO
! Date and time: Tue Feb  4 13:59:16 2025
! Project name: C:\Work\MatlabApps\UnitCellOptimizationMatlab\CST\unitcell.cst
! Tree item: Tasks\Sweep1\SPara1\S-Parameters
! Header version: 2024
! Port assignment regex: !\s*Touchstone port\s*([0-9]+)\s*=\s*(CST MWS port|CST DES external port|CST DES block port)\s*(.+)\s* \(\"(.*)\"\)(\s*mode\s*([0-9]+))?.*
! Touchstone port assignment:
! Touchstone port 1 = CST DES external port 1 ("")
# GHz S MA R 50
9                     0.98121254     -72.7249998
9.001                0.981168487     -72.8329973
9.002                  0.9811243     -72.9412585
9.003                0.981079978     -73.0497843
9.004                0.981035521     -73.1585755
9.005                0.980990928     -73.2676328
9.006                  0.9809462     -73.3769571
9.007                0.980901336     -73.4865492
9.008                0.980856336     -73.5964099
9.009                0.980811199       -73.70654
9.01                 0.980765924     -73.8169404
9.011                0.980720513     -73.9276118
9.012                0.980674964      -74.038555
9.013                0.980629276     -74.1497709
9.014                0.980583451     -74.2612604
9.015                0.980537486     -74.3730242
9.016                0.980491383     -74.4850632
9.017                 0.98044514     -74.5973781
9.018                0.980398758     -74.7099699
9.019                0.980352235     -74.8228394
9.02                 0.980305573     -74.9359874
9.021                0.980258769     -75.0494147
9.022                0.980211825     -75.1631222
9.023                0.980164739     -75.2771108
9.024                0.980117511     -75.3913812
9.025                0.980070142     -75.5059343
9.026                 0.98002263      -75.620771
9.027                0.979974976     -75.7358922
9.028                0.979927178     -75.8512986
9.029                0.979879238     -75.9669912
9.03                 0.979831154     -76.0829707
9.031                0.979782925     -76.1992381
9.032                0.979734553     -76.3157943
9.033                0.979686036       -76.43264
9.034                0.979637374     -76.5497761
9.035                0.979588568     -76.6672036
9.036                0.979539615     -76.7849233
9.037                0.979490517      -76.902936
9.038                0.979441273     -77.0212426
9.039                0.979391882     -77.1398441
9.04                 0.979342345     -77.2587413
9.041                 0.97929266      -77.377935
9.042                0.979242828     -77.4974262
9.043                0.979192849     -77.6172157
9.044                0.979142722     -77.7373044
9.045                0.979092446     -77.8576932
9.046                0.979042022     -77.9783831
9.047                0.978991449     -78.0993748
9.048                0.978940727     -78.2206694
9.049                0.978889856     -78.3422676
9.05                 0.978838835     -78.4641704
9.051                0.978787664     -78.5863786
9.052                0.978736343     -78.7088933
9.053                0.978684871     -78.8317152
9.054                0.978633248     -78.9548454
9.055                0.978581474     -79.0782846
9.056                0.978529549     -79.2020339
9.057                0.978477472     -79.3260941
9.058                0.978425244     -79.4504661
9.059                0.978372863     -79.5751508
9.06                 0.978320329     -79.7001493
9.061                0.978267643     -79.8254623
9.062                0.978214804     -79.9510908
9.063                0.978161811     -80.0770357
9.064                0.978108665      -80.203298
9.065                0.978055365     -80.3298786
9.066                0.978001912     -80.4567784
9.067                0.977948303     -80.5839983
9.068                0.977894541     -80.7115392
9.069                0.977840623     -80.8394022
9.07                  0.97778655     -80.9675881
9.071                0.977732323     -81.0960978
9.072                0.977677939     -81.2249324
9.073                  0.9776234     -81.3540927
9.074                0.977568705     -81.4835797
9.075                0.977513853     -81.6133943
9.076                0.977458845     -81.7435375
9.077                0.977403681     -81.8740101
9.078                0.977348359     -82.0048133
9.079                0.977292881     -82.1359478
9.08                 0.977237245     -82.2674147
9.081                0.977181451      -82.399215
9.082                  0.9771255     -82.5313495
9.083                0.977069391     -82.6638192
9.084                0.977013123      -82.796625
9.085                0.976956698      -82.929768
9.086                0.976900113     -83.0632491
9.087                 0.97684337     -83.1970693
9.088                0.976786468     -83.3312294
9.089                0.976729407     -83.4657305
9.09                 0.976672186     -83.6005736
9.091                0.976614806     -83.7357596
9.092                0.976557267     -83.8712894
9.093                0.976499567     -84.0071641
9.094                0.976441708     -84.1433845
9.095                0.976383688     -84.2799518
9.096                0.976325508     -84.4168668
9.097                0.976267167     -84.5541305
9.098                0.976208666     -84.6917439
9.099                0.976150004      -84.829708
9.1                  0.976091182     -84.9680237
9.101                0.976032198      -85.106692
9.102                0.975973053      -85.245714
9.103                0.975913746     -85.3850905
9.104                0.975854279     -85.5248225
9.105                0.975794649     -85.6649112
9.106                0.975734858     -85.8053573
9.107                0.975674905     -85.9461619
9.108                0.975614791     -86.0873261
9.109                0.975554514     -86.2288507
9.11                 0.975494075     -86.3707367
9.111                0.975433475     -86.5129853
9.112                0.975372711     -86.6555972
9.113                0.975311786     -86.7985736
9.114                0.975250698     -86.9419153
9.115                0.975189448     -87.0856235
9.116                0.975128035      -87.229699
9.117                 0.97506646      -87.374143
9.118                0.975004722     -87.5189563
9.119                0.974942821     -87.6641399
9.12                 0.974880758     -87.8096949
9.121                0.974818531     -87.9556223
9.122                0.974756142      -88.101923
9.123                0.974693591      -88.248598
9.124                0.974630876     -88.3956484
9.125                0.974567999     -88.5430751
9.126                0.974504958      -88.690879
9.127                0.974441755     -88.8390613
9.128                0.974378389     -88.9876229
9.129                0.974314861     -89.1365648
9.13                 0.974251169      -89.285888
9.131                0.974187315     -89.4355935
9.132                0.974123298     -89.5856823
9.133                0.974059118     -89.7361553
9.134                0.973994776     -89.8870136
9.135                0.973930271     -90.0382582
9.136                0.973865604     -90.1898901
9.137                0.973800774     -90.3419102
9.138                0.973735781     -90.4943196
9.139                0.973670627     -90.6471192
9.14                  0.97360531     -90.8003101
9.141                0.973539831     -90.9538933
9.142                 0.97347419     -91.1078696
9.143                0.973408388     -91.2622402
9.144                0.973342423      -91.417006
9.145                0.973276297     -91.5721681
9.146                0.973210009     -91.7277273
9.147                0.973143561     -91.8836848
9.148                 0.97307695     -92.0400414
9.149                0.973010179     -92.1967982
9.15                 0.972943247     -92.3539562
9.151                0.972876154     -92.5115164
9.152                0.972808901     -92.6694797
9.153                0.972741488     -92.8278471
9.154                0.972673914     -92.9866197
9.155                0.972606181     -93.1457984
9.156                0.972538287     -93.3053842
9.157                0.972470235      -93.465378
9.158                0.972402023     -93.6257809
9.159                0.972333652     -93.7865939
9.16                 0.972265123     -93.9478179
9.161                0.972196435     -94.1094539
9.162                0.972127589     -94.2715028
9.163                0.972058585     -94.4339657
9.164                0.971989424     -94.5968436
9.165                0.971920105     -94.7601373
9.166                0.971850629     -94.9238479
9.167                0.971780997     -95.0879764
9.168                0.971711209     -95.2525237
9.169                0.971641264     -95.4174907
9.17                 0.971571164     -95.5828785
9.171                0.971500909      -95.748688
9.172                0.971430499     -95.9149202
9.173                0.971359935      -96.081576
9.174                0.971289216     -96.2486563
9.175                0.971218344     -96.4161622
9.176                0.971147318     -96.5840946
9.177                 0.97107614     -96.7524545
9.178                 0.97100481     -96.9212427
9.179                0.970933327     -97.0904603
9.18                 0.970861694     -97.2601081
9.181                0.970789909     -97.4301872
9.182                0.970717974     -97.6006984
9.183                0.970645888     -97.7716427
9.184                0.970573654     -97.9430211
9.185                 0.97050127     -98.1148344
9.186                0.970428738     -98.2870835
9.187                0.970356058     -98.4597695
9.188                0.970283231     -98.6328932
9.189                0.970210257     -98.8064556
9.19                 0.970137137     -98.9804575
9.191                0.970063872     -99.1548999
9.192                0.969990462     -99.3297836
9.193                0.969916907     -99.5051097
9.194                0.969843209     -99.6808789
9.195                0.969769367     -99.8570922
9.196                0.969695383     -100.033751
9.197                0.969621258     -100.210855
9.198                0.969546992     -100.388406
9.199                0.969472585     -100.566404
9.2                  0.969398039     -100.744851
9.201                0.969323354     -100.923748
9.202                 0.96924853     -101.103094
9.203                 0.96917357     -101.282892
9.204                0.969098473     -101.463142
9.205                 0.96902324     -101.643845
9.206                0.968947872     -101.825001
9.207                 0.96887237     -102.006612
9.208                0.968796735     -102.188679
9.209                0.968720967     -102.371201
9.21                 0.968645067     -102.554181
9.211                0.968569037     -102.737619
9.212                0.968492877     -102.921515
9.213                0.968416588     -103.105871
9.214                0.968340171     -103.290687
9.215                0.968263626     -103.475964
9.216                0.968186956     -103.661704
9.217                 0.96811016     -103.847906
9.218                 0.96803324     -104.034572
9.219                0.967956197     -104.221702
9.22                 0.967879032     -104.409297
9.221                0.967801745     -104.597358
9.222                0.967724338     -104.785886
9.223                0.967646813     -104.974881
9.224                0.967569169     -105.164345
9.225                0.967491408     -105.354277
9.226                0.967413532     -105.544679
9.227                 0.96733554     -105.735552
9.228                0.967257436     -105.926895
9.229                0.967179218     -106.118711
9.23                  0.96710089     -106.310999
9.231                0.967022452     -106.503761
9.232                0.966943905     -106.696997
9.233                 0.96686525     -106.890707
9.234                0.966786489     -107.084893
9.235                0.966707623     -107.279555
9.236                0.966628653     -107.474693
9.237                0.966549581     -107.670309
9.238                0.966470408     -107.866404
9.239                0.966391135     -108.062977
9.24                 0.966311763     -108.260029
9.241                0.966232294     -108.457561
9.242                 0.96615273     -108.655575
9.243                0.966073071     -108.854069
9.244                0.965993319     -109.053045
9.245                0.965913476     -109.252504
9.246                0.965833544     -109.452446
9.247                0.965753522     -109.652872
9.248                0.965673414     -109.853782
9.249                 0.96559322     -110.055177
9.25                 0.965512942     -110.257057
9.251                0.965432582     -110.459423
9.252                0.965352142     -110.662276
9.253                0.965271622     -110.865616
9.254                0.965191024     -111.069443
9.255                0.965110351     -111.273758
9.256                0.965029604     -111.478562
9.257                0.964948783     -111.683855
9.258                0.964867892     -111.889638
9.259                0.964786932     -112.095911
9.26                 0.964705905     -112.302674
9.261                0.964624811     -112.509928
9.262                0.964543654     -112.717673
9.263                0.964462435     -112.925911
9.264                0.964381156      -113.13464
9.265                0.964299818     -113.343862
9.266                0.964218424     -113.553578
9.267                0.964136974     -113.763786
9.268                0.964055473     -113.974489
9.269                 0.96397392     -114.185686
9.27                 0.963892318     -114.397377
9.271                 0.96381067     -114.609564
9.272                0.963728976     -114.822245
9.273                0.963647239     -115.035422
9.274                0.963565462     -115.249095
9.275                0.963483645     -115.463264
9.276                0.963401792      -115.67793
9.277                0.963319904     -115.893092
9.278                0.963237983     -116.108751
9.279                0.963156032     -116.324908
9.28                 0.963074052     -116.541562
9.281                0.962992047     -116.758713
9.282                0.962910017     -116.976363
9.283                0.962827965      -117.19451
9.284                0.962745894     -117.413156
9.285                0.962663806       -117.6323
9.286                0.962581702     -117.851943
9.287                0.962499586     -118.072085
9.288                 0.96241746     -118.292725
9.289                0.962335325     -118.513865
9.29                 0.962253185     -118.735503
9.291                0.962171041     -118.957641
9.292                0.962088897     -119.180277
9.293                0.962006754     -119.403414
9.294                0.961924615     -119.627049
9.295                0.961842482     -119.851184
9.296                0.961760359     -120.075818
9.297                0.961678247     -120.300951
9.298                0.961596148     -120.526584
9.299                0.961514067     -120.752716
9.3                  0.961432004     -120.979348
9.301                0.961349964     -121.206478
9.302                0.961267947     -121.434108
9.303                0.961185958     -121.662237
9.304                0.961103998     -121.890864
9.305                0.961022071     -122.119991
9.306                0.960940178     -122.349615
9.307                0.960858324     -122.579739
9.308                 0.96077651     -122.810361
9.309                0.960694739      -123.04148
9.31                 0.960613014     -123.273098
9.311                0.960531339     -123.505213
9.312                0.960449715     -123.737826
9.313                0.960368145     -123.970936
9.314                0.960286633     -124.204543
9.315                0.960205182     -124.438646
9.316                0.960123793     -124.673245
9.317                0.960042471     -124.908341
9.318                0.959961218     -125.143932
9.319                0.959880037     -125.380018
9.32                 0.959798931     -125.616599
9.321                0.959717903     -125.853674
9.322                0.959636957     -126.091244
9.323                0.959556095     -126.329306
9.324                 0.95947532     -126.567862
9.325                0.959394635     -126.806911
9.326                0.959314044     -127.046452
9.327                 0.95923355     -127.286484
9.328                0.959153155     -127.527007
9.329                0.959072864     -127.768021
9.33                 0.958992678     -128.009524
9.331                0.958912603     -128.251517
9.332                0.958832639     -128.493999
9.333                0.958752792     -128.736969
9.334                0.958673063     -128.980426
9.335                0.958593457      -129.22437
9.336                0.958513977     -129.468799
9.337                0.958434626     -129.713715
9.338                0.958355407     -129.959114
9.339                0.958276324     -130.204998
9.34                  0.95819738     -130.451365
9.341                0.958118578     -130.698214
9.342                0.958039923     -130.945544
9.343                0.957961416     -131.193355
9.344                0.957883063     -131.441646
9.345                0.957804866     -131.690415
9.346                0.957726828     -131.939663
9.347                0.957648954     -132.189388
9.348                0.957571246     -132.439588
9.349                0.957493708     -132.690264
9.35                 0.957416345     -132.941414
9.351                0.957339158     -133.193037
9.352                0.957262152     -133.445132
9.353                0.957185331     -133.697699
9.354                0.957108698     -133.950735
9.355                0.957032256      -134.20424
9.356                 0.95695601     -134.458213
9.357                0.956879963     -134.712652
9.358                0.956804118     -134.967557
9.359                0.956728479     -135.222926
9.36                  0.95665305     -135.478758
9.361                0.956577835     -135.735052
9.362                0.956502837     -135.991807
9.363                0.956428059     -136.249021
9.364                0.956353507     -136.506692
9.365                0.956279183     -136.764821
9.366                0.956205091     -137.023405
9.367                0.956131234     -137.282442
9.368                0.956057618     -137.541932
9.369                0.955984245     -137.801874
9.37                 0.955911118     -138.062265
9.371                0.955838243     -138.323104
9.372                0.955765623      -138.58439
9.373                0.955693261     -138.846121
9.374                0.955621162     -139.108296
9.375                0.955549328     -139.370913
9.376                0.955477765     -139.633971
9.377                0.955406476     -139.897467
9.378                0.955335464     -140.161401
9.379                0.955264734     -140.425771
9.38                 0.955194289     -140.690574
9.381                0.955124133      -140.95581
9.382                 0.95505427     -141.221476
9.383                0.954984704     -141.487571
9.384                0.954915439     -141.754094
9.385                0.954846479     -142.021041
9.386                0.954777827     -142.288412
9.387                0.954709487     -142.556204
9.388                0.954641464     -142.824417
9.389                0.954573761     -143.093047
9.39                 0.954506382     -143.362093
9.391                0.954439331     -143.631552
9.392                0.954372611     -143.901424
9.393                0.954306227     -144.171706
9.394                0.954240183     -144.442396
9.395                0.954174482     -144.713492
9.396                0.954109129     -144.984992
