! TOUCHSTONE file generated by CST DESIGN STUDIO
! Date and time: Tue Feb  4 13:59:10 2025
! Project name: C:\Work\MatlabApps\UnitCellOptimizationMatlab\CST\unitcell.cst
! Tree item: Tasks\Sweep1\SPara1\S-Parameters
! Header version: 2024
! Port assignment regex: !\s*Touchstone port\s*([0-9]+)\s*=\s*(CST MWS port|CST DES external port|CST DES block port)\s*(.+)\s* \(\"(.*)\"\)(\s*mode\s*([0-9]+))?.*
! Touchstone port assignment:
! Touchstone port 1 = CST DES external port 1 ("")
# GHz S MA R 50
9                    0.980365206     -79.1932021
9.001                0.980315765     -79.3164236
9.002                0.980266175     -79.4399533
9.003                0.980216435     -79.5637921
9.004                0.980166544     -79.6879408
9.005                0.980116504     -79.8124004
9.006                0.980066313     -79.9371718
9.007                0.980015971     -80.0622559
9.008                0.979965478     -80.1876536
9.009                0.979914834     -80.3133658
9.01                 0.979864038     -80.4393934
9.011                 0.97981309     -80.5657373
9.012                0.979761989     -80.6923985
9.013                0.979710737     -80.8193779
9.014                0.979659331     -80.9466764
9.015                0.979607773     -81.0742948
9.016                0.979556061     -81.2022342
9.017                0.979504196     -81.3304955
9.018                0.979452176     -81.4590795
9.019                0.979400003     -81.5879873
9.02                 0.979347676     -81.7172197
9.021                0.979295194     -81.8467777
9.022                0.979242557     -81.9766622
9.023                0.979189765     -82.1068741
9.024                0.979136818     -82.2374144
9.025                0.979083715     -82.3682839
9.026                0.979030457     -82.4994838
9.027                0.978977042     -82.6310148
9.028                0.978923471      -82.762878
9.029                0.978869744     -82.8950742
9.03                  0.97881586     -83.0276044
9.031                 0.97876182     -83.1604696
9.032                0.978707622     -83.2936707
9.033                0.978653267     -83.4272087
9.034                0.978598754     -83.5610844
9.035                0.978544084     -83.6952989
9.036                0.978489255     -83.8298532
9.037                0.978434269      -83.964748
9.038                0.978379124     -84.0999845
9.039                 0.97832382     -84.2355636
9.04                 0.978268358     -84.3714861
9.041                0.978212737     -84.5077532
9.042                0.978156957     -84.6443657
9.043                0.978101017     -84.7813246
9.044                0.978044918     -84.9186308
9.045                0.977988659     -85.0562854
9.046                0.977932241     -85.1942893
9.047                0.977875663     -85.3326434
9.048                0.977818924     -85.4713487
9.049                0.977762025     -85.6104062
9.05                 0.977704966     -85.7498169
9.051                0.977647746     -85.8895817
9.052                0.977590366     -86.0297016
9.053                0.977532824     -86.1701775
9.054                0.977475122     -86.3110104
9.055                0.977417258     -86.4522014
9.056                0.977359233     -86.5937513
9.057                0.977301047     -86.7356612
9.058                  0.9772427      -86.877932
9.059                 0.97718419     -87.0205646
9.06                 0.977125519     -87.1635602
9.061                0.977066687     -87.3069196
9.062                0.977007692     -87.4506438
9.063                0.976948535     -87.5947338
9.064                0.976889217     -87.7391906
9.065                0.976829736     -87.8840151
9.066                0.976770093     -88.0292084
9.067                0.976710287     -88.1747713
9.068                0.976650319      -88.320705
9.069                0.976590189     -88.4670103
9.07                 0.976529896     -88.6136883
9.071                0.976469441     -88.7607399
9.072                0.976408823     -88.9081661
9.073                0.976348043     -89.0559679
9.074                  0.9762871     -89.2041463
9.075                0.976225994     -89.3527022
9.076                0.976164726     -89.5016367
9.077                0.976103295     -89.6509507
9.078                0.976041701     -89.8006452
9.079                0.975979944     -89.9507211
9.08                 0.975918025     -90.1011796
9.081                0.975855943     -90.2520214
9.082                0.975793698     -90.4032477
9.083                0.975731291     -90.5548594
9.084                0.975668721     -90.7068575
9.085                0.975605989     -90.8592429
9.086                0.975543094     -91.0120167
9.087                0.975480037     -91.1651798
9.088                0.975416817     -91.3187333
9.089                0.975353435      -91.472678
9.09                  0.97528989      -91.627015
9.091                0.975226184     -91.7817452
9.092                0.975162315     -91.9368696
9.093                0.975098284     -92.0923893
9.094                0.975034091     -92.2483051
9.095                0.974969737     -92.4046181
9.096                0.974905221     -92.5613292
9.097                0.974840543     -92.7184394
9.098                0.974775704     -92.8759496
9.099                0.974710704      -93.033861
9.1                  0.974645542     -93.1921743
9.101                 0.97458022     -93.3508907
9.102                0.974514737      -93.510011
9.103                0.974449093     -93.6695362
9.104                0.974383289     -93.8294673
9.105                0.974317324     -93.9898053
9.106                  0.9742512     -94.1505511
9.107                0.974184915     -94.3117057
9.108                0.974118471     -94.4732701
9.109                0.974051868     -94.6352452
9.11                 0.973985105      -94.797632
9.111                0.973918184     -94.9604314
9.112                0.973851104     -95.1236444
9.113                0.973783865     -95.2872719
9.114                0.973716469      -95.451315
9.115                0.973648915     -95.6157745
9.116                0.973581203     -95.7806514
9.117                0.973513333     -95.9459467
9.118                0.973445307     -96.1116612
9.119                0.973377125      -96.277796
9.12                 0.973308786      -96.444352
9.121                0.973240291     -96.6113301
9.122                 0.97317164     -96.7787313
9.123                0.973102835     -96.9465564
9.124                0.973033874     -97.1148065
9.125                0.972964759     -97.2834825
9.126                 0.97289549     -97.4525852
9.127                0.972826068     -97.6221156
9.128                0.972756492     -97.7920747
9.129                0.972686763     -97.9624634
9.13                 0.972616882     -98.1332825
9.131                0.972546849      -98.304533
9.132                0.972476665     -98.4762159
9.133                0.972406329     -98.6483319
9.134                0.972335844     -98.8208821
9.135                0.972265208     -98.9938673
9.136                0.972194422     -99.1672884
9.137                0.972123488     -99.3411463
9.138                0.972052405     -99.5154419
9.139                0.971981174     -99.6901762
9.14                 0.971909796     -99.8653499
9.141                0.971838271     -100.040964
9.142                  0.9717666     -100.217019
9.143                0.971694783     -100.393517
9.144                0.971622822     -100.570457
9.145                0.971550715     -100.747842
9.146                0.971478466     -100.925671
9.147                0.971406072     -101.103946
9.148                0.971333537     -101.282667
9.149                 0.97126086     -101.461835
9.15                 0.971188041     -101.641452
9.151                0.971115083     -101.821517
9.152                0.971041984     -102.002033
9.153                0.970968747     -102.182999
9.154                0.970895371     -102.364417
9.155                0.970821858     -102.546287
9.156                0.970748208      -102.72861
9.157                0.970674422     -102.911387
9.158                0.970600501     -103.094619
9.159                0.970526446     -103.278306
9.16                 0.970452257      -103.46245
9.161                0.970377935     -103.647051
9.162                0.970303482      -103.83211
9.163                0.970228897     -104.017627
9.164                0.970154183     -104.203605
9.165                0.970079339     -104.390042
9.166                0.970004367     -104.576941
9.167                0.969929268     -104.764301
9.168                0.969854042     -104.952124
9.169                0.969778691     -105.140411
9.17                 0.969703215     -105.329161
9.171                0.969627616     -105.518377
9.172                0.969551895     -105.708057
9.173                0.969476051     -105.898205
9.174                0.969400088     -106.088819
9.175                0.969324005     -106.279901
9.176                0.969247804     -106.471451
9.177                0.969171485      -106.66347
9.178                0.969095051      -106.85596
9.179                0.969018501     -107.048919
9.18                 0.968941837      -107.24235
9.181                0.968865061     -107.436253
9.182                0.968788173     -107.630628
9.183                0.968711175     -107.825477
9.184                0.968634068     -108.020799
9.185                0.968556853     -108.216596
9.186                0.968479531     -108.412868
9.187                0.968402103     -108.609615
9.188                0.968324571     -108.806839
9.189                0.968246937      -109.00454
9.19                 0.968169201     -109.202719
9.191                0.968091364     -109.401375
9.192                0.968013429      -109.60051
9.193                0.967935396     -109.800125
9.194                0.967857266      -110.00022
9.195                0.967779042     -110.200795
9.196                0.967700725      -110.40185
9.197                0.967622316     -110.603388
9.198                0.967543816     -110.805407
9.199                0.967465227      -111.00791
9.2                   0.96738655     -111.210895
9.201                0.967307788     -111.414364
9.202                0.967228941     -111.618316
9.203                0.967150011     -111.822754
9.204                   0.967071     -112.027676
9.205                0.966991908     -112.233085
9.206                0.966912739     -112.438979
9.207                0.966833493     -112.645359
9.208                0.966754172     -112.852226
9.209                0.966674778     -113.059581
9.21                 0.966595312     -113.267423
9.211                0.966515776     -113.475754
9.212                0.966436172     -113.684573
9.213                0.966356502      -113.89388
9.214                0.966276766     -114.103678
9.215                0.966196968     -114.313964
9.216                0.966117109     -114.524741
9.217                 0.96603719     -114.736008
9.218                0.965957214     -114.947765
9.219                0.965877182     -115.160014
9.22                 0.965797097     -115.372753
9.221                 0.96571696     -115.585985
9.222                0.965636772     -115.799708
9.223                0.965556537     -116.013923
9.224                0.965476256      -116.22863
9.225                0.965395931      -116.44383
9.226                0.965315563     -116.659523
9.227                0.965235156     -116.875709
9.228                 0.96515471     -117.092388
9.229                0.965074229     -117.309561
9.23                 0.964993714     -117.527227
9.231                0.964913167     -117.745386
9.232                 0.96483259      -117.96404
9.233                0.964751986     -118.183188
9.234                0.964671357      -118.40283
9.235                0.964590704     -118.622966
9.236                0.964510031     -118.843597
9.237                0.964429339     -119.064722
9.238                 0.96434863     -119.286341
9.239                0.964267907     -119.508455
9.24                 0.964187173     -119.731064
9.241                0.964106428     -119.954167
9.242                0.964025677     -120.177765
9.243                 0.96394492     -120.401858
9.244                0.963864161     -120.626445
9.245                0.963783402     -120.851527
9.246                0.963702645     -121.077104
9.247                0.963621893     -121.303175
9.248                0.963541148      -121.52974
9.249                0.963460413     -121.756799
9.25                 0.963379689     -121.984353
9.251                0.963298981     -122.212401
9.252                0.963218289     -122.440943
9.253                0.963137618     -122.669978
9.254                0.963056968     -122.899508
9.255                0.962976344      -123.12953
9.256                0.962895747     -123.360046
9.257                 0.96281518     -123.591055
9.258                0.962734646     -123.822556
9.259                0.962654148      -124.05455
9.26                 0.962573688     -124.287036
9.261                0.962493269     -124.520014
9.262                0.962412894     -124.753483
9.263                0.962332565     -124.987444
9.264                0.962252285     -125.221896
9.265                0.962172057     -125.456838
9.266                0.962091884      -125.69227
9.267                0.962011769     -125.928192
9.268                0.961931715     -126.164604
9.269                0.961851724     -126.401504
9.27                 0.961771799     -126.638893
9.271                0.961691944      -126.87677
9.272                0.961612161     -127.115134
9.273                0.961532453     -127.353986
9.274                0.961452823     -127.593324
9.275                0.961373274     -127.833147
9.276                0.961293809     -128.073457
9.277                0.961214432      -128.31425
9.278                0.961135145     -128.555528
9.279                0.961055951      -128.79729
9.28                 0.960976854     -129.039534
9.281                0.960897856     -129.282261
9.282                0.960818961     -129.525469
9.283                0.960740172     -129.769159
9.284                0.960661492     -130.013328
9.285                0.960582924     -130.257977
9.286                0.960504471     -130.503104
9.287                0.960426137     -130.748709
9.288                0.960347924     -130.994791
9.289                0.960269837     -131.241349
9.29                 0.960191878     -131.488383
9.291                 0.96011405     -131.735892
9.292                0.960036357     -131.983873
9.293                0.959958803     -132.232328
9.294                 0.95988139     -132.481254
9.295                0.959804122     -132.730652
9.296                0.959727002     -132.980519
9.297                0.959650034     -133.230855
9.298                0.959573221     -133.481659
9.299                0.959496566     -133.732929
9.3                  0.959420073     -133.984666
9.301                0.959343746     -134.236867
9.302                0.959267587     -134.489532
9.303                  0.9591916     -134.742659
9.304                0.959115789     -134.996248
9.305                0.959040157     -135.250297
9.306                0.958964707     -135.504805
9.307                0.958889444      -135.75977
9.308                0.958814371     -136.015192
9.309                 0.95873949      -136.27107
9.31                 0.958664807     -136.527401
9.311                0.958590324     -136.784185
9.312                0.958516044     -137.041421
9.313                0.958441972     -137.299106
9.314                0.958368112     -137.557241
9.315                0.958294466     -137.815822
9.316                0.958221038      -138.07485
9.317                0.958147832     -138.334322
9.318                0.958074852     -138.594237
9.319                0.958002101     -138.854593
9.32                 0.957929582     -139.115389
9.321                0.957857301     -139.376624
9.322                0.957785259     -139.638296
9.323                0.957713462     -139.900403
9.324                0.957641911     -140.162944
9.325                0.957570613     -140.425917
9.326                0.957499569     -140.689321
9.327                0.957428783     -140.953153
9.328                 0.95735826     -141.217412
9.329                0.957288003     -141.482097
9.33                 0.957218016     -141.747206
9.331                0.957148302     -142.012736
9.332                0.957078866     -142.278687
9.333                 0.95700971     -142.545056
9.334                 0.95694084     -142.811841
9.335                0.956872257     -143.079041
9.336                0.956803967     -143.346654
9.337                0.956735972     -143.614678
9.338                0.956668278      -143.88311
9.339                0.956600886      -144.15195
9.34                 0.956533802     -144.421194
9.341                0.956467029     -144.690841
9.342                 0.95640057      -144.96089
9.343                0.956334429     -145.231337
9.344                0.956268611     -145.502181
9.345                0.956203119      -145.77342
9.346                0.956137956     -146.045052
9.347                0.956073126     -146.317074
9.348                0.956008634     -146.589485
9.349                0.955944482     -146.862281
9.35                 0.955880675     -147.135462
9.351                0.955817216     -147.409024
9.352                0.955754109     -147.682966
9.353                0.955691358     -147.957285
9.354                0.955628966     -148.231978
9.355                0.955566938     -148.507045
9.356                0.955505276     -148.782481
9.357                0.955443984     -149.058286
9.358                0.955383067     -149.334455
9.359                0.955322528     -149.610988
9.36                  0.95526237     -149.887881
9.361                0.955202597     -150.165132
9.362                0.955143213     -150.442739
9.363                0.955084222     -150.720699
9.364                0.955025626      -150.99901
9.365                0.954967431     -151.277668
9.366                0.954909638     -151.556672
9.367                0.954852253     -151.836018
9.368                0.954795278     -152.115705
9.369                0.954738717     -152.395729
9.37                 0.954682573     -152.676088
9.371                0.954626851      -152.95678
9.372                0.954571553       -153.2378
9.373                0.954516684     -153.519148
9.374                0.954462246     -153.800819
9.375                0.954408243     -154.082811
9.376                0.954354679     -154.365122
9.377                0.954301557     -154.647748
9.378                 0.95424888     -154.930687
9.379                0.954196652     -155.213935
9.38                 0.954144877     -155.497491
9.381                0.954093557      -155.78135
9.382                0.954042696     -156.065511
9.383                0.953992297      -156.34997
9.384                0.953942364     -156.634723
9.385                  0.9538929     -156.919769
9.386                0.953843908     -157.205104
9.387                0.953795391     -157.490725
9.388                0.953747353     -157.776629
9.389                0.953699797     -158.062813
9.39                 0.953652726     -158.349274
9.391                0.953606142     -158.636008
9.392                0.953560051     -158.923013
9.393                0.953514453     -159.210286
9.394                0.953469353     -159.497822
9.395                0.953424753      -159.78562
9.396                0.953380657     -160.073676
