! TOUCHSTONE file generated by CST DESIGN STUDIO
! Date and time: Tue Feb  4 13:47:49 2025
! Project name: C:\Work\MatlabApps\UnitCellOptimizationMatlab\CST\unitcell.cst
! Tree item: Tasks\Sweep1\SPara1\S-Parameters
! Header version: 2024
! Port assignment regex: !\s*Touchstone port\s*([0-9]+)\s*=\s*(CST MWS port|CST DES external port|CST DES block port)\s*(.+)\s* \(\"(.*)\"\)(\s*mode\s*([0-9]+))?.*
! Touchstone port assignment:
! Touchstone port 1 = CST DES external port 1 ("")
# GHz S MA R 50
9                    0.988466856     -67.9220313
9.001                 0.98844257     -68.0184128
9.002                0.988418211     -68.1150212
9.003                0.988393778      -68.211857
9.004                0.988369272     -68.3089209
9.005                0.988344693     -68.4062136
9.006                0.988320039     -68.5037358
9.007                0.988295311     -68.6014883
9.008                0.988270509     -68.6994717
9.009                0.988245632     -68.7976867
9.01                 0.988220681      -68.896134
9.011                0.988195655     -68.9948143
9.012                0.988170553     -69.0937284
9.013                0.988145376     -69.1928769
9.014                0.988120124     -69.2922606
9.015                0.988094796     -69.3918801
9.016                0.988069392     -69.4917362
9.017                0.988043912     -69.5918296
9.018                0.988018356      -69.692161
9.019                0.987992723     -69.7927311
9.02                 0.987967013     -69.8935407
9.021                0.987941226     -69.9945905
9.022                0.987915363     -70.0958812
9.023                0.987889422     -70.1974135
9.024                0.987863403     -70.2991883
9.025                0.987837307     -70.4012061
9.026                0.987811133     -70.5034678
9.027                0.987784881      -70.605974
9.028                0.987758551     -70.7087256
9.029                0.987732142     -70.8117233
9.03                 0.987705654     -70.9149678
9.031                0.987679087     -71.0184598
9.032                0.987652442     -71.1222001
9.033                0.987625717     -71.2261895
9.034                0.987598912     -71.3304287
9.035                0.987572028     -71.4349185
9.036                0.987545064     -71.5396596
9.037                 0.98751802     -71.6446528
9.038                0.987490896     -71.7498988
9.039                0.987463691     -71.8553984
9.04                 0.987436405     -71.9611524
9.041                0.987409039     -72.0671616
9.042                0.987381592     -72.1734266
9.043                0.987354063     -72.2799484
9.044                0.987326453     -72.3867276
9.045                0.987298761      -72.493765
9.046                0.987270988     -72.6010614
9.047                0.987243132     -72.7086177
9.048                0.987215194     -72.8164345
9.049                0.987187174     -72.9245126
9.05                 0.987159071     -73.0328529
9.051                0.987130885     -73.1414562
9.052                0.987102617     -73.2503231
9.053                0.987074265     -73.3594546
9.054                 0.98704583     -73.4688514
9.055                0.987017311     -73.5785143
9.056                0.986988709     -73.6884441
9.057                0.986960022     -73.7986416
9.058                0.986931252     -73.9091076
9.059                0.986902397      -74.019843
9.06                 0.986873457     -74.1308484
9.061                0.986844433     -74.2421248
9.062                0.986815324     -74.3536729
9.063                 0.98678613     -74.4654936
9.064                0.986756851     -74.5775877
9.065                0.986727486     -74.6899559
9.066                0.986698036     -74.8025992
9.067                  0.9866685     -74.9155182
9.068                0.986638878      -75.028714
9.069                 0.98660917     -75.1421872
9.07                 0.986579375     -75.2559387
9.071                0.986549494     -75.3699693
9.072                0.986519526       -75.48428
9.073                0.986489471     -75.5988714
9.074                0.986459329     -75.7137444
9.075                  0.9864291     -75.8288999
9.076                0.986398784     -75.9443388
9.077                 0.98636838     -76.0600618
9.078                0.986337888     -76.1760697
9.079                0.986307308     -76.2923636
9.08                  0.98627664     -76.4089441
9.081                0.986245884     -76.5258121
9.082                0.986215039     -76.6429686
9.083                0.986184106     -76.7604143
9.084                0.986153084     -76.8781501
9.085                0.986121973     -76.9961768
9.086                0.986090772     -77.1144954
9.087                0.986059483     -77.2331066
9.088                0.986028104     -77.3520114
9.089                0.985996635     -77.4712105
9.09                 0.985965077      -77.590705
9.091                0.985933428     -77.7104955
9.092                 0.98590169     -77.8305831
9.093                0.985869861     -77.9509686
9.094                0.985837942     -78.0716528
9.095                0.985805932     -78.1926367
9.096                0.985773831      -78.313921
9.097                0.985741639     -78.4355068
9.098                0.985709357     -78.5573948
9.099                0.985676983     -78.6795859
9.1                  0.985644518     -78.8020811
9.101                0.985611961     -78.9248813
9.102                0.985579313     -79.0479872
9.103                0.985546572     -79.1713998
9.104                 0.98551374     -79.2951201
9.105                0.985480816     -79.4191488
9.106                  0.9854478     -79.5434869
9.107                0.985414691     -79.6681353
9.108                0.985381489     -79.7930948
9.109                0.985348195     -79.9183665
9.11                 0.985314808     -80.0439511
9.111                0.985281328     -80.1698496
9.112                0.985247756     -80.2960629
9.113                0.985214089     -80.4225919
9.114                 0.98518033     -80.5494375
9.115                0.985146477     -80.6766006
9.116                0.985112531     -80.8040822
9.117                0.985078491     -80.9318831
9.118                0.985044357     -81.0600042
9.119                0.985010129     -81.1884466
9.12                 0.984975807      -81.317211
9.121                0.984941391     -81.4462984
9.122                 0.98490688     -81.5757098
9.123                0.984872275     -81.7054461
9.124                0.984837576     -81.8355081
9.125                0.984802782     -81.9658968
9.126                0.984767893     -82.0966132
9.127                 0.98473291     -82.2276581
9.128                0.984697831     -82.3590325
9.129                0.984662658     -82.4907373
9.13                 0.984627389     -82.6227735
9.131                0.984592025      -82.755142
9.132                0.984556566     -82.8878438
9.133                0.984521011     -83.0208796
9.134                0.984485361     -83.1542506
9.135                0.984449616     -83.2879577
9.136                0.984413774     -83.4220017
9.137                0.984377837     -83.5563836
9.138                0.984341804     -83.6911044
9.139                0.984305675      -83.826165
9.14                  0.98426945     -83.9615664
9.141                0.984233129     -84.0973094
9.142                0.984196712     -84.2333952
9.143                0.984160199     -84.3698245
9.144                 0.98412359     -84.5065984
9.145                0.984086884     -84.6437177
9.146                0.984050082     -84.7811836
9.147                0.984013183     -84.9189968
9.148                0.983976188     -85.0571584
9.149                0.983939097     -85.1956693
9.15                 0.983901909     -85.3345304
9.151                0.983864624     -85.4737428
9.152                0.983827243     -85.6133074
9.153                0.983789765     -85.7532251
9.154                 0.98375219     -85.8934969
9.155                0.983714519     -86.0341238
9.156                0.983676751     -86.1751067
9.157                0.983638886     -86.3164466
9.158                0.983600924     -86.4581444
9.159                0.983562865     -86.6002012
9.16                  0.98352471     -86.7426178
9.161                0.983486457     -86.8853952
9.162                0.983448108     -87.0285345
9.163                0.983409662     -87.1720365
9.164                0.983371119     -87.3159022
9.165                 0.98333248     -87.4601326
9.166                0.983293743     -87.6047287
9.167                 0.98325491     -87.7496915
9.168                0.983215979     -87.8950218
9.169                0.983176952     -88.0407207
9.17                 0.983137829     -88.1867891
9.171                0.983098608     -88.3332281
9.172                0.983059291     -88.4800385
9.173                0.983019877     -88.6272214
9.174                0.982980366     -88.7747776
9.175                0.982940759     -88.9227083
9.176                0.982901055     -89.0710143
9.177                0.982861255     -89.2196966
9.178                0.982821359     -89.3687562
9.179                0.982781366     -89.5181941
9.18                 0.982741276     -89.6680112
9.181                0.982701091     -89.8182085
9.182                0.982660809      -89.968787
9.183                0.982620431     -90.1197476
9.184                0.982579957     -90.2710913
9.185                0.982539387     -90.4228191
9.186                0.982498722      -90.574932
9.187                 0.98245796     -90.7274308
9.188                0.982417103     -90.8803167
9.189                0.982376151     -91.0335905
9.19                 0.982335103     -91.1872532
9.191                 0.98229396     -91.3413058
9.192                0.982252721     -91.4957492
9.193                0.982211388     -91.6505845
9.194                 0.98216996     -91.8058125
9.195                0.982128436     -91.9614343
9.196                0.982086819     -92.1174508
9.197                0.982045106      -92.273863
9.198                  0.9820033     -92.4306718
9.199                0.981961399     -92.5878782
9.2                  0.981919404     -92.7454832
9.201                0.981877315     -92.9034876
9.202                0.981835133     -93.0618926
9.203                0.981792857      -93.220699
9.204                0.981750488     -93.3799077
9.205                0.981708026     -93.5395199
9.206                0.981665471     -93.6995363
9.207                0.981622823     -93.8599579
9.208                0.981580082     -94.0207858
9.209                 0.98153725     -94.1820208
9.21                 0.981494325     -94.3436639
9.211                0.981451308     -94.5057161
9.212                  0.9814082     -94.6681782
9.213                0.981365001     -94.8310513
9.214                 0.98132171     -94.9943363
9.215                0.981278328      -95.158034
9.216                0.981234856     -95.3221456
9.217                0.981191294     -95.4866718
9.218                0.981147641     -95.6516137
9.219                0.981103899     -95.8169721
9.22                 0.981060067      -95.982748
9.221                0.981016146     -96.1489424
9.222                0.980972136      -96.315556
9.223                0.980928037       -96.48259
9.224                 0.98088385     -96.6500452
9.225                0.980839575     -96.8179224
9.226                0.980795213     -96.9862228
9.227                0.980750763      -97.154947
9.228                0.980706226     -97.3240961
9.229                0.980661603      -97.493671
9.23                 0.980616893     -97.6636726
9.231                0.980572097     -97.8341018
9.232                0.980527216     -98.0049594
9.233                 0.98048225     -98.1762464
9.234                0.980437199     -98.3479637
9.235                0.980392063     -98.5201122
9.236                0.980346844     -98.6926928
9.237                0.980301541     -98.8657063
9.238                0.980256155     -99.0391536
9.239                0.980210686     -99.2130357
9.24                 0.980165135     -99.3873533
9.241                0.980119502     -99.5621075
9.242                0.980073788     -99.7372989
9.243                0.980027993     -99.9129286
9.244                0.979982117     -100.088997
9.245                0.979936161     -100.265506
9.246                0.979890126     -100.442455
9.247                0.979844012     -100.619846
9.248                0.979797819      -100.79768
9.249                0.979751548     -100.975957
9.25                   0.9797052     -101.154678
9.251                0.979658775     -101.333844
9.252                0.979612273     -101.513456
9.253                0.979565696     -101.693514
9.254                0.979519043      -101.87402
9.255                0.979472315     -102.054974
9.256                0.979425513     -102.236378
9.257                0.979378638     -102.418231
9.258                0.979331689     -102.600535
9.259                0.979284668     -102.783291
9.26                 0.979237576     -102.966498
9.261                0.979190412     -103.150159
9.262                0.979143177     -103.334274
9.263                0.979095873     -103.518844
9.264                0.979048499     -103.703868
9.265                0.979001057      -103.88935
9.266                0.978953547     -104.075288
9.267                0.978905969     -104.261683
9.268                0.978858325     -104.448537
9.269                0.978810615     -104.635851
9.27                  0.97876284     -104.823624
9.271                   0.978715     -105.011858
9.272                0.978667096     -105.200554
9.273                 0.97861913     -105.389711
9.274                0.978571101     -105.579331
9.275                0.978523011     -105.769415
9.276                 0.97847486     -105.959963
9.277                0.978426649     -106.150977
9.278                0.978378378     -106.342455
9.279                 0.97833005       -106.5344
9.28                 0.978281664     -106.726812
9.281                0.978233221     -106.919692
9.282                0.978184722      -107.11304
9.283                0.978136168     -107.306856
9.284                 0.97808756     -107.501143
9.285                0.978038899       -107.6959
9.286                0.977990185     -107.891127
9.287                 0.97794142     -108.086826
9.288                0.977892603     -108.282997
9.289                0.977843738     -108.479641
9.29                 0.977794823     -108.676758
9.291                 0.97774586     -108.874349
9.292                 0.97769685     -109.072415
9.293                0.977647795     -109.270955
9.294                0.977598694     -109.469971
9.295                0.977549549     -109.669463
9.296                0.977500361     -109.869433
9.297                0.977451132     -110.069879
9.298                0.977401861     -110.270803
9.299                0.977352549     -110.472205
9.3                  0.977303199     -110.674086
9.301                0.977253811     -110.876447
9.302                0.977204387     -111.079287
9.303                0.977154926     -111.282608
9.304                 0.97710543     -111.486409
9.305                0.977055901     -111.690692
9.306                 0.97700634     -111.895456
9.307                0.976956747     -112.100703
9.308                0.976907124     -112.306432
9.309                0.976857471     -112.512644
9.31                 0.976807791      -112.71934
9.311                0.976758084     -112.926519
9.312                0.976708351     -113.134183
9.313                0.976658594     -113.342331
9.314                0.976608814     -113.550964
9.315                0.976559011     -113.760082
9.316                0.976509188     -113.969686
9.317                0.976459346     -114.179777
9.318                0.976409485     -114.390353
9.319                0.976359607     -114.601416
9.32                 0.976309714     -114.812967
9.321                0.976259806     -115.025004
9.322                0.976209885     -115.237529
9.323                0.976159953     -115.450542
9.324                 0.97611001     -115.664043
9.325                0.976060058     -115.878032
9.326                0.976010098      -116.09251
9.327                0.975960132     -116.307477
9.328                 0.97591016     -116.522932
9.329                0.975860186     -116.738877
9.33                 0.975810209     -116.955311
9.331                0.975760232     -117.172235
9.332                0.975710255     -117.389648
9.333                 0.97566028     -117.607552
9.334                0.975610309     -117.825945
9.335                0.975560343     -118.044828
9.336                0.975510384     -118.264202
9.337                0.975460433     -118.484066
9.338                0.975410492      -118.70442
9.339                0.975360561     -118.925265
9.34                 0.975310644       -119.1466
9.341                 0.97526074     -119.368425
9.342                0.975210853     -119.590741
9.343                0.975160983     -119.813548
9.344                0.975111131     -120.036845
9.345                0.975061301     -120.260633
9.346                0.975011492     -120.484911
9.347                0.974961708      -120.70968
9.348                0.974911949     -120.934939
9.349                0.974862217     -121.160688
9.35                 0.974812514     -121.386928
9.351                0.974762841     -121.613657
9.352                0.974713201     -121.840877
9.353                0.974663594     -122.068586
9.354                0.974614023     -122.296784
9.355                 0.97456449     -122.525473
9.356                0.974514996      -122.75465
9.357                0.974465542     -122.984317
9.358                0.974416131     -123.214472
9.359                0.974366765     -123.445116
9.36                 0.974317444     -123.676248
9.361                0.974268172     -123.907868
9.362                0.974218949     -124.139976
9.363                0.974169779     -124.372572
9.364                0.974120661     -124.605654
9.365                0.974071599     -124.839223
9.366                0.974022595     -125.073279
9.367                0.973973649     -125.307821
9.368                0.973924764     -125.542848
9.369                0.973875943      -125.77836
9.37                 0.973827186     -126.014357
9.371                0.973778496     -126.250839
9.372                0.973729874     -126.487804
9.373                0.973681324     -126.725253
9.374                0.973632846     -126.963185
9.375                0.973584442     -127.201599
9.376                0.973536115     -127.440494
9.377                0.973487867     -127.679871
9.378                0.973439699     -127.919729
9.379                0.973391613     -128.160067
9.38                 0.973343613     -128.400884
9.381                0.973295699      -128.64218
9.382                0.973247873     -128.883954
9.383                0.973200139     -129.126205
9.384                0.973152497     -129.368934
9.385                 0.97310495     -129.612138
9.386                  0.9730575     -129.855817
9.387                0.973010149     -130.099972
9.388                  0.9729629       -130.3446
9.389                0.972915754     -130.589701
9.39                 0.972868713     -130.835274
9.391                 0.97282178     -131.081318
9.392                0.972774956     -131.327833
9.393                0.972728245     -131.574818
9.394                0.972681647     -131.822271
9.395                0.972635166     -132.070192
9.396                0.972588804      -132.31858
