! TOUCHSTONE file generated by CST DESIGN STUDIO
! Date and time: Tue Feb  4 17:12:46 2025
! Project name: C:\Work\MatlabApps\UnitCellOptimizationMatlab\CST\unitcell.cst
! Tree item: Tasks\Sweep1\SPara1\S-Parameters
! Header version: 2024
! Port assignment regex: !\s*Touchstone port\s*([0-9]+)\s*=\s*(CST MWS port|CST DES external port|CST DES block port)\s*(.+)\s* \(\"(.*)\"\)(\s*mode\s*([0-9]+))?.*
! Touchstone port assignment:
! Touchstone port 1 = CST DES external port 1 ("")
# GHz S MA R 50
9                    0.971001717     -84.3321129
9.001                0.970929695     -84.4715952
9.002                0.970857528     -84.6114462
9.003                0.970785217     -84.7516668
9.004                 0.97071276     -84.8922582
9.005                0.970640159     -85.0332214
9.006                0.970567413     -85.1745575
9.007                0.970494521     -85.3162677
9.008                0.970421484      -85.458353
9.009                0.970348302     -85.6008146
9.01                 0.970274974     -85.7436535
9.011                0.970201501     -85.8868708
9.012                0.970127883     -86.0304677
9.013                0.970054119     -86.1744452
9.014                0.969980209     -86.3188045
9.015                0.969906153     -86.4635466
9.016                0.969831951     -86.6086727
9.017                0.969757604     -86.7541839
9.018                0.969683111     -86.9000813
9.019                0.969608472      -87.046366
9.02                 0.969533687     -87.1930391
9.021                0.969458756     -87.3401018
9.022                0.969383679     -87.4875551
9.023                0.969308456     -87.6354001
9.024                0.969233088      -87.783638
9.025                0.969157573       -87.93227
9.026                0.969081912      -88.081297
9.027                0.969006105     -88.2307203
9.028                0.968930153      -88.380541
9.029                0.968854054     -88.5307601
9.03                  0.96877781     -88.6813788
9.031                 0.96870142     -88.8323982
9.032                0.968624884     -88.9838195
9.033                0.968548202     -89.1356438
9.034                0.968471374     -89.2878721
9.035                0.968394401     -89.4405057
9.036                0.968317283     -89.5935455
9.037                0.968240019     -89.7469929
9.038                 0.96816261     -89.9008488
9.039                0.968085055     -90.0551145
9.04                 0.968007355      -90.209791
9.041                0.967929511     -90.3648794
9.042                0.967851521      -90.520381
9.043                0.967773387     -90.6762967
9.044                0.967695107     -90.8326278
9.045                0.967616684     -90.9893754
9.046                0.967538116     -91.1465406
9.047                0.967459404     -91.3041244
9.048                0.967380547     -91.4621282
9.049                0.967301547     -91.6205529
9.05                 0.967222403     -91.7793997
9.051                0.967143116     -91.9386697
9.052                0.967063686      -92.098364
9.053                0.966984112     -92.2584839
9.054                0.966904396     -92.4190303
9.055                0.966824536     -92.5800044
9.056                0.966744535     -92.7414074
9.057                0.966664391     -92.9032403
9.058                0.966584106     -93.0655043
9.059                0.966503679     -93.2282006
9.06                  0.96642311     -93.3913301
9.061                0.966342401     -93.5548941
9.062                 0.96626155     -93.7188936
9.063                0.966180559     -93.8833298
9.064                0.966099428     -94.0482038
9.065                0.966018158     -94.2135167
9.066                0.965936747     -94.3792696
9.067                0.965855198     -94.5454636
9.068                 0.96577351     -94.7120999
9.069                0.965691683     -94.8791795
9.07                 0.965609718     -95.0467036
9.071                0.965527616     -95.2146733
9.072                0.965445376     -95.3830896
9.073                   0.965363     -95.5519536
9.074                0.965280487     -95.7212666
9.075                0.965197838     -95.8910295
9.076                0.965115054     -96.0612435
9.077                0.965032134     -96.2319096
9.078                 0.96494908      -96.403029
9.079                0.964865892     -96.5746028
9.08                  0.96478257      -96.746632
9.081                0.964699115     -96.9191177
9.082                0.964615527      -97.092061
9.083                0.964531807      -97.265463
9.084                0.964447956     -97.4393247
9.085                0.964363974     -97.6136474
9.086                0.964279861     -97.7884319
9.087                0.964195618     -97.9636794
9.088                0.964111246      -98.139391
9.089                0.964026746     -98.3155677
9.09                 0.963942117     -98.4922106
9.091                0.963857361     -98.6693208
9.092                0.963772478     -98.8468993
9.093                0.963687469     -99.0249471
9.094                0.963602335     -99.2034653
9.095                0.963517076      -99.382455
9.096                0.963431693     -99.5619172
9.097                0.963346186      -99.741853
9.098                0.963260557     -99.9222633
9.099                0.963174807     -100.103149
9.1                  0.963088935     -100.284512
9.101                0.963002942     -100.466352
9.102                0.962916831     -100.648671
9.103                  0.9628306     -100.831469
9.104                0.962744252     -101.014749
9.105                0.962657787      -101.19851
9.106                0.962571205     -101.382754
9.107                0.962484508     -101.567481
9.108                0.962397697     -101.752693
9.109                0.962310772     -101.938391
9.11                 0.962223734     -102.124576
9.111                0.962136585     -102.311248
9.112                0.962049325     -102.498409
9.113                0.961961955     -102.686059
9.114                0.961874477     -102.874201
9.115                 0.96178689     -103.062833
9.116                0.961699197     -103.251958
9.117                0.961611398     -103.441577
9.118                0.961523495      -103.63169
9.119                0.961435488     -103.822298
9.12                 0.961347378     -104.013402
9.121                0.961259166     -104.205004
9.122                0.961170855     -104.397104
9.123                0.961082444     -104.589703
9.124                0.960993935     -104.782801
9.125                 0.96090533     -104.976401
9.126                0.960816628     -105.170502
9.127                0.960727832     -105.365106
9.128                0.960638943     -105.560213
9.129                0.960549962     -105.755824
9.13                  0.96046089     -105.951941
9.131                0.960371729     -106.148564
9.132                 0.96028248     -106.345694
9.133                0.960193144     -106.543331
9.134                0.960103722     -106.741477
9.135                0.960014216     -106.940132
9.136                0.959924628     -107.139298
9.137                0.959834958     -107.338975
9.138                0.959745209     -107.539163
9.139                0.959655381     -107.739865
9.14                 0.959565476     -107.941079
9.141                0.959475495     -108.142808
9.142                0.959385441     -108.345052
9.143                0.959295314     -108.547811
9.144                0.959205116     -108.751087
9.145                0.959114848     -108.954881
9.146                0.959024513     -109.159192
9.147                0.958934112     -109.364022
9.148                0.958843647     -109.569371
9.149                0.958753118     -109.775241
9.15                 0.958662528     -109.981631
9.151                0.958571879     -110.188543
9.152                0.958481172     -110.395977
9.153                0.958390409     -110.603934
9.154                0.958299591     -110.812414
9.155                0.958208721     -111.021419
9.156                  0.9581178     -111.230948
9.157                0.958026831     -111.441003
9.158                0.957935814     -111.651583
9.159                0.957844753     -111.862691
9.16                 0.957753647     -112.074325
9.161                0.957662501     -112.286488
9.162                0.957571315     -112.499178
9.163                0.957480092     -112.712398
9.164                0.957388833     -112.926147
9.165                0.957297541     -113.140426
9.166                0.957206217     -113.355236
9.167                0.957114864     -113.570577
9.168                0.957023484     -113.786449
9.169                0.956932078     -114.002853
9.17                  0.95684065      -114.21979
9.171                  0.9567492      -114.43726
9.172                0.956657732     -114.655263
9.173                0.956566247       -114.8738
9.174                0.956474748     -115.092871
9.175                0.956383236     -115.312477
9.176                0.956291715     -115.532618
9.177                0.956200186     -115.753294
9.178                0.956108652     -115.974506
9.179                0.956017115     -116.196255
9.18                 0.955925578      -116.41854
9.181                0.955834042     -116.641361
9.182                0.955742511      -116.86472
9.183                0.955650987     -117.088616
9.184                0.955559471      -117.31305
9.185                0.955467967     -117.538022
9.186                0.955376478     -117.763532
9.187                0.955285005     -117.989581
9.188                0.955193551     -118.216168
9.189                0.955102119     -118.443294
9.19                 0.955010712     -118.670959
9.191                0.954919332     -118.899163
9.192                0.954827981     -119.127907
9.193                0.954736663      -119.35719
9.194                 0.95464538     -119.587013
9.195                0.954554135     -119.817376
9.196                 0.95446293     -120.048278
9.197                0.954371769     -120.279721
9.198                0.954280654     -120.511703
9.199                0.954189588     -120.744226
9.2                  0.954098573     -120.977288
9.201                0.954007614      -121.21089
9.202                0.953916712     -121.445033
9.203                0.953825871     -121.679715
9.204                0.953735093     -121.914938
9.205                0.953644382       -122.1507
9.206                 0.95355374     -122.387002
9.207                0.953463171     -122.623843
9.208                0.953372678     -122.861225
9.209                0.953282263     -123.099145
9.21                 0.953191929     -123.337605
9.211                0.953101681     -123.576604
9.212                0.953011521     -123.816141
9.213                0.952921452     -124.056218
9.214                0.952831477     -124.296832
9.215                  0.9527416     -124.537985
9.216                0.952651824     -124.779676
9.217                0.952562151     -125.021904
9.218                0.952472587     -125.264669
9.219                0.952383133     -125.507971
9.22                 0.952293793      -125.75181
9.221                 0.95220457     -125.996185
9.222                0.952115468     -126.241095
9.223                0.952026491     -126.486541
9.224                0.951937641     -126.732522
9.225                0.951848922     -126.979037
9.226                0.951760337     -127.226086
9.227                0.951671891     -127.473668
9.228                0.951583586     -127.721783
9.229                0.951495427     -127.970431
9.23                 0.951407416      -128.21961
9.231                0.951319557      -128.46932
9.232                0.951231854      -128.71956
9.233                 0.95114431     -128.970331
9.234                 0.95105693      -129.22163
9.235                0.950969717     -129.473458
9.236                0.950882674     -129.725814
9.237                0.950795805     -129.978697
9.238                0.950709114     -130.232106
9.239                0.950622605      -130.48604
9.24                 0.950536281     -130.740499
9.241                0.950450146     -130.995482
9.242                0.950364205     -131.250988
9.243                 0.95027846     -131.507015
9.244                0.950192917     -131.763564
9.245                0.950107577     -132.020634
9.246                0.950022447     -132.278222
9.247                0.949937528     -132.536329
9.248                0.949852826     -132.794953
9.249                0.949768344     -133.054093
9.25                 0.949684087     -133.313748
9.251                0.949600057     -133.573918
9.252                 0.94951626       -133.8346
9.253                0.949432699     -134.095795
9.254                0.949349378       -134.3575
9.255                0.949266302     -134.619714
9.256                0.949183474     -134.882437
9.257                0.949100898     -135.145667
9.258                0.949018578     -135.409403
9.259                0.948936519     -135.673643
9.26                 0.948854725     -135.938386
9.261                  0.9487732     -136.203632
9.262                0.948691947     -136.469378
9.263                0.948610972     -136.735623
9.264                0.948530277     -137.002365
9.265                0.948449869     -137.269604
9.266                0.948369749     -137.537338
9.267                0.948289924     -137.805565
9.268                0.948210397     -138.074283
9.269                0.948131172     -138.343492
9.27                 0.948052253     -138.613189
9.271                0.947973645     -138.883374
9.272                0.947895352     -139.154044
9.273                0.947817378     -139.425197
9.274                0.947739728     -139.696832
9.275                0.947662406     -139.968948
9.276                0.947585415     -140.241542
9.277                0.947508761     -140.514613
9.278                0.947432448     -140.788159
9.279                0.947356479     -141.062178
9.28                  0.94728086     -141.336669
9.281                0.947205594     -141.611628
9.282                0.947130686     -141.887056
9.283                0.947056141     -142.162948
9.284                0.946981962     -142.439304
9.285                0.946908153     -142.716122
9.286                 0.94683472       -142.9934
9.287                0.946761667     -143.271134
9.288                0.946688997     -143.549324
9.289                0.946616715     -143.827968
9.29                 0.946544826     -144.107062
9.291                0.946473334     -144.386606
9.292                0.946402243     -144.666596
9.293                0.946331557     -144.947031
9.294                0.946261281     -145.227908
9.295                0.946191419     -145.509225
9.296                0.946121976      -145.79098
9.297                0.946052956      -146.07317
9.298                0.945984362     -146.355794
9.299                  0.9459162     -146.638847
9.3                  0.945848474     -146.922329
9.301                0.945781188     -147.206237
9.302                0.945714346     -147.490568
9.303                0.945647952      -147.77532
9.304                0.945582012      -148.06049
9.305                0.945516528     -148.346075
9.306                0.945451506     -148.632074
9.307                 0.94538695     -148.918483
9.308                0.945322863       -149.2053
9.309                0.945259251     -149.492522
9.31                 0.945196117     -149.780146
9.311                0.945133465      -150.06817
9.312                  0.9450713     -150.356591
9.313                0.945009626     -150.645407
9.314                0.944948447     -150.934613
9.315                0.944887767     -151.224208
9.316                0.944827591     -151.514188
9.317                0.944767921     -151.804552
9.318                0.944708764     -152.095295
9.319                0.944650122     -152.386415
9.32                 0.944591999     -152.677908
9.321                0.944534401     -152.969773
9.322                 0.94447733     -153.262006
9.323                 0.94442079     -153.554603
9.324                0.944364787     -153.847562
9.325                0.944309323     -154.140879
9.326                0.944254402     -154.434552
9.327                 0.94420003     -154.728577
9.328                0.944146208     -155.022952
9.329                0.944092942     -155.317672
9.33                 0.944040235     -155.612735
9.331                0.943988091     -155.908137
9.332                0.943936513     -156.203875
9.333                0.943885506     -156.499946
9.334                0.943835074     -156.796346
9.335                0.943785219     -157.093073
9.336                0.943735945     -157.390122
9.337                0.943687257      -157.68749
9.338                0.943639158     -157.985174
9.339                0.943591652     -158.283171
9.34                 0.943544741     -158.581476
9.341                 0.94349843     -158.880086
9.342                0.943452722     -159.178999
9.343                 0.94340762     -159.478209
9.344                0.943363128     -159.777714
9.345                 0.94331925     -160.077511
9.346                0.943275988     -160.377594
9.347                0.943233346     -160.677962
9.348                0.943191328     -160.978609
9.349                0.943149936     -161.279533
9.35                 0.943109173     -161.580729
9.351                0.943069044     -161.882194
9.352                 0.94302955     -162.183925
9.353                0.942990696     -162.485916
9.354                0.942952483     -162.788166
9.355                0.942914916     -163.090669
9.356                0.942877997     -163.393422
9.357                0.942841729      -163.69642
9.358                0.942806114     -163.999661
9.359                0.942771157     -164.303141
9.36                 0.942736859     -164.606854
9.361                0.942703223     -164.910798
9.362                0.942670253     -165.214968
9.363                 0.94263795     -165.519361
9.364                0.942606317     -165.823972
9.365                0.942575357     -166.128797
9.366                0.942545073     -166.433832
9.367                0.942515466     -166.739074
9.368                0.942486539     -167.044518
9.369                0.942458295     -167.350161
9.37                 0.942430736     -167.655997
9.371                0.942403865     -167.962023
9.372                0.942377683     -168.268235
9.373                0.942352192     -168.574628
9.374                0.942327395     -168.881199
9.375                0.942303294     -169.187943
9.376                0.942279891     -169.494856
9.377                0.942257188     -169.801934
9.378                0.942235186     -170.109172
9.379                0.942213888     -170.416567
9.38                 0.942193295     -170.724114
9.381                 0.94217341     -171.031809
9.382                0.942154233     -171.339647
9.383                0.942135767     -171.647625
9.384                0.942118013     -171.955737
9.385                0.942100973      -172.26398
9.386                0.942084648      -172.57235
9.387                 0.94206904     -172.880841
9.388                0.942054149     -173.189451
9.389                0.942039978     -173.498173
9.39                 0.942026527     -173.807004
9.391                0.942013798      -174.11594
9.392                0.942001791     -174.424976
9.393                0.941990509     -174.734108
9.394                0.941979952     -175.043331
9.395                 0.94197012     -175.352641
9.396                0.941961015     -175.662034
