! TOUCHSTONE file generated by CST DESIGN STUDIO
! Date and time: Tue Feb  4 17:12:53 2025
! Project name: C:\Work\MatlabApps\UnitCellOptimizationMatlab\CST\unitcell.cst
! Tree item: Tasks\Sweep1\SPara1\S-Parameters
! Header version: 2024
! Port assignment regex: !\s*Touchstone port\s*([0-9]+)\s*=\s*(CST MWS port|CST DES external port|CST DES block port)\s*(.+)\s* \(\"(.*)\"\)(\s*mode\s*([0-9]+))?.*
! Touchstone port assignment:
! Touchstone port 1 = CST DES external port 1 ("")
# GHz S MA R 50
9                    0.974498133     -75.7753991
9.001                0.974440285      -75.893383
9.002                0.974382317     -76.0116715
9.003                0.974324227     -76.1302654
9.004                0.974266017     -76.2491657
9.005                0.974207684     -76.3683735
9.006                 0.97414923     -76.4878896
9.007                0.974090653     -76.6077151
9.008                0.974031953     -76.7278509
9.009                0.973973129     -76.8482981
9.01                 0.973914182     -76.9690575
9.011                0.973855111     -77.0901301
9.012                0.973795915      -77.211517
9.013                0.973736594     -77.3332192
9.014                0.973677148     -77.4552375
9.015                0.973617576     -77.5775731
9.016                0.973557878     -77.7002269
9.017                0.973498053     -77.8231998
9.018                0.973438101      -77.946493
9.019                0.973378022     -78.0701074
9.02                 0.973317815     -78.1940439
9.021                 0.97325748     -78.3183037
9.022                0.973197017     -78.4428877
9.023                0.973136424     -78.5677969
9.024                0.973075702     -78.6930323
9.025                0.973014851      -78.818595
9.026                0.972953869      -78.944486
9.027                0.972892757     -79.0707062
9.028                0.972831514     -79.1972567
9.029                 0.97277014     -79.3241386
9.03                 0.972708634     -79.4513528
9.031                0.972646997     -79.5789004
9.032                0.972585227     -79.7067824
9.033                0.972523324     -79.8349998
9.034                0.972461288     -79.9635537
9.035                0.972399119     -80.0924451
9.036                0.972336815      -80.221675
9.037                0.972274378     -80.3512446
9.038                0.972211806     -80.4811547
9.039                  0.9721491     -80.6114066
9.04                 0.972086258     -80.7420011
9.041                 0.97202328     -80.8729395
9.042                0.971960167     -81.0042226
9.043                0.971896917     -81.1358516
9.044                 0.97183353     -81.2678275
9.045                0.971770007     -81.4001514
9.046                0.971706346     -81.5328244
9.047                0.971642548     -81.6658474
9.048                0.971578612     -81.7992217
9.049                0.971514537     -81.9329481
9.05                 0.971450324     -82.0670278
9.051                0.971385971     -82.2014619
9.052                 0.97132148     -82.3362514
9.053                0.971256849     -82.4713974
9.054                0.971192078      -82.606901
9.055                0.971127166     -82.7427633
9.056                0.971062114     -82.8789852
9.057                0.970996922      -83.015568
9.058                0.970931588     -83.1525127
9.059                0.970866113     -83.2898203
9.06                 0.970800496     -83.4274919
9.061                0.970734737     -83.5655288
9.062                0.970668836     -83.7039318
9.063                0.970602792     -83.8427021
9.064                0.970536605     -83.9818409
9.065                0.970470275     -84.1213491
9.066                0.970403802     -84.2612279
9.067                0.970337185     -84.4014784
9.068                0.970270424     -84.5421017
9.069                0.970203519     -84.6830989
9.07                  0.97013647      -84.824471
9.071                0.970069276     -84.9662192
9.072                0.970001937     -85.1083446
9.073                0.969934453     -85.2508483
9.074                0.969866823     -85.3937313
9.075                0.969799048     -85.5369949
9.076                0.969731127       -85.68064
9.077                 0.96966306     -85.8246679
9.078                0.969594846     -85.9690795
9.079                0.969526486     -86.1138761
9.08                  0.96945798     -86.2590588
9.081                0.969389326     -86.4046285
9.082                0.969320526     -86.5505866
9.083                0.969251578      -86.696934
9.084                0.969182483     -86.8436719
9.085                 0.96911324     -86.9908015
9.086                0.969043849     -87.1383237
9.087                0.968974311     -87.2862399
9.088                0.968904624     -87.4345509
9.089                0.968834789     -87.5832581
9.09                 0.968764806     -87.7323625
9.091                0.968694674     -87.8818652
9.092                0.968624393     -88.0317674
9.093                0.968553963     -88.1820702
9.094                0.968483385     -88.3327746
9.095                0.968412658     -88.4838819
9.096                0.968341781     -88.6353931
9.097                0.968270755     -88.7873095
9.098                 0.96819958      -88.939632
9.099                0.968128255     -89.0923618
9.1                  0.968056781     -89.2455001
9.101                0.967985157      -89.399048
9.102                0.967913384     -89.5530066
9.103                0.967841461     -89.7073771
9.104                0.967769388     -89.8621605
9.105                0.967697165      -90.017358
9.106                0.967624793     -90.1729707
9.107                 0.96755227     -90.3289998
9.108                0.967479598     -90.4854463
9.109                0.967406776     -90.6423115
9.11                 0.967333804     -90.7995964
9.111                0.967260682     -90.9573021
9.112                 0.96718741     -91.1154299
9.113                0.967113988     -91.2739807
9.114                0.967040417     -91.4329558
9.115                0.966966696     -91.5923563
9.116                0.966892825     -91.7521833
9.117                0.966818804     -91.9124379
9.118                0.966744634     -92.0731212
9.119                0.966670314     -92.2342344
9.12                 0.966595844     -92.3957787
9.121                0.966521226      -92.557755
9.122                0.966446458     -92.7201646
9.123                0.966371541     -92.8830085
9.124                0.966296474     -93.0462879
9.125                0.966221259      -93.210004
9.126                0.966145896     -93.3741577
9.127                0.966070383     -93.5387503
9.128                0.965994723     -93.7037829
9.129                0.965918914     -93.8692565
9.13                 0.965842956     -94.0351723
9.131                0.965766851     -94.2015314
9.132                0.965690599      -94.368335
9.133                0.965614199      -94.535584
9.134                0.965537651     -94.7032797
9.135                0.965460957     -94.8714231
9.136                0.965384116     -95.0400154
9.137                0.965307128     -95.2090576
9.138                0.965229994     -95.3785509
9.139                0.965152714     -95.5484963
9.14                 0.965075289      -95.718895
9.141                0.964997718      -95.889748
9.142                0.964920003     -96.0610565
9.143                0.964842142     -96.2328215
9.144                0.964764137     -96.4050441
9.145                0.964685989     -96.5777254
9.146                0.964607696     -96.7508665
9.147                0.964529261     -96.9244685
9.148                0.964450682     -97.0985325
9.149                0.964371962     -97.2730595
9.15                 0.964293099     -97.4480506
9.151                0.964214094     -97.6235069
9.152                0.964134949     -97.7994294
9.153                0.964055663     -97.9758193
9.154                0.963976236     -98.1526775
9.155                 0.96389667     -98.3300052
9.156                0.963816965     -98.5078033
9.157                0.963737121     -98.6860731
9.158                0.963657139     -98.8648154
9.159                0.963577019     -99.0440314
9.16                 0.963496762      -99.223722
9.161                0.963416369     -99.4038884
9.162                0.963335839     -99.5845316
9.163                0.963255175     -99.7656526
9.164                0.963174376     -99.9472524
9.165                0.963093442     -100.129332
9.166                0.963012376     -100.311893
9.167                0.962931176     -100.494935
9.168                0.962849845      -100.67846
9.169                0.962768382     -100.862469
9.17                 0.962686789     -101.046964
9.171                0.962605065     -101.231944
9.172                0.962523213     -101.417411
9.173                0.962441232     -101.603365
9.174                0.962359123     -101.789809
9.175                0.962276888     -101.976743
9.176                0.962194526     -102.164167
9.177                 0.96211204     -102.352083
9.178                0.962029429     -102.540492
9.179                0.961946694     -102.729395
9.18                 0.961863837     -102.918792
9.181                0.961780858     -103.108685
9.182                0.961697759     -103.299074
9.183                0.961614539     -103.489961
9.184                0.961531201     -103.681347
9.185                0.961447744     -103.873231
9.186                0.961364171     -104.065616
9.187                0.961280481     -104.258503
9.188                0.961196677     -104.451891
9.189                0.961112759     -104.645782
9.19                 0.961028728     -104.840177
9.191                0.960944585     -105.035077
9.192                0.960860332     -105.230482
9.193                0.960775969     -105.426394
9.194                0.960691497     -105.622813
9.195                0.960606918     -105.819741
9.196                0.960522234     -106.017177
9.197                0.960437444     -106.215124
9.198                0.960352551     -106.413581
9.199                0.960267555      -106.61255
9.2                  0.960182458     -106.812031
9.201                0.960097261     -107.012025
9.202                0.960011966     -107.212533
9.203                0.959926573     -107.413556
9.204                0.959841085     -107.615095
9.205                0.959755502      -107.81715
9.206                0.959669825     -108.019722
9.207                0.959584057     -108.222812
9.208                0.959498199      -108.42642
9.209                0.959412251     -108.630548
9.21                 0.959326217     -108.835196
9.211                0.959240096     -109.040365
9.212                0.959153891     -109.246055
9.213                0.959067603     -109.452267
9.214                0.958981233     -109.659003
9.215                0.958894784     -109.866262
9.216                0.958808257     -110.074045
9.217                0.958721653     -110.282353
9.218                0.958634974     -110.491187
9.219                0.958548222     -110.700547
9.22                 0.958461398     -110.910434
9.221                0.958374505     -111.120848
9.222                0.958287543     -111.331791
9.223                0.958200516     -111.543262
9.224                0.958113423     -111.755262
9.225                0.958026268     -111.967793
9.226                0.957939052     -112.180853
9.227                0.957851777     -112.394445
9.228                0.957764445     -112.608568
9.229                0.957677058     -112.823224
9.23                 0.957589617     -113.038411
9.231                0.957502125     -113.254132
9.232                0.957414583     -113.470387
9.233                0.957326994     -113.687175
9.234                 0.95723936     -113.904498
9.235                0.957151682     -114.122356
9.236                0.957063964     -114.340749
9.237                0.956976206     -114.559679
9.238                0.956888411     -114.779144
9.239                0.956800581     -114.999146
9.24                 0.956712718     -115.219685
9.241                0.956624825     -115.440762
9.242                0.956536903     -115.662376
9.243                0.956448956     -115.884528
9.244                0.956360985     -116.107219
9.245                0.956272992     -116.330449
9.246                 0.95618498     -116.554218
9.247                0.956096952     -116.778526
9.248                0.956008909     -117.003373
9.249                0.955920854     -117.228761
9.25                 0.955832789     -117.454689
9.251                0.955744717     -117.681157
9.252                0.955656641     -117.908165
9.253                0.955568562     -118.135715
9.254                0.955480484     -118.363805
9.255                0.955392409     -118.592436
9.256                0.955304339     -118.821609
9.257                0.955216278     -119.051323
9.258                0.955128227     -119.281579
9.259                 0.95504019     -119.512376
9.26                 0.954952168     -119.743715
9.261                0.954864166     -119.975595
9.262                0.954776185     -120.208018
9.263                0.954688228     -120.440982
9.264                0.954600299     -120.674488
9.265                0.954512399     -120.908536
9.266                0.954424532     -121.143126
9.267                0.954336701     -121.378257
9.268                0.954248908      -121.61393
9.269                0.954161157     -121.850145
9.27                  0.95407345     -122.086901
9.271                 0.95398579     -122.324199
9.272                0.953898181     -122.562038
9.273                0.953810625     -122.800418
9.274                0.953723125     -123.039339
9.275                0.953635685     -123.278801
9.276                0.953548308     -123.518803
9.277                0.953460996     -123.759346
9.278                0.953373753     -124.000428
9.279                0.953286582     -124.242051
9.28                 0.953199486     -124.484213
9.281                0.953112469     -124.726914
9.282                0.953025533     -124.970154
9.283                0.952938683     -125.213932
9.284                 0.95285192     -125.458249
9.285                0.952765249     -125.703103
9.286                0.952678673     -125.948495
9.287                0.952592196     -126.194423
9.288                 0.95250582     -126.440888
9.289                0.952419549     -126.687889
9.29                 0.952333387     -126.935425
9.291                0.952247337     -127.183497
9.292                0.952161402     -127.432102
9.293                0.952075586     -127.681242
9.294                0.951989893     -127.930914
9.295                0.951904326     -128.181119
9.296                0.951818889     -128.431856
9.297                0.951733585     -128.683125
9.298                0.951648418     -128.934923
9.299                0.951563392     -129.187252
9.3                   0.95147851      -129.44011
9.301                0.951393776     -129.693497
9.302                0.951309194     -129.947411
9.303                0.951224767     -130.201852
9.304                  0.9511405     -130.456818
9.305                0.951056396     -130.712311
9.306                0.950972458     -130.968327
9.307                0.950888691     -131.224867
9.308                0.950805099     -131.481929
9.309                0.950721685     -131.739513
9.31                 0.950638453     -131.997617
9.311                0.950555408     -132.256241
9.312                0.950472552     -132.515383
9.313                0.950389891     -132.775043
9.314                0.950307428     -133.035219
9.315                0.950225166     -133.295911
9.316                0.950143111     -133.557117
9.317                0.950061266     -133.818836
9.318                0.949979635     -134.081066
9.319                0.949898222     -134.343808
9.32                 0.949817032     -134.607059
9.321                0.949736067     -134.870818
9.322                0.949655334     -135.135084
9.323                0.949574834     -135.399856
9.324                0.949494574     -135.665132
9.325                0.949414556     -135.930911
9.326                0.949334786     -136.197191
9.327                0.949255266     -136.463972
9.328                0.949176002     -136.731251
9.329                0.949096998     -136.999028
9.33                 0.949018258     -137.267301
9.331                0.948939786     -137.536067
9.332                0.948861586     -137.805327
9.333                0.948783663     -138.075077
9.334                 0.94870602     -138.345317
9.335                0.948628663     -138.616045
9.336                0.948551596     -138.887259
9.337                0.948474822     -139.158958
9.338                0.948398347      -139.43114
9.339                0.948322174     -139.703802
9.34                 0.948246308     -139.976944
9.341                0.948170753     -140.250564
9.342                0.948095513      -140.52466
9.343                0.948020594     -140.799229
9.344                0.947945999      -141.07427
9.345                0.947871732     -141.349782
9.346                0.947797799     -141.625761
9.347                0.947724203     -141.902207
9.348                0.947650949     -142.179117
9.349                0.947578041     -142.456489
9.35                 0.947505484     -142.734322
9.351                0.947433282     -143.012612
9.352                0.947361439     -143.291359
9.353                 0.94728996     -143.570559
9.354                 0.94721885     -143.850212
9.355                0.947148112     -144.130313
9.356                0.947077752     -144.410862
9.357                0.947007773     -144.691856
9.358                 0.94693818     -144.973293
9.359                0.946868977      -145.25517
9.36                  0.94680017     -145.537486
9.361                0.946731761     -145.820237
9.362                0.946663757     -146.103422
9.363                 0.94659616     -146.387038
9.364                0.946528976     -146.671082
9.365                0.946462209     -146.955552
9.366                0.946395863     -147.240446
9.367                0.946329943     -147.525761
9.368                0.946264453     -147.811495
9.369                0.946199397     -148.097644
9.37                 0.946134781     -148.384207
9.371                0.946070607     -148.671181
9.372                0.946006881     -148.958562
9.373                0.945943607     -149.246349
9.374                0.945880789     -149.534538
9.375                0.945818432     -149.823128
9.376                0.945756539     -150.112114
9.377                0.945695116     -150.401494
9.378                0.945634166     -150.691266
9.379                0.945573694     -150.981427
9.38                 0.945513704     -151.271973
9.381                0.945454201     -151.562902
9.382                0.945395187     -151.854211
9.383                0.945336669     -152.145896
9.384                0.945278649     -152.437956
9.385                0.945221132     -152.730386
9.386                0.945164123     -153.023184
9.387                0.945107625     -153.316347
9.388                0.945051643     -153.609871
9.389                 0.94499618     -153.903754
9.39                 0.944941241     -154.197992
9.391                0.944886829     -154.492582
9.392                 0.94483295     -154.787521
9.393                0.944779606     -155.082806
9.394                0.944726802     -155.378433
9.395                0.944674542     -155.674399
9.396                 0.94462283     -155.970701
