! TOUCHSTONE file generated by CST DESIGN STUDIO
! Date and time: Tue Feb  4 17:13:00 2025
! Project name: C:\Work\MatlabApps\UnitCellOptimizationMatlab\CST\unitcell.cst
! Tree item: Tasks\Sweep1\SPara1\S-Parameters
! Header version: 2024
! Port assignment regex: !\s*Touchstone port\s*([0-9]+)\s*=\s*(CST MWS port|CST DES external port|CST DES block port)\s*(.+)\s* \(\"(.*)\"\)(\s*mode\s*([0-9]+))?.*
! Touchstone port assignment:
! Touchstone port 1 = CST DES external port 1 ("")
# GHz S MA R 50
9                    0.977885071     -67.3972266
9.001                0.977841043     -67.4960484
9.002                0.977796916     -67.5951153
9.003                 0.97775269     -67.6944282
9.004                0.977708365     -67.7939878
9.005                 0.97766394     -67.8937948
9.006                0.977619414     -67.9938503
9.007                0.977574787     -68.0941548
9.008                0.977530059     -68.1947092
9.009                0.977485229     -68.2955144
9.01                 0.977440297     -68.3965712
9.011                0.977395261     -68.4978803
9.012                0.977350123     -68.5994426
9.013                0.977304881     -68.7012588
9.014                0.977259534     -68.8033299
9.015                0.977214083     -68.9056566
9.016                0.977168527     -69.0082398
9.017                0.977122865     -69.1110803
9.018                0.977077097     -69.2141789
9.019                0.977031222     -69.3175365
9.02                 0.976985241     -69.4211538
9.021                0.976939151     -69.5250318
9.022                0.976892954     -69.6291713
9.023                0.976846648     -69.7335731
9.024                0.976800234      -69.838238
9.025                 0.97675371      -69.943167
9.026                0.976707076     -70.0483609
9.027                0.976660331     -70.1538204
9.028                0.976613476     -70.2595466
9.029                 0.97656651     -70.3655402
9.03                 0.976519431     -70.4718021
9.031                 0.97647224     -70.5783332
9.032                0.976424937     -70.6851343
9.033                 0.97637752     -70.7922063
9.034                 0.97632999     -70.8995501
9.035                0.976282345     -71.0071665
9.036                0.976234585     -71.1150565
9.037                0.976186711     -71.2232209
9.038                 0.97613872     -71.3316606
9.039                0.976090614     -71.4403764
9.04                 0.976042391     -71.5493694
9.041                0.975994051     -71.6586403
9.042                0.975945593     -71.7681901
9.043                0.975897017     -71.8780196
9.044                0.975848322     -71.9881297
9.045                0.975799509     -72.0985214
9.046                0.975750576     -72.2091956
9.047                0.975701523     -72.3201532
9.048                0.975652349      -72.431395
9.049                0.975603055      -72.542922
9.05                 0.975553639     -72.6547351
9.051                0.975504101     -72.7668352
9.052                0.975454441     -72.8792232
9.053                0.975404657     -72.9919001
9.054                0.975354751     -73.1048668
9.055                 0.97530472     -73.2181242
9.056                0.975254565     -73.3316733
9.057                0.975204286     -73.4455149
9.058                 0.97515388       -73.55965
9.059                 0.97510335     -73.6740796
9.06                 0.975052693     -73.7888045
9.061                0.975001909     -73.9038258
9.062                0.974950998     -74.0191444
9.063                0.974899959     -74.1347612
9.064                0.974848792     -74.2506771
9.065                0.974797496     -74.3668932
9.066                0.974746071     -74.4834104
9.067                0.974694517     -74.6002296
9.068                0.974642832     -74.7173519
9.069                0.974591017      -74.834778
9.07                 0.974539071     -74.9525092
9.071                0.974486993     -75.0705462
9.072                0.974434783     -75.1888901
9.073                0.974382441     -75.3075418
9.074                0.974329966     -75.4265024
9.075                0.974277357     -75.5457728
9.076                0.974224615     -75.6653539
9.077                0.974171738     -75.7852468
9.078                0.974118726     -75.9054525
9.079                0.974065579     -76.0259719
9.08                 0.974012296     -76.1468061
9.081                0.973958877     -76.2679559
9.082                0.973905322     -76.3894225
9.083                0.973851629     -76.5112068
9.084                0.973797798     -76.6333099
9.085                 0.97374383     -76.7557326
9.086                0.973689723     -76.8784761
9.087                0.973635477     -77.0015414
9.088                0.973581091     -77.1249294
9.089                0.973526566     -77.2486411
9.09                   0.9734719     -77.3726776
9.091                0.973417093       -77.49704
9.092                0.973362146     -77.6217291
9.093                0.973307056     -77.7467461
9.094                0.973251824      -77.872092
9.095                 0.97319645     -77.9977677
9.096                0.973140932     -78.1237744
9.097                0.973085271      -78.250113
9.098                0.973029467     -78.3767847
9.099                0.972973517     -78.5037903
9.1                  0.972917423     -78.6311311
9.101                0.972861184     -78.7588079
9.102                0.972804799     -78.8868219
9.103                0.972748268     -79.0151741
9.104                 0.97269159     -79.1438655
9.105                0.972634766     -79.2728972
9.106                0.972577794     -79.4022703
9.107                0.972520674     -79.5319858
9.108                0.972463406     -79.6620448
9.109                0.972405989     -79.7924482
9.11                 0.972348424     -79.9231973
9.111                0.972290709      -80.054293
9.112                0.972232844     -80.1857364
9.113                0.972174828     -80.3175286
9.114                0.972116662     -80.4496707
9.115                0.972058345     -80.5821637
9.116                0.971999876     -80.7150086
9.117                0.971941256     -80.8482067
9.118                0.971882483     -80.9817589
9.119                0.971823558     -81.1156663
9.12                 0.971764479     -81.2499301
9.121                0.971705247     -81.3845512
9.122                0.971645862     -81.5195309
9.123                0.971586322     -81.6548701
9.124                0.971526627       -81.79057
9.125                0.971466778     -81.9266316
9.126                0.971406773     -82.0630561
9.127                0.971346613     -82.1998445
9.128                0.971286296      -82.336998
9.129                0.971225824     -82.4745176
9.13                 0.971165194     -82.6124045
9.131                0.971104408     -82.7506597
9.132                0.971043464     -82.8892844
9.133                0.970982362     -83.0282796
9.134                0.970921102     -83.1676465
9.135                0.970859684     -83.3073861
9.136                0.970798107     -83.4474997
9.137                 0.97073637     -83.5879882
9.138                0.970674475     -83.7288529
9.139                 0.97061242     -83.8700948
9.14                 0.970550204      -84.011715
9.141                0.970487829     -84.1537148
9.142                0.970425293     -84.2960951
9.143                0.970362595     -84.4388571
9.144                0.970299737     -84.5820019
9.145                0.970236717     -84.7255307
9.146                0.970173535     -84.8694446
9.147                0.970110192     -85.0137447
9.148                0.970046685     -85.1584322
9.149                0.969983017     -85.3035081
9.15                 0.969919185     -85.4489737
9.151                 0.96985519     -85.5948299
9.152                0.969791032     -85.7410781
9.153                0.969726711     -85.8877192
9.154                0.969662225     -86.0347545
9.155                0.969597575     -86.1821851
9.156                0.969532761     -86.3300121
9.157                0.969467783     -86.4782367
9.158                 0.96940264     -86.6268599
9.159                0.969337331      -86.775883
9.16                 0.969271858     -86.9253071
9.161                0.969206219     -87.0751333
9.162                0.969140415     -87.2253627
9.163                0.969074445     -87.3759966
9.164                0.969008309     -87.5270361
9.165                0.968942007     -87.6784822
9.166                0.968875539     -87.8303362
9.167                0.968808904     -87.9825992
9.168                0.968742103     -88.1352723
9.169                0.968675135     -88.2883568
9.17                    0.968608     -88.4418536
9.171                0.968540698     -88.5957641
9.172                0.968473229     -88.7500893
9.173                0.968405593     -88.9048304
9.174                 0.96833779     -89.0599886
9.175                0.968269819     -89.2155649
9.176                0.968201681     -89.3715606
9.177                0.968133375     -89.5279768
9.178                0.968064901     -89.6848146
9.179                 0.96799626     -89.8420752
9.18                 0.967927451     -89.9997598
9.181                0.967858474     -90.1578695
9.182                0.967789329     -90.3164054
9.183                0.967720017     -90.4753687
9.184                0.967650536     -90.6347606
9.185                0.967580888     -90.7945822
9.186                0.967511071     -90.9548346
9.187                0.967441087      -91.115519
9.188                0.967370935     -91.2766366
9.189                0.967300614     -91.4381885
9.19                 0.967230126     -91.6001759
9.191                 0.96715947     -91.7625998
9.192                0.967088646     -91.9254615
9.193                0.967017655     -92.0887621
9.194                0.966946496     -92.2525027
9.195                0.966875169     -92.4166845
9.196                0.966803675     -92.5813086
9.197                0.966732013     -92.7463762
9.198                0.966660184     -92.9118884
9.199                0.966588188     -93.0778463
9.2                  0.966516025     -93.2442512
9.201                0.966443695      -93.411104
9.202                0.966371199     -93.5784061
9.203                0.966298536     -93.7461584
9.204                0.966225706     -93.9143622
9.205                 0.96615271     -94.0830186
9.206                0.966079548     -94.2521286
9.207                0.966006221     -94.4216935
9.208                0.965932727     -94.5917144
9.209                0.965859069     -94.7621924
9.21                 0.965785245     -94.9331285
9.211                0.965711257      -95.104524
9.212                0.965637103       -95.27638
9.213                0.965562786     -95.4486975
9.214                0.965488305     -95.6214777
9.215                 0.96541366     -95.7947218
9.216                0.965338851     -95.9684307
9.217                 0.96526388     -96.1426057
9.218                0.965188746     -96.3172478
9.219                0.965113449     -96.4923582
9.22                 0.965037991     -96.6679379
9.221                0.964962371     -96.8439881
9.222                 0.96488659     -97.0205098
9.223                0.964810648     -97.1975041
9.224                0.964734546     -97.3749721
9.225                0.964658284      -97.552915
9.226                0.964581862     -97.7313338
9.227                0.964505282     -97.9102295
9.228                0.964428543     -98.0896033
9.229                0.964351646     -98.2694563
9.23                 0.964274592     -98.4497894
9.231                0.964197381     -98.6306038
9.232                0.964120013     -98.8119006
9.233                 0.96404249     -98.9936807
9.234                0.963964811     -99.1759453
9.235                0.963886978     -99.3586954
9.236                0.963808991     -99.5419321
9.237                 0.96373085     -99.7256564
9.238                0.963652556     -99.9098693
9.239                0.963574111     -100.094572
9.24                 0.963495514     -100.279765
9.241                0.963416766      -100.46545
9.242                0.963337868     -100.651628
9.243                0.963258821       -100.8383
9.244                0.963179625     -101.025466
9.245                0.963100281     -101.213128
9.246                0.963020791     -101.401287
9.247                0.962941154     -101.589944
9.248                0.962861371     -101.779099
9.249                0.962781444     -101.968755
9.25                 0.962701373     -102.158911
9.251                0.962621159     -102.349568
9.252                0.962540804     -102.540729
9.253                0.962460307     -102.732393
9.254                0.962379669     -102.924562
9.255                0.962298893     -103.117236
9.256                0.962217978     -103.310417
9.257                0.962136926     -103.504105
9.258                0.962055737     -103.698302
9.259                0.961974413     -103.893008
9.26                 0.961892955     -104.088224
9.261                0.961811364     -104.283952
9.262                 0.96172964     -104.480191
9.263                0.961647785     -104.676944
9.264                  0.9615658      -104.87421
9.265                0.961483686     -105.071991
9.266                0.961401445     -105.270288
9.267                0.961319077     -105.469101
9.268                0.961236584     -105.668432
9.269                0.961153966      -105.86828
9.27                 0.961071226     -106.068648
9.271                0.960988364     -106.269536
9.272                0.960905382     -106.470944
9.273                 0.96082228     -106.672874
9.274                0.960739061     -106.875326
9.275                0.960655726     -107.078302
9.276                0.960572275     -107.281801
9.277                0.960488711     -107.485825
9.278                0.960405034     -107.690375
9.279                0.960321247     -107.895451
9.28                  0.96023735     -108.101054
9.281                0.960153346     -108.307185
9.282                0.960069235     -108.513844
9.283                0.959985019     -108.721033
9.284                  0.9599007     -108.928751
9.285                 0.95981628     -109.137001
9.286                0.959731759     -109.345782
9.287                0.959647139     -109.555094
9.288                0.959562423      -109.76494
9.289                0.959477612     -109.975319
9.29                 0.959392706     -110.186232
9.291                 0.95930771      -110.39768
9.292                0.959222623     -110.609664
9.293                0.959137447     -110.822183
9.294                0.959052185     -111.035239
9.295                0.958966839     -111.248832
9.296                0.958881409     -111.462964
9.297                0.958795899     -111.677633
9.298                0.958710309     -111.892842
9.299                0.958624642      -112.10859
9.3                  0.958538899     -112.324878
9.301                0.958453084     -112.541707
9.302                0.958367197     -112.759077
9.303                 0.95828124     -112.976988
9.304                0.958195216     -113.195442
9.305                0.958109127     -113.414438
9.306                0.958022975     -113.633978
9.307                0.957936761      -113.85406
9.308                0.957850489     -114.074687
9.309                 0.95776416     -114.295859
9.31                 0.957677776     -114.517575
9.311                 0.95759134     -114.739836
9.312                0.957504854     -114.962643
9.313                 0.95741832     -115.185996
9.314                 0.95733174     -115.409896
9.315                0.957245117     -115.634342
9.316                0.957158453     -115.859335
9.317                0.957071751     -116.084875
9.318                0.956985012     -116.310963
9.319                 0.95689824     -116.537598
9.32                 0.956811436     -116.764782
9.321                0.956724604     -116.992515
9.322                0.956637745     -117.220796
9.323                0.956550863     -117.449626
9.324                 0.95646396     -117.679004
9.325                0.956377038     -117.908933
9.326                  0.9562901      -118.13941
9.327                0.956203148     -118.370437
9.328                0.956116187     -118.602014
9.329                0.956029217     -118.834141
9.33                 0.955942242     -119.066817
9.331                0.955855264     -119.300044
9.332                0.955768287      -119.53382
9.333                0.955681313     -119.768147
9.334                0.955594345     -120.003024
9.335                0.955507386     -120.238451
9.336                0.955420438     -120.474428
9.337                0.955333505     -120.710955
9.338                 0.95524659     -120.948033
9.339                0.955159695      -121.18566
9.34                 0.955072824     -121.423838
9.341                0.954985979     -121.662565
9.342                0.954899164     -121.901842
9.343                0.954812382     -122.141668
9.344                0.954725636     -122.382044
9.345                0.954638928     -122.622969
9.346                0.954552263     -122.864444
9.347                0.954465643     -123.106467
9.348                0.954379071     -123.349038
9.349                0.954292551     -123.592158
9.35                 0.954206087     -123.835826
9.351                 0.95411968     -124.080042
9.352                0.954033336     -124.324805
9.353                0.953947056     -124.570116
9.354                0.953860845     -124.815973
9.355                0.953774705     -125.062376
9.356                0.953688641     -125.309326
9.357                0.953602655      -125.55682
9.358                0.953516752      -125.80486
9.359                0.953430934     -126.053445
9.36                 0.953345206     -126.302574
9.361                 0.95325957     -126.552246
9.362                 0.95317403     -126.802461
9.363                0.953088591     -127.053219
9.364                0.953003255     -127.304518
9.365                0.952918026     -127.556359
9.366                0.952832909      -127.80874
9.367                0.952747906     -128.061662
9.368                0.952663021     -128.315123
9.369                0.952578258     -128.569122
9.37                 0.952493622     -128.823659
9.371                0.952409115     -129.078734
9.372                0.952324741     -129.334344
9.373                0.952240506      -129.59049
9.374                0.952156411     -129.847171
9.375                0.952072461     -130.104386
9.376                0.951988661     -130.362134
9.377                0.951905014     -130.620414
9.378                0.951821524     -130.879225
9.379                0.951738194     -131.138567
9.38                  0.95165503     -131.398437
9.381                0.951572035     -131.658836
9.382                0.951489213     -131.919762
9.383                0.951406568     -132.181215
9.384                0.951324105     -132.443192
9.385                0.951241827     -132.705693
9.386                0.951159738     -132.968718
9.387                0.951077843     -133.232264
9.388                0.950996147      -133.49633
9.389                0.950914652     -133.760916
9.39                 0.950833363      -134.02602
9.391                0.950752285     -134.291641
9.392                0.950671422     -134.557777
9.393                0.950590778     -134.824428
9.394                0.950510357     -135.091591
9.395                0.950430164     -135.359266
9.396                0.950350203     -135.627451
