! TOUCHSTONE file generated by CST DESIGN STUDIO
! Date and time: Tue Feb  4 17:12:44 2025
! Project name: C:\Work\MatlabApps\UnitCellOptimizationMatlab\CST\unitcell.cst
! Tree item: Tasks\Sweep1\SPara1\S-Parameters
! Header version: 2024
! Port assignment regex: !\s*Touchstone port\s*([0-9]+)\s*=\s*(CST MWS port|CST DES external port|CST DES block port)\s*(.+)\s* \(\"(.*)\"\)(\s*mode\s*([0-9]+))?.*
! Touchstone port assignment:
! Touchstone port 1 = CST DES external port 1 ("")
# GHz S MA R 50
9                    0.970167796     -86.3802523
9.001                0.970092075     -86.5250773
9.002                0.970016214     -86.6702869
9.003                0.969940213     -86.8158822
9.004                0.969864073     -86.9618643
9.005                0.969787793     -87.1082343
9.006                0.969711373     -87.2549934
9.007                0.969634814     -87.4021426
9.008                0.969558114     -87.5496831
9.009                0.969481275      -87.697616
9.01                 0.969404296     -87.8459423
9.011                0.969327177     -87.9946633
9.012                0.969249917     -88.1437801
9.013                0.969172518     -88.2932937
9.014                0.969094979     -88.4432054
9.015                0.969017299     -88.5935161
9.016                 0.96893948     -88.7442271
9.017                 0.96886152     -88.8953395
9.018                0.968783421     -89.0468543
9.019                0.968705181     -89.1987728
9.02                 0.968626801      -89.351096
9.021                0.968548282     -89.5038251
9.022                0.968469622     -89.6569612
9.023                0.968390822     -89.8105054
9.024                0.968311883     -89.9644589
9.025                0.968232804     -90.1188228
9.026                0.968153585     -90.2735981
9.027                0.968074226     -90.4287861
9.028                0.967994728     -90.5843879
9.029                 0.96791509     -90.7404046
9.03                 0.967835313     -90.8968373
9.031                0.967755397     -91.0536871
9.032                0.967675341     -91.2109552
9.033                0.967595147     -91.3686428
9.034                0.967514813     -91.5267509
9.035                0.967434341     -91.6852806
9.036                 0.96735373     -91.8442331
9.037                 0.96727298     -92.0036096
9.038                0.967192093     -92.1634111
9.039                0.967111067     -92.3236387
9.04                 0.967029903     -92.4842937
9.041                0.966948601     -92.6453771
9.042                0.966867162       -92.80689
9.043                0.966785585     -92.9688336
9.044                0.966703872      -93.131209
9.045                0.966622021     -93.2940173
9.046                0.966540034     -93.4572596
9.047                 0.96645791     -93.6209372
9.048                 0.96637565     -93.7850509
9.049                0.966293255     -93.9496021
9.05                 0.966210723     -94.1145918
9.051                0.966128057     -94.2800211
9.052                0.966045255     -94.4458912
9.053                0.965962319     -94.6122031
9.054                0.965879248      -94.778958
9.055                0.965796043      -94.946157
9.056                0.965712705     -95.1138012
9.057                0.965629233     -95.2818917
9.058                0.965545629     -95.4504295
9.059                0.965461891     -95.6194159
9.06                 0.965378022     -95.7888519
9.061                 0.96529402     -95.9587386
9.062                0.965209887     -96.1290772
9.063                0.965125624     -96.2998686
9.064                0.965041229      -96.471114
9.065                0.964956705     -96.6428146
9.066                0.964872051     -96.8149713
9.067                0.964787268     -96.9875853
9.068                0.964702356     -97.1606577
9.069                0.964617316     -97.3341895
9.07                 0.964532149     -97.5081818
9.071                0.964446854     -97.6826358
9.072                0.964361432     -97.8575524
9.073                0.964275885     -98.0329327
9.074                0.964190212     -98.2087779
9.075                0.964104414      -98.385089
9.076                0.964018492     -98.5618671
9.077                0.963932447     -98.7391131
9.078                0.963846278     -98.9168283
9.079                0.963759986     -99.0950135
9.08                 0.963673573       -99.27367
9.081                0.963587039     -99.4527987
9.082                0.963500384     -99.6324006
9.083                0.963413609     -99.8124769
9.084                0.963326716     -99.9930285
9.085                0.963239704     -100.174056
9.086                0.963152574     -100.355562
9.087                0.963065328     -100.537546
9.088                0.962977965     -100.720009
9.089                0.962890487     -100.902953
9.09                 0.962802895     -101.086378
9.091                0.962715188     -101.270286
9.092                0.962627369     -101.454677
9.093                0.962539438     -101.639553
9.094                0.962451396     -101.824914
9.095                0.962363243     -102.010762
9.096                0.962274981     -102.197097
9.097                0.962186611     -102.383921
9.098                0.962098132     -102.571234
9.099                0.962009548     -102.759037
9.1                  0.961920857     -102.947332
9.101                0.961832062     -103.136119
9.102                0.961743163       -103.3254
9.103                0.961654161     -103.515174
9.104                0.961565058     -103.705444
9.105                0.961475854      -103.89621
9.106                 0.96138655     -104.087473
9.107                0.961297148     -104.279234
9.108                0.961207649     -104.471493
9.109                0.961118053     -104.664253
9.11                 0.961028363     -104.857513
9.111                0.960938578     -105.051275
9.112                  0.9608487     -105.245539
9.113                0.960758731     -105.440307
9.114                0.960668672     -105.635579
9.115                0.960578523     -105.831356
9.116                0.960488286     -106.027638
9.117                0.960397963     -106.224428
9.118                0.960307554     -106.421726
9.119                0.960217062     -106.619532
9.12                 0.960126486     -106.817847
9.121                0.960035829     -107.016673
9.122                0.959945093     -107.216009
9.123                0.959854277     -107.415858
9.124                0.959763385     -107.616218
9.125                0.959672416     -107.817093
9.126                0.959581373     -108.018481
9.127                0.959490258     -108.220385
9.128                0.959399071     -108.422804
9.129                0.959307814      -108.62574
9.13                 0.959216489     -108.829193
9.131                0.959125097     -109.033164
9.132                 0.95903364     -109.237654
9.133                 0.95894212     -109.442664
9.134                0.958850537     -109.648193
9.135                0.958758894     -109.854243
9.136                0.958667193     -110.060815
9.137                0.958575434      -110.26791
9.138                 0.95848362     -110.475527
9.139                0.958391753     -110.683667
9.14                 0.958299834     -110.892332
9.141                0.958207864     -111.101522
9.142                0.958115847     -111.311238
9.143                0.958023783     -111.521479
9.144                0.957931675     -111.732248
9.145                0.957839524     -111.943543
9.146                0.957747332     -112.155367
9.147                0.957655101     -112.367719
9.148                0.957562833     -112.580601
9.149                 0.95747053     -112.794012
9.15                 0.957378195     -113.007953
9.151                0.957285828     -113.222425
9.152                0.957193432     -113.437428
9.153                0.957101009     -113.652963
9.154                0.957008561      -113.86903
9.155                0.956916091      -114.08563
9.156                  0.9568236     -114.302763
9.157                 0.95673109      -114.52043
9.158                0.956638564     -114.738631
9.159                0.956546024     -114.957366
9.16                 0.956453472     -115.176637
9.161                0.956360911     -115.396443
9.162                0.956268341     -115.616784
9.163                0.956175767     -115.837662
9.164                 0.95608319     -116.059076
9.165                0.955990613     -116.281027
9.166                0.955898037     -116.503516
9.167                0.955805466     -116.726541
9.168                0.955712901     -116.950105
9.169                0.955620346     -117.174207
9.17                 0.955527802     -117.398847
9.171                0.955435272     -117.624025
9.172                0.955342759     -117.849743
9.173                0.955250265        -118.076
9.174                0.955157793     -118.302796
9.175                0.955065345     -118.530131
9.176                0.954972924     -118.758006
9.177                0.954880532     -118.986421
9.178                0.954788173     -119.215377
9.179                0.954695848     -119.444872
9.18                 0.954603562     -119.674907
9.181                0.954511315     -119.905483
9.182                0.954419112       -120.1366
9.183                0.954326954     -120.368257
9.184                0.954234846     -120.600454
9.185                0.954142789     -120.833192
9.186                0.954050786     -121.066471
9.187                 0.95395884     -121.300291
9.188                0.953866955     -121.534651
9.189                0.953775133     -121.769551
9.19                 0.953683377     -122.004992
9.191                0.953591691     -122.240974
9.192                0.953500076     -122.477496
9.193                0.953408537     -122.714558
9.194                0.953317075      -122.95216
9.195                0.953225696     -123.190302
9.196                  0.9531344     -123.428984
9.197                0.953043192     -123.668206
9.198                0.952952075     -123.907967
9.199                0.952861052     -124.148267
9.2                  0.952770126     -124.389106
9.201                  0.9526793     -124.630484
9.202                0.952588578       -124.8724
9.203                0.952497963     -125.114854
9.204                0.952407458     -125.357846
9.205                0.952317066     -125.601375
9.206                0.952226792     -125.845441
9.207                0.952136637     -126.090044
9.208                0.952046607     -126.335183
9.209                0.951956703     -126.580858
9.21                  0.95186693     -126.827068
9.211                0.951777291     -127.073813
9.212                0.951687789     -127.321092
9.213                0.951598429     -127.568905
9.214                0.951509213     -127.817251
9.215                0.951420145      -128.06613
9.216                0.951331229     -128.315541
9.217                0.951242468     -128.565484
9.218                0.951153866     -128.815958
9.219                0.951065427     -129.066962
9.22                 0.950977154     -129.318495
9.221                0.950889051     -129.570557
9.222                0.950801121     -129.823147
9.223                0.950713369     -130.076265
9.224                0.950625798     -130.329909
9.225                0.950538412      -130.58408
9.226                0.950451215     -130.838775
9.227                0.950364211     -131.093994
9.228                0.950277402     -131.349737
9.229                0.950190794     -131.606001
9.23                  0.95010439     -131.862788
9.231                0.950018194     -132.120095
9.232                 0.94993221     -132.377921
9.233                0.949846442     -132.636267
9.234                0.949760893     -132.895129
9.235                0.949675568     -133.154508
9.236                0.949590471     -133.414403
9.237                0.949505606     -133.674812
9.238                0.949420977     -133.935735
9.239                0.949336587     -134.197169
9.24                 0.949252441     -134.459114
9.241                0.949168543      -134.72157
9.242                0.949084897     -134.984533
9.243                0.949001507     -135.248004
9.244                0.948918377     -135.511981
9.245                0.948835512     -135.776463
9.246                0.948752915     -136.041448
9.247                0.948670591     -136.306935
9.248                0.948588543     -136.572923
9.249                0.948506777      -136.83941
9.25                 0.948425295     -137.106395
9.251                0.948344103     -137.373877
9.252                0.948263205     -137.641853
9.253                0.948182604     -137.910323
9.254                0.948102305     -138.179284
9.255                0.948022313     -138.448736
9.256                0.947942631     -138.718677
9.257                0.947863265     -138.989104
9.258                0.947784217     -139.260017
9.259                0.947705493     -139.531414
9.26                 0.947627096     -139.803293
9.261                0.947549031     -140.075652
9.262                0.947471303      -140.34849
9.263                0.947393915     -140.621805
9.264                0.947316873     -140.895594
9.265                0.947240179     -141.169857
9.266                 0.94716384     -141.444591
9.267                0.947087858     -141.719794
9.268                0.947012238     -141.995465
9.269                0.946936986     -142.271601
9.27                 0.946862104     -142.548201
9.271                0.946787598     -142.825262
9.272                0.946713471     -143.102783
9.273                0.946639729     -143.380761
9.274                0.946566375     -143.659194
9.275                0.946493413     -143.938081
9.276                0.946420849     -144.217419
9.277                0.946348687     -144.497205
9.278                0.946276931     -144.777438
9.279                0.946205584     -145.058116
9.28                 0.946134653     -145.339235
9.281                 0.94606414     -145.620795
9.282                0.945994051     -145.902792
9.283                 0.94592439     -146.185224
9.284                 0.94585516     -146.468089
9.285                0.945786367     -146.751385
9.286                0.945718015     -147.035108
9.287                0.945650107     -147.319257
9.288                 0.94558265     -147.603829
9.289                0.945515645     -147.888822
9.29                 0.945449099     -148.174232
9.291                0.945383015     -148.460058
9.292                0.945317397     -148.746296
9.293                0.945252251     -149.032945
9.294                0.945187579     -149.320001
9.295                0.945123387     -149.607462
9.296                0.945059678     -149.895325
9.297                0.944996458     -150.183588
9.298                0.944933729     -150.472247
9.299                0.944871497       -150.7613
9.3                  0.944809764     -151.050743
9.301                0.944748537     -151.340575
9.302                0.944687818     -151.630792
9.303                0.944627612     -151.921391
9.304                0.944567924      -152.21237
9.305                0.944508756     -152.503725
9.306                0.944450114     -152.795454
9.307                   0.944392     -153.087553
9.308                 0.94433442     -153.380019
9.309                0.944277378      -153.67285
9.31                 0.944220877     -153.966042
9.311                0.944164921     -154.259591
9.312                0.944109514     -154.553496
9.313                0.944054661     -154.847753
9.314                0.944000365     -155.142358
9.315                 0.94394663     -155.437308
9.316                 0.94389346     -155.732601
9.317                0.943840858     -156.028232
9.318                0.943788829     -156.324199
9.319                0.943737376     -156.620498
9.32                 0.943686504     -156.917126
9.321                0.943636215     -157.214079
9.322                0.943586514     -157.511354
9.323                0.943537404     -157.808948
9.324                0.943488889     -158.106856
9.325                0.943440972     -158.405077
9.326                0.943393657     -158.703606
9.327                0.943346948     -159.002439
9.328                0.943300848     -159.301573
9.329                 0.94325536     -159.601005
9.33                 0.943210488     -159.900731
9.331                0.943166236     -160.200747
9.332                0.943122606      -160.50105
9.333                0.943079602     -160.801635
9.334                0.943037228       -161.1025
9.335                0.942995487     -161.403641
9.336                0.942954381     -161.705053
9.337                0.942913914     -162.006734
9.338                0.942874089     -162.308679
9.339                 0.94283491     -162.610884
9.34                 0.942796379     -162.913346
9.341                0.942758499     -163.216061
9.342                0.942721273     -163.519025
9.343                0.942684705     -163.822234
9.344                0.942648797     -164.125684
9.345                0.942613552     -164.429372
9.346                0.942578973     -164.733293
9.347                0.942545062     -165.037443
9.348                0.942511822     -165.341819
9.349                0.942479256     -165.646416
9.35                 0.942447367     -165.951231
9.351                0.942416157     -166.256259
9.352                0.942385629     -166.561496
9.353                0.942355784     -166.866939
9.354                0.942326626     -167.172583
9.355                0.942298157     -167.478424
9.356                 0.94227038     -167.784458
9.357                0.942243295     -168.090681
9.358                0.942216907     -168.397088
9.359                0.942191216     -168.703676
9.36                 0.942166226     -169.010441
9.361                0.942141937     -169.317378
9.362                0.942118353     -169.624482
9.363                0.942095475      -169.93175
9.364                0.942073304     -170.239178
9.365                0.942051844     -170.546761
9.366                0.942031095     -170.854496
9.367                 0.94201106     -171.162376
9.368                 0.94199174       -171.4704
9.369                0.941973137     -171.778561
9.37                 0.941955252     -172.086856
9.371                0.941938086     -172.395281
9.372                0.941921643     -172.703831
9.373                0.941905922     -173.012501
9.374                0.941890925     -173.321289
9.375                0.941876653     -173.630188
9.376                0.941863109     -173.939195
9.377                0.941850292     -174.248305
9.378                0.941838204     -174.557514
9.379                0.941826846     -174.866818
9.38                 0.941816219     -175.176212
9.381                0.941806325     -175.485691
9.382                0.941797163     -175.795252
9.383                0.941788735      -176.10489
9.384                0.941781041       -176.4146
9.385                0.941774083     -176.724378
9.386                0.941767861     -177.034219
9.387                0.941762375      -177.34412
9.388                0.941757626     -177.654075
9.389                0.941753615      -177.96408
9.39                 0.941750342     -178.274131
9.391                0.941747807     -178.584224
9.392                 0.94174601     -178.894352
9.393                0.941744953     -179.204513
9.394                0.941744634     -179.514702
9.395                0.941745055     -179.824914
9.396                0.941746214      179.864855
