! TOUCHSTONE file generated by CST DESIGN STUDIO
! Date and time: Tue Feb  4 16:22:46 2025
! Project name: C:\Work\MatlabApps\UnitCellOptimizationMatlab\CST\unitcell.cst
! Tree item: Tasks\Sweep1\SPara1\S-Parameters
! Header version: 2024
! Port assignment regex: !\s*Touchstone port\s*([0-9]+)\s*=\s*(CST MWS port|CST DES external port|CST DES block port)\s*(.+)\s* \(\"(.*)\"\)(\s*mode\s*([0-9]+))?.*
! Touchstone port assignment:
! Touchstone port 1 = CST DES external port 1 ("")
# GHz S MA R 50
9                    0.963737081     -87.1204606
9.001                0.963642745     -87.2676893
9.002                0.963548264     -87.4153127
9.003                0.963453639     -87.5633317
9.004                0.963358868     -87.7117477
9.005                 0.96326395     -87.8605617
9.006                0.963168887     -88.0097749
9.007                0.963073677     -88.1593885
9.008                 0.96297832     -88.3094036
9.009                0.962882816     -88.4598213
9.01                 0.962787164     -88.6106429
9.011                0.962691364     -88.7618694
9.012                0.962595416     -88.9135021
9.013                0.962499319      -89.065542
9.014                0.962403073     -89.2179904
9.015                0.962306677     -89.3708483
9.016                0.962210133      -89.524117
9.017                0.962113438     -89.6777976
9.018                0.962016593     -89.8318913
9.019                0.961919598     -89.9863992
9.02                 0.961822452     -90.1413224
9.021                0.961725155     -90.2966622
9.022                0.961627707     -90.4524197
9.023                0.961530108      -90.608596
9.024                0.961432357     -90.7651924
9.025                0.961334454     -90.9222098
9.026                0.961236399     -91.0796497
9.027                0.961138192     -91.2375129
9.028                0.961039833     -91.3958008
9.029                0.960941321     -91.5545145
9.03                 0.960842656     -91.7136552
9.031                0.960743839     -91.8732239
9.032                0.960644869     -92.0332219
9.033                0.960545745     -92.1936503
9.034                0.960446469     -92.3545102
9.035                0.960347039     -92.5158029
9.036                0.960247456     -92.6775295
9.037                0.960147719      -92.839691
9.038                0.960047829     -93.0022887
9.039                0.959947785     -93.1653238
9.04                 0.959847588     -93.3287973
9.041                0.959747237     -93.4927104
9.042                0.959646732     -93.6570643
9.043                0.959546074     -93.8218601
9.044                0.959445262      -93.987099
9.045                0.959344296      -94.152782
9.046                0.959243177     -94.3189104
9.047                0.959141905     -94.4854853
9.048                0.959040479     -94.6525078
9.049                  0.9589389     -94.8199791
9.05                 0.958837167     -94.9879003
9.051                0.958735282     -95.1562725
9.052                0.958633243     -95.3250968
9.053                0.958531052     -95.4943745
9.054                0.958428708     -95.6641066
9.055                0.958326211     -95.8342943
9.056                0.958223562     -96.0049386
9.057                0.958120761     -96.1760407
9.058                0.958017807     -96.3476018
9.059                0.957914703     -96.5196229
9.06                 0.957811446     -96.6921052
9.061                0.957708039     -96.8650497
9.062                 0.95760448     -97.0384576
9.063                0.957500771     -97.2123301
9.064                0.957396912     -97.3866681
9.065                0.957292902     -97.5614729
9.066                0.957188743     -97.7367455
9.067                0.957084435      -97.912487
9.068                0.956979978     -98.0886985
9.069                0.956875372     -98.2653811
9.07                 0.956770618     -98.4425359
9.071                0.956665716      -98.620164
9.072                0.956560668     -98.7982664
9.073                0.956455472     -98.9768443
9.074                 0.95635013     -99.1558987
9.075                0.956244643     -99.3354307
9.076                 0.95613901     -99.5154414
9.077                0.956033232     -99.6959318
9.078                0.955927311      -99.876903
9.079                0.955821246     -100.058356
9.08                 0.955715037     -100.240292
9.081                0.955608687     -100.422712
9.082                0.955502195     -100.605617
9.083                0.955395561     -100.789008
9.084                0.955288788     -100.972886
9.085                0.955181874     -101.157252
9.086                0.955074822     -101.342107
9.087                0.954967632     -101.527453
9.088                0.954860304      -101.71329
9.089                0.954752839     -101.899618
9.09                 0.954645238      -102.08644
9.091                0.954537503     -102.273757
9.092                0.954429633     -102.461568
9.093                 0.95432163     -102.649876
9.094                0.954213494     -102.838681
9.095                0.954105227     -103.027984
9.096                0.953996829     -103.217786
9.097                0.953888302     -103.408089
9.098                0.953779646     -103.598892
9.099                0.953670862     -103.790198
9.1                  0.953561952     -103.982006
9.101                0.953452916     -104.174319
9.102                0.953343755     -104.367136
9.103                0.953234471     -104.560459
9.104                0.953125065     -104.754289
9.105                0.953015537     -104.948627
9.106                 0.95290589     -105.143473
9.107                0.952796123     -105.338829
9.108                0.952686239     -105.534695
9.109                0.952576239     -105.731073
9.11                 0.952466123     -105.927962
9.111                0.952355894     -106.125365
9.112                0.952245552     -106.323282
9.113                0.952135099     -106.521713
9.114                0.952024536      -106.72066
9.115                0.951913865     -106.920124
9.116                0.951803087     -107.120105
9.117                0.951692203     -107.320604
9.118                0.951581215     -107.521622
9.119                0.951470125      -107.72316
9.12                 0.951358933     -107.925219
9.121                0.951247642     -108.127799
9.122                0.951136253     -108.330901
9.123                0.951024768     -108.534526
9.124                0.950913188     -108.738675
9.125                0.950801515     -108.943349
9.126                0.950689751     -109.148547
9.127                0.950577896     -109.354272
9.128                0.950465955     -109.560524
9.129                0.950353926     -109.767303
9.13                 0.950241814      -109.97461
9.131                0.950129619     -110.182446
9.132                0.950017344     -110.390812
9.133                0.949904989     -110.599708
9.134                0.949792558     -110.809135
9.135                0.949680052     -111.019094
9.136                0.949567473     -111.229585
9.137                0.949454823     -111.440608
9.138                0.949342104     -111.652166
9.139                0.949229319     -111.864257
9.14                 0.949116468     -112.076883
9.141                0.949003555     -112.290045
9.142                0.948890582     -112.503743
9.143                 0.94877755     -112.717977
9.144                0.948664462     -112.932748
9.145                 0.94855132     -113.148056
9.146                0.948438127     -113.363903
9.147                0.948324885     -113.580289
9.148                0.948211595     -113.797214
9.149                0.948098261     -114.014678
9.15                 0.947984885     -114.232683
9.151                0.947871469     -114.451228
9.152                0.947758016     -114.670314
9.153                0.947644528     -114.889942
9.154                0.947531008     -115.110112
9.155                0.947417458     -115.330825
9.156                0.947303881      -115.55208
9.157                0.947190279     -115.773878
9.158                0.947076656      -115.99622
9.159                0.946963013     -116.219106
9.16                 0.946849354     -116.442536
9.161                0.946735681      -116.66651
9.162                0.946621998      -116.89103
9.163                0.946508306     -117.116095
9.164                0.946394609     -117.341705
9.165                 0.94628091     -117.567861
9.166                0.946167211     -117.794564
9.167                0.946053515     -118.021812
9.168                0.945939826     -118.249607
9.169                0.945826147     -118.477949
9.17                  0.94571248     -118.706837
9.171                0.945598828     -118.936273
9.172                0.945485195     -119.166256
9.173                0.945371584     -119.396786
9.174                0.945257998     -119.627864
9.175                 0.94514444     -119.859489
9.176                0.945030914     -120.091662
9.177                0.944917422     -120.324383
9.178                0.944803968     -120.557652
9.179                0.944690556     -120.791468
9.18                 0.944577188     -121.025833
9.181                0.944463869     -121.260745
9.182                0.944350601     -121.496206
9.183                0.944237388     -121.732214
9.184                0.944124233      -121.96877
9.185                 0.94401114     -122.205873
9.186                0.943898114     -122.443525
9.187                0.943785156     -122.681723
9.188                0.943672271      -122.92047
9.189                0.943559463     -123.159763
9.19                 0.943446735     -123.399604
9.191                0.943334091     -123.639991
9.192                0.943221534     -123.880925
9.193                 0.94310907     -124.122406
9.194                  0.9429967     -124.364432
9.195                 0.94288443     -124.607005
9.196                0.942772263     -124.850123
9.197                0.942660202     -125.093787
9.198                0.942548253     -125.337996
9.199                0.942436419     -125.582749
9.2                  0.942324704     -125.828047
9.201                0.942213112     -126.073888
9.202                0.942101647     -126.320273
9.203                0.941990313     -126.567201
9.204                0.941879114     -126.814672
9.205                0.941768056     -127.062684
9.206                0.941657141     -127.311239
9.207                0.941546374     -127.560334
9.208                0.941435759      -127.80997
9.209                0.941325301     -128.060146
9.21                 0.941215004     -128.310861
9.211                0.941104872     -128.562115
9.212                0.940994909     -128.813906
9.213                0.940885121     -129.066236
9.214                0.940775512     -129.319102
9.215                0.940666085     -129.572504
9.216                0.940556846     -129.826441
9.217                0.940447799     -130.080913
9.218                0.940338949     -130.335919
9.219                  0.9402303     -130.591457
9.22                 0.940121856     -130.847528
9.221                0.940013624      -131.10413
9.222                0.939905606     -131.361262
9.223                0.939797808     -131.618924
9.224                0.939690235     -131.877114
9.225                0.939582891     -132.135832
9.226                0.939475781     -132.395076
9.227                 0.93936891     -132.654846
9.228                0.939262283     -132.915141
9.229                0.939155905     -133.175959
9.23                  0.93904978     -133.437299
9.231                0.938943913      -133.69916
9.232                 0.93883831     -133.961542
9.233                0.938732975     -134.224443
9.234                0.938627913     -134.487861
9.235                 0.93852313     -134.751797
9.236                0.938418629     -135.016247
9.237                0.938314417     -135.281212
9.238                0.938210498     -135.546689
9.239                0.938106878     -135.812678
9.24                 0.938003561     -136.079176
9.241                0.937900553     -136.346184
9.242                0.937797859     -136.613699
9.243                0.937695484     -136.881719
9.244                0.937593432     -137.150245
9.245                0.937491711     -137.419273
9.246                0.937390323     -137.688802
9.247                0.937289276     -137.958832
9.248                0.937188573     -138.229359
9.249                0.937088221     -138.500384
9.25                 0.936988224     -138.771903
9.251                0.936888588     -139.043916
9.252                0.936789318     -139.316421
9.253                 0.93669042     -139.589416
9.254                0.936591899     -139.862899
9.255                 0.93649376     -140.136869
9.256                0.936396008     -140.411323
9.257                0.936298649      -140.68626
9.258                0.936201688     -140.961679
9.259                0.936105132     -141.237576
9.26                 0.936008984     -141.513951
9.261                 0.93591325     -141.790801
9.262                0.935817937     -142.068125
9.263                0.935723049      -142.34592
9.264                0.935628592     -142.624184
9.265                0.935534571     -142.902916
9.266                0.935440991     -143.182113
9.267                0.935347859     -143.461773
9.268                0.935255179     -143.741894
9.269                0.935162957     -144.022473
9.27                 0.935071199      -144.30351
9.271                 0.93497991     -144.585001
9.272                0.934889095     -144.866943
9.273                 0.93479876     -145.149336
9.274                 0.93470891     -145.432176
9.275                0.934619551     -145.715462
9.276                0.934530688      -145.99919
9.277                0.934442327     -146.283359
9.278                0.934354474     -146.567965
9.279                0.934267133     -146.853008
9.28                  0.93418031     -147.138483
9.281                 0.93409401     -147.424388
9.282                 0.93400824     -147.710722
9.283                0.933923004     -147.997481
9.284                0.933838308     -148.284663
9.285                0.933754157     -148.572265
9.286                0.933670557     -148.860285
9.287                0.933587513     -149.148719
9.288                0.933505031     -149.437566
9.289                0.933423115     -149.726821
9.29                 0.933341772     -150.016484
9.291                0.933261006      -150.30655
9.292                0.933180823     -150.597017
9.293                0.933101229     -150.887882
9.294                0.933022228     -151.179142
9.295                0.932943826     -151.470795
9.296                0.932866028     -151.762837
9.297                0.932788839     -152.055265
9.298                0.932712265     -152.348077
9.299                0.932636311     -152.641268
9.3                  0.932560982     -152.934838
9.301                0.932486283     -153.228781
9.302                 0.93241222     -153.523095
9.303                0.932338797     -153.817777
9.304                 0.93226602     -154.112825
9.305                0.932193893     -154.408233
9.306                0.932122422        -154.704
9.307                0.932051612     -155.000122
9.308                0.931981468     -155.296596
9.309                0.931911995     -155.593418
9.31                 0.931843197     -155.890586
9.311                 0.93177508     -156.188095
9.312                0.931707649     -156.485943
9.313                0.931640908     -156.784126
9.314                0.931574862      -157.08264
9.315                0.931509516     -157.381483
9.316                0.931444876      -157.68065
9.317                0.931380944     -157.980139
9.318                0.931317727     -158.279945
9.319                0.931255228     -158.580065
9.32                 0.931193453     -158.880496
9.321                0.931132406     -159.181233
9.322                0.931072092     -159.482274
9.323                0.931012514     -159.783615
9.324                0.930953678     -160.085251
9.325                0.930895588     -160.387179
9.326                0.930838249     -160.689397
9.327                0.930781663     -160.991898
9.328                0.930725837     -161.294681
9.329                0.930670774     -161.597741
9.33                 0.930616478     -161.901075
9.331                0.930562954     -162.204678
9.332                0.930510205     -162.508546
9.333                0.930458235     -162.812676
9.334                 0.93040705     -163.117065
9.335                0.930356652     -163.421707
9.336                0.930307045     -163.726599
9.337                0.930258233     -164.031737
9.338                0.930210221     -164.337118
9.339                0.930163011     -164.642736
9.34                 0.930116608     -164.948589
9.341                0.930071015     -165.254671
9.342                0.930026236     -165.560979
9.343                0.929982274      -165.86751
9.344                0.929939133     -166.174258
9.345                0.929896816     -166.481219
9.346                0.929855326      -166.78839
9.347                0.929814667     -167.095766
9.348                0.929774843     -167.403344
9.349                0.929735855     -167.711118
9.35                 0.929697708     -168.019086
9.351                0.929660404     -168.327241
9.352                0.929623946     -168.635581
9.353                0.929588338     -168.944101
9.354                0.929553581     -169.252797
9.355                 0.92951968     -169.561665
9.356                0.929486637     -169.870699
9.357                0.929454453     -170.179896
9.358                0.929423133     -170.489252
9.359                0.929392678     -170.798763
9.36                 0.929363092     -171.108423
9.361                0.929334375     -171.418228
9.362                0.929306532     -171.728174
9.363                0.929279563     -172.038258
9.364                0.929253472     -172.348473
9.365                 0.92922826     -172.658817
9.366                 0.92920393     -172.969284
9.367                0.929180483      -173.27987
9.368                0.929157921      -173.59057
9.369                0.929136246     -173.901381
9.37                 0.929115461     -174.212297
9.371                0.929095566     -174.523314
9.372                0.929076564     -174.834428
9.373                0.929058456     -175.145635
9.374                0.929041243     -175.456929
9.375                0.929024927     -175.768306
9.376                0.929009509     -176.079762
9.377                0.928994991     -176.391292
9.378                0.928981374     -176.702892
9.379                0.928968658     -177.014556
9.38                 0.928956846     -177.326281
9.381                0.928945937     -177.638063
9.382                0.928935933     -177.949895
9.383                0.928926835     -178.261775
9.384                0.928918643     -178.573697
9.385                0.928911358     -178.885657
9.386                0.928904982     -179.197649
9.387                0.928899513     -179.509671
9.388                0.928894953     -179.821716
9.389                0.928891302      179.866219
9.39                 0.928888561      179.554139
9.391                0.928886729      179.242048
9.392                0.928885807      178.929952
9.393                0.928885795      178.617855
9.394                0.928886693      178.305762
9.395                0.928888501      177.993676
9.396                0.928891218      177.681603
