! TOUCHSTONE file generated by CST DESIGN STUDIO
! Date and time: Tue Feb  4 16:22:49 2025
! Project name: C:\Work\MatlabApps\UnitCellOptimizationMatlab\CST\unitcell.cst
! Tree item: Tasks\Sweep1\SPara1\S-Parameters
! Header version: 2024
! Port assignment regex: !\s*Touchstone port\s*([0-9]+)\s*=\s*(CST MWS port|CST DES external port|CST DES block port)\s*(.+)\s* \(\"(.*)\"\)(\s*mode\s*([0-9]+))?.*
! Touchstone port assignment:
! Touchstone port 1 = CST DES external port 1 ("")
# GHz S MA R 50
9                    0.965674625     -82.2368173
9.001                0.965592385     -82.3713352
9.002                0.965509953     -82.5062093
9.003                0.965427328     -82.6414408
9.004                0.965344509     -82.7770306
9.005                0.965261497     -82.9129799
9.006                0.965178291     -83.0492898
9.007                0.965094891     -83.1859613
9.008                0.965011296     -83.3229955
9.009                0.964927507     -83.4603936
9.01                 0.964843522     -83.5981566
9.011                0.964759341     -83.7362856
9.012                0.964674965     -83.8747817
9.013                0.964590392      -84.013646
9.014                0.964505623     -84.1528796
9.015                0.964420657     -84.2924837
9.016                0.964335494     -84.4324592
9.017                0.964250133     -84.5728074
9.018                0.964164575     -84.7135293
9.019                0.964078819      -84.854626
9.02                 0.963992864     -84.9960986
9.021                0.963906711     -85.1379484
9.022                0.963820359     -85.2801762
9.023                0.963733809     -85.4227834
9.024                0.963647058      -85.565771
9.025                0.963560109       -85.70914
9.026                0.963472959     -85.8528917
9.027                 0.96338561     -85.9970271
9.028                 0.96329806     -86.1415475
9.029                0.963210309     -86.2864537
9.03                 0.963122358     -86.4317472
9.031                0.963034206     -86.5774288
9.032                0.962945853     -86.7234998
9.033                0.962857299     -86.8699613
9.034                0.962768543     -87.0168144
9.035                0.962679585     -87.1640602
9.036                0.962590425     -87.3116999
9.037                0.962501064     -87.4597347
9.038                  0.9624115     -87.6081655
9.039                0.962321734     -87.7569936
9.04                 0.962231765     -87.9062201
9.041                0.962141594     -88.0558462
9.042                 0.96205122     -88.2058729
9.043                0.961960643     -88.3563014
9.044                0.961869863     -88.5071329
9.045                0.961778879     -88.6583684
9.046                0.961687693     -88.8100091
9.047                0.961596303     -88.9620562
9.048                 0.96150471     -89.1145107
9.049                0.961412913     -89.2673739
9.05                 0.961320913     -89.4206469
9.051                0.961228709     -89.5743307
9.052                0.961136302     -89.7284266
9.053                0.961043691     -89.8829357
9.054                0.960950876     -90.0378591
9.055                0.960857858      -90.193198
9.056                0.960764635     -90.3489535
9.057                0.960671209     -90.5051267
9.058                0.960577579     -90.6617188
9.059                0.960483746      -90.818731
9.06                 0.960389709     -90.9761643
9.061                0.960295468     -91.1340199
9.062                0.960201024     -91.2922989
9.063                0.960106376     -91.4510026
9.064                0.960011524      -91.610132
9.065                 0.95991647     -91.7696883
9.066                0.959821212     -91.9296725
9.067                 0.95972575      -92.090086
9.068                0.959630086     -92.2509297
9.069                0.959534219     -92.4122048
9.07                 0.959438149     -92.5739125
9.071                0.959341876     -92.7360539
9.072                0.959245401     -92.8986302
9.073                0.959148724     -93.0616424
9.074                0.959051844     -93.2250917
9.075                0.958954763     -93.3889793
9.076                 0.95885748     -93.5533063
9.077                0.958759995     -93.7180737
9.078                0.958662309     -93.8832828
9.079                0.958564422     -94.0489347
9.08                 0.958466334     -94.2150305
9.081                0.958368046     -94.3815713
9.082                0.958269558     -94.5485582
9.083                 0.95817087     -94.7159925
9.084                0.958071982     -94.8838751
9.085                0.957972895     -95.0522072
9.086                0.957873609       -95.22099
9.087                0.957774125     -95.3902246
9.088                0.957674442      -95.559912
9.089                0.957574562     -95.7300534
9.09                 0.957474484       -95.90065
9.091                0.957374209     -96.0717027
9.092                0.957273738     -96.2432128
9.093                0.957173071     -96.4151813
9.094                0.957072208     -96.5876094
9.095                 0.95697115     -96.7604981
9.096                0.956869897     -96.9338485
9.097                0.956768451     -97.1076618
9.098                 0.95666681      -97.281939
9.099                0.956564977     -97.4566812
9.1                  0.956462951     -97.6318896
9.101                0.956360733     -97.8075651
9.102                0.956258324      -97.983709
9.103                0.956155724     -98.1603222
9.104                0.956052933     -98.3374059
9.105                0.955949954     -98.5149611
9.106                0.955846785     -98.6929889
9.107                0.955743429     -98.8714904
9.108                0.955639885     -99.0504666
9.109                0.955536154     -99.2299187
9.11                 0.955432238     -99.4098475
9.111                0.955328136     -99.5902543
9.112                0.955223849     -99.7711401
9.113                0.955119379     -99.9525059
9.114                0.955014726     -100.134353
9.115                0.954909891     -100.316682
9.116                0.954804875     -100.499494
9.117                0.954699678      -100.68279
9.118                0.954594302     -100.866571
9.119                0.954488748     -101.050839
9.12                 0.954383015     -101.235594
9.121                0.954277106     -101.420837
9.122                0.954171022     -101.606569
9.123                0.954064762     -101.792792
9.124                0.953958329     -101.979506
9.125                0.953851723     -102.166712
9.126                0.953744945     -102.354412
9.127                0.953637997     -102.542605
9.128                0.953530879     -102.731294
9.129                0.953423593     -102.920479
9.13                  0.95331614     -103.110162
9.131                 0.95320852     -103.300342
9.132                0.953100736     -103.491021
9.133                0.952992788     -103.682201
9.134                0.952884677     -103.873881
9.135                0.952776405     -104.066064
9.136                0.952667973     -104.258749
9.137                0.952559382     -104.451938
9.138                0.952450634     -104.645632
9.139                 0.95234173     -104.839831
9.14                 0.952232671     -105.034537
9.141                0.952123459      -105.22975
9.142                0.952014095     -105.425471
9.143                0.951904581     -105.621702
9.144                0.951794918     -105.818443
9.145                0.951685107     -106.015695
9.146                 0.95157515     -106.213458
9.147                0.951465048     -106.411735
9.148                0.951354804     -106.610524
9.149                0.951244418     -106.809829
9.15                 0.951133893     -107.009648
9.151                 0.95102323     -107.209983
9.152                 0.95091243     -107.410836
9.153                0.950801496     -107.612205
9.154                0.950690428     -107.814094
9.155                0.950579229     -108.016501
9.156                0.950467901     -108.219429
9.157                0.950356445     -108.422877
9.158                0.950244864     -108.626847
9.159                0.950133158      -108.83134
9.16                  0.95002133     -109.036355
9.161                0.949909382     -109.241894
9.162                0.949797315     -109.447958
9.163                0.949685132     -109.654547
9.164                0.949572835     -109.861662
9.165                0.949460426     -110.069303
9.166                0.949347906     -110.277472
9.167                0.949235278      -110.48617
9.168                0.949122544     -110.695395
9.169                0.949009706      -110.90515
9.17                 0.948896766     -111.115435
9.171                0.948783726     -111.326251
9.172                0.948670589     -111.537598
9.173                0.948557357     -111.749477
9.174                0.948444032     -111.961889
9.175                0.948330617     -112.174833
9.176                0.948217113     -112.388311
9.177                0.948103523     -112.602324
9.178                 0.94798985     -112.816871
9.179                0.947876096     -113.031954
9.18                 0.947762263     -113.247572
9.181                0.947648355     -113.463727
9.182                0.947534372     -113.680418
9.183                0.947420319     -113.897648
9.184                0.947306197     -114.115415
9.185                0.947192009      -114.33372
9.186                0.947077759     -114.552564
9.187                0.946963447     -114.771947
9.188                0.946849078      -114.99187
9.189                0.946734654     -115.212333
9.19                 0.946620178     -115.433337
9.191                0.946505652     -115.654882
9.192                0.946391079     -115.876967
9.193                0.946276463     -116.099595
9.194                0.946161806     -116.322764
9.195                0.946047111     -116.546476
9.196                 0.94593238      -116.77073
9.197                0.945817618     -116.995527
9.198                0.945702827     -117.220867
9.199                 0.94558801     -117.446751
9.2                  0.945473171     -117.673179
9.201                0.945358311      -117.90015
9.202                0.945243435     -118.127666
9.203                0.945128546     -118.355726
9.204                0.945013647      -118.58433
9.205                0.944898741      -118.81348
9.206                0.944783831     -119.043174
9.207                0.944668921     -119.273414
9.208                0.944554014     -119.504198
9.209                0.944439114     -119.735528
9.21                 0.944324224     -119.967403
9.211                0.944209347     -120.199824
9.212                0.944094487      -120.43279
9.213                0.943979647     -120.666302
9.214                0.943864832      -120.90036
9.215                0.943750043     -121.134963
9.216                0.943635286     -121.370111
9.217                0.943520564     -121.605806
9.218                0.943405881     -121.842045
9.219                0.943291239      -122.07883
9.22                 0.943176644     -122.316161
9.221                0.943062098     -122.554037
9.222                0.942947606     -122.792457
9.223                0.942833171     -123.031423
9.224                0.942718798     -123.270934
9.225                0.942604489     -123.510989
9.226                 0.94249025     -123.751588
9.227                0.942376085     -123.992732
9.228                0.942261996      -124.23442
9.229                0.942147988     -124.476651
9.23                 0.942034066     -124.719426
9.231                0.941920233     -124.962744
9.232                0.941806494     -125.206605
9.233                0.941692852     -125.451008
9.234                0.941579313     -125.695953
9.235                0.941465879      -125.94144
9.236                0.941352556     -126.187468
9.237                0.941239348     -126.434037
9.238                0.941126259     -126.681146
9.239                0.941013293     -126.928795
9.24                 0.940900455     -127.176984
9.241                0.940787749     -127.425711
9.242                 0.94067518     -127.674977
9.243                0.940562752     -127.924781
9.244                 0.94045047     -128.175121
9.245                0.940338338     -128.425999
9.246                 0.94022636     -128.677412
9.247                0.940114543      -128.92936
9.248                0.940002889     -129.181843
9.249                0.939891404      -129.43486
9.25                 0.939780092      -129.68841
9.251                0.939668959     -129.942493
9.252                0.939558008     -130.197107
9.253                0.939447245     -130.452252
9.254                0.939336675     -130.707927
9.255                0.939226302     -130.964131
9.256                0.939116131     -131.220863
9.257                0.939006167     -131.478123
9.258                0.938896415     -131.735909
9.259                 0.93878688     -131.994221
9.26                 0.938677566     -132.253058
9.261                 0.93856848     -132.512417
9.262                0.938459626       -132.7723
9.263                0.938351008     -133.032704
9.264                0.938242632     -133.293628
9.265                0.938134504     -133.555072
9.266                0.938026627     -133.817034
9.267                0.937919008     -134.079512
9.268                0.937811652     -134.342507
9.269                0.937704563     -134.606016
9.27                 0.937597747     -134.870039
9.271                0.937491209     -135.134574
9.272                0.937384955      -135.39962
9.273                0.937278989     -135.665175
9.274                0.937173317     -135.931239
9.275                0.937067944     -136.197809
9.276                0.936962876     -136.464885
9.277                0.936858118     -136.732465
9.278                0.936753675     -137.000548
9.279                0.936649553     -137.269132
9.28                 0.936545756     -137.538215
9.281                0.936442292     -137.807797
9.282                0.936339164     -138.077875
9.283                0.936236379     -138.348448
9.284                0.936133941     -138.619514
9.285                0.936031857     -138.891072
9.286                0.935930132      -139.16312
9.287                0.935828771     -139.435657
9.288                 0.93572778      -139.70868
9.289                0.935627164     -139.982188
9.29                 0.935526929      -140.25618
9.291                0.935427081     -140.530652
9.292                0.935327625     -140.805604
9.293                0.935228567     -141.081034
9.294                0.935129912     -141.356939
9.295                0.935031666     -141.633318
9.296                0.934933834     -141.910169
9.297                0.934836423      -142.18749
9.298                0.934739437     -142.465279
9.299                0.934642883     -142.743533
9.3                  0.934546766     -143.022252
9.301                0.934451092     -143.301431
9.302                0.934355865     -143.581071
9.303                0.934261093     -143.861168
9.304                0.934166781      -144.14172
9.305                0.934072934     -144.422725
9.306                0.933979557     -144.704181
9.307                0.933886658     -144.986086
9.308                0.933794241     -145.268436
9.309                0.933702311     -145.551231
9.31                 0.933610876     -145.834467
9.311                0.933519939     -146.118142
9.312                0.933429508     -146.402254
9.313                0.933339587       -146.6868
9.314                0.933250182     -146.971779
9.315                  0.9331613     -147.257186
9.316                0.933072944      -147.54302
9.317                0.932985122     -147.829279
9.318                0.932897839     -148.115959
9.319                  0.9328111     -148.403059
9.32                 0.932724911     -148.690574
9.321                0.932639278     -148.978504
9.322                0.932554206     -149.266845
9.323                  0.9324697     -149.555593
9.324                0.932385767     -149.844748
9.325                0.932302412     -150.134305
9.326                 0.93221964     -150.424263
9.327                0.932137458     -150.714617
9.328                0.932055869     -151.005366
9.329                0.931974881     -151.296506
9.33                 0.931894498     -151.588035
9.331                0.931814725     -151.879949
9.332                0.931735569     -152.172246
9.333                0.931657035     -152.464922
9.334                0.931579128     -152.757975
9.335                0.931501853     -153.051401
9.336                0.931425216     -153.345198
9.337                0.931349223     -153.639362
9.338                0.931273878     -153.933889
9.339                0.931199186     -154.228778
9.34                 0.931125153     -154.524025
9.341                0.931051785     -154.819626
9.342                0.930979086     -155.115578
9.343                0.930907062     -155.411879
9.344                0.930835717     -155.708524
9.345                0.930765057      -156.00551
9.346                0.930695088     -156.302834
9.347                0.930625813     -156.600493
9.348                0.930557238     -156.898484
9.349                0.930489368     -157.196801
9.35                 0.930422208     -157.495444
9.351                0.930355763     -157.794407
9.352                0.930290037     -158.093687
9.353                0.930225036     -158.393282
9.354                0.930160764     -158.693186
9.355                0.930097227     -158.993397
9.356                0.930034428     -159.293911
9.357                0.929972373     -159.594725
9.358                0.929911066     -159.895834
9.359                0.929850511     -160.197236
9.36                 0.929790714     -160.498926
9.361                0.929731679       -160.8009
9.362                 0.92967341     -161.103156
9.363                0.929615912     -161.405689
9.364                0.929559189     -161.708495
9.365                0.929503245      -162.01157
9.366                0.929448085     -162.314912
9.367                0.929393713     -162.618515
9.368                0.929340133     -162.922376
9.369                0.929287349     -163.226491
9.37                 0.929235365     -163.530857
9.371                0.929184186     -163.835469
9.372                0.929133815     -164.140323
9.373                0.929084257     -164.445415
9.374                0.929035514     -164.750742
9.375                0.928987592     -165.056299
9.376                0.928940493     -165.362082
9.377                0.928894222     -165.668087
9.378                0.928848781     -165.974311
9.379                0.928804175     -166.280748
9.38                 0.928760408     -166.587396
9.381                0.928717482     -166.894249
9.382                0.928675401     -167.201304
9.383                0.928634168     -167.508556
9.384                0.928593787     -167.816002
9.385                0.928554261     -168.123636
9.386                0.928515593     -168.431456
9.387                0.928477786     -168.739456
9.388                0.928440843     -169.047633
9.389                0.928404768     -169.355982
9.39                 0.928369563     -169.664498
9.391                 0.92833523     -169.973179
9.392                0.928301773     -170.282018
9.393                0.928269195     -170.591013
9.394                0.928237497     -170.900158
9.395                0.928206684      -171.20945
9.396                0.928176756     -171.518883
