! TOUCHSTONE file generated by CST DESIGN STUDIO
! Date and time: Tue Feb  4 13:37:39 2025
! Project name: C:\Work\MatlabApps\UnitCellOptimizationMatlab\CST\unitcell.cst
! Tree item: Tasks\Sweep1\SPara1\S-Parameters
! Header version: 2024
! Port assignment regex: !\s*Touchstone port\s*([0-9]+)\s*=\s*(CST MWS port|CST DES external port|CST DES block port)\s*(.+)\s* \(\"(.*)\"\)(\s*mode\s*([0-9]+))?.*
! Touchstone port assignment:
! Touchstone port 1 = CST DES external port 1 ("")
# GHz S MA R 50
9                    0.983848616     -80.1017769
9.001                0.983807872     -80.2264459
9.002                0.983767006     -80.3514252
9.003                0.983726017     -80.4767159
9.004                0.983684905     -80.6023187
9.005                0.983643669     -80.7282345
9.006                0.983602309     -80.8544644
9.007                0.983560826      -80.981009
9.008                0.983519218     -81.1078695
9.009                0.983477487     -81.2350466
9.01                  0.98343563     -81.3625413
9.011                0.983393649     -81.4903545
9.012                0.983351543     -81.6184871
9.013                0.983309312     -81.7469399
9.014                0.983266956      -81.875714
9.015                0.983224474     -82.0048102
9.016                0.983181867     -82.1342294
9.017                0.983139133     -82.2639725
9.018                0.983096273     -82.3940405
9.019                0.983053287     -82.5244343
9.02                 0.983010175     -82.6551547
9.021                0.982966936     -82.7862028
9.022                0.982923569     -82.9175794
9.023                0.982880076     -83.0492855
9.024                0.982836456     -83.1813219
9.025                0.982792708     -83.3136896
9.026                0.982748832     -83.4463896
9.027                0.982704829     -83.5794227
9.028                0.982660698       -83.71279
9.029                0.982616438     -83.8464922
9.03                 0.982572051     -83.9805304
9.031                0.982527535     -84.1149054
9.032                 0.98248289     -84.2496183
9.033                0.982438116     -84.3846699
9.034                0.982393214     -84.5200612
9.035                0.982348182     -84.6557931
9.036                0.982303022     -84.7918666
9.037                0.982257732     -84.9282826
9.038                0.982212312      -85.065042
9.039                0.982166763     -85.2021458
9.04                 0.982121084     -85.3395949
9.041                0.982075275     -85.4773902
9.042                0.982029336     -85.6155328
9.043                0.981983266     -85.7540236
9.044                0.981937067     -85.8928634
9.045                0.981890737     -86.0320533
9.046                0.981844276     -86.1715941
9.047                0.981797685     -86.3114869
9.048                0.981750963     -86.4517326
9.049                 0.98170411     -86.5923322
9.05                 0.981657127     -86.7332865
9.051                0.981610012     -86.8745965
9.052                0.981562766     -87.0162633
9.053                0.981515388     -87.1582877
9.054                 0.98146788     -87.3006707
9.055                 0.98142024     -87.4434132
9.056                0.981372468     -87.5865162
9.057                0.981324565     -87.7299807
9.058                 0.98127653     -87.8738077
9.059                0.981228364     -88.0179979
9.06                 0.981180065     -88.1625525
9.061                0.981131635     -88.3074724
9.062                0.981083073     -88.4527586
9.063                0.981034379     -88.5984119
9.064                0.980985553     -88.7444333
9.065                0.980936595     -88.8908239
9.066                0.980887505     -89.0375846
9.067                0.980838283     -89.1847162
9.068                0.980788928     -89.3322199
9.069                0.980739442     -89.4800965
9.07                 0.980689823      -89.628347
9.071                0.980640073     -89.7769723
9.072                 0.98059019     -89.9259735
9.073                0.980540174     -90.0753514
9.074                0.980490027     -90.2251071
9.075                0.980439747     -90.3752414
9.076                0.980389336     -90.5257554
9.077                0.980338792       -90.67665
9.078                0.980288116     -90.8279262
9.079                0.980237308     -90.9795849
9.08                 0.980186367      -91.131627
9.081                0.980135295     -91.2840536
9.082                0.980084091     -91.4368656
9.083                0.980032755     -91.5900639
9.084                0.979981287     -91.7436495
9.085                0.979929687     -91.8976234
9.086                0.979877956     -92.0519865
9.087                0.979826093     -92.2067397
9.088                0.979774098      -92.361884
9.089                0.979721972     -92.5174205
9.09                 0.979669714     -92.6733499
9.091                0.979617325     -92.8296733
9.092                0.979564805     -92.9863916
9.093                0.979512154     -93.1435058
9.094                0.979459371     -93.3010167
9.095                0.979406458     -93.4589255
9.096                0.979353414     -93.6172329
9.097                 0.97930024       -93.77594
9.098                0.979246935     -93.9350477
9.099                  0.9791935     -94.0945569
9.1                  0.979139935     -94.2544686
9.101                 0.97908624     -94.4147837
9.102                0.979032415     -94.5755032
9.103                 0.97897846     -94.7366279
9.104                0.978924376     -94.8981589
9.105                0.978870163      -95.060097
9.106                0.978815821     -95.2224432
9.107                 0.97876135     -95.3851984
9.108                 0.97870675     -95.5483636
9.109                0.978652022     -95.7119397
9.11                 0.978597166     -95.8759275
9.111                0.978542182     -96.0403281
9.112                 0.97848707     -96.2051423
9.113                0.978431831     -96.3703711
9.114                0.978376464     -96.5360154
9.115                0.978320971     -96.7020761
9.116                0.978265351      -96.868554
9.117                0.978209605     -97.0354502
9.118                0.978153733     -97.2027656
9.119                0.978097735     -97.3705009
9.12                 0.978041612     -97.5386572
9.121                0.977985364     -97.7072354
9.122                0.977928991     -97.8762362
9.123                0.977872493     -98.0456608
9.124                0.977815872     -98.2155098
9.125                0.977759126     -98.3857843
9.126                0.977702258      -98.556485
9.127                0.977645266      -98.727613
9.128                0.977588152      -98.899169
9.129                0.977530916      -99.071154
9.13                 0.977473558     -99.2435688
9.131                0.977416079     -99.4164144
9.132                0.977358478     -99.5896914
9.133                0.977300757      -99.763401
9.134                0.977242916     -99.9375438
9.135                0.977184956     -100.112121
9.136                0.977126876     -100.287133
9.137                0.977068677     -100.462581
9.138                0.977010361     -100.638465
9.139                0.976951926     -100.814787
9.14                 0.976893375     -100.991548
9.141                0.976834706     -101.168748
9.142                0.976775922     -101.346387
9.143                0.976717021     -101.524468
9.144                0.976658006      -101.70299
9.145                0.976598876     -101.881955
9.146                0.976539632     -102.061364
9.147                0.976480275     -102.241216
9.148                0.976420805     -102.421514
9.149                0.976361222     -102.602257
9.15                 0.976301528     -102.783447
9.151                0.976241723     -102.965084
9.152                0.976181808     -103.147169
9.153                0.976121782     -103.329703
9.154                0.976061648     -103.512687
9.155                0.976001405     -103.696122
9.156                0.975941055     -103.880008
9.157                0.975880597     -104.064345
9.158                0.975820033     -104.249136
9.159                0.975759364      -104.43438
9.16                 0.975698589     -104.620078
9.161                 0.97563771     -104.806231
9.162                0.975576728      -104.99284
9.163                0.975515643     -105.179906
9.164                0.975454457     -105.367429
9.165                0.975393169     -105.555409
9.166                0.975331781     -105.743848
9.167                0.975270293     -105.932747
9.168                0.975208706     -106.122106
9.169                0.975147022     -106.311925
9.17                 0.975085241     -106.502206
9.171                0.975023363     -106.692948
9.172                0.974961391     -106.884154
9.173                0.974899324     -107.075823
9.174                0.974837163     -107.267956
9.175                 0.97477491     -107.460554
9.176                0.974712565     -107.653617
9.177                 0.97465013     -107.847146
9.178                0.974587605     -108.041142
9.179                0.974524991     -108.235605
9.18                 0.974462289     -108.430536
9.181                0.974399501     -108.625935
9.182                0.974336626     -108.821804
9.183                0.974273667     -109.018142
9.184                0.974210625      -109.21495
9.185                0.974147499     -109.412229
9.186                0.974084292      -109.60998
9.187                0.974021005     -109.808202
9.188                0.973957638     -110.006897
9.189                0.973894193     -110.206066
9.19                  0.97383067     -110.405707
9.191                0.973767072     -110.605823
9.192                0.973703399     -110.806413
9.193                0.973639652     -111.007479
9.194                0.973575832      -111.20902
9.195                0.973511941     -111.411037
9.196                 0.97344798     -111.613531
9.197                0.973383951     -111.816502
9.198                0.973319853      -112.01995
9.199                0.973255689     -112.223877
9.2                   0.97319146     -112.428282
9.201                0.973127167     -112.633165
9.202                0.973062812     -112.838528
9.203                0.972998396     -113.044371
9.204                0.972933919     -113.250693
9.205                0.972869384     -113.457497
9.206                0.972804792      -113.66478
9.207                0.972740145     -113.872546
9.208                0.972675442     -114.080792
9.209                0.972610687     -114.289521
9.21                 0.972545881     -114.498732
9.211                0.972481024     -114.708425
9.212                0.972416119     -114.918602
9.213                0.972351167     -115.129261
9.214                0.972286169     -115.340405
9.215                0.972221127     -115.552031
9.216                0.972156042     -115.764142
9.217                0.972090916     -115.976737
9.218                0.972025751     -116.189817
9.219                0.971960548     -116.403382
9.22                 0.971895308     -116.617431
9.221                0.971830034     -116.831966
9.222                0.971764727     -117.046986
9.223                0.971699388     -117.262492
9.224                 0.97163402     -117.478483
9.225                0.971568623      -117.69496
9.226                  0.9715032     -117.911924
9.227                0.971437753     -118.129373
9.228                0.971372282     -118.347309
9.229                 0.97130679     -118.565732
9.23                 0.971241278      -118.78464
9.231                0.971175749     -119.004036
9.232                0.971110204     -119.223918
9.233                0.971044645     -119.444287
9.234                0.970979073     -119.665142
9.235                0.970913491     -119.886484
9.236                0.970847901     -120.108313
9.237                0.970782303     -120.330629
9.238                0.970716701     -120.553431
9.239                0.970651096     -120.776721
9.24                  0.97058549     -121.000496
9.241                0.970519885     -121.224759
9.242                0.970454282     -121.449508
9.243                0.970388685     -121.674743
9.244                0.970323094     -121.900465
9.245                0.970257512     -122.126673
9.246                0.970191941     -122.353366
9.247                0.970126383     -122.580546
9.248                 0.97006084     -122.808212
9.249                0.969995314     -123.036363
9.25                 0.969929807     -123.264999
9.251                0.969864322     -123.494121
9.252                0.969798859     -123.723727
9.253                0.969733422     -123.953818
9.254                0.969668013     -124.184393
9.255                0.969602634     -124.415452
9.256                0.969537287     -124.646995
9.257                0.969471973     -124.879022
9.258                0.969406697     -125.111532
9.259                0.969341459     -125.344524
9.26                 0.969276261     -125.577999
9.261                0.969211107     -125.811956
9.262                0.969145999     -126.046394
9.263                0.969080938     -126.281314
9.264                0.969015927     -126.516714
9.265                0.968950969     -126.752594
9.266                0.968886065     -126.988955
9.267                0.968821219     -127.225794
9.268                0.968756432     -127.463113
9.269                0.968691707     -127.700909
9.27                 0.968627046     -127.939184
9.271                0.968562452     -128.177935
9.272                0.968497927     -128.417164
9.273                0.968433474     -128.656868
9.274                0.968369094     -128.897047
9.275                0.968304792     -129.137701
9.276                0.968240568     -129.378829
9.277                0.968176426     -129.620431
9.278                0.968112367     -129.862505
9.279                0.968048396     -130.105051
9.28                 0.967984513     -130.348068
9.281                0.967920723     -130.591556
9.282                0.967857026     -130.835513
9.283                0.967793427     -131.079939
9.284                0.967729927     -131.324833
9.285                0.967666529     -131.570195
9.286                0.967603236     -131.816022
9.287                0.967540051     -132.062316
9.288                0.967476975     -132.309073
9.289                0.967414012     -132.556295
9.29                 0.967351165     -132.803979
9.291                0.967288435     -133.052125
9.292                0.967225827     -133.300731
9.293                0.967163342     -133.549798
9.294                0.967100983     -133.799323
9.295                0.967038754     -134.049306
9.296                0.966976656     -134.299745
9.297                0.966914693      -134.55064
9.298                0.966852867      -134.80199
9.299                0.966791181     -135.053792
9.3                  0.966729638     -135.306047
9.301                0.966668241     -135.558753
9.302                0.966606992     -135.811909
9.303                0.966545895     -136.065513
9.304                0.966484952     -136.319565
9.305                0.966424166     -136.574063
9.306                 0.96636354     -136.829005
9.307                0.966303077     -137.084391
9.308                0.966242779     -137.340219
9.309                 0.96618265     -137.596488
9.31                 0.966122693     -137.853197
9.311                0.966062909     -138.110344
9.312                0.966003304     -138.367927
9.313                0.965943878     -138.625946
9.314                0.965884635     -138.884398
9.315                0.965825579     -139.143282
9.316                0.965766711     -139.402598
9.317                0.965708035     -139.662343
9.318                0.965649554     -139.922515
9.319                0.965591271     -140.183114
9.32                 0.965533189     -140.444137
9.321                0.965475311     -140.705583
9.322                0.965417639      -140.96745
9.323                0.965360177     -141.229737
9.324                0.965302927     -141.492443
9.325                0.965245894     -141.755564
9.326                0.965189079       -142.0191
9.327                0.965132485     -142.283049
9.328                0.965076116     -142.547408
9.329                0.965019975     -142.812177
9.33                 0.964964065     -143.077354
9.331                0.964908388     -143.342936
9.332                0.964852948     -143.608921
9.333                0.964797747     -143.875309
9.334                0.964742789     -144.142096
9.335                0.964688077     -144.409281
9.336                0.964633613     -144.676863
9.337                0.964579401     -144.944838
9.338                0.964525444     -145.213205
9.339                0.964471745     -145.481963
9.34                 0.964418306     -145.751108
9.341                0.964365131     -146.020639
9.342                0.964312223     -146.290554
9.343                0.964259584     -146.560851
9.344                0.964207218     -146.831527
9.345                0.964155128     -147.102581
9.346                0.964103317      -147.37401
9.347                0.964051787     -147.645811
9.348                0.964000542     -147.917984
9.349                0.963949585     -148.190525
9.35                 0.963898918     -148.463432
9.351                0.963848545     -148.736703
9.352                0.963798468     -149.010336
9.353                0.963748691     -149.284328
9.354                0.963699217     -149.558677
9.355                0.963650048      -149.83338
9.356                0.963601187     -150.108436
9.357                0.963552638     -150.383841
9.358                0.963504403     -150.659593
9.359                0.963456485      -150.93569
9.36                 0.963408887     -151.212129
9.361                0.963361612     -151.488908
9.362                0.963314664     -151.766024
9.363                0.963268043     -152.043475
9.364                0.963221755     -152.321258
9.365                0.963175801      -152.59937
9.366                0.963130184     -152.877809
9.367                0.963084908     -153.156572
9.368                0.963039974     -153.435656
9.369                0.962995386     -153.715059
9.37                 0.962951147     -153.994778
9.371                 0.96290726     -154.274811
9.372                0.962863726     -154.555154
9.373                0.962820549     -154.835805
9.374                0.962777732      -155.11676
9.375                0.962735278     -155.398018
9.376                0.962693189     -155.679575
9.377                0.962651467     -155.961429
9.378                0.962610116     -156.243576
9.379                0.962569138     -156.526014
9.38                 0.962528536     -156.808739
9.381                0.962488313      -157.09175
9.382                 0.96244847     -157.375042
9.383                0.962409012     -157.658613
9.384                0.962369939     -157.942459
9.385                0.962331255     -158.226579
9.386                0.962292963     -158.510968
9.387                0.962255065     -158.795625
9.388                0.962217563     -159.080544
9.389                 0.96218046     -159.365725
9.39                 0.962143758     -159.651162
9.391                 0.96210746     -159.936854
9.392                0.962071568     -160.222798
9.393                0.962036085     -160.508989
9.394                0.962001012     -160.795425
9.395                0.961966353     -161.082103
9.396                 0.96193211     -161.369019
