! TOUCHSTONE file generated by CST DESIGN STUDIO
! Date and time: Tue Feb  4 13:37:52 2025
! Project name: C:\Work\MatlabApps\UnitCellOptimizationMatlab\CST\unitcell.cst
! Tree item: Tasks\Sweep1\SPara1\S-Parameters
! Header version: 2024
! Port assignment regex: !\s*Touchstone port\s*([0-9]+)\s*=\s*(CST MWS port|CST DES external port|CST DES block port)\s*(.+)\s* \(\"(.*)\"\)(\s*mode\s*([0-9]+))?.*
! Touchstone port assignment:
! Touchstone port 1 = CST DES external port 1 ("")
# GHz S MA R 50
9                    0.985674235     -68.2039025
9.001                 0.98564324     -68.3016261
9.002                0.985612151     -68.3995821
9.003                0.985580967     -68.4977712
9.004                0.985549688     -68.5961941
9.005                0.985518313     -68.6948515
9.006                0.985486843     -68.7937442
9.007                0.985455277     -68.8928728
9.008                0.985423615     -68.9922381
9.009                0.985391857     -69.0918409
9.01                 0.985360001     -69.1916817
9.011                0.985328049     -69.2917615
9.012                   0.985296     -69.3920808
9.013                0.985263853     -69.4926405
9.014                0.985231609     -69.5934412
9.015                0.985199267     -69.6944837
9.016                0.985166826     -69.7957688
9.017                0.985134287     -69.8972972
9.018                0.985101649     -69.9990695
9.019                0.985068912     -70.1010867
9.02                 0.985036076     -70.2033494
9.021                 0.98500314     -70.3058584
9.022                0.984970105     -70.4086144
9.023                0.984936969     -70.5116181
9.024                0.984903734     -70.6148705
9.025                0.984870397     -70.7183721
9.026                 0.98483696     -70.8221237
9.027                0.984803421     -70.9261262
9.028                0.984769782     -71.0303803
9.029                 0.98473604     -71.1348868
9.03                 0.984702197     -71.2396464
9.031                0.984668252     -71.3446599
9.032                0.984634204      -71.449928
9.033                0.984600053     -71.5554516
9.034                  0.9845658     -71.6612315
9.035                0.984531443     -71.7672683
9.036                0.984496983      -71.873563
9.037                0.984462419     -71.9801162
9.038                0.984427752     -72.0869288
9.039                 0.98439298     -72.1940016
9.04                 0.984358103     -72.3013353
9.041                0.984323122     -72.4089308
9.042                0.984288036     -72.5167888
9.043                0.984252845     -72.6249101
9.044                0.984217548     -72.7332956
9.045                0.984182145      -72.841946
9.046                0.984146636     -72.9508622
9.047                0.984111021     -73.0600449
9.048                  0.9840753      -73.169495
9.049                0.984039472     -73.2792133
9.05                 0.984003536     -73.3892005
9.051                0.983967494     -73.4994576
9.052                0.983931343     -73.6099853
9.053                0.983895086     -73.7207844
9.054                 0.98385872     -73.8318558
9.055                0.983822245     -73.9432003
9.056                0.983785662     -74.0548187
9.057                0.983748971     -74.1667118
9.058                 0.98371217     -74.2788805
9.059                 0.98367526     -74.3913257
9.06                 0.983638241     -74.5040481
9.061                0.983601112     -74.6170485
9.062                0.983563872     -74.7303279
9.063                0.983526523      -74.843887
9.064                0.983489063     -74.9577268
9.065                0.983451492     -75.0718479
9.066                 0.98341381     -75.1862514
9.067                0.983376017     -75.3009381
9.068                0.983338113     -75.4159087
9.069                0.983300096     -75.5311642
9.07                 0.983261968     -75.6467054
9.071                0.983223728     -75.7625332
9.072                0.983185375     -75.8786483
9.073                0.983146909     -75.9950518
9.074                0.983108331     -76.1117445
9.075                0.983069639     -76.2287271
9.076                0.983030834     -76.3460007
9.077                0.982991916      -76.463566
9.078                0.982952883     -76.5814239
9.079                0.982913737     -76.6995753
9.08                 0.982874476     -76.8180212
9.081                0.982835101     -76.9367622
9.082                0.982795611     -77.0557995
9.083                0.982756006     -77.1751337
9.084                0.982716286     -77.2947659
9.085                 0.98267645     -77.4146968
9.086                0.982636499     -77.5349275
9.087                0.982596432     -77.6554587
9.088                0.982556249     -77.7762914
9.089                 0.98251595     -77.8974264
9.09                 0.982475534     -78.0188647
9.091                0.982435002     -78.1406071
9.092                0.982394352     -78.2626546
9.093                0.982353585     -78.3850081
9.094                0.982312702     -78.5076684
9.095                  0.9822717     -78.6306365
9.096                0.982230581     -78.7539133
9.097                0.982189344     -78.8774996
9.098                0.982147988     -79.0013965
9.099                0.982106515     -79.1256047
9.1                  0.982064923     -79.2501253
9.101                0.982023212     -79.3749591
9.102                0.981981382     -79.5001071
9.103                0.981939433     -79.6255701
9.104                0.981897365     -79.7513492
9.105                0.981855177     -79.8774451
9.106                0.981812869      -80.003859
9.107                0.981770442     -80.1305916
9.108                0.981727895     -80.2576439
9.109                0.981685227     -80.3850168
9.11                 0.981642439     -80.5127114
9.111                 0.98159953     -80.6407284
9.112                0.981556501     -80.7690689
9.113                0.981513351     -80.8977337
9.114                0.981470079     -81.0267239
9.115                0.981426687     -81.1560403
9.116                0.981383173      -81.285684
9.117                0.981339537     -81.4156557
9.118                 0.98129578     -81.5459566
9.119                  0.9812519     -81.6765875
9.12                 0.981207899     -81.8075494
9.121                0.981163775     -81.9388433
9.122                 0.98111953       -82.07047
9.123                0.981075161     -82.2024306
9.124                 0.98103067      -82.334726
9.125                0.980986056     -82.4673571
9.126                 0.98094132      -82.600325
9.127                 0.98089646     -82.7336305
9.128                0.980851477     -82.8672746
9.129                0.980806371     -83.0012584
9.13                 0.980761141     -83.1355827
9.131                0.980715788     -83.2702485
9.132                0.980670311     -83.4052569
9.133                 0.98062471     -83.5406086
9.134                0.980578985     -83.6763048
9.135                0.980533137     -83.8123465
9.136                0.980487164     -83.9487344
9.137                0.980441067     -84.0854697
9.138                0.980394846     -84.2225533
9.139                  0.9803485     -84.3599863
9.14                  0.98030203     -84.4977694
9.141                0.980255435     -84.6359038
9.142                0.980208715     -84.7743905
9.143                0.980161871     -84.9132303
9.144                0.980114902     -85.0524243
9.145                0.980067808     -85.1919734
9.146                0.980020589     -85.3318787
9.147                0.979973245     -85.4721411
9.148                0.979925776     -85.6127617
9.149                0.979878182     -85.7537413
9.15                 0.979830462      -85.895081
9.151                0.979782617     -86.0367817
9.152                0.979734647     -86.1788445
9.153                0.979686551     -86.3212704
9.154                 0.97963833     -86.4640602
9.155                0.979589984     -86.6072151
9.156                0.979541512      -86.750736
9.157                0.979492915     -86.8946239
9.158                0.979444192     -87.0388798
9.159                0.979395344     -87.1835047
9.16                  0.97934637     -87.3284995
9.161                 0.97929727     -87.4738654
9.162                0.979248045     -87.6196031
9.163                0.979198695     -87.7657139
9.164                0.979149219     -87.9121986
9.165                0.979099617     -88.0590582
9.166                 0.97904989     -88.2062938
9.167                0.979000037     -88.3539063
9.168                0.978950059     -88.5018968
9.169                0.978899956     -88.6502662
9.17                 0.978849727     -88.7990155
9.171                0.978799373     -88.9481457
9.172                0.978748893     -89.0976579
9.173                0.978698288      -89.247553
9.174                0.978647558      -89.397832
9.175                0.978596703     -89.5484959
9.176                0.978545723     -89.6995457
9.177                0.978494618     -89.8509825
9.178                0.978443388     -90.0028071
9.179                0.978392034     -90.1550207
9.18                 0.978340554     -90.3076241
9.181                 0.97828895     -90.4606185
9.182                0.978237222     -90.6140047
9.183                0.978185369     -90.7677838
9.184                0.978133392     -90.9219568
9.185                 0.97808129     -91.0765247
9.186                0.978029065     -91.2314885
9.187                0.977976716     -91.3868491
9.188                0.977924243     -91.5426076
9.189                0.977871647      -91.698765
9.19                 0.977818927     -91.8553222
9.191                0.977766083     -92.0122802
9.192                0.977713117     -92.1696401
9.193                0.977660028     -92.3274028
9.194                0.977606816     -92.4855694
9.195                0.977553482     -92.6441407
9.196                0.977500025     -92.8031178
9.197                0.977446446     -92.9625017
9.198                0.977392746     -93.1222933
9.199                0.977338923     -93.2824937
9.2                  0.977284979     -93.4431039
9.201                0.977230914     -93.6041247
9.202                0.977176728     -93.7655572
9.203                0.977122421     -93.9274025
9.204                0.977067994     -94.0896613
9.205                0.977013446     -94.2523348
9.206                0.976958779     -94.4154239
9.207                0.976903991     -94.5789296
9.208                0.976849085     -94.7428529
9.209                0.976794059     -94.9071946
9.21                 0.976738915     -95.0719559
9.211                0.976683652     -95.2371376
9.212                0.976628271     -95.4027408
9.213                0.976572772     -95.5687663
9.214                0.976517156     -95.7352152
9.215                0.976461423     -95.9020885
9.216                0.976405573     -96.0693869
9.217                0.976349606     -96.2371117
9.218                0.976293524     -96.4052636
9.219                0.976237325     -96.5738436
9.22                 0.976181012     -96.7428527
9.221                0.976124584     -96.9122918
9.222                0.976068041     -97.0821619
9.223                0.976011384     -97.2524639
9.224                0.975954614     -97.4231988
9.225                0.975897731     -97.5943675
9.226                0.975840735     -97.7659708
9.227                0.975783626     -97.9380099
9.228                0.975726406     -98.1104855
9.229                0.975669075     -98.2833986
9.23                 0.975611633     -98.4567501
9.231                 0.97555408      -98.630541
9.232                0.975496418     -98.8047722
9.233                0.975438646     -98.9794445
9.234                0.975380766     -99.1545589
9.235                0.975322778     -99.3301163
9.236                0.975264681     -99.5061175
9.237                0.975206478     -99.6825636
9.238                0.975148168     -99.8594553
9.239                0.975089752     -100.036794
9.24                 0.975031231     -100.214579
9.241                0.974972605     -100.392814
9.242                0.974913875     -100.571497
9.243                0.974855042      -100.75063
9.244                0.974796105     -100.930215
9.245                0.974737066     -101.110251
9.246                0.974677926      -101.29074
9.247                0.974618685     -101.471682
9.248                0.974559344     -101.653079
9.249                0.974499903     -101.834931
9.25                 0.974440363      -102.01724
9.251                0.974380725     -102.200005
9.252                0.974320989     -102.383228
9.253                0.974261158     -102.566909
9.254                 0.97420123      -102.75105
9.255                0.974141207     -102.935651
9.256                0.974081089     -103.120714
9.257                0.974020878     -103.306238
9.258                0.973960575     -103.492225
9.259                0.973900179     -103.678675
9.26                 0.973839692      -103.86559
9.261                0.973779115     -104.052969
9.262                0.973718449     -104.240815
9.263                0.973657694     -104.429127
9.264                0.973596851     -104.617906
9.265                0.973535922     -104.807154
9.266                0.973474906      -104.99687
9.267                0.973413806     -105.187057
9.268                0.973352621     -105.377713
9.269                0.973291354     -105.568841
9.27                 0.973230004      -105.76044
9.271                0.973168574     -105.952512
9.272                0.973107063     -106.145058
9.273                0.973045472     -106.338077
9.274                0.972983804     -106.531572
9.275                0.972922058     -106.725541
9.276                0.972860237     -106.919987
9.277                 0.97279834     -107.114909
9.278                 0.97273637     -107.310309
9.279                0.972674326     -107.506187
9.28                 0.972612211     -107.702544
9.281                0.972550025      -107.89938
9.282                0.972487769     -108.096697
9.283                0.972425445     -108.294494
9.284                0.972363054     -108.492772
9.285                0.972300597     -108.691533
9.286                0.972238074     -108.890776
9.287                0.972175488     -109.090502
9.288                 0.97211284     -109.290712
9.289                 0.97205013     -109.491406
9.29                  0.97198736     -109.692585
9.291                0.971924532      -109.89425
9.292                0.971861646     -110.096401
9.293                0.971798704     -110.299038
9.294                0.971735707     -110.502163
9.295                0.971672656     -110.705775
9.296                0.971609553     -110.909876
9.297                  0.9715464     -111.114465
9.298                0.971483196     -111.319543
9.299                0.971419945     -111.525111
9.3                  0.971356647      -111.73117
9.301                0.971293304     -111.937719
9.302                0.971229916     -112.144759
9.303                0.971166487      -112.35229
9.304                0.971103016     -112.560314
9.305                0.971039506      -112.76883
9.306                0.970975958     -112.977839
9.307                0.970912374     -113.187341
9.308                0.970848754     -113.397337
9.309                0.970785101     -113.607827
9.31                 0.970721416     -113.818812
9.311                0.970657701     -114.030291
9.312                0.970593958     -114.242265
9.313                0.970530187     -114.454735
9.314                0.970466391     -114.667701
9.315                0.970402571     -114.881163
9.316                0.970338729     -115.095121
9.317                0.970274867     -115.309576
9.318                0.970210985     -115.524528
9.319                0.970147087     -115.739978
9.32                 0.970083173     -115.955924
9.321                0.970019246     -116.172369
9.322                0.969955307     -116.389312
9.323                0.969891358     -116.606753
9.324                0.969827401     -116.824692
9.325                0.969763437      -117.04313
9.326                0.969699469     -117.262067
9.327                0.969635498     -117.481502
9.328                0.969571526     -117.701437
9.329                0.969507555     -117.921871
9.33                 0.969443586     -118.142805
9.331                0.969379623     -118.364237
9.332                0.969315666      -118.58617
9.333                0.969251718     -118.808602
9.334                0.969187781     -119.031534
9.335                0.969123856     -119.254966
9.336                0.969059946     -119.478897
9.337                0.968996052     -119.703328
9.338                0.968932177     -119.928259
9.339                0.968868323      -120.15369
9.34                 0.968804491     -120.379621
9.341                0.968740684     -120.606051
9.342                0.968676904     -120.832981
9.343                0.968613154     -121.060411
9.344                0.968549434      -121.28834
9.345                0.968485748     -121.516769
9.346                0.968422097     -121.745697
9.347                0.968358483     -121.975125
9.348                 0.96829491     -122.205051
9.349                0.968231379     -122.435476
9.35                 0.968167892       -122.6664
9.351                0.968104451     -122.897822
9.352                0.968041059     -123.129743
9.353                0.967977719     -123.362161
9.354                0.967914432     -123.595078
9.355                  0.9678512     -123.828492
9.356                0.967788026     -124.062403
9.357                0.967724913     -124.296811
9.358                0.967661863     -124.531716
9.359                0.967598877     -124.767116
9.36                  0.96753596     -125.003013
9.361                0.967473112     -125.239405
9.362                0.967410336     -125.476293
9.363                0.967347635     -125.713675
9.364                0.967285011     -125.951551
9.365                0.967222467     -126.189922
9.366                0.967160005     -126.428785
9.367                0.967097628     -126.668142
9.368                0.967035338     -126.907991
9.369                0.966973138     -127.148331
9.37                  0.96691103     -127.389163
9.371                0.966849017     -127.630486
9.372                0.966787101     -127.872299
9.373                0.966725285     -128.114601
9.374                0.966663571     -128.357392
9.375                0.966601963     -128.600672
9.376                0.966540463     -128.844439
9.377                0.966479073     -129.088693
9.378                0.966417797     -129.333434
9.379                0.966356636      -129.57866
9.38                 0.966295593      -129.82437
9.381                0.966234672     -130.070565
9.382                0.966173875     -130.317243
9.383                0.966113204     -130.564403
9.384                0.966052663     -130.812045
9.385                0.965992254     -131.060167
9.386                 0.96593198      -131.30877
9.387                0.965871843     -131.557851
9.388                0.965811847     -131.807411
9.389                0.965751994     -132.057447
9.39                 0.965692287      -132.30796
9.391                0.965632729     -132.558948
9.392                0.965573323      -132.81041
9.393                0.965514071     -133.062346
9.394                0.965454977     -133.314753
9.395                0.965396043     -133.567632
9.396                0.965337272      -133.82098
