! TOUCHSTONE file generated by CST DESIGN STUDIO
! Date and time: Tue Feb  4 17:25:04 2025
! Project name: C:\Work\MatlabApps\UnitCellOptimizationMatlab\CST\unitcell.cst
! Tree item: Tasks\Sweep1\SPara1\S-Parameters
! Header version: 2024
! Port assignment regex: !\s*Touchstone port\s*([0-9]+)\s*=\s*(CST MWS port|CST DES external port|CST DES block port)\s*(.+)\s* \(\"(.*)\"\)(\s*mode\s*([0-9]+))?.*
! Touchstone port assignment:
! Touchstone port 1 = CST DES external port 1 ("")
# GHz S MA R 50
9                    0.949020974     -83.7115438
9.001                0.948882073     -83.8510865
9.002                 0.94874276     -83.9909991
9.003                0.948603034     -84.1312826
9.004                0.948462896     -84.2719382
9.005                0.948322344      -84.412967
9.006                0.948181378       -84.55437
9.007                0.948039998     -84.6961484
9.008                0.947898203     -84.8383033
9.009                0.947755992     -84.9808358
9.01                 0.947613365     -85.1237469
9.011                0.947470322     -85.2670379
9.012                0.947326861     -85.4107097
9.013                0.947182983     -85.5547636
9.014                0.947038687     -85.6992006
9.015                0.946893972     -85.8440219
9.016                0.946748839     -85.9892285
9.017                0.946603286     -86.1348216
9.018                0.946457313     -86.2808023
9.019                0.946310921     -86.4271717
9.02                 0.946164107     -86.5739309
9.021                0.946016873     -86.7210811
9.022                0.945869218     -86.8686233
9.023                0.945721141     -87.0165588
9.024                0.945572642     -87.1648886
9.025                0.945423721     -87.3136138
9.026                0.945274377     -87.4627356
9.027                 0.94512461     -87.6122551
9.028                0.944974421     -87.7621735
9.029                0.944823807     -87.9124918
9.03                  0.94467277     -88.0632112
9.031                0.944521309     -88.2143328
9.032                0.944369424     -88.3658578
9.033                0.944217115     -88.5177872
9.034                0.944064381     -88.6701223
9.035                0.943911222     -88.8228641
9.036                0.943757638     -88.9760138
9.037                 0.94360363     -89.1295726
9.038                0.943449196     -89.2835414
9.039                0.943294337     -89.4379216
9.04                 0.943139052     -89.5927142
9.041                0.942983342     -89.7479204
9.042                0.942827206     -89.9035413
9.043                0.942670645      -90.059578
9.044                0.942513658     -90.2160316
9.045                0.942356246     -90.3729034
9.046                0.942198408     -90.5301944
9.047                0.942040144     -90.6879059
9.048                0.941881455     -90.8460388
9.049                 0.94172234     -91.0045944
9.05                   0.9415628     -91.1635738
9.051                0.941402835     -91.3229781
9.052                0.941242445     -91.4828085
9.053                0.941081629     -91.6430661
9.054                0.940920389     -91.8037521
9.055                0.940758723     -91.9648675
9.056                0.940596634     -92.1264135
9.057                 0.94043412     -92.2883913
9.058                0.940271182      -92.450802
9.059                 0.94010782     -92.6136467
9.06                 0.939944035     -92.7769266
9.061                0.939779827     -92.9406427
9.062                0.939615196     -93.1047963
9.063                0.939450142     -93.2693884
9.064                0.939284666     -93.4344202
9.065                0.939118769     -93.5998928
9.066                 0.93895245     -93.7658073
9.067                 0.93878571     -93.9321649
9.068                 0.93861855     -94.0989667
9.069                 0.93845097     -94.2662138
9.07                 0.938282971     -94.4339074
9.071                0.938114553     -94.6020485
9.072                0.937945717     -94.7706383
9.073                0.937776462      -94.939678
9.074                0.937606791     -95.1091685
9.075                0.937436704     -95.2791111
9.076                  0.9372662     -95.4495068
9.077                0.937095282     -95.6203568
9.078                0.936923949     -95.7916622
9.079                0.936752203     -95.9634241
9.08                 0.936580044     -96.1356436
9.081                0.936407473     -96.3083218
9.082                 0.93623449     -96.4814598
9.083                0.936061098     -96.6550587
9.084                0.935887296     -96.8291196
9.085                0.935713085     -97.0036437
9.086                0.935538467     -97.1786319
9.087                0.935363442     -97.3540854
9.088                0.935188012     -97.5300053
9.089                0.935012177     -97.7063927
9.09                 0.934835938     -97.8832487
9.091                0.934659297     -98.0605742
9.092                0.934482255     -98.2383705
9.093                0.934304813     -98.4166386
9.094                0.934126971     -98.5953795
9.095                0.933948732     -98.7745944
9.096                0.933770097     -98.9542843
9.097                0.933591066     -99.1344502
9.098                0.933411641     -99.3150933
9.099                0.933231824     -99.4962145
9.1                  0.933051615      -99.677815
9.101                0.932871017     -99.8598957
9.102                0.932690031     -100.042458
9.103                0.932508657     -100.225502
9.104                0.932326899      -100.40903
9.105                0.932144756     -100.593042
9.106                0.931962232      -100.77754
9.107                0.931779327     -100.962524
9.108                0.931596043     -101.147996
9.109                0.931412382     -101.333956
9.11                 0.931228345     -101.520406
9.111                0.931043935     -101.707346
9.112                0.930859152     -101.894778
9.113                   0.930674     -102.082702
9.114                0.930488479      -102.27112
9.115                0.930302593     -102.460033
9.116                0.930116342     -102.649441
9.117                0.929929728     -102.839345
9.118                0.929742755     -103.029747
9.119                0.929555423     -103.220647
9.12                 0.929367735     -103.412047
9.121                0.929179693     -103.603947
9.122                0.928991299     -103.796348
9.123                0.928802556     -103.989252
9.124                0.928613466     -104.182658
9.125                0.928424031     -104.376569
9.126                0.928234253     -104.570984
9.127                0.928044135     -104.765906
9.128                0.927853679     -104.961334
9.129                0.927662888     -105.157271
9.13                 0.927471765     -105.353715
9.131                0.927280311      -105.55067
9.132                0.927088529     -105.748134
9.133                0.926896423      -105.94611
9.134                0.926703995     -106.144599
9.135                0.926511247       -106.3436
9.136                0.926318183     -106.543115
9.137                0.926124805     -106.743144
9.138                0.925931116      -106.94369
9.139                0.925737119     -107.144751
9.14                 0.925542817      -107.34633
9.141                0.925348213     -107.548427
9.142                 0.92515331     -107.751043
9.143                0.924958112     -107.954178
9.144                 0.92476262     -108.157834
9.145                 0.92456684     -108.362011
9.146                0.924370773     -108.566709
9.147                0.924174423     -108.771931
9.148                0.923977794     -108.977676
9.149                0.923780889     -109.183945
9.15                 0.923583711     -109.390739
9.151                0.923386264     -109.598059
9.152                0.923188551     -109.805905
9.153                0.922990577     -110.014279
9.154                0.922792344      -110.22318
9.155                0.922593856     -110.432609
9.156                0.922395118     -110.642568
9.157                0.922196132     -110.853057
9.158                0.921996903     -111.064076
9.159                0.921797435     -111.275626
9.16                 0.921597732     -111.487708
9.161                0.921397797     -111.700322
9.162                0.921197635     -111.913469
9.163                 0.92099725      -112.12715
9.164                0.920796645     -112.341365
9.165                0.920595826     -112.556114
9.166                0.920394797     -112.771399
9.167                0.920193561      -112.98722
9.168                0.919992123     -113.203577
9.169                0.919790489     -113.420471
9.17                 0.919588661     -113.637903
9.171                0.919386645     -113.855872
9.172                0.919184445      -114.07438
9.173                0.918982066     -114.293427
9.174                0.918779513     -114.513013
9.175                 0.91857679     -114.733139
9.176                0.918373902     -114.953805
9.177                0.918170855     -115.175012
9.178                0.917967652      -115.39676
9.179                  0.9177643     -115.619049
9.18                 0.917560802     -115.841881
9.181                0.917357165     -116.065254
9.182                0.917153393      -116.28917
9.183                0.916949492     -116.513629
9.184                0.916745466     -116.738631
9.185                0.916541321     -116.964177
9.186                0.916337063     -117.190267
9.187                0.916132697     -117.416901
9.188                0.915928228     -117.644079
9.189                0.915723663     -117.871802
9.19                 0.915519005     -118.100069
9.191                0.915314263     -118.328882
9.192                 0.91510944      -118.55824
9.193                0.914904542     -118.788144
9.194                0.914699577     -119.018593
9.195                0.914494549     -119.249588
9.196                0.914289464     -119.481129
9.197                0.914084329     -119.713215
9.198                 0.91387915     -119.945849
9.199                0.913673932     -120.179028
9.2                  0.913468682     -120.412753
9.201                0.913263406     -120.647025
9.202                 0.91305811     -120.881844
9.203                0.912852801     -121.117208
9.204                0.912647486      -121.35312
9.205                 0.91244217     -121.589577
9.206                 0.91223686     -121.826581
9.207                0.912031563     -122.064131
9.208                0.911826286     -122.302227
9.209                0.911621035      -122.54087
9.21                 0.911415816     -122.780058
9.211                0.911210638     -123.019792
9.212                0.911005506     -123.260072
9.213                0.910800427     -123.500897
9.214                0.910595409     -123.742268
9.215                0.910390459     -123.984183
9.216                0.910185583     -124.226644
9.217                0.909980789     -124.469649
9.218                0.909776085     -124.713198
9.219                0.909571476     -124.957292
9.22                 0.909366972     -125.201929
9.221                0.909162578      -125.44711
9.222                0.908958303     -125.692833
9.223                0.908754154     -125.939099
9.224                0.908550138     -126.185908
9.225                0.908346264     -126.433258
9.226                0.908142539      -126.68115
9.227                 0.90793897     -126.929582
9.228                0.907735565     -127.178555
9.229                0.907532333     -127.428068
9.23                 0.907329281      -127.67812
9.231                0.907126416     -127.928711
9.232                0.906923748      -128.17984
9.233                0.906721283     -128.431506
9.234                0.906519031      -128.68371
9.235                0.906316999      -128.93645
9.236                0.906115195     -129.189725
9.237                0.905913628     -129.443536
9.238                0.905712306     -129.697881
9.239                0.905511238     -129.952759
9.24                 0.905310431      -130.20817
9.241                0.905109894     -130.464113
9.242                0.904909635     -130.720587
9.243                0.904709664     -130.977591
9.244                0.904509989     -131.235125
9.245                0.904310618     -131.493187
9.246                 0.90411156     -131.751777
9.247                0.903912824     -132.010893
9.248                0.903714419     -132.270535
9.249                0.903516352     -132.530702
9.25                 0.903318635     -132.791392
9.251                0.903121274     -133.052606
9.252                0.902924279      -133.31434
9.253                 0.90272766     -133.576595
9.254                0.902531425     -133.839369
9.255                0.902335582     -134.102662
9.256                0.902140143     -134.366472
9.257                0.901945114     -134.630797
9.258                0.901750507     -134.895637
9.259                0.901556329      -135.16099
9.26                  0.90136259     -135.426856
9.261                  0.9011693     -135.693232
9.262                0.900976468     -135.960117
9.263                0.900784103      -136.22751
9.264                0.900592214     -136.495411
9.265                0.900400812     -136.763816
9.266                0.900209905     -137.032725
9.267                0.900019503     -137.302137
9.268                0.899829615     -137.572049
9.269                0.899640252      -137.84246
9.27                 0.899451423      -138.11337
9.271                0.899263137     -138.384775
9.272                0.899075404     -138.656675
9.273                0.898888234     -138.929068
9.274                0.898701636     -139.201952
9.275                 0.89851562     -139.475326
9.276                0.898330196     -139.749187
9.277                0.898145374     -140.023534
9.278                0.897961164     -140.298366
9.279                0.897777575      -140.57368
9.28                 0.897594617     -140.849475
9.281                  0.8974123     -141.125749
9.282                0.897230634     -141.402499
9.283                0.897049628     -141.679724
9.284                0.896869294     -141.957423
9.285                 0.89668964     -142.235592
9.286                0.896510677      -142.51423
9.287                0.896332414     -142.793335
9.288                0.896154861     -143.072905
9.289                 0.89597803     -143.352938
9.29                 0.895801928     -143.633431
9.291                0.895626567     -143.914383
9.292                0.895451957     -144.195791
9.293                0.895278107     -144.477654
9.294                0.895105027     -144.759968
9.295                0.894932728     -145.042731
9.296                0.894761219     -145.325942
9.297                 0.89459051     -145.609598
9.298                0.894420612     -145.893696
9.299                0.894251535     -146.178234
9.3                  0.894083288      -146.46321
9.301                0.893915881     -146.748622
9.302                0.893749325     -147.034466
9.303                0.893583629      -147.32074
9.304                0.893418803     -147.607442
9.305                0.893254858      -147.89457
9.306                0.893091803      -148.18212
9.307                0.892929648      -148.47009
9.308                0.892768404     -148.758477
9.309                0.892608079     -149.047278
9.31                 0.892448684     -149.336492
9.311                0.892290229     -149.626115
9.312                0.892132724     -149.916144
9.313                0.891976178     -150.206576
9.314                0.891820602      -150.49741
9.315                0.891666004     -150.788641
9.316                0.891512395     -151.080268
9.317                0.891359785     -151.372286
9.318                0.891208183     -151.664693
9.319                0.891057599     -151.957487
9.32                 0.890908042     -152.250664
9.321                0.890759522     -152.544221
9.322                 0.89061205     -152.838155
9.323                0.890465633     -153.132463
9.324                0.890320282     -153.427142
9.325                0.890176006     -153.722188
9.326                0.890032815       -154.0176
9.327                0.889890718     -154.313372
9.328                0.889749724     -154.609503
9.329                0.889609842     -154.905988
9.33                 0.889471083     -155.202826
9.331                0.889333454     -155.500011
9.332                0.889196966     -155.797542
9.333                0.889061627     -156.095414
9.334                0.888927446     -156.393624
9.335                0.888794433     -156.692169
9.336                0.888662595     -156.991046
9.337                0.888531943      -157.29025
9.338                0.888402485     -157.589779
9.339                0.888274229     -157.889629
9.34                 0.888147185     -158.189796
9.341                0.888021361     -158.490278
9.342                0.887896765     -158.791069
9.343                0.887773406     -159.092167
9.344                0.887651293     -159.393568
9.345                0.887530434     -159.695268
9.346                0.887410837     -159.997264
9.347                 0.88729251     -160.299551
9.348                0.887175462     -160.602127
9.349                0.887059701     -160.904988
9.35                 0.886945234     -161.208128
9.351                 0.88683207     -161.511546
9.352                0.886720216     -161.815237
9.353                0.886609681     -162.119197
9.354                0.886500471     -162.423422
9.355                0.886392595     -162.727909
9.356                 0.88628606     -163.032653
9.357                0.886180874      -163.33765
9.358                0.886077043     -163.642897
9.359                0.885974576      -163.94839
9.36                 0.885873479     -164.254124
9.361                0.885773759     -164.560096
9.362                0.885675423     -164.866301
9.363                0.885578479     -165.172736
9.364                0.885482933     -165.479396
9.365                0.885388792     -165.786278
9.366                0.885296062     -166.093376
9.367                0.885204751     -166.400688
9.368                0.885114863     -166.708208
9.369                0.885026406     -167.015933
9.37                 0.884939387     -167.323859
9.371                 0.88485381     -167.631981
9.372                0.884769682     -167.940295
9.373                0.884687009     -168.248796
9.374                0.884605797     -168.557482
9.375                0.884526051     -168.866346
9.376                0.884447777     -169.175386
9.377                0.884370981     -169.484596
9.378                0.884295668     -169.793973
9.379                0.884221843     -170.103511
9.38                 0.884149511     -170.413207
9.381                0.884078677     -170.723057
9.382                0.884009346     -171.033055
9.383                0.883941524     -171.343198
9.384                0.883875214     -171.653482
9.385                0.883810421       -171.9639
9.386                 0.88374715     -172.274451
9.387                0.883685406     -172.585128
9.388                0.883625191     -172.895927
9.389                 0.88356651     -173.206844
9.39                 0.883509368     -173.517875
9.391                0.883453768     -173.829015
9.392                0.883399714     -174.140259
9.393                 0.88334721     -174.451603
9.394                0.883296258     -174.763043
9.395                0.883246862     -175.074574
9.396                0.883199026     -175.386191
