! TOUCHSTONE file generated by CST DESIGN STUDIO
! Date and time: Tue Feb  4 17:25:17 2025
! Project name: C:\Work\MatlabApps\UnitCellOptimizationMatlab\CST\unitcell.cst
! Tree item: Tasks\Sweep1\SPara1\S-Parameters
! Header version: 2024
! Port assignment regex: !\s*Touchstone port\s*([0-9]+)\s*=\s*(CST MWS port|CST DES external port|CST DES block port)\s*(.+)\s* \(\"(.*)\"\)(\s*mode\s*([0-9]+))?.*
! Touchstone port assignment:
! Touchstone port 1 = CST DES external port 1 ("")
# GHz S MA R 50
9                     0.96181931     -55.9485197
9.001                0.961742477     -56.0225986
9.002                 0.96166541      -56.096843
9.003                0.961588108     -56.1712533
9.004                 0.96151057     -56.2458303
9.005                0.961432795     -56.3205742
9.006                0.961354782     -56.3954857
9.007                0.961276532     -56.4705654
9.008                0.961198042     -56.5458136
9.009                0.961119312      -56.621231
9.01                 0.961040342     -56.6968181
9.011                 0.96096113     -56.7725753
9.012                0.960881675     -56.8485034
9.013                0.960801978     -56.9246027
9.014                0.960722036     -57.0008738
9.015                 0.96064185     -57.0773173
9.016                0.960561418     -57.1539337
9.017                0.960480739     -57.2307235
9.018                0.960399813     -57.3076874
9.019                0.960318639     -57.3848257
9.02                 0.960237217     -57.4621392
9.021                0.960155544     -57.5396283
9.022                 0.96007362     -57.6172936
9.023                0.959991446     -57.6951356
9.024                0.959909018      -57.773155
9.025                0.959826338     -57.8513522
9.026                0.959743404     -57.9297278
9.027                0.959660214     -58.0082825
9.028                0.959576769     -58.0870167
9.029                0.959493067      -58.165931
9.03                 0.959409108      -58.245026
9.031                0.959324891     -58.3243023
9.032                0.959240414     -58.4037605
9.033                0.959155678      -58.483401
9.034                 0.95907068     -58.5632246
9.035                0.958985421     -58.6432317
9.036                0.958899898      -58.723423
9.037                0.958814113      -58.803799
9.038                0.958728063     -58.8843604
9.039                0.958641747     -58.9651076
9.04                 0.958555166     -59.0460414
9.041                0.958468317     -59.1271623
9.042                0.958381201     -59.2084709
9.043                0.958293815     -59.2899678
9.044                 0.95820616     -59.3716535
9.045                0.958118234     -59.4535288
9.046                0.958030037     -59.5355941
9.047                0.957941567     -59.6178502
9.048                0.957852824     -59.7002976
9.049                0.957763806     -59.7829369
9.05                 0.957674514     -59.8657687
9.051                0.957584945     -59.9487937
9.052                0.957495099     -60.0320124
9.053                0.957404976     -60.1154255
9.054                0.957314574     -60.1990336
9.055                0.957223892     -60.2828374
9.056                0.957132929     -60.3668374
9.057                0.957041684     -60.4510342
9.058                0.956950158     -60.5354286
9.059                0.956858347     -60.6200211
9.06                 0.956766253     -60.7048124
9.061                0.956673873     -60.7898031
9.062                0.956581207     -60.8749939
9.063                0.956488253     -60.9603853
9.064                0.956395012     -61.0459781
9.065                0.956301482     -61.1317728
9.066                0.956207661     -61.2177702
9.067                 0.95611355     -61.3039709
9.068                0.956019147     -61.3903754
9.069                 0.95592445     -61.4769846
9.07                 0.955829461      -61.563799
9.071                0.955734176     -61.6508193
9.072                0.955638596     -61.7380462
9.073                0.955542718     -61.8254803
9.074                0.955446544     -61.9131222
9.075                0.955350071     -62.0009728
9.076                0.955253298     -62.0890326
9.077                0.955156225     -62.1773022
9.078                 0.95505885     -62.2657825
9.079                0.954961173      -62.354474
9.08                 0.954863192     -62.4433775
9.081                0.954764907     -62.5324935
9.082                0.954666316     -62.6218229
9.083                0.954567419     -62.7113663
9.084                0.954468215     -62.8011243
9.085                0.954368703     -62.8910978
9.086                0.954268881     -62.9812873
9.087                0.954168749     -63.0716935
9.088                0.954068305     -63.1623173
9.089                 0.95396755     -63.2531592
9.09                 0.953866481       -63.34422
9.091                0.953765097     -63.4355003
9.092                0.953663399      -63.527001
9.093                0.953561384     -63.6187226
9.094                0.953459052      -63.710666
9.095                0.953356402     -63.8028318
9.096                0.953253432     -63.8952208
9.097                0.953150142     -63.9878336
9.098                0.953046531      -64.080671
9.099                0.952942598     -64.1737338
9.1                  0.952838341     -64.2670226
9.101                 0.95273376     -64.3605382
9.102                0.952628853     -64.4542813
9.103                0.952523621     -64.5482527
9.104                 0.95241806     -64.6424531
9.105                0.952312172     -64.7368832
9.106                0.952205954     -64.8315438
9.107                0.952099406     -64.9264356
9.108                0.951992526     -65.0215595
9.109                0.951885314      -65.116916
9.11                 0.951777768      -65.212506
9.111                0.951669888     -65.3083303
9.112                0.951561672     -65.4043896
9.113                 0.95145312     -65.5006846
9.114                 0.95134423     -65.5972162
9.115                0.951235001      -65.693985
9.116                0.951125433      -65.790992
9.117                0.951015524     -65.8882378
9.118                0.950905273     -65.9857232
9.119                 0.95079468     -66.0834489
9.12                 0.950683742     -66.1814159
9.121                 0.95057246     -66.2796248
9.122                0.950460832     -66.3780765
9.123                0.950348857     -66.4767717
9.124                0.950236534     -66.5757112
9.125                0.950123862     -66.6748958
9.126                 0.95001084     -66.7743264
9.127                0.949897467     -66.8740036
9.128                0.949783741     -66.9739284
9.129                0.949669663     -67.0741015
9.13                  0.94955523     -67.1745237
9.131                0.949440442     -67.2751959
9.132                0.949325297     -67.3761188
9.133                0.949209796     -67.4772932
9.134                0.949093935       -67.57872
9.135                0.948977716     -67.6804001
9.136                0.948861135     -67.7823341
9.137                0.948744193      -67.884523
9.138                0.948626889     -67.9869676
9.139                0.948509221     -68.0896687
9.14                 0.948391188     -68.1926271
9.141                0.948272789     -68.2958437
9.142                0.948154023     -68.3993193
9.143                 0.94803489     -68.5030548
9.144                0.947915387      -68.607051
9.145                0.947795514     -68.7113087
9.146                0.947675271     -68.8158288
9.147                0.947554655     -68.9206122
9.148                0.947433666     -69.0256597
9.149                0.947312303     -69.1309722
9.15                 0.947190565     -69.2365504
9.151                 0.94706845     -69.3423954
9.152                0.946945958      -69.448508
9.153                0.946823088     -69.5548889
9.154                0.946699838     -69.6615392
9.155                0.946576207     -69.7684596
9.156                0.946452195     -69.8756511
9.157                  0.9463278     -69.9831145
9.158                0.946203022     -70.0908508
9.159                0.946077859     -70.1988607
9.16                  0.94595231     -70.3071452
9.161                0.945826374     -70.4157052
9.162                 0.94570005     -70.5245416
9.163                0.945573338     -70.6336552
9.164                0.945446235     -70.7430471
9.165                0.945318742      -70.852718
9.166                0.945190856     -70.9626688
9.167                0.945062578     -71.0729006
9.168                0.944933905     -71.1834142
9.169                0.944804837     -71.2942104
9.17                 0.944675373     -71.4052903
9.171                0.944545511     -71.5166548
9.172                0.944415252     -71.6283047
9.173                0.944284593      -71.740241
9.174                0.944153534     -71.8524646
9.175                0.944022073     -71.9649765
9.176                 0.94389021     -72.0777775
9.177                0.943757944     -72.1908687
9.178                0.943625273     -72.3042509
9.179                0.943492197     -72.4179252
9.18                 0.943358714     -72.5318923
9.181                0.943224824     -72.6461534
9.182                0.943090525     -72.7607093
9.183                0.942955816      -72.875561
9.184                0.942820698     -72.9907094
9.185                0.942685167     -73.1061556
9.186                0.942549224     -73.2219004
9.187                0.942412868     -73.3379448
9.188                0.942276097     -73.4542899
9.189                0.942138911     -73.5709365
9.19                 0.942001308     -73.6878856
9.191                0.941863287     -73.8051382
9.192                0.941724848     -73.9226954
9.193                 0.94158599      -74.040558
9.194                0.941446711      -74.158727
9.195                 0.94130701     -74.2772035
9.196                0.941166888     -74.3959884
9.197                0.941026341     -74.5150827
9.198                0.940885371     -74.6344875
9.199                0.940743975     -74.7542036
9.2                  0.940602153     -74.8742321
9.201                0.940459904     -74.9945741
9.202                0.940317226     -75.1152304
9.203                 0.94017412     -75.2362022
9.204                0.940030583     -75.3574904
9.205                0.939886616      -75.479096
9.206                0.939742216     -75.6010201
9.207                0.939597384     -75.7232637
9.208                0.939452118     -75.8458278
9.209                0.939306417     -75.9687134
9.21                 0.939160281     -76.0919215
9.211                0.939013708     -76.2154532
9.212                0.938866698     -76.3393095
9.213                0.938719249     -76.4634915
9.214                0.938571361     -76.5880001
9.215                0.938423034     -76.7128364
9.216                0.938274265     -76.8380015
9.217                0.938125054     -76.9634964
9.218                0.937975401     -77.0893222
9.219                0.937825304     -77.2154798
9.22                 0.937674763     -77.3419704
9.221                0.937523777      -77.468795
9.222                0.937372344     -77.5959547
9.223                0.937220465     -77.7234505
9.224                0.937068138     -77.8512835
9.225                0.936915362     -77.9794547
9.226                0.936762137     -78.1079652
9.227                0.936608462     -78.2368162
9.228                0.936454336     -78.3660086
9.229                0.936299758     -78.4955435
9.23                 0.936144727     -78.6254221
9.231                0.935989243     -78.7556454
9.232                0.935833306     -78.8862144
9.233                0.935676913     -79.0171303
9.234                0.935520064     -79.1483941
9.235                 0.93536276      -79.280007
9.236                0.935204998     -79.4119701
9.237                0.935046778     -79.5442843
9.238                  0.9348881     -79.6769509
9.239                0.934728963     -79.8099709
9.24                 0.934569366     -79.9433454
9.241                0.934409308     -80.0770756
9.242                0.934248789     -80.2111625
9.243                0.934087808     -80.3456073
9.244                0.933926364      -80.480411
9.245                0.933764457     -80.6155748
9.246                0.933602086     -80.7510997
9.247                0.933439251      -80.886987
9.248                0.933275951     -81.0232377
9.249                0.933112185      -81.159853
9.25                 0.932947952     -81.2968339
9.251                0.932783253     -81.4341816
9.252                0.932618086     -81.5718972
9.253                0.932452451     -81.7099819
9.254                0.932286347     -81.8484368
9.255                0.932119774      -81.987263
9.256                0.931952732     -82.1264617
9.257                 0.93178522      -82.266034
9.258                0.931617236      -82.405981
9.259                0.931448782     -82.5463039
9.26                 0.931279856     -82.6870039
9.261                0.931110458      -82.828082
9.262                0.930940587     -82.9695394
9.263                0.930770244     -83.1113773
9.264                0.930599427     -83.2535969
9.265                0.930428136     -83.3961992
9.266                0.930256371     -83.5391855
9.267                0.930084132     -83.6825568
9.268                0.929911417     -83.8263144
9.269                0.929738228     -83.9704595
9.27                 0.929564562     -84.1149931
9.271                0.929390421     -84.2599164
9.272                0.929215804     -84.4052307
9.273                 0.92904071     -84.5509371
9.274                0.928865139     -84.6970366
9.275                0.928689091     -84.8435307
9.276                0.928512566     -84.9904203
9.277                0.928335564     -85.1377067
9.278                0.928158084      -85.285391
9.279                0.927980125     -85.4334744
9.28                 0.927801689     -85.5819581
9.281                0.927622775     -85.7308434
9.282                0.927443382     -85.8801312
9.283                0.927263511     -86.0298229
9.284                0.927083161     -86.1799197
9.285                0.926902333     -86.3304226
9.286                0.926721026     -86.4813329
9.287                 0.92653924     -86.6326518
9.288                0.926356976     -86.7843805
9.289                0.926174232     -86.9365202
9.29                  0.92599101     -87.0890719
9.291                 0.92580731     -87.2420371
9.292                 0.92562313     -87.3954167
9.293                0.925438473     -87.5492121
9.294                0.925253336     -87.7034244
9.295                0.925067722     -87.8580548
9.296                0.924881629     -88.0131045
9.297                0.924695058     -88.1685747
9.298                0.924508009     -88.3244666
9.299                0.924320483     -88.4807814
9.3                  0.924132479     -88.6375203
9.301                0.923943998     -88.7946845
9.302                 0.92375504     -88.9522752
9.303                0.923565606     -89.1102935
9.304                0.923375695     -89.2687408
9.305                0.923185309     -89.4276181
9.306                0.922994447     -89.5869267
9.307                 0.92280311     -89.7466679
9.308                0.922611298     -89.9068427
9.309                0.922419012     -90.0674524
9.31                 0.922226252     -90.2284982
9.311                0.922033019     -90.3899813
9.312                0.921839314     -90.5519029
9.313                0.921645136     -90.7142641
9.314                0.921450486     -90.8770663
9.315                0.921255366     -91.0403106
9.316                0.921059775     -91.2039981
9.317                0.920863714     -91.3681302
9.318                0.920667184     -91.5327079
9.319                0.920470187     -91.6977326
9.32                 0.920272721     -91.8632053
9.321                0.920074789     -92.0291273
9.322                0.919876391     -92.1954999
9.323                0.919677527     -92.3623241
9.324                  0.9194782     -92.5296011
9.325                0.919278409     -92.6973323
9.326                0.919078156     -92.8655187
9.327                0.918877441     -93.0341616
9.328                0.918676266     -93.2032621
9.329                0.918474631     -93.3728215
9.33                 0.918272538     -93.5428409
9.331                0.918069987     -93.7133215
9.332                0.917866981     -93.8842646
9.333                0.917663519     -94.0556712
9.334                0.917459604     -94.2275426
9.335                0.917255235       -94.39988
9.336                0.917050416     -94.5726845
9.337                0.916845146     -94.7459574
9.338                0.916639428     -94.9196998
9.339                0.916433262     -95.0939128
9.34                  0.91622665     -95.2685977
9.341                0.916019594     -95.4437556
9.342                0.915812094     -95.6193877
9.343                0.915604153     -95.7954952
9.344                0.915395772     -95.9720792
9.345                0.915186952     -96.1491409
9.346                0.914977695     -96.3266814
9.347                0.914768003      -96.504702
9.348                0.914557878     -96.6832037
9.349                0.914347321     -96.8621878
9.35                 0.914136333     -97.0416553
9.351                0.913924918     -97.2216075
9.352                0.913713076     -97.4020454
9.353                0.913500809     -97.5829702
9.354                 0.91328812     -97.7643831
9.355                0.913075011     -97.9462851
9.356                0.912861483     -98.1286775
9.357                0.912647538     -98.3115613
9.358                0.912433179     -98.4949376
9.359                0.912218408     -98.6788077
9.36                 0.912003226     -98.8631725
9.361                0.911787637     -99.0480333
9.362                0.911571642     -99.2333911
9.363                0.911355244     -99.4192471
9.364                0.911138445     -99.6056023
9.365                0.910921248     -99.7924578
9.366                0.910703654     -99.9798148
9.367                0.910485667     -100.167674
9.368                0.910267289     -100.356037
9.369                0.910048522     -100.544905
9.37                  0.90982937     -100.734279
9.371                0.909609834     -100.924159
9.372                0.909389918     -101.114547
9.373                0.909169625     -101.305445
9.374                0.908948957     -101.496852
9.375                0.908727916      -101.68877
9.376                0.908506507     -101.881201
9.377                0.908284732     -102.074144
9.378                0.908062594     -102.267602
9.379                0.907840096     -102.461575
9.38                 0.907617241     -102.656064
9.381                0.907394033      -102.85107
9.382                0.907170474     -103.046595
9.383                0.906946568     -103.242639
9.384                0.906722319     -103.439203
9.385                0.906497729     -103.636289
9.386                0.906272802     -103.833896
9.387                0.906047542     -104.032027
9.388                0.905821951     -104.230682
9.389                0.905596035     -104.429862
9.39                 0.905369796     -104.629569
9.391                0.905143238     -104.829802
9.392                0.904916365     -105.030563
9.393                 0.90468918     -105.231854
9.394                0.904461688     -105.433674
9.395                0.904233893     -105.636025
9.396                0.904005797     -105.838907
