! TOUCHSTONE file generated by CST DESIGN STUDIO
! Date and time: Tue Feb  4 17:25:06 2025
! Project name: C:\Work\MatlabApps\UnitCellOptimizationMatlab\CST\unitcell.cst
! Tree item: Tasks\Sweep1\SPara1\S-Parameters
! Header version: 2024
! Port assignment regex: !\s*Touchstone port\s*([0-9]+)\s*=\s*(CST MWS port|CST DES external port|CST DES block port)\s*(.+)\s* \(\"(.*)\"\)(\s*mode\s*([0-9]+))?.*
! Touchstone port assignment:
! Touchstone port 1 = CST DES external port 1 ("")
# GHz S MA R 50
9                    0.950578835     -79.9420668
9.001                0.950447286     -80.0716237
9.002                0.950315337     -80.2015198
9.003                0.950182987     -80.3317562
9.004                0.950050236      -80.462334
9.005                0.949917083     -80.5932542
9.006                0.949783527     -80.7245178
9.007                0.949649567     -80.8561258
9.008                0.949515203     -80.9880794
9.009                0.949380433     -81.1203796
9.01                 0.949245258     -81.2530274
9.011                0.949109676     -81.3860238
9.012                0.948973687     -81.5193701
9.013                 0.94883729     -81.6530671
9.014                0.948700484      -81.787116
9.015                0.948563269     -81.9215178
9.016                0.948425643     -82.0562736
9.017                0.948287607     -82.1913844
9.018                0.948149159     -82.3268514
9.019                0.948010299     -82.4626756
9.02                 0.947871026     -82.5988581
9.021                 0.94773134     -82.7353999
9.022                 0.94759124     -82.8723021
9.023                0.947450725     -83.0095659
9.024                0.947309794     -83.1471922
9.025                0.947168448     -83.2851822
9.026                0.947026685     -83.4235369
9.027                0.946884505     -83.5622575
9.028                0.946741907      -83.701345
9.029                0.946598891     -83.8408005
9.03                 0.946455456     -83.9806251
9.031                0.946311602     -84.1208199
9.032                0.946167328      -84.261386
9.033                0.946022633     -84.4023245
9.034                0.945877517     -84.5436365
9.035                0.945731979      -84.685323
9.036                 0.94558602     -84.8273853
9.037                0.945439637     -84.9698243
9.038                0.945292832     -85.1126412
9.039                0.945145604     -85.2558371
9.04                 0.944997951     -85.3994131
9.041                0.944849874     -85.5433703
9.042                0.944701372     -85.6877098
9.043                0.944552445     -85.8324328
9.044                0.944403092     -85.9775403
9.045                0.944253313     -86.1230334
9.046                0.944103108     -86.2689133
9.047                0.943952476     -86.4151811
9.048                0.943801416     -86.5618379
9.049                 0.94364993     -86.7088847
9.05                 0.943498015     -86.8563229
9.051                0.943345672     -87.0041533
9.052                  0.9431929     -87.1523773
9.053                  0.9430397     -87.3009958
9.054                0.942886071     -87.4500101
9.055                0.942732012     -87.5994212
9.056                0.942577524     -87.7492302
9.057                0.942422606     -87.8994384
9.058                0.942267258     -88.0500467
9.059                 0.94211148     -88.2010564
9.06                 0.941955272     -88.3524686
9.061                0.941798632     -88.5042844
9.062                0.941641563     -88.6565049
9.063                0.941484062     -88.8091312
9.064                 0.94132613     -88.9621646
9.065                0.941167767      -89.115606
9.066                0.941008973     -89.2694567
9.067                0.940849748     -89.4237178
9.068                0.940690091     -89.5783904
9.069                0.940530003     -89.7334757
9.07                 0.940369484     -89.8889747
9.071                0.940208534     -90.0448886
9.072                0.940047151     -90.2012186
9.073                0.939885338     -90.3579658
9.074                0.939723094     -90.5151312
9.075                0.939560418     -90.6727162
9.076                0.939397311     -90.8307216
9.077                0.939233773     -90.9891488
9.078                0.939069804     -91.1479989
9.079                0.938905405     -91.3072729
9.08                 0.938740575      -91.466972
9.081                0.938575314     -91.6270974
9.082                0.938409624     -91.7876502
9.083                0.938243504     -91.9486314
9.084                0.938076954     -92.1100423
9.085                0.937909974      -92.271884
9.086                0.937742566     -92.4341576
9.087                0.937574729     -92.5968642
9.088                0.937406463      -92.760005
9.089                 0.93723777      -92.923581
9.09                 0.937068648     -93.0875935
9.091                  0.9368991     -93.2520435
9.092                0.936729125     -93.4169322
9.093                0.936558723     -93.5822608
9.094                0.936387896     -93.7480302
9.095                0.936216643     -93.9142417
9.096                0.936044965     -94.0808963
9.097                0.935872863     -94.2479953
9.098                0.935700337     -94.4155396
9.099                0.935527389     -94.5835305
9.1                  0.935354018     -94.7519691
9.101                0.935180225     -94.9208564
9.102                 0.93500601     -95.0901936
9.103                0.934831376     -95.2599818
9.104                0.934656322      -95.430222
9.105                0.934480849     -95.6009156
9.106                0.934304957     -95.7720634
9.107                0.934128649     -95.9436666
9.108                0.933951924     -96.1157264
9.109                0.933774783     -96.2882439
9.11                 0.933597228       -96.46122
9.111                0.933419259      -96.634656
9.112                0.933240878     -96.8085529
9.113                0.933062084     -96.9829119
9.114                 0.93288288      -97.157734
9.115                0.932703266     -97.3330202
9.116                0.932523243     -97.5087718
9.117                0.932342813     -97.6849897
9.118                0.932161976     -97.8616751
9.119                0.931980735      -98.038829
9.12                 0.931799089     -98.2164525
9.121                 0.93161704     -98.3945467
9.122                 0.93143459     -98.5731126
9.123                 0.93125174     -98.7521514
9.124                0.931068491      -98.931664
9.125                0.930884844     -99.1116515
9.126                0.930700801     -99.2921151
9.127                0.930516364     -99.4730557
9.128                0.930331533     -99.6544744
9.129                0.930146311     -99.8363722
9.13                 0.929960699      -100.01875
9.131                0.929774698     -100.201609
9.132                 0.92958831     -100.384951
9.133                0.929401536     -100.568776
9.134                 0.92921438     -100.753085
9.135                0.929026841     -100.937879
9.136                0.928838922      -101.12316
9.137                0.928650624     -101.308928
9.138                 0.92846195     -101.495184
9.139                0.928272902      -101.68193
9.14                  0.92808348     -101.869166
9.141                0.927893688     -102.056894
9.142                0.927703527     -102.245114
9.143                0.927512999     -102.433827
9.144                0.927322107     -102.623034
9.145                0.927130851     -102.812737
9.146                0.926939235     -103.002936
9.147                0.926747261     -103.193632
9.148                0.926554931     -103.384827
9.149                0.926362247      -103.57652
9.15                 0.926169211     -103.768714
9.151                0.925975826     -103.961408
9.152                0.925782094     -104.154605
9.153                0.925588018     -104.348304
9.154                  0.9253936     -104.542508
9.155                0.925198842     -104.737215
9.156                0.925003748     -104.932429
9.157                0.924808319     -105.128149
9.158                0.924612559     -105.324376
9.159                 0.92441647     -105.521112
9.16                 0.924220054     -105.718357
9.161                0.924023316     -105.916112
9.162                0.923826256     -106.114378
9.163                0.923628879     -106.313155
9.164                0.923431187     -106.512445
9.165                0.923233184     -106.712249
9.166                0.923034871     -106.912567
9.167                0.922836253       -107.1134
9.168                0.922637332     -107.314749
9.169                0.922438111     -107.516615
9.17                 0.922238594     -107.718998
9.171                0.922038785       -107.9219
9.172                0.921838685     -108.125321
9.173                0.921638299     -108.329262
9.174                 0.92143763     -108.533723
9.175                0.921236681     -108.738706
9.176                0.921035456     -108.944211
9.177                0.920833959     -109.150239
9.178                0.920632192     -109.356791
9.179                 0.92043016     -109.563867
9.18                 0.920227867     -109.771468
9.181                0.920025316     -109.979595
9.182                 0.91982251     -110.188249
9.183                0.919619455      -110.39743
9.184                0.919416152     -110.607138
9.185                0.919212608     -110.817376
9.186                0.919008825     -111.028142
9.187                0.918804808     -111.239438
9.188                 0.91860056     -111.451265
9.189                0.918396086     -111.663623
9.19                 0.918191391     -111.876512
9.191                0.917986478     -112.089934
9.192                0.917781351     -112.303888
9.193                0.917576016     -112.518376
9.194                0.917370476     -112.733398
9.195                0.917164736     -112.948955
9.196                  0.9169588     -113.165046
9.197                0.916752674     -113.381674
9.198                0.916546361     -113.598837
9.199                0.916339867     -113.816537
9.2                  0.916133196     -114.034774
9.201                0.915926353     -114.253549
9.202                0.915719343     -114.472862
9.203                0.915512171     -114.692713
9.204                0.915304842     -114.913103
9.205                 0.91509736     -115.134033
9.206                0.914889732     -115.355503
9.207                0.914681961     -115.577512
9.208                0.914474054     -115.800062
9.209                0.914266016     -116.023154
9.21                 0.914057851     -116.246786
9.211                0.913849566      -116.47096
9.212                0.913641165     -116.695676
9.213                0.913432654     -116.920934
9.214                 0.91322404     -117.146735
9.215                0.913015326     -117.373079
9.216                 0.91280652     -117.599966
9.217                0.912597627     -117.827396
9.218                0.912388652     -118.055369
9.219                0.912179601     -118.283887
9.22                 0.911970481     -118.512948
9.221                0.911761297     -118.742554
9.222                0.911552056     -118.972704
9.223                0.911342762     -119.203399
9.224                0.911133424     -119.434638
9.225                0.910924046     -119.666422
9.226                0.910714635     -119.898751
9.227                0.910505197     -120.131625
9.228                0.910295739     -120.365043
9.229                0.910086267     -120.599007
9.23                 0.909876787     -120.833516
9.231                0.909667307     -121.068571
9.232                0.909457832      -121.30417
9.233                 0.90924837     -121.540314
9.234                0.909038927     -121.777004
9.235                0.908829509     -122.014238
9.236                0.908620125     -122.252018
9.237                 0.90841078     -122.490342
9.238                0.908201482     -122.729211
9.239                0.907992237     -122.968624
9.24                 0.907783053     -123.208582
9.241                0.907573937     -123.449084
9.242                0.907364895     -123.690131
9.243                0.907155936     -123.931721
9.244                0.906947067     -124.173854
9.245                0.906738294     -124.416532
9.246                0.906529626     -124.659752
9.247                0.906321069     -124.903515
9.248                0.906112632      -125.14782
9.249                0.905904322     -125.392668
9.25                 0.905696146     -125.638057
9.251                0.905488113     -125.883988
9.252                0.905280229      -126.13046
9.253                0.905072503     -126.377473
9.254                0.904864943     -126.625025
9.255                0.904657557     -126.873118
9.256                0.904450352     -127.121749
9.257                0.904243337      -127.37092
9.258                0.904036519     -127.620628
9.259                0.903829907     -127.870874
9.26                  0.90362351     -128.121657
9.261                0.903417334     -128.372977
9.262                0.903211389     -128.624832
9.263                0.903005683     -128.877223
9.264                0.902800224     -129.130148
9.265                0.902595021     -129.383607
9.266                0.902390082     -129.637599
9.267                0.902185416     -129.892123
9.268                0.901981031     -130.147179
9.269                0.901776937     -130.402766
9.27                 0.901573141     -130.658883
9.271                0.901369652     -130.915529
9.272                 0.90116648     -131.172703
9.273                0.900963633     -131.430405
9.274                 0.90076112     -131.688633
9.275                 0.90055895     -131.947387
9.276                0.900357132     -132.206665
9.277                0.900155674     -132.466467
9.278                0.899954587     -132.726791
9.279                0.899753879     -132.987638
9.28                 0.899553559     -133.249004
9.281                0.899353637      -133.51089
9.282                0.899154121     -133.773295
9.283                0.898955022     -134.036216
9.284                0.898756347     -134.299654
9.285                0.898558108     -134.563606
9.286                0.898360312     -134.828072
9.287                 0.89816297     -135.093051
9.288                0.897966091      -135.35854
9.289                0.897769685     -135.624539
9.29                  0.89757376     -135.891047
9.291                0.897378328     -136.158061
9.292                0.897183396     -136.425582
9.293                0.896988976     -136.693606
9.294                0.896795076     -136.962134
9.295                0.896601706     -137.231163
9.296                0.896408877     -137.500692
9.297                0.896216597     -137.770719
9.298                0.896024877     -138.041243
9.299                0.895833727     -138.312263
9.3                  0.895643155     -138.583776
9.301                0.895453174     -138.855781
9.302                0.895263791     -139.128276
9.303                0.895075017      -139.40126
9.304                0.894886863     -139.674731
9.305                0.894699337     -139.948688
9.306                0.894512451     -140.223128
9.307                0.894326213     -140.498049
9.308                0.894140635      -140.77345
9.309                0.893955726      -141.04933
9.31                 0.893771496     -141.325685
9.311                0.893587955     -141.602515
9.312                0.893405114     -141.879816
9.313                0.893222982     -142.157588
9.314                 0.89304157     -142.435829
9.315                0.892860888     -142.714535
9.316                0.892680946     -142.993706
9.317                0.892501754     -143.273339
9.318                0.892323323     -143.553431
9.319                0.892145662     -143.833982
9.32                 0.891968782     -144.114988
9.321                0.891792692     -144.396448
9.322                0.891617404     -144.678358
9.323                0.891442927     -144.960718
9.324                0.891269271     -145.243524
9.325                0.891096447     -145.526775
9.326                0.890924465     -145.810468
9.327                0.890753335       -146.0946
9.328                0.890583067     -146.379169
9.329                0.890413672     -146.664173
9.33                 0.890245159     -146.949609
9.331                0.890077539     -147.235476
9.332                0.889910821     -147.521769
9.333                0.889745017     -147.808487
9.334                0.889580136     -148.095627
9.335                0.889416188     -148.383187
9.336                0.889253183     -148.671163
9.337                0.889091132     -148.959554
9.338                0.888930044     -149.248356
9.339                 0.88876993     -149.537567
9.34                 0.888610799     -149.827183
9.341                0.888452662     -150.117203
9.342                0.888295528     -150.407624
9.343                0.888139407     -150.698442
9.344                 0.88798431     -150.989654
9.345                0.887830246     -151.281258
9.346                0.887677226     -151.573252
9.347                0.887525258     -151.865631
9.348                0.887374352     -152.158393
9.349                 0.88722452     -152.451534
9.35                 0.887075769     -152.745053
9.351                 0.88692811     -153.038945
9.352                0.886781553     -153.333208
9.353                0.886636107     -153.627839
9.354                0.886491782     -153.922834
9.355                0.886348586      -154.21819
9.356                0.886206531     -154.513904
9.357                0.886065624     -154.809973
9.358                0.885925876     -155.106393
9.359                0.885787296     -155.403161
9.36                 0.885649893     -155.700275
9.361                0.885513676      -155.99773
9.362                0.885378654     -156.295523
9.363                0.885244838     -156.593651
9.364                0.885112234      -156.89211
9.365                0.884980854     -157.190897
9.366                0.884850705     -157.490009
9.367                0.884721797     -157.789441
9.368                0.884594137     -158.089191
9.369                0.884467736     -158.389255
9.37                 0.884342602     -158.689629
9.371                0.884218743     -158.990309
9.372                0.884096168     -159.291293
9.373                0.883974885     -159.592576
9.374                0.883854903     -159.894155
9.375                0.883736231     -160.196026
9.376                0.883618875     -160.498186
9.377                0.883502845     -160.800629
9.378                0.883388149     -161.103354
9.379                0.883274795     -161.406356
9.38                  0.88316279     -161.709631
9.381                0.883052142     -162.013175
9.382                 0.88294286     -162.316985
9.383                0.882834951     -162.621056
9.384                0.882728423     -162.925386
9.385                0.882623283     -163.229969
9.386                0.882519538     -163.534801
9.387                0.882417196      -163.83988
9.388                0.882316264     -164.145201
9.389                 0.88221675      -164.45076
9.39                  0.88211866     -164.756552
9.391                0.882022001     -165.062574
9.392                0.881926781     -165.368822
9.393                0.881833005     -165.675292
9.394                0.881740681      -165.98198
9.395                0.881649816     -166.288881
9.396                0.881560415     -166.595991
