! TOUCHSTONE file generated by CST DESIGN STUDIO
! Date and time: Tue Feb  4 17:19:09 2025
! Project name: C:\Work\MatlabApps\UnitCellOptimizationMatlab\CST\unitcell.cst
! Tree item: Tasks\Sweep1\SPara1\S-Parameters
! Header version: 2024
! Port assignment regex: !\s*Touchstone port\s*([0-9]+)\s*=\s*(CST MWS port|CST DES external port|CST DES block port)\s*(.+)\s* \(\"(.*)\"\)(\s*mode\s*([0-9]+))?.*
! Touchstone port assignment:
! Touchstone port 1 = CST DES external port 1 ("")
# GHz S MA R 50
9                    0.992697316     -77.1794328
9.001                0.992679946     -77.2947525
9.002                0.992662525     -77.4103506
9.003                0.992645054     -77.5262278
9.004                0.992627532     -77.6423849
9.005                 0.99260996     -77.7588228
9.006                0.992592336     -77.8755422
9.007                0.992574662     -77.9925439
9.008                0.992556936     -78.1098288
9.009                0.992539159     -78.2273977
9.01                 0.992521331     -78.3452513
9.011                0.992503451     -78.4633905
9.012                 0.99248552     -78.5818161
9.013                0.992467537     -78.7005289
9.014                0.992449503     -78.8195298
9.015                0.992431416     -78.9388195
9.016                0.992413278     -79.0583988
9.017                0.992395088     -79.1782687
9.018                0.992376845     -79.2984298
9.019                 0.99235855     -79.4188831
9.02                 0.992340203     -79.5396294
9.021                0.992321804     -79.6606694
9.022                0.992303352     -79.7820041
9.023                0.992284847     -79.9036342
9.024                 0.99226629     -80.0255606
9.025                 0.99224768     -80.1477842
9.026                0.992229017     -80.2703057
9.027                0.992210301     -80.3931259
9.028                0.992191532     -80.5162458
9.029                 0.99217271     -80.6396662
9.03                 0.992153835     -80.7633879
9.031                0.992134906     -80.8874117
9.032                0.992115924     -81.0117386
9.033                0.992096888     -81.1363693
9.034                0.992077799     -81.2613046
9.035                0.992058656     -81.3865456
9.036                0.992039459     -81.5120929
9.037                0.992020208     -81.6379474
9.038                0.992000904     -81.7641101
9.039                0.991981545     -81.8905817
9.04                 0.991962132     -82.0173631
9.041                0.991942665     -82.1444552
9.042                0.991923144     -82.2718588
9.043                0.991903569     -82.3995747
9.044                0.991883939     -82.5276039
9.045                0.991864255     -82.6559472
9.046                0.991844516     -82.7846055
9.047                0.991824722     -82.9135796
9.048                0.991804874     -83.0428704
9.049                0.991784971     -83.1724788
9.05                 0.991765013     -83.3024055
9.051                   0.991745     -83.4326516
9.052                0.991724932     -83.5632179
9.053                0.991704809     -83.6941051
9.054                0.991684631     -83.8253143
9.055                0.991664398     -83.9568463
9.056                0.991644109     -84.0887019
9.057                0.991623766     -84.2208821
9.058                0.991603366     -84.3533877
9.059                0.991582912     -84.4862195
9.06                 0.991562402     -84.6193785
9.061                0.991541836     -84.7528656
9.062                0.991521215     -84.8866816
9.063                0.991500538     -85.0208274
9.064                0.991479805     -85.1553039
9.065                0.991459017     -85.2901119
9.066                0.991438173     -85.4252524
9.067                0.991417273     -85.5607262
9.068                0.991396317     -85.6965343
9.069                0.991375305     -85.8326775
9.07                 0.991354237     -85.9691566
9.071                0.991333113     -86.1059727
9.072                0.991311933     -86.2431265
9.073                0.991290697     -86.3806189
9.074                0.991269404      -86.518451
9.075                0.991248056     -86.6566234
9.076                0.991226651     -86.7951372
9.077                 0.99120519     -86.9339932
9.078                0.991183673     -87.0731923
9.079                0.991162099     -87.2127354
9.08                 0.991140469     -87.3526235
9.081                0.991118783     -87.4928573
9.082                 0.99109704     -87.6334378
9.083                 0.99107524     -87.7743658
9.084                0.991053385     -87.9156424
9.085                0.991031473     -88.0572683
9.086                0.991009504     -88.1992444
9.087                0.990987479     -88.3415718
9.088                0.990965397     -88.4842511
9.089                0.990943259     -88.6272835
9.09                 0.990921064     -88.7706696
9.091                0.990898813     -88.9144106
9.092                0.990876505     -89.0585071
9.093                0.990854141     -89.2029602
9.094                 0.99083172     -89.3477707
9.095                0.990809242     -89.4929396
9.096                0.990786708     -89.6384676
9.097                0.990764118     -89.7843558
9.098                0.990741471      -89.930605
9.099                0.990718767     -90.0772161
9.1                  0.990696007     -90.2241901
9.101                 0.99067319     -90.3715277
9.102                0.990650317     -90.5192299
9.103                0.990627387     -90.6672976
9.104                0.990604401     -90.8157318
9.105                0.990581359     -90.9645332
9.106                 0.99055826     -91.1137028
9.107                0.990535105     -91.2632414
9.108                0.990511893     -91.4131501
9.109                0.990488625     -91.5634296
9.11                 0.990465301     -91.7140808
9.111                 0.99044192     -91.8651047
9.112                0.990418484     -92.0165022
9.113                0.990394991     -92.1682741
9.114                0.990371442     -92.3204213
9.115                0.990347837     -92.4729447
9.116                0.990324176     -92.6258452
9.117                0.990300459     -92.7791237
9.118                0.990276686     -92.9327811
9.119                0.990252858     -93.0868182
9.12                 0.990228973      -93.241236
9.121                0.990205033     -93.3960353
9.122                0.990181037     -93.5512171
9.123                0.990156986     -93.7067821
9.124                0.990132879     -93.8627314
9.125                0.990108717     -94.0190656
9.126                0.990084499     -94.1757859
9.127                0.990060226     -94.3328929
9.128                0.990035898     -94.4903876
9.129                0.990011515     -94.6482709
9.13                 0.989987077     -94.8065437
9.131                0.989962584     -94.9652067
9.132                0.989938036      -95.124261
9.133                0.989913433     -95.2837073
9.134                0.989888776     -95.4435465
9.135                0.989864064     -95.6037795
9.136                0.989839298     -95.7644072
9.137                0.989814478     -95.9254303
9.138                0.989789604     -96.0868499
9.139                0.989764675     -96.2486667
9.14                 0.989739693     -96.4108815
9.141                0.989714657     -96.5734954
9.142                0.989689567      -96.736509
9.143                0.989664423     -96.8999232
9.144                0.989639227      -97.063739
9.145                0.989613977     -97.2279571
9.146                0.989588674     -97.3925784
9.147                0.989563318     -97.5576037
9.148                0.989537909     -97.7230339
9.149                0.989512448     -97.8888698
9.15                 0.989486934     -98.0551123
9.151                0.989461368     -98.2217621
9.152                 0.98943575     -98.3888201
9.153                 0.98941008     -98.5562872
9.154                0.989384358     -98.7241641
9.155                0.989358585     -98.8924516
9.156                 0.98933276     -99.0611507
9.157                0.989306884     -99.2302621
9.158                0.989280957     -99.3997865
9.159                0.989254979      -99.569725
9.16                  0.98922895     -99.7400781
9.161                0.989202871     -99.9108468
9.162                0.989176742     -100.082032
9.163                0.989150563     -100.253634
9.164                0.989124334     -100.425654
9.165                0.989098055     -100.598093
9.166                0.989071727     -100.770951
9.167                 0.98904535      -100.94423
9.168                0.989018924     -101.117929
9.169                 0.98899245     -101.292051
9.17                 0.988965927     -101.466595
9.171                0.988939356     -101.641562
9.172                0.988912737     -101.816954
9.173                0.988886071      -101.99277
9.174                0.988859357     -102.169012
9.175                0.988832596     -102.345681
9.176                0.988805789     -102.522777
9.177                0.988778934       -102.7003
9.178                0.988752034     -102.878252
9.179                0.988725087     -103.056634
9.18                 0.988698095     -103.235445
9.181                0.988671058     -103.414688
9.182                0.988643975     -103.594362
9.183                0.988616848     -103.774468
9.184                0.988589676     -103.955007
9.185                 0.98856246      -104.13598
9.186                0.988535201     -104.317387
9.187                0.988507897     -104.499229
9.188                0.988480551     -104.681507
9.189                0.988453162     -104.864221
9.19                  0.98842573     -105.047373
9.191                0.988398256     -105.230962
9.192                0.988370741      -105.41499
9.193                0.988343184     -105.599457
9.194                0.988315586     -105.784363
9.195                0.988287947      -105.96971
9.196                0.988260268     -106.155498
9.197                0.988232549     -106.341728
9.198                0.988204791       -106.5284
9.199                0.988176993     -106.715514
9.2                  0.988149157     -106.903073
9.201                0.988121283     -107.091076
9.202                 0.98809337     -107.279523
9.203                 0.98806542     -107.468416
9.204                0.988037433     -107.657755
9.205                0.988009409      -107.84754
9.206                0.987981349     -108.037772
9.207                0.987953253     -108.228453
9.208                0.987925122     -108.419581
9.209                0.987896956     -108.611158
9.21                 0.987868755     -108.803185
9.211                0.987840521     -108.995662
9.212                0.987812253     -109.188589
9.213                0.987783952     -109.381967
9.214                0.987755618     -109.575797
9.215                0.987727252     -109.770078
9.216                0.987698855     -109.964813
9.217                0.987670427         -110.16
9.218                0.987641968     -110.355641
9.219                0.987613479     -110.551735
9.22                  0.98758496     -110.748285
9.221                0.987556413     -110.945289
9.222                0.987527836     -111.142749
9.223                0.987499232     -111.340664
9.224                0.987470601     -111.539036
9.225                0.987441943     -111.737864
9.226                0.987413258      -111.93715
9.227                0.987384548     -112.136893
9.228                0.987355812     -112.337094
9.229                0.987327052     -112.537754
9.23                 0.987298268     -112.738872
9.231                0.987269461      -112.94045
9.232                 0.98724063     -113.142487
9.233                0.987211778     -113.344983
9.234                0.987182903      -113.54794
9.235                0.987154008     -113.751358
9.236                0.987125093     -113.955236
9.237                0.987096157     -114.159576
9.238                0.987067203     -114.364377
9.239                 0.98703823      -114.56964
9.24                 0.987009239     -114.775365
9.241                0.986980231     -114.981552
9.242                0.986951206     -115.188202
9.243                0.986922166     -115.395315
9.244                0.986893111     -115.602891
9.245                0.986864041      -115.81093
9.246                0.986834957     -116.019433
9.247                 0.98680586       -116.2284
9.248                0.986776751     -116.437831
9.249                 0.98674763     -116.647726
9.25                 0.986718498     -116.858085
9.251                0.986689356     -117.068909
9.252                0.986660205     -117.280198
9.253                0.986631044     -117.491951
9.254                0.986601876      -117.70417
9.255                  0.9865727     -117.916853
9.256                0.986543518     -118.130002
9.257                 0.98651433     -118.343616
9.258                0.986485137     -118.557695
9.259                 0.98645594      -118.77224
9.26                  0.98642674      -118.98725
9.261                0.986397537     -119.202726
9.262                0.986368332     -119.418668
9.263                0.986339126     -119.635075
9.264                 0.98630992     -119.851948
9.265                0.986280715     -120.069286
9.266                0.986251511      -120.28709
9.267                 0.98622231      -120.50536
9.268                0.986193111     -120.724095
9.269                0.986163917     -120.943295
9.27                 0.986134727     -121.162961
9.271                0.986105544     -121.383093
9.272                0.986076366     -121.603689
9.273                0.986047197     -121.824751
9.274                0.986018036     -122.046277
9.275                0.985988884     -122.268268
9.276                0.985959742     -122.490724
9.277                0.985930611     -122.713645
9.278                0.985901492      -122.93703
9.279                0.985872387     -123.160879
9.28                 0.985843295     -123.385191
9.281                0.985814217     -123.609968
9.282                0.985785156     -123.835208
9.283                0.985756111     -124.060911
9.284                0.985727084     -124.287077
9.285                0.985698075     -124.513705
9.286                0.985669086     -124.740796
9.287                0.985640118     -124.968349
9.288                0.985611171     -125.196363
9.289                0.985582246     -125.424839
9.29                 0.985553345     -125.653775
9.291                0.985524469     -125.883172
9.292                0.985495618     -126.113029
9.293                0.985466794     -126.343346
9.294                0.985437997     -126.574122
9.295                0.985409228     -126.805357
9.296                 0.98538049      -127.03705
9.297                0.985351782     -127.269201
9.298                0.985323106      -127.50181
9.299                0.985294462     -127.734875
9.3                  0.985265852     -127.968397
9.301                0.985237278     -128.202374
9.302                0.985208739     -128.436806
9.303                0.985180237     -128.671693
9.304                0.985151773     -128.907035
9.305                0.985123349     -129.142829
9.306                0.985094965     -129.379076
9.307                0.985066622     -129.615776
9.308                0.985038322     -129.852926
9.309                0.985010066     -130.090528
9.31                 0.984981854     -130.328579
9.311                0.984953688      -130.56708
9.312                 0.98492557     -130.806029
9.313                0.984897499     -131.045426
9.314                0.984869478      -131.28527
9.315                0.984841507      -131.52556
9.316                0.984813588     -131.766296
9.317                0.984785722     -132.007476
9.318                0.984757909       -132.2491
9.319                0.984730152     -132.491166
9.32                 0.984702451     -132.733675
9.321                0.984674808     -132.976624
9.322                0.984647223     -133.220014
9.323                0.984619698     -133.463842
9.324                0.984592234     -133.708109
9.325                0.984564833     -133.952813
9.326                0.984537495     -134.197953
9.327                0.984510221     -134.443528
9.328                0.984483014     -134.689537
9.329                0.984455873      -134.93598
9.33                 0.984428801     -135.182854
9.331                0.984401798     -135.430159
9.332                0.984374867     -135.677893
9.333                0.984348007     -135.926057
9.334                 0.98432122     -136.174647
9.335                0.984294508     -136.423664
9.336                0.984267872     -136.673106
9.337                0.984241313     -136.922971
9.338                0.984214832     -137.173259
9.339                0.984188431     -137.423969
9.34                  0.98416211     -137.675098
9.341                0.984135871     -137.926646
9.342                0.984109716     -138.178611
9.343                0.984083645     -138.430992
9.344                 0.98405766     -138.683788
9.345                0.984031763     -138.936997
9.346                0.984005953     -139.190618
9.347                0.983980234     -139.444649
9.348                0.983954605      -139.69909
9.349                0.983929069     -139.953937
9.35                 0.983903626     -140.209191
9.351                0.983878278     -140.464849
9.352                0.983853026      -140.72091
9.353                0.983827872     -140.977373
9.354                0.983802816     -141.234235
9.355                 0.98377786     -141.491496
9.356                0.983753006     -141.749153
9.357                0.983728254     -142.007205
9.358                0.983703606      -142.26565
9.359                0.983679063     -142.524487
9.36                 0.983654627     -142.783714
9.361                0.983630299      -143.04333
9.362                0.983606079     -143.303331
9.363                0.983581971     -143.563718
9.364                0.983557974     -143.824487
9.365                 0.98353409     -144.085638
9.366                 0.98351032     -144.347168
9.367                0.983486666     -144.609075
9.368                0.983463129     -144.871358
9.369                 0.98343971     -145.134014
9.37                  0.98341641     -145.397043
9.371                0.983393232     -145.660441
9.372                0.983370176     -145.924207
9.373                0.983347243     -146.188339
9.374                0.983324435     -146.452835
9.375                0.983301752     -146.717693
9.376                0.983279198     -146.982911
9.377                0.983256772     -147.248487
9.378                0.983234475     -147.514419
9.379                0.983212311     -147.780704
9.38                 0.983190278     -148.047341
9.381                0.983168379     -148.314327
9.382                0.983146616     -148.581661
9.383                0.983124989      -148.84934
9.384                0.983103499     -149.117361
9.385                0.983082148     -149.385724
9.386                0.983060938     -149.654424
9.387                0.983039869     -149.923461
9.388                0.983018943     -150.192832
9.389                 0.98299816     -150.462535
9.39                 0.982977523     -150.732567
9.391                0.982957032     -151.002925
9.392                0.982936689     -151.273609
9.393                0.982916495     -151.544614
9.394                0.982896452     -151.815939
9.395                0.982876559     -152.087582
9.396                 0.98285682      -152.35954
