! TOUCHSTONE file generated by CST DESIGN STUDIO
! Date and time: Tue Feb  4 17:19:11 2025
! Project name: C:\Work\MatlabApps\UnitCellOptimizationMatlab\CST\unitcell.cst
! Tree item: Tasks\Sweep1\SPara1\S-Parameters
! Header version: 2024
! Port assignment regex: !\s*Touchstone port\s*([0-9]+)\s*=\s*(CST MWS port|CST DES external port|CST DES block port)\s*(.+)\s* \(\"(.*)\"\)(\s*mode\s*([0-9]+))?.*
! Touchstone port assignment:
! Touchstone port 1 = CST DES external port 1 ("")
# GHz S MA R 50
9                    0.992887316     -76.6096103
9.001                0.992870557     -76.7236335
9.002                0.992853749     -76.8379315
9.003                0.992836892      -76.952505
9.004                0.992819986     -77.0673548
9.005                0.992803032     -77.1824817
9.006                0.992786028     -77.2978865
9.007                0.992768975       -77.41357
9.008                0.992751873      -77.529533
9.009                0.992734721     -77.6457763
9.01                  0.99271752     -77.7623006
9.011                0.992700269     -77.8791069
9.012                0.992682968     -77.9961959
9.013                0.992665617     -78.1135684
9.014                0.992648217     -78.2312253
9.015                0.992630766     -78.3491673
9.016                0.992613266     -78.4673952
9.017                0.992595715     -78.5859099
9.018                0.992578113     -78.7047122
9.019                0.992560461     -78.8238029
9.02                 0.992542759     -78.9431829
9.021                0.992525006     -79.0628528
9.022                0.992507203     -79.1828137
9.023                0.992489348     -79.3030662
9.024                0.992471443     -79.4236113
9.025                0.992453486     -79.5444497
9.026                0.992435479     -79.6655823
9.027                 0.99241742       -79.78701
9.028                 0.99239931     -79.9087334
9.029                0.992381149     -80.0307536
9.03                 0.992362936     -80.1530712
9.031                0.992344672     -80.2756872
9.032                0.992326356     -80.3986024
9.033                0.992307988     -80.5218176
9.034                0.992289568     -80.6453337
9.035                0.992271097     -80.7691515
9.036                0.992252574     -80.8932719
9.037                0.992233998     -81.0176957
9.038                 0.99221537     -81.1424237
9.039                0.992196691     -81.2674568
9.04                 0.992177958     -81.3927959
9.041                0.992159174     -81.5184418
9.042                0.992140337     -81.6443953
9.043                0.992121447     -81.7706573
9.044                0.992102505     -81.8972287
9.045                 0.99208351     -82.0241104
9.046                0.992064462     -82.1513031
9.047                0.992045361     -82.2788077
9.048                0.992026208     -82.4066252
9.049                0.992007001     -82.5347563
9.05                 0.991987742     -82.6632019
9.051                0.991968429      -82.791963
9.052                0.991949063     -82.9210403
9.053                0.991929643     -83.0504347
9.054                0.991910171     -83.1801471
9.055                0.991890645     -83.3101783
9.056                0.991871065     -83.4405293
9.057                0.991851432     -83.5712009
9.058                0.991831745      -83.702194
9.059                0.991812004     -83.8335094
9.06                  0.99179221      -83.965148
9.061                0.991772362     -84.0971108
9.062                 0.99175246     -84.2293985
9.063                0.991732504      -84.362012
9.064                0.991712494     -84.4949523
9.065                0.991692431     -84.6282202
9.066                0.991672313     -84.7618166
9.067                0.991652141     -84.8957424
9.068                0.991631914     -85.0299985
9.069                0.991611634     -85.1645856
9.07                 0.991591299     -85.2995048
9.071                 0.99157091     -85.4347569
9.072                0.991550466     -85.5703428
9.073                0.991529968     -85.7062634
9.074                0.991509416     -85.8425195
9.075                0.991488809     -85.9791122
9.076                0.991468147     -86.1160421
9.077                0.991447431     -86.2533103
9.078                0.991426661     -86.3909176
9.079                0.991405835     -86.5288649
9.08                 0.991384955     -86.6671532
9.081                 0.99136402     -86.8057832
9.082                0.991343031     -86.9447559
9.083                0.991321987     -87.0840723
9.084                0.991300887     -87.2237331
9.085                0.991279734     -87.3637392
9.086                0.991258525     -87.5040917
9.087                0.991237261     -87.6447913
9.088                0.991215942      -87.785839
9.089                0.991194569     -87.9272356
9.09                  0.99117314     -88.0689821
9.091                0.991151657     -88.2110793
9.092                0.991130119     -88.3535281
9.093                0.991108525     -88.4963296
9.094                0.991086877     -88.6394844
9.095                0.991065174     -88.7829936
9.096                0.991043415      -88.926858
9.097                0.991021602     -89.0710786
9.098                0.990999734     -89.2156562
9.099                0.990977811     -89.3605917
9.1                  0.990955832      -89.505886
9.101                0.990933799     -89.6515401
9.102                0.990911711     -89.7975548
9.103                0.990889568      -89.943931
9.104                 0.99086737     -90.0906696
9.105                0.990845116     -90.2377716
9.106                0.990822808     -90.3852378
9.107                0.990800445      -90.533069
9.108                0.990778028     -90.6812663
9.109                0.990755555     -90.8298305
9.11                 0.990733027     -90.9787625
9.111                0.990710445     -91.1280632
9.112                0.990687808     -91.2777335
9.113                0.990665116     -91.4277742
9.114                 0.99064237     -91.5781864
9.115                0.990619568     -91.7289708
9.116                0.990596712     -91.8801284
9.117                0.990573802     -92.0316601
9.118                0.990550837     -92.1835667
9.119                0.990527817     -92.3358492
9.12                 0.990504743     -92.4885084
9.121                0.990481615     -92.6415452
9.122                0.990458432     -92.7949606
9.123                0.990435195     -92.9487554
9.124                0.990411904     -93.1029304
9.125                0.990388559     -93.2574867
9.126                0.990365159      -93.412425
9.127                0.990341706     -93.5677463
9.128                0.990318198     -93.7234514
9.129                0.990294637     -93.8795412
9.13                 0.990271022     -94.0360166
9.131                0.990247353     -94.1928785
9.132                 0.99022363     -94.3501278
9.133                0.990199854     -94.5077653
9.134                0.990176025     -94.6657919
9.135                0.990152142     -94.8242085
9.136                0.990128206      -94.983016
9.137                0.990104217     -95.1422152
9.138                0.990080174      -95.301807
9.139                0.990056079     -95.4617923
9.14                 0.990031931      -95.622172
9.141                 0.99000773     -95.7829468
9.142                0.989983476     -95.9441177
9.143                 0.98995917     -96.1056855
9.144                0.989934812     -96.2676511
9.145                0.989910401     -96.4300154
9.146                0.989885938     -96.5927792
9.147                0.989861424     -96.7559433
9.148                0.989836857     -96.9195087
9.149                0.989812238     -97.0834761
9.15                 0.989787568     -97.2478464
9.151                0.989762847     -97.4126205
9.152                0.989738074     -97.5777991
9.153                0.989713251     -97.7433832
9.154                0.989688376     -97.9093736
9.155                 0.98966345     -98.0757711
9.156                0.989638474     -98.2425765
9.157                0.989613447     -98.4097907
9.158                 0.98958837     -98.5774145
9.159                0.989563243     -98.7454487
9.16                 0.989538066     -98.9138941
9.161                0.989512839     -99.0827516
9.162                0.989487563     -99.2520221
9.163                0.989462237     -99.4217061
9.164                0.989436862     -99.5918047
9.165                0.989411438     -99.7623187
9.166                0.989385965     -99.9332487
9.167                0.989360444     -100.104596
9.168                0.989334874      -100.27636
9.169                0.989309256     -100.448543
9.17                  0.98928359     -100.621146
9.171                0.989257877     -100.794168
9.172                0.989232116     -100.967612
9.173                0.989206308     -101.141477
9.174                0.989180453     -101.315764
9.175                0.989154551     -101.490475
9.176                0.989128603     -101.665609
9.177                0.989102608     -101.841169
9.178                0.989076568     -102.017154
9.179                0.989050481     -102.193565
9.18                  0.98902435     -102.370403
9.181                0.988998173     -102.547668
9.182                0.988971951     -102.725362
9.183                0.988945684     -102.903486
9.184                0.988919374     -103.082039
9.185                0.988893019     -103.261023
9.186                 0.98886662     -103.440439
9.187                0.988840178     -103.620286
9.188                0.988813693     -103.800567
9.189                0.988787165     -103.981281
9.19                 0.988760594     -104.162429
9.191                0.988733981     -104.344012
9.192                0.988707326     -104.526031
9.193                 0.98868063     -104.708486
9.194                0.988653893     -104.891378
9.195                0.988627114     -105.074707
9.196                0.988600295     -105.258476
9.197                0.988573436     -105.442683
9.198                0.988546537      -105.62733
9.199                0.988519599     -105.812417
9.2                  0.988492621     -105.997945
9.201                0.988465605     -106.183915
9.202                 0.98843855     -106.370327
9.203                0.988411458     -106.557182
9.204                0.988384328      -106.74448
9.205                 0.98835716     -106.932223
9.206                0.988329956     -107.120411
9.207                0.988302716     -107.309043
9.208                0.988275439     -107.498122
9.209                0.988248127     -107.687648
9.21                  0.98822078      -107.87762
9.211                0.988193398      -108.06804
9.212                0.988165982     -108.258909
9.213                0.988138532     -108.450226
9.214                0.988111049     -108.641993
9.215                0.988083532      -108.83421
9.216                0.988055984     -109.026877
9.217                0.988028403     -109.219996
9.218                 0.98800079     -109.413566
9.219                0.987973147     -109.607588
9.22                 0.987945473     -109.802062
9.221                0.987917769      -109.99699
9.222                0.987890035     -110.192372
9.223                0.987862272     -110.388207
9.224                0.987834481     -110.584497
9.225                0.987806661     -110.781242
9.226                0.987778814     -110.978443
9.227                 0.98775094       -111.1761
9.228                0.987723039     -111.374213
9.229                0.987695112     -111.572783
9.23                  0.98766716      -111.77181
9.231                0.987639183     -111.971295
9.232                0.987611181     -112.171239
9.233                0.987583156      -112.37164
9.234                0.987555108     -112.572501
9.235                0.987527037     -112.773821
9.236                0.987498943     -112.975601
9.237                0.987470829      -113.17784
9.238                0.987442693      -113.38054
9.239                0.987414537     -113.583701
9.24                 0.987386362     -113.787323
9.241                0.987358167     -113.991407
9.242                0.987329954     -114.195952
9.243                0.987301724     -114.400959
9.244                0.987273476     -114.606429
9.245                0.987245211     -114.812361
9.246                0.987216931     -115.018756
9.247                0.987188635     -115.225614
9.248                0.987160325     -115.432936
9.249                0.987132001     -115.640722
9.25                 0.987103663     -115.848971
9.251                0.987075313     -116.057685
9.252                0.987046951     -116.266862
9.253                0.987018578     -116.476505
9.254                0.986990195     -116.686612
9.255                0.986961802     -116.897184
9.256                0.986933399     -117.108221
9.257                0.986904989     -117.319723
9.258                 0.98687657     -117.531691
9.259                0.986848145     -117.744124
9.26                 0.986819714     -117.957023
9.261                0.986791277     -118.170387
9.262                0.986762836     -118.384218
9.263                0.986734391     -118.598514
9.264                0.986705942     -118.813276
9.265                0.986677492     -119.028505
9.266                0.986649039     -119.244199
9.267                0.986620586     -119.460359
9.268                0.986592134     -119.676986
9.269                0.986563681     -119.894079
9.27                 0.986535231     -120.111637
9.271                0.986506783     -120.329662
9.272                0.986478338     -120.548153
9.273                0.986449898      -120.76711
9.274                0.986421462     -120.986533
9.275                0.986393033     -121.206422
9.276                 0.98636461     -121.426776
9.277                0.986336194     -121.647597
9.278                0.986307787     -121.868882
9.279                0.986279389     -122.090634
9.28                 0.986251001      -122.31285
9.281                0.986222624     -122.535532
9.282                0.986194259     -122.758678
9.283                0.986165907      -122.98229
9.284                0.986137569     -123.206366
9.285                0.986109245     -123.430906
9.286                0.986080937      -123.65591
9.287                0.986052645     -123.881378
9.288                0.986024371      -124.10731
9.289                0.985996115     -124.333705
9.29                 0.985967878     -124.560563
9.291                0.985939662     -124.787884
9.292                0.985911467     -125.015667
9.293                0.985883293     -125.243912
9.294                0.985855144     -125.472619
9.295                0.985827018     -125.701787
9.296                0.985798917     -125.931416
9.297                0.985770842     -126.161506
9.298                0.985742795     -126.392056
9.299                0.985714775     -126.623065
9.3                  0.985686785     -126.854533
9.301                0.985658825     -127.086461
9.302                0.985630896     -127.318846
9.303                0.985602999     -127.551689
9.304                0.985575135      -127.78499
9.305                0.985547306     -128.018747
9.306                0.985519512      -128.25296
9.307                0.985491754     -128.487628
9.308                0.985464033     -128.722752
9.309                0.985436352      -128.95833
9.31                 0.985408709     -129.194361
9.311                0.985381108     -129.430846
9.312                0.985353548     -129.667783
9.313                 0.98532603     -129.905172
9.314                0.985298557     -130.143012
9.315                0.985271129     -130.381302
9.316                0.985243747     -130.620042
9.317                0.985216412      -130.85923
9.318                0.985189125     -131.098867
9.319                0.985161888     -131.338951
9.32                 0.985134701     -131.579481
9.321                0.985107567     -131.820457
9.322                0.985080485     -132.061878
9.323                0.985053457     -132.303743
9.324                0.985026484      -132.54605
9.325                0.984999567       -132.7888
9.326                0.984972708     -133.031991
9.327                0.984945908     -133.275623
9.328                0.984919167     -133.519694
9.329                0.984892487     -133.764203
9.33                  0.98486587     -134.009149
9.331                0.984839315     -134.254532
9.332                0.984812826      -134.50035
9.333                0.984786402     -134.746603
9.334                0.984760044     -134.993288
9.335                0.984733755     -135.240406
9.336                0.984707536     -135.487955
9.337                0.984681386     -135.735933
9.338                0.984655309     -135.984341
9.339                0.984629304     -136.233175
9.34                 0.984603373     -136.482437
9.341                0.984577518     -136.732123
9.342                 0.98455174     -136.982233
9.343                0.984526039     -137.232766
9.344                0.984500417      -137.48372
9.345                0.984474876     -137.735094
9.346                0.984449416     -137.986887
9.347                0.984424039     -138.239098
9.348                0.984398746     -138.491724
9.349                0.984373538     -138.744765
9.35                 0.984348416      -138.99822
9.351                0.984323383     -139.252086
9.352                0.984298438     -139.506363
9.353                0.984273584     -139.761049
9.354                0.984248821     -140.016142
9.355                0.984224151     -140.271641
9.356                0.984199574     -140.527545
9.357                0.984175094     -140.783852
9.358                0.984150709      -141.04056
9.359                0.984126423     -141.297668
9.36                 0.984102236     -141.555174
9.361                0.984078149     -141.813077
9.362                0.984054163     -142.071375
9.363                0.984030281     -142.330066
9.364                0.984006503     -142.589149
9.365                 0.98398283     -142.848621
9.366                0.983959264     -143.108482
9.367                0.983935806     -143.368729
9.368                0.983912457     -143.629361
9.369                0.983889219     -143.890375
9.37                 0.983866093     -144.151771
9.371                0.983843079     -144.413546
9.372                 0.98382018     -144.675698
9.373                0.983797397     -144.938226
9.374                0.983774731     -145.201127
9.375                0.983752183       -145.4644
9.376                0.983729754     -145.728043
9.377                0.983707446     -145.992053
9.378                 0.98368526      -146.25643
9.379                0.983663197      -146.52117
9.38                 0.983641259     -146.786271
9.381                0.983619447     -147.051733
9.382                0.983597761     -147.317552
9.383                0.983576204     -147.583727
9.384                0.983554777     -147.850255
9.385                 0.98353348     -148.117135
9.386                0.983512316     -148.384364
9.387                0.983491285     -148.651939
9.388                0.983470388      -148.91986
9.389                0.983449628     -149.188123
9.39                 0.983429004     -149.456727
9.391                0.983408519     -149.725669
9.392                0.983388173     -149.994947
9.393                0.983367968     -150.264558
9.394                0.983347905     -150.534501
9.395                0.983327985     -150.804773
9.396                 0.98330821     -151.075371
