! TOUCHSTONE file generated by CST DESIGN STUDIO
! Date and time: Tue Feb  4 17:19:18 2025
! Project name: C:\Work\MatlabApps\UnitCellOptimizationMatlab\CST\unitcell.cst
! Tree item: Tasks\Sweep1\SPara1\S-Parameters
! Header version: 2024
! Port assignment regex: !\s*Touchstone port\s*([0-9]+)\s*=\s*(CST MWS port|CST DES external port|CST DES block port)\s*(.+)\s* \(\"(.*)\"\)(\s*mode\s*([0-9]+))?.*
! Touchstone port assignment:
! Touchstone port 1 = CST DES external port 1 ("")
# GHz S MA R 50
9                     0.99361983     -74.2969547
9.001                0.993605383     -74.4058589
9.002                0.993590893     -74.5150237
9.003                0.993576361     -74.6244496
9.004                0.993561787     -74.7341375
9.005                0.993547171     -74.8440881
9.006                0.993532513     -74.9543023
9.007                0.993517812     -75.0647807
9.008                0.993503068     -75.1755241
9.009                0.993488282     -75.2865334
9.01                 0.993473453     -75.3978093
9.011                0.993458581     -75.5093525
9.012                0.993443667     -75.6211639
9.013                0.993428709     -75.7332442
9.014                0.993413708     -75.8455942
9.015                0.993398664     -75.9582147
9.016                0.993383577     -76.0711065
9.017                0.993368446     -76.1842704
9.018                0.993353272     -76.2977071
9.019                0.993338054     -76.4114174
9.02                 0.993322792     -76.5254022
9.021                0.993307487     -76.6396622
9.022                0.993292137     -76.7541983
9.023                0.993276744     -76.8690112
9.024                0.993261307     -76.9841016
9.025                0.993245826     -77.0994706
9.026                  0.9932303     -77.2151187
9.027                 0.99321473     -77.3310469
9.028                0.993199116     -77.4472559
9.029                0.993183457     -77.5637466
9.03                 0.993167753     -77.6805197
9.031                0.993152005     -77.7975761
9.032                0.993136212     -77.9149166
9.033                0.993120375      -78.032542
9.034                0.993104492      -78.150453
9.035                0.993088564     -78.2686507
9.036                0.993072592     -78.3871357
9.037                0.993056574     -78.5059088
9.038                 0.99304051      -78.624971
9.039                0.993024402      -78.744323
9.04                 0.993008248     -78.8639656
9.041                0.992992048     -78.9838997
9.042                0.992975803     -79.1041261
9.043                0.992959512     -79.2246457
9.044                0.992943176     -79.3454592
9.045                0.992926793     -79.4665676
9.046                0.992910365     -79.5879716
9.047                 0.99289389     -79.7096721
9.048                 0.99287737     -79.8316699
9.049                0.992860803     -79.9539659
9.05                  0.99284419     -80.0765608
9.051                0.992827531     -80.1994557
9.052                0.992810826     -80.3226512
9.053                0.992794074     -80.4461483
9.054                0.992777275     -80.5699477
9.055                 0.99276043     -80.6940505
9.056                0.992743538     -80.8184573
9.057                0.992726599      -80.943169
9.058                0.992709614     -81.0681866
9.059                0.992692582     -81.1935108
9.06                 0.992675502     -81.3191425
9.061                0.992658376     -81.4450826
9.062                0.992641203      -81.571332
9.063                0.992623982     -81.6978914
9.064                0.992606714     -81.8247618
9.065                0.992589399     -81.9519441
9.066                0.992572037      -82.079439
9.067                0.992554627     -82.2072475
9.068                 0.99253717     -82.3353703
9.069                0.992519665     -82.4638085
9.07                 0.992502112     -82.5925629
9.071                0.992484512     -82.7216343
9.072                0.992466864     -82.8510236
9.073                0.992449169     -82.9807317
9.074                0.992431425     -83.1107594
9.075                0.992413634     -83.2411077
9.076                0.992395794     -83.3717774
9.077                0.992377907     -83.5027694
9.078                0.992359972     -83.6340845
9.079                0.992341988     -83.7657237
9.08                 0.992323957     -83.8976879
9.081                0.992305877     -84.0299778
9.082                0.992287749     -84.1625945
9.083                0.992269573     -84.2955388
9.084                0.992251348     -84.4288115
9.085                0.992233075     -84.5624136
9.086                0.992214754      -84.696346
9.087                0.992196384     -84.8306094
9.088                0.992177965      -84.965205
9.089                0.992159498     -85.1001334
9.09                 0.992140983     -85.2353957
9.091                0.992122419     -85.3709926
9.092                0.992103806     -85.5069252
9.093                0.992085145     -85.6431943
9.094                0.992066435     -85.7798007
9.095                0.992047676     -85.9167454
9.096                0.992028868     -86.0540294
9.097                0.992010012     -86.1916534
9.098                0.991991106     -86.3296183
9.099                0.991972152     -86.4679252
9.1                  0.991953149     -86.6065748
9.101                0.991934097     -86.7455681
9.102                0.991914997      -86.884906
9.103                0.991895847     -87.0245894
9.104                0.991876648     -87.1646191
9.105                0.991857401     -87.3049961
9.106                0.991838104     -87.4457214
9.107                0.991818758     -87.5867957
9.108                0.991799364     -87.7282199
9.109                 0.99177992     -87.8699951
9.11                 0.991760428     -88.0121221
9.111                0.991740886     -88.1546018
9.112                0.991721295     -88.2974351
9.113                0.991701656     -88.4406229
9.114                0.991681967     -88.5841661
9.115                0.991662229     -88.7280657
9.116                0.991642443     -88.8723225
9.117                0.991622607     -89.0169374
9.118                0.991602722     -89.1619114
9.119                0.991582788     -89.3072453
9.12                 0.991562806       -89.45294
9.121                0.991542774     -89.5989966
9.122                0.991522693     -89.7454158
9.123                0.991502564     -89.8921985
9.124                0.991482385     -90.0393458
9.125                0.991462158     -90.1868584
9.126                0.991441881     -90.3347373
9.127                0.991421556     -90.4829834
9.128                0.991401182     -90.6315977
9.129                0.991380759     -90.7805809
9.13                 0.991360288      -90.929934
9.131                0.991339768     -91.0796579
9.132                0.991319199     -91.2297536
9.133                0.991298581     -91.3802219
9.134                0.991277915     -91.5310637
9.135                  0.9912572     -91.6822799
9.136                0.991236437     -91.8338715
9.137                0.991215625     -91.9858392
9.138                0.991194765     -92.1381842
9.139                0.991173856     -92.2909071
9.14                 0.991152899      -92.444009
9.141                0.991131894     -92.5974907
9.142                0.991110841     -92.7513531
9.143                0.991089739     -92.9055971
9.144                 0.99106859     -93.0602237
9.145                0.991047392     -93.2152336
9.146                0.991026147     -93.3706279
9.147                0.991004854     -93.5264074
9.148                0.990983512     -93.6825729
9.149                0.990962124     -93.8391255
9.15                 0.990940687     -93.9960659
9.151                0.990919203      -94.153395
9.152                0.990897672     -94.3111138
9.153                0.990876093     -94.4692232
9.154                0.990854467     -94.6277239
9.155                0.990832794      -94.786617
9.156                0.990811073     -94.9459032
9.157                0.990789306     -95.1055835
9.158                0.990767492     -95.2656587
9.159                0.990745631     -95.4261297
9.16                 0.990723723     -95.5869974
9.161                0.990701769     -95.7482627
9.162                0.990679769     -95.9099264
9.163                0.990657722     -96.0719894
9.164                0.990635629     -96.2344525
9.165                 0.99061349     -96.3973167
9.166                0.990591305     -96.5605828
9.167                0.990569074     -96.7242517
9.168                0.990546797     -96.8883241
9.169                0.990524475     -97.0528011
9.17                 0.990502108     -97.2176834
9.171                0.990479695     -97.3829718
9.172                0.990457237     -97.5486673
9.173                0.990434735     -97.7147707
9.174                0.990412187     -97.8812827
9.175                0.990389595     -98.0482044
9.176                0.990366958     -98.2155365
9.177                0.990344277     -98.3832798
9.178                0.990321552     -98.5514352
9.179                0.990298783     -98.7200034
9.18                 0.990275971     -98.8889855
9.181                0.990253114     -99.0583821
9.182                0.990230215     -99.2281941
9.183                0.990207272     -99.3984223
9.184                0.990184285     -99.5690675
9.185                0.990161257     -99.7401306
9.186                0.990138185     -99.9116123
9.187                0.990115071     -100.083513
9.188                0.990091915     -100.255835
9.189                0.990068717     -100.428577
9.19                 0.990045477     -100.601742
9.191                0.990022195     -100.775329
9.192                0.989998872     -100.949339
9.193                0.989975508     -101.123774
9.194                0.989952103     -101.298634
9.195                0.989928657     -101.473919
9.196                0.989905171     -101.649631
9.197                0.989881644      -101.82577
9.198                0.989858078     -102.002338
9.199                0.989834472     -102.179334
9.2                  0.989810827      -102.35676
9.201                0.989787142     -102.534616
9.202                0.989763418     -102.712904
9.203                0.989739656     -102.891623
9.204                0.989715856     -103.070775
9.205                0.989692017      -103.25036
9.206                 0.98966814     -103.430379
9.207                0.989644226     -103.610833
9.208                0.989620275     -103.791723
9.209                0.989596287     -103.973048
9.21                 0.989572262     -104.154811
9.211                0.989548201     -104.337011
9.212                0.989524104      -104.51965
9.213                0.989499971     -104.702728
9.214                0.989475803     -104.886245
9.215                0.989451599     -105.070203
9.216                0.989427361     -105.254602
9.217                0.989403089     -105.439442
9.218                0.989378782     -105.624725
9.219                0.989354442     -105.810451
9.22                 0.989330068     -105.996621
9.221                0.989305661     -106.183235
9.222                0.989281222     -106.370295
9.223                 0.98925675       -106.5578
9.224                0.989232247     -106.745751
9.225                0.989207712     -106.934149
9.226                0.989183145     -107.122994
9.227                0.989158548     -107.312288
9.228                0.989133921     -107.502031
9.229                0.989109263     -107.692222
9.23                 0.989084576     -107.882864
9.231                 0.98905986     -108.073956
9.232                0.989035115       -108.2655
9.233                0.989010341     -108.457495
9.234                 0.98898554     -108.649942
9.235                0.988960711     -108.842842
9.236                0.988935854     -109.036195
9.237                0.988910972     -109.230003
9.238                0.988886063     -109.424264
9.239                0.988861128     -109.618981
9.24                 0.988836168     -109.814152
9.241                0.988811183      -110.00978
9.242                0.988786173     -110.205865
9.243                 0.98876114     -110.402406
9.244                0.988736083     -110.599404
9.245                0.988711003     -110.796861
9.246                0.988685901     -110.994776
9.247                0.988660777     -111.193149
9.248                0.988635631     -111.391982
9.249                0.988610464     -111.591275
9.25                 0.988585277     -111.791027
9.251                 0.98856007     -111.991241
9.252                0.988534843     -112.191915
9.253                0.988509598     -112.393051
9.254                0.988484334     -112.594648
9.255                0.988459052     -112.796708
9.256                0.988433753      -112.99923
9.257                0.988408437     -113.202215
9.258                0.988383105     -113.405663
9.259                0.988357758     -113.609575
9.26                 0.988332395      -113.81395
9.261                0.988307018      -114.01879
9.262                0.988281626     -114.224095
9.263                0.988256222     -114.429865
9.264                0.988230805     -114.636099
9.265                0.988205376     -114.842799
9.266                0.988179935     -115.049965
9.267                0.988154483     -115.257597
9.268                0.988129021     -115.465695
9.269                0.988103549      -115.67426
9.27                 0.988078068     -115.883291
9.271                0.988052579      -116.09279
9.272                0.988027082     -116.302755
9.273                0.988001578     -116.513188
9.274                0.987976068     -116.724089
9.275                0.987950552     -116.935457
9.276                 0.98792503     -117.147293
9.277                0.987899504     -117.359597
9.278                0.987873975     -117.572369
9.279                0.987848442      -117.78561
9.28                 0.987822907     -117.999319
9.281                 0.98779737     -118.213496
9.282                0.987771832     -118.428143
9.283                0.987746294     -118.643257
9.284                0.987720756     -118.858841
9.285                0.987695219     -119.074893
9.286                0.987669684     -119.291415
9.287                0.987644152     -119.508405
9.288                0.987618623     -119.725864
9.289                0.987593099     -119.943792
9.29                 0.987567579     -120.162188
9.291                0.987542064     -120.381054
9.292                0.987516557     -120.600388
9.293                0.987491056     -120.820191
9.294                0.987465563     -121.040463
9.295                0.987440079     -121.261204
9.296                0.987414604     -121.482413
9.297                 0.98738914      -121.70409
9.298                0.987363687     -121.926236
9.299                0.987338245     -122.148849
9.3                  0.987312817     -122.371931
9.301                0.987287402      -122.59548
9.302                0.987262001     -122.819497
9.303                0.987236616     -123.043982
9.304                0.987211246     -123.268934
9.305                0.987185894     -123.494352
9.306                0.987160559     -123.720238
9.307                0.987135243      -123.94659
9.308                0.987109946     -124.173408
9.309                 0.98708467     -124.400692
9.31                 0.987059415     -124.628442
9.311                0.987034182     -124.856657
9.312                0.987008972     -125.085337
9.313                0.986983786     -125.314481
9.314                0.986958625      -125.54409
9.315                0.986933489     -125.774163
9.316                 0.98690838     -126.004699
9.317                0.986883299     -126.235698
9.318                0.986858246      -126.46716
9.319                0.986833222     -126.699083
9.32                 0.986808229     -126.931469
9.321                0.986783267     -127.164316
9.322                0.986758337     -127.397623
9.323                 0.98673344     -127.631391
9.324                0.986708577     -127.865618
9.325                 0.98668375     -128.100304
9.326                0.986658958     -128.335449
9.327                0.986634204     -128.571052
9.328                0.986609487     -128.807112
9.329                0.986584809     -129.043629
9.33                 0.986560172     -129.280602
9.331                0.986535575      -129.51803
9.332                 0.98651102     -129.755913
9.333                0.986486509      -129.99425
9.334                0.986462041      -130.23304
9.335                0.986437618     -130.472283
9.336                0.986413241     -130.711978
9.337                0.986388911     -130.952124
9.338                 0.98636463      -131.19272
9.339                0.986340397     -131.433766
9.34                 0.986316214      -131.67526
9.341                0.986292083     -131.917202
9.342                0.986268004     -132.159591
9.343                0.986243978     -132.402426
9.344                0.986220006     -132.645707
9.345                 0.98619609     -132.889431
9.346                 0.98617223     -133.133599
9.347                0.986148428     -133.378209
9.348                0.986124685     -133.623261
9.349                0.986101001     -133.868753
9.35                 0.986077377     -134.114684
9.351                0.986053816     -134.361054
9.352                0.986030318     -134.607861
9.353                0.986006883     -134.855104
9.354                0.985983514     -135.102783
9.355                0.985960211     -135.350895
9.356                0.985936975      -135.59944
9.357                0.985913807     -135.848417
9.358                 0.98589071     -136.097825
9.359                0.985867682     -136.347662
9.36                 0.985844727     -136.597926
9.361                0.985821844     -136.848618
9.362                0.985799036     -137.099736
9.363                0.985776302     -137.351278
9.364                0.985753645     -137.603242
9.365                0.985731065     -137.855629
9.366                0.985708564     -138.108436
9.367                0.985686142     -138.361662
9.368                0.985663802     -138.615306
9.369                0.985641543     -138.869366
9.37                 0.985619367     -139.123841
9.371                0.985597275     -139.378729
9.372                0.985575269     -139.634029
9.373                0.985553349      -139.88974
9.374                0.985531517      -140.14586
9.375                0.985509774     -140.402387
9.376                 0.98548812      -140.65932
9.377                0.985466558     -140.916657
9.378                0.985445088     -141.174397
9.379                0.985423711     -141.432538
9.38                 0.985402429     -141.691079
9.381                0.985381243     -141.950017
9.382                0.985360154     -142.209352
9.383                0.985339162     -142.469081
9.384                 0.98531827     -142.729203
9.385                0.985297478     -142.989716
9.386                0.985276788     -143.250618
9.387                  0.9852562     -143.511908
9.388                0.985235717     -143.773583
9.389                0.985215338     -144.035642
9.39                 0.985195065     -144.298084
9.391                  0.9851749     -144.560905
9.392                0.985154843     -144.824105
9.393                0.985134896     -145.087681
9.394                 0.98511506     -145.351631
9.395                0.985095335     -145.615954
9.396                0.985075724     -145.880648
