! TOUCHSTONE file generated by CST DESIGN STUDIO
! Date and time: Tue Feb  4 16:25:43 2025
! Project name: C:\Work\MatlabApps\UnitCellOptimizationMatlab\CST\unitcell.cst
! Tree item: Tasks\Sweep1\SPara1\S-Parameters
! Header version: 2024
! Port assignment regex: !\s*Touchstone port\s*([0-9]+)\s*=\s*(CST MWS port|CST DES external port|CST DES block port)\s*(.+)\s* \(\"(.*)\"\)(\s*mode\s*([0-9]+))?.*
! Touchstone port assignment:
! Touchstone port 1 = CST DES external port 1 ("")
# GHz S MA R 50
9                    0.966941539     -76.7687679
9.001                0.966911771     -76.9017111
9.002                0.966881353     -77.0350393
9.003                0.966850282     -77.1687536
9.004                0.966818553     -77.3028554
9.005                0.966786164     -77.4373456
9.006                0.966753109     -77.5722256
9.007                0.966719385     -77.7074966
9.008                0.966684987     -77.8431597
9.009                0.966649911     -77.9792161
9.01                 0.966614154      -78.115667
9.011                0.966577711     -78.2525137
9.012                0.966540577     -78.3897573
9.013                 0.96650275      -78.527399
9.014                0.966464224       -78.66544
9.015                0.966424996     -78.8038816
9.016                0.966385061      -78.942725
9.017                0.966344415     -79.0819713
9.018                0.966303054     -79.2216219
9.019                0.966260975     -79.3616778
9.02                 0.966218172     -79.5021403
9.021                0.966174641     -79.6430107
9.022                0.966130379     -79.7842901
9.023                0.966085382     -79.9259798
9.024                0.966039644     -80.0680811
9.025                0.965993162      -80.210595
9.026                0.965945932     -80.3535229
9.027                0.965897949      -80.496866
9.028                0.965849209     -80.6406255
9.029                0.965799709     -80.7848027
9.03                 0.965749443     -80.9293988
9.031                0.965698408     -81.0744149
9.032                  0.9656466     -81.2198525
9.033                0.965594014     -81.3657126
9.034                0.965540646     -81.5119966
9.035                0.965486492     -81.6587056
9.036                0.965431547      -81.805841
9.037                0.965375808     -81.9534039
9.038                0.965319271     -82.1013957
9.039                 0.96526193     -82.2498175
9.04                 0.965203782     -82.3986706
9.041                0.965144823     -82.5479562
9.042                0.965085048     -82.6976757
9.043                0.965024454     -82.8478302
9.044                0.964963036      -82.998421
9.045                 0.96490079     -83.1494493
9.046                0.964837711     -83.3009165
9.047                0.964773796     -83.4528237
9.048                 0.96470904     -83.6051722
9.049                 0.96464344     -83.7579633
9.05                 0.964576991     -83.9111983
9.051                0.964509688     -84.0648783
9.052                0.964441528     -84.2190047
9.053                0.964372507     -84.3735787
9.054                 0.96430262     -84.5286015
9.055                0.964231864     -84.6840745
9.056                0.964160233     -84.8399988
9.057                0.964087725     -84.9963758
9.058                0.964014334     -85.1532067
9.059                0.963940058     -85.3104928
9.06                 0.963864891     -85.4682352
9.061                0.963788829     -85.6264354
9.062                0.963711869     -85.7850945
9.063                0.963634007     -85.9442139
9.064                0.963555238     -86.1037947
9.065                0.963475558     -86.2638383
9.066                0.963394964     -86.4243458
9.067                 0.96331345     -86.5853186
9.068                0.963231015      -86.746758
9.069                0.963147652     -86.9086651
9.07                 0.963063358     -87.0710413
9.071                 0.96297813     -87.2338878
9.072                0.962891964     -87.3972058
9.073                0.962804854     -87.5609967
9.074                0.962716798     -87.7252617
9.075                0.962627792     -87.8900021
9.076                0.962537831      -88.055219
9.077                0.962446912     -88.2209138
9.078                 0.96235503     -88.3870878
9.079                0.962262183     -88.5537421
9.08                 0.962168366     -88.7208781
9.081                0.962073575      -88.888497
9.082                0.961977807        -89.0566
9.083                0.961881057     -89.2251884
9.084                0.961783323     -89.3942635
9.085                  0.9616846     -89.5638264
9.086                0.961584884     -89.7338786
9.087                0.961484172     -89.9044211
9.088                0.961382461     -90.0754553
9.089                0.961279746     -90.2469823
9.09                 0.961176024     -90.4190036
9.091                0.961071291     -90.5915201
9.092                0.960965544     -90.7645334
9.093                0.960858779     -90.9380444
9.094                0.960750993     -91.1120546
9.095                0.960642182     -91.2865651
9.096                0.960532343     -91.4615771
9.097                0.960421472      -91.637092
9.098                0.960309566     -91.8131108
9.099                0.960196621     -91.9896349
9.1                  0.960082635     -92.1666655
9.101                0.959967603     -92.3442038
9.102                0.959851523      -92.522251
9.103                0.959734391     -92.7008083
9.104                0.959616204     -92.8798769
9.105                0.959496958     -93.0594581
9.106                0.959376652     -93.2395531
9.107                0.959255281      -93.420163
9.108                0.959132842     -93.6012891
9.109                0.959009332     -93.7829326
9.11                 0.958884749     -93.9650946
9.111                0.958759089     -94.1477764
9.112                 0.95863235     -94.3309791
9.113                0.958504528     -94.5147039
9.114                0.958375621     -94.6989521
9.115                0.958245625     -94.8837247
9.116                0.958114538      -95.069023
9.117                0.957982358     -95.2548482
9.118                0.957849081     -95.4412013
9.119                0.957714705     -95.6280836
9.12                 0.957579227     -95.8154962
9.121                0.957442645     -96.0034403
9.122                0.957304956      -96.191917
9.123                0.957166158     -96.3809275
9.124                0.957026248     -96.5704729
9.125                0.956885223     -96.7605543
9.126                0.956743082     -96.9511729
9.127                0.956599823     -97.1423298
9.128                0.956455442     -97.3340261
9.129                0.956309938      -97.526263
9.13                 0.956163308     -97.7190415
9.131                0.956015551     -97.9123628
9.132                0.955866665     -98.1062279
9.133                0.955716647     -98.3006379
9.134                0.955565495      -98.495594
9.135                0.955413209     -98.6910972
9.136                0.955259785     -98.8871486
9.137                0.955105222     -99.0837492
9.138                0.954949519     -99.2809002
9.139                0.954792673     -99.4786026
9.14                 0.954634684     -99.6768574
9.141                0.954475549     -99.8756656
9.142                0.954315268     -100.075028
9.143                0.954153838     -100.274947
9.144                0.953991259     -100.475422
9.145                0.953827529     -100.676454
9.146                0.953662647     -100.878045
9.147                0.953496612     -101.080196
9.148                0.953329423     -101.282907
9.149                0.953161079      -101.48618
9.15                 0.952991578     -101.690015
9.151                0.952820921     -101.894414
9.152                0.952649105     -102.099378
9.153                0.952476132     -102.304907
9.154                0.952301999     -102.511002
9.155                0.952126706     -102.717664
9.156                0.951950253     -102.924895
9.157                 0.95177264     -103.132695
9.158                0.951593865     -103.341065
9.159                0.951413929     -103.550006
9.16                 0.951232832     -103.759519
9.161                0.951050573     -103.969605
9.162                0.950867152     -104.180265
9.163                 0.95068257     -104.391499
9.164                0.950496826     -104.603308
9.165                0.950309921     -104.815693
9.166                0.950121855     -105.028656
9.167                0.949932628     -105.242196
9.168                0.949742241     -105.456316
9.169                0.949550695     -105.671014
9.17                 0.949357989     -105.886293
9.171                0.949164126     -106.102153
9.172                0.948969104     -106.318595
9.173                0.948772927     -106.535619
9.174                0.948575593     -106.753227
9.175                0.948377105     -106.971419
9.176                0.948177464     -107.190195
9.177                0.947976671     -107.409558
9.178                0.947774727     -107.629506
9.179                0.947571633     -107.850041
9.18                 0.947367392     -108.071164
9.181                0.947162005     -108.292875
9.182                0.946955474     -108.515175
9.183                  0.9467478     -108.738065
9.184                0.946538986     -108.961545
9.185                0.946329033     -109.185615
9.186                0.946117944     -109.410277
9.187                 0.94590572     -109.635531
9.188                0.945692365     -109.861378
9.189                0.945477881     -110.087817
9.19                  0.94526227      -110.31485
9.191                0.945045535     -110.542478
9.192                0.944827679       -110.7707
9.193                0.944608704     -110.999517
9.194                0.944388614      -111.22893
9.195                0.944167412     -111.458939
9.196                  0.9439451     -111.689545
9.197                0.943721683     -111.920747
9.198                0.943497164     -112.152548
9.199                0.943271546     -112.384946
9.2                  0.943044833     -112.617942
9.201                0.942817028     -112.851537
9.202                0.942588136     -113.085731
9.203                0.942358161     -113.320524
9.204                0.942127107     -113.555917
9.205                0.941894977      -113.79191
9.206                0.941661777     -114.028504
9.207                0.941427511     -114.265697
9.208                0.941192183     -114.503492
9.209                0.940955798     -114.741888
9.21                 0.940718361     -114.980885
9.211                0.940479878     -115.220483
9.212                0.940240352     -115.460684
9.213                 0.93999979     -115.701486
9.214                0.939758197      -115.94289
9.215                0.939515577     -116.184896
9.216                0.939271938     -116.427504
9.217                0.939027283     -116.670715
9.218                0.938781621     -116.914528
9.219                0.938534955     -117.158944
9.22                 0.938287293     -117.403962
9.221                0.938038641     -117.649582
9.222                0.937789004     -117.895806
9.223                 0.93753839     -118.142631
9.224                0.937286805     -118.390059
9.225                0.937034257      -118.63809
9.226                0.936780751     -118.886723
9.227                0.936526295     -119.135958
9.228                0.936270895     -119.385794
9.229                0.936014561     -119.636233
9.23                 0.935757298     -119.887274
9.231                0.935499114     -120.138916
9.232                0.935240017      -120.39116
9.233                0.934980015     -120.644004
9.234                0.934719116     -120.897449
9.235                0.934457328     -121.151495
9.236                0.934194659     -121.406141
9.237                0.933931118     -121.661387
9.238                0.933666712     -121.917233
9.239                0.933401452     -122.173678
9.24                 0.933135345     -122.430721
9.241                  0.9328684     -122.688363
9.242                0.932600627     -122.946603
9.243                0.932332035      -123.20544
9.244                0.932062633     -123.464874
9.245                0.931792431     -123.724904
9.246                0.931521438     -123.985531
9.247                0.931249664     -124.246752
9.248                0.930977119     -124.508569
9.249                0.930703812     -124.770979
9.25                 0.930429756     -125.033983
9.251                0.930154958     -125.297579
9.252                0.929879431     -125.561768
9.253                0.929603184     -125.826548
9.254                0.929326229     -126.091918
9.255                0.929048576     -126.357878
9.256                0.928770236     -126.624428
9.257                0.928491221     -126.891565
9.258                0.928211542      -127.15929
9.259                0.927931209     -127.427601
9.26                 0.927650236     -127.696497
9.261                0.927368633     -127.965979
9.262                0.927086413     -128.236043
9.263                0.926803588     -128.506691
9.264                0.926520168      -128.77792
9.265                0.926236168     -129.049729
9.266                0.925951599     -129.322118
9.267                0.925666474     -129.595085
9.268                0.925380806      -129.86863
9.269                0.925094607      -130.14275
9.27                 0.924807891     -130.417446
9.271                 0.92452067     -130.692714
9.272                0.924232957     -130.968556
9.273                0.923944767     -131.244968
9.274                0.923656113      -131.52195
9.275                0.923367008     -131.799501
9.276                0.923077466     -132.077618
9.277                  0.9227875     -132.356302
9.278                0.922497126     -132.635549
9.279                0.922206357     -132.915359
9.28                 0.921915208     -133.195731
9.281                0.921623692     -133.476662
9.282                0.921331825     -133.758151
9.283                0.921039621     -134.040197
9.284                0.920747095     -134.322798
9.285                0.920454262     -134.605952
9.286                0.920161137     -134.889658
9.287                0.919867734     -135.173913
9.288                0.919574071     -135.458717
9.289                0.919280161     -135.744068
9.29                  0.91898602     -136.029963
9.291                0.918691664       -136.3164
9.292                 0.91839711     -136.603379
9.293                0.918102371     -136.890897
9.294                0.917807466     -137.178951
9.295                0.917512409     -137.467541
9.296                0.917217218     -137.756664
9.297                0.916921907     -138.046318
9.298                0.916626495       -138.3365
9.299                0.916330997      -138.62721
9.3                   0.91603543     -138.918445
9.301                0.915739811     -139.210202
9.302                0.915444156      -139.50248
9.303                0.915148483     -139.795275
9.304                0.914852809     -140.088587
9.305                0.914557151     -140.382412
9.306                0.914261526     -140.676749
9.307                0.913965951     -140.971595
9.308                0.913670445     -141.266947
9.309                0.913375024     -141.562803
9.31                 0.913079706     -141.859161
9.311                0.912784509     -142.156018
9.312                 0.91248945     -142.453372
9.313                0.912194549      -142.75122
9.314                0.911899821     -143.049559
9.315                0.911605287     -143.348387
9.316                0.911310963     -143.647702
9.317                0.911016868       -143.9475
9.318                 0.91072302     -144.247779
9.319                0.910429438     -144.548536
9.32                  0.91013614     -144.849768
9.321                0.909843144     -145.151472
9.322                0.909550469     -145.453646
9.323                0.909258134     -145.756287
9.324                0.908966158     -146.059392
9.325                0.908674558     -146.362957
9.326                0.908383354      -146.66698
9.327                0.908092565     -146.971458
9.328                0.907802209     -147.276387
9.329                0.907512306     -147.581766
9.33                 0.907222874     -147.887589
9.331                0.906933933     -148.193855
9.332                0.906645502      -148.50056
9.333                0.906357599     -148.807702
9.334                0.906070244     -149.115275
9.335                0.905783456     -149.423279
9.336                0.905497254     -149.731708
9.337                0.905211658      -150.04056
9.338                0.904926686     -150.349831
9.339                0.904642358     -150.659518
9.34                 0.904358694     -150.969618
9.341                0.904075712     -151.280126
9.342                0.903793433     -151.591041
9.343                0.903511874     -151.902357
9.344                0.903231056     -152.214071
9.345                0.902950999      -152.52618
9.346                 0.90267172      -152.83868
9.347                 0.90239324     -153.151568
9.348                0.902115579     -153.464839
9.349                0.901838755      -153.77849
9.35                 0.901562788     -154.092518
9.351                0.901287696     -154.406918
9.352                0.901013501     -154.721686
9.353                 0.90074022      -155.03682
9.354                0.900467873     -155.352314
9.355                 0.90019648     -155.668165
9.356                0.899926059     -155.984369
9.357                 0.89965663     -156.300922
9.358                0.899388211      -156.61782
9.359                0.899120823     -156.935059
9.36                 0.898854484     -157.252636
9.361                0.898589214     -157.570545
9.362                 0.89832503     -157.888782
9.363                0.898061953     -158.207345
9.364                0.897800001     -158.526227
9.365                0.897539193     -158.845426
9.366                0.897279548     -159.164937
9.367                0.897021085     -159.484756
9.368                0.896763821     -159.804878
9.369                0.896507777       -160.1253
9.37                  0.89625297     -160.446016
9.371                0.895999419     -160.767022
9.372                0.895747143     -161.088315
9.373                0.895496159      -161.40989
9.374                0.895246486     -161.731741
9.375                0.894998143     -162.053866
9.376                0.894751146     -162.376258
9.377                0.894505515     -162.698915
9.378                0.894261267     -163.021831
9.379                0.894018419     -163.345001
9.38                 0.893776991     -163.668422
9.381                0.893536998     -163.992088
9.382                 0.89329846     -164.315995
9.383                0.893061392     -164.640138
9.384                0.892825813     -164.964513
9.385                 0.89259174     -165.289115
9.386                0.892359189     -165.613939
9.387                0.892128178     -165.938981
9.388                0.891898723     -166.264235
9.389                0.891670842     -166.589698
9.39                  0.89144455     -166.915363
9.391                0.891219864     -167.241227
9.392                  0.8909968     -167.567285
9.393                0.890775376     -167.893531
9.394                0.890555605     -168.219961
9.395                0.890337506      -168.54657
9.396                0.890121092     -168.873353
