! TOUCHSTONE file generated by CST DESIGN STUDIO
! Date and time: Tue Feb  4 16:25:46 2025
! Project name: C:\Work\MatlabApps\UnitCellOptimizationMatlab\CST\unitcell.cst
! Tree item: Tasks\Sweep1\SPara1\S-Parameters
! Header version: 2024
! Port assignment regex: !\s*Touchstone port\s*([0-9]+)\s*=\s*(CST MWS port|CST DES external port|CST DES block port)\s*(.+)\s* \(\"(.*)\"\)(\s*mode\s*([0-9]+))?.*
! Touchstone port assignment:
! Touchstone port 1 = CST DES external port 1 ("")
# GHz S MA R 50
9                    0.972024721     -68.9785867
9.001                0.972000037      -69.090555
9.002                0.971974778      -69.202833
9.003                0.971948941     -69.3154215
9.004                0.971922523     -69.4283216
9.005                 0.97189552     -69.5415341
9.006                0.971867927     -69.6550601
9.007                0.971839743     -69.7689005
9.008                0.971810962     -69.8830562
9.009                0.971781582     -69.9975282
9.01                 0.971751598     -70.1123175
9.011                0.971721008      -70.227425
9.012                0.971689807     -70.3428517
9.013                0.971657992     -70.4585985
9.014                0.971625558     -70.5746665
9.015                0.971592504     -70.6910566
9.016                0.971558824     -70.8077697
9.017                0.971524515     -70.9248069
9.018                0.971489574      -71.042169
9.019                0.971453997     -71.1598572
9.02                 0.971417779     -71.2778724
9.021                0.971380919     -71.3962156
9.022                0.971343411     -71.5148877
9.023                0.971305252     -71.6338898
9.024                0.971266439     -71.7532228
9.025                0.971226967     -71.8728878
9.026                0.971186833     -71.9928857
9.027                0.971146034     -72.1132175
9.028                0.971104566     -72.2338843
9.029                0.971062424     -72.3548871
9.03                 0.971019606     -72.4762268
9.031                0.970976107     -72.5979044
9.032                0.970931924     -72.7199211
9.033                0.970887053     -72.8422777
9.034                0.970841491     -72.9649754
9.035                0.970795233      -73.088015
9.036                0.970748276     -73.2113977
9.037                0.970700617     -73.3351245
9.038                0.970652252     -73.4591964
9.039                0.970603176     -73.5836144
9.04                 0.970553386     -73.7083796
9.041                0.970502879     -73.8334929
9.042                0.970451651     -73.9589555
9.043                0.970399697     -74.0847683
9.044                0.970347015     -74.2109324
9.045                0.970293601     -74.3374489
9.046                0.970239451     -74.4643187
9.047                 0.97018456      -74.591543
9.048                0.970128927     -74.7191228
9.049                0.970072546      -74.847059
9.05                 0.970015414     -74.9753529
9.051                0.969957528     -75.1040054
9.052                0.969898883     -75.2330176
9.053                0.969839476     -75.3623905
9.054                0.969779304     -75.4921253
9.055                0.969718362     -75.6222229
9.056                0.969656647     -75.7526845
9.057                0.969594156      -75.883511
9.058                0.969530884     -76.0147037
9.059                0.969466827     -76.1462635
9.06                 0.969401983     -76.2781915
9.061                0.969336348     -76.4104888
9.062                0.969269918     -76.5431565
9.063                0.969202688     -76.6761956
9.064                0.969134657     -76.8096073
9.065                0.969065819     -76.9433926
9.066                0.968996171     -77.0775526
9.067                 0.96892571     -77.2120884
9.068                0.968854432      -77.347001
9.069                0.968782334     -77.4822917
9.07                 0.968709411     -77.6179614
9.071                 0.96863566     -77.7540113
9.072                0.968561078     -77.8904425
9.073                0.968485661      -78.027256
9.074                0.968409405     -78.1644529
9.075                0.968332307     -78.3020345
9.076                0.968254363     -78.4400017
9.077                 0.96817557     -78.5783557
9.078                0.968095923     -78.7170975
9.079                 0.96801542     -78.8562284
9.08                 0.967934058     -78.9957494
9.081                0.967851831     -79.1356616
9.082                0.967768738     -79.2759661
9.083                0.967684773     -79.4166641
9.084                0.967599935     -79.5577566
9.085                0.967514219     -79.6992449
9.086                0.967427622       -79.84113
9.087                0.967340141      -79.983413
9.088                0.967251771      -80.126095
9.089                0.967162511     -80.2691773
9.09                 0.967072355     -80.4126608
9.091                0.966981301     -80.5565469
9.092                0.966889345     -80.7008365
9.093                0.966796484     -80.8455308
9.094                0.966702715      -80.990631
9.095                0.966608033     -81.1361381
9.096                0.966512437     -81.2820534
9.097                0.966415922     -81.4283779
9.098                0.966318485     -81.5751128
9.099                0.966220123     -81.7222593
9.1                  0.966120833     -81.8698184
9.101                0.966020611     -82.0177914
9.102                0.965919454     -82.1661793
9.103                0.965817358     -82.3149834
9.104                0.965714322     -82.4642047
9.105                 0.96561034     -82.6138444
9.106                0.965505411     -82.7639037
9.107                0.965399531     -82.9143837
9.108                0.965292697     -83.0652856
9.109                0.965184905     -83.2166105
9.11                 0.965076153     -83.3683596
9.111                0.964966438     -83.5205339
9.112                0.964855756     -83.6731348
9.113                0.964744104     -83.8261633
9.114                 0.96463148     -83.9796206
9.115                 0.96451788     -84.1335079
9.116                0.964403302     -84.2878262
9.117                0.964287742     -84.4425768
9.118                0.964171197     -84.5977609
9.119                0.964053665     -84.7533796
9.12                 0.963935143      -84.909434
9.121                0.963815627     -85.0659253
9.122                0.963695116     -85.2228547
9.123                0.963573605     -85.3802234
9.124                0.963451093     -85.5380324
9.125                0.963327576      -85.696283
9.126                0.963203053     -85.8549764
9.127                0.963077519     -86.0141137
9.128                0.962950973      -86.173696
9.129                0.962823412     -86.3337245
9.13                 0.962694832     -86.4942005
9.131                0.962565233      -86.655125
9.132                 0.96243461     -86.8164992
9.133                0.962302962     -86.9783244
9.134                0.962170285     -87.1406016
9.135                0.962036578      -87.303332
9.136                0.961901838     -87.4665168
9.137                0.961766063     -87.6301572
9.138                0.961629249     -87.7942543
9.139                0.961491396     -87.9588093
9.14                   0.9613525     -88.1238233
9.141                0.961212559     -88.2892976
9.142                0.961071571     -88.4552332
9.143                0.960929534     -88.6216314
9.144                0.960786445     -88.7884933
9.145                0.960642303     -88.9558201
9.146                0.960497105     -89.1236129
9.147                0.960350849     -89.2918729
9.148                0.960203533     -89.4606013
9.149                0.960055156     -89.6297992
9.15                 0.959905714     -89.7994678
9.151                0.959755207     -89.9696082
9.152                0.959603633     -90.1402216
9.153                0.959450988     -90.3113092
9.154                0.959297273     -90.4828721
9.155                0.959142484     -90.6549114
9.156                0.958986621     -90.8274284
9.157                0.958829682     -91.0004242
9.158                0.958671664     -91.1738998
9.159                0.958512566     -91.3478566
9.16                 0.958352388     -91.5222955
9.161                0.958191126     -91.6972178
9.162                0.958028781     -91.8726247
9.163                 0.95786535     -92.0485171
9.164                0.957700831     -92.2248964
9.165                0.957535225     -92.4017637
9.166                0.957368529     -92.5791199
9.167                0.957200742     -92.7569665
9.168                0.957031864     -92.9353043
9.169                0.956861892     -93.1141346
9.17                 0.956690826     -93.2934586
9.171                0.956518665     -93.4732772
9.172                0.956345407     -93.6535917
9.173                0.956171053     -93.8344032
9.174                0.955995601     -94.0157129
9.175                0.955819049     -94.1975217
9.176                0.955641399     -94.3798308
9.177                0.955462648     -94.5626415
9.178                0.955282796     -94.7459546
9.179                0.955101842     -94.9297715
9.18                 0.954919787     -95.1140931
9.181                0.954736629     -95.2989205
9.182                0.954552368      -95.484255
9.183                0.954367004     -95.6700975
9.184                0.954180536     -95.8564491
9.185                0.953992964      -96.043311
9.186                0.953804288     -96.2306842
9.187                0.953614508     -96.4185699
9.188                0.953423624      -96.606969
9.189                0.953231635     -96.7958826
9.19                 0.953038542     -96.9853119
9.191                0.952844345     -97.1752579
9.192                0.952649044     -97.3657216
9.193                0.952452639     -97.5567041
9.194                0.952255131     -97.7482065
9.195                 0.95205652     -97.9402298
9.196                0.951856806     -98.1327751
9.197                 0.95165599     -98.3258434
9.198                0.951454073     -98.5194356
9.199                0.951251055      -98.713553
9.2                  0.951046937     -98.9081964
9.201                0.950841719      -99.103367
9.202                0.950635403     -99.2990656
9.203                 0.95042799     -99.4952934
9.204                 0.95021948     -99.6920513
9.205                0.950009875     -99.8893404
9.206                0.949799175     -100.087162
9.207                0.949587382     -100.285516
9.208                0.949374498     -100.484404
9.209                0.949160523     -100.683828
9.21                 0.948945459     -100.883787
9.211                0.948729308     -101.084284
9.212                0.948512071     -101.285318
9.213                 0.94829375     -101.486892
9.214                0.948074347     -101.689005
9.215                0.947853863     -101.891659
9.216                0.947632301     -102.094855
9.217                0.947409662     -102.298593
9.218                0.947185948     -102.502875
9.219                0.946961163     -102.707702
9.22                 0.946735307     -102.913074
9.221                0.946508384     -103.118992
9.222                0.946280395     -103.325458
9.223                0.946051344     -103.532471
9.224                0.945821232     -103.740034
9.225                0.945590064     -103.948146
9.226                 0.94535784     -104.156809
9.227                0.945124564     -104.366023
9.228                 0.94489024      -104.57579
9.229                 0.94465487      -104.78611
9.23                 0.944418457     -104.996984
9.231                0.944181005     -105.208413
9.232                0.943942516     -105.420397
9.233                0.943702995     -105.632938
9.234                0.943462444     -105.846036
9.235                0.943220868     -106.059692
9.236                 0.94297827     -106.273907
9.237                0.942734653     -106.488682
9.238                0.942490022     -106.704017
9.239                0.942244381     -106.919912
9.24                 0.941997733      -107.13637
9.241                0.941750084      -107.35339
9.242                0.941501436     -107.570973
9.243                0.941251795      -107.78912
9.244                0.941001165     -108.007832
9.245                 0.94074955     -108.227109
9.246                0.940496956     -108.446952
9.247                0.940243386     -108.667361
9.248                0.939988846     -108.888338
9.249                0.939733341     -109.109883
9.25                 0.939476876     -109.331996
9.251                0.939219456     -109.554678
9.252                0.938961086      -109.77793
9.253                0.938701772     -110.001752
9.254                0.938441519     -110.226145
9.255                0.938180333      -110.45111
9.256                 0.93791822     -110.676646
9.257                0.937655184     -110.902755
9.258                0.937391233     -111.129437
9.259                0.937126372     -111.356693
9.26                 0.936860607     -111.584523
9.261                0.936593945     -111.812927
9.262                0.936326392     -112.041906
9.263                0.936057955     -112.271461
9.264                0.935788639     -112.501592
9.265                0.935518452     -112.732299
9.266                0.935247401     -112.963583
9.267                0.934975492     -113.195444
9.268                0.934702732     -113.427883
9.269                0.934429129     -113.660899
9.27                  0.93415469     -113.894494
9.271                0.933879421     -114.128667
9.272                0.933603332      -114.36342
9.273                0.933326428     -114.598752
9.274                0.933048719     -114.834663
9.275                0.932770211     -115.071154
9.276                0.932490913     -115.308225
9.277                0.932210833     -115.545877
9.278                0.931929979     -115.784109
9.279                0.931648358     -116.022922
9.28                 0.931365981     -116.262316
9.281                0.931082854     -116.502291
9.282                0.930798987     -116.742848
9.283                0.930514389     -116.983986
9.284                0.930229068     -117.225706
9.285                0.929943034     -117.468007
9.286                0.929656295     -117.710891
9.287                 0.92936886     -117.954356
9.288                 0.92908074     -118.198403
9.289                0.928791943     -118.443032
9.29                 0.928502479     -118.688244
9.291                0.928212358     -118.934037
9.292                 0.92792159     -119.180412
9.293                0.927630184      -119.42737
9.294                0.927338151     -119.674909
9.295                0.927045501      -119.92303
9.296                0.926752244     -120.171733
9.297                 0.92645839     -120.421017
9.298                0.926163951     -120.670883
9.299                0.925868936     -120.921331
9.3                  0.925573357     -121.172359
9.301                0.925277224     -121.423969
9.302                0.924980549     -121.676159
9.303                0.924683342      -121.92893
9.304                0.924385616     -122.182281
9.305                 0.92408738     -122.436212
9.306                0.923788647     -122.690723
9.307                0.923489429     -122.945813
9.308                0.923189737     -123.201482
9.309                0.922889582     -123.457729
9.31                 0.922588978     -123.714555
9.311                0.922287936     -123.971959
9.312                0.921986468      -124.22994
9.313                0.921684586     -124.488498
9.314                0.921382304     -124.747633
9.315                0.921079633     -125.007343
9.316                0.920776587     -125.267629
9.317                0.920473177      -125.52849
9.318                0.920169418     -125.789925
9.319                0.919865322     -126.051933
9.32                 0.919560901     -126.314515
9.321                0.919256171     -126.577669
9.322                0.918951143     -126.841395
9.323                0.918645831     -127.105692
9.324                 0.91834025     -127.370559
9.325                0.918034411     -127.635995
9.326                0.917728331     -127.902001
9.327                0.917422022     -128.168574
9.328                0.917115498     -128.435714
9.329                0.916808774     -128.703421
9.33                 0.916501863     -128.971693
9.331                0.916194781     -129.240529
9.332                0.915887542     -129.509929
9.333                 0.91558016     -129.779892
9.334                 0.91527265     -130.050416
9.335                0.914965026     -130.321501
9.336                0.914657305     -130.593145
9.337                  0.9143495     -130.865348
9.338                0.914041627     -131.138108
9.339                0.913733701     -131.411424
9.34                 0.913425737     -131.685296
9.341                0.913117751     -131.959721
9.342                0.912809759     -132.234699
9.343                0.912501775     -132.510229
9.344                0.912193816     -132.786308
9.345                0.911885897     -133.062937
9.346                0.911578035     -133.340113
9.347                0.911270245     -133.617836
9.348                0.910962543     -133.896103
9.349                0.910654946     -134.174913
9.35                 0.910347469     -134.454266
9.351                 0.91004013     -134.734159
9.352                0.909732944     -135.014591
9.353                0.909425929     -135.295561
9.354                  0.9091191     -135.577067
9.355                0.908812474     -135.859107
9.356                0.908506069     -136.141679
9.357                0.908199901     -136.424783
9.358                0.907893986     -136.708416
9.359                0.907588343     -136.992577
9.36                 0.907282987     -137.277264
9.361                0.906977937     -137.562475
9.362                0.906673209     -137.848208
9.363                0.906368821     -138.134462
9.364                 0.90606479     -138.421235
9.365                0.905761133     -138.708524
9.366                0.905457868     -138.996328
9.367                0.905155013     -139.284645
9.368                0.904852585     -139.573473
9.369                0.904550601      -139.86281
9.37                  0.90424908     -140.152653
9.371                 0.90394804     -140.443002
9.372                0.903647498     -140.733853
9.373                0.903347472     -141.025204
9.374                 0.90304798     -141.317054
9.375                0.902749039       -141.6094
9.376                0.902450669      -141.90224
9.377                0.902152888     -142.195571
9.378                0.901855712     -142.489391
9.379                0.901559161     -142.783699
9.38                 0.901263253     -143.078491
9.381                0.900968005     -143.373765
9.382                0.900673437     -143.669518
9.383                0.900379566     -143.965749
9.384                0.900086411     -144.262455
9.385                0.899793991     -144.559633
9.386                0.899502323      -144.85728
9.387                0.899211426     -145.155395
9.388                0.898921318     -145.453974
9.389                0.898632019     -145.753014
9.39                 0.898343545     -146.052514
9.391                0.898055917      -146.35247
9.392                0.897769152     -146.652879
9.393                0.897483269     -146.953739
9.394                0.897198286     -147.255048
9.395                0.896914223     -147.556801
9.396                0.896631096     -147.858996
