! TOUCHSTONE file generated by CST DESIGN STUDIO
! Date and time: Tue Feb  4 18:03:05 2025
! Project name: C:\Work\MatlabApps\UnitCellOptimizationMatlab\CST\unitcell.cst
! Tree item: Tasks\Sweep1\SPara1\S-Parameters
! Header version: 2024
! Port assignment regex: !\s*Touchstone port\s*([0-9]+)\s*=\s*(CST MWS port|CST DES external port|CST DES block port)\s*(.+)\s* \(\"(.*)\"\)(\s*mode\s*([0-9]+))?.*
! Touchstone port assignment:
! Touchstone port 1 = CST DES external port 1 ("")
# GHz S MA R 50
9                    0.951934438     -56.5986781
9.001                0.951844701      -56.678777
9.002                0.951754511     -56.7590738
9.003                0.951663867      -56.839569
9.004                0.951572766     -56.9202632
9.005                0.951481206     -57.0011572
9.006                0.951389187     -57.0822516
9.007                0.951296704      -57.163547
9.008                0.951203758     -57.2450441
9.009                0.951110344     -57.3267436
9.01                 0.951016463      -57.408646
9.011                 0.95092211     -57.4907522
9.012                0.950827285     -57.5730627
9.013                0.950731986     -57.6555783
9.014                 0.95063621     -57.7382996
9.015                0.950539955     -57.8212272
9.016                0.950443219     -57.9043619
9.017                0.950346001     -57.9877043
9.018                0.950248297     -58.0712552
9.019                0.950150107     -58.1550152
9.02                 0.950051428      -58.238985
9.021                0.949952257     -58.3231652
9.022                0.949852593     -58.4075567
9.023                0.949752434       -58.49216
9.024                0.949651778      -58.576976
9.025                0.949550622     -58.6620052
9.026                0.949448964     -58.7472484
9.027                0.949346802     -58.8327064
9.028                0.949244135     -58.9183797
9.029                0.949140959     -59.0042692
9.03                 0.949037273     -59.0903755
9.031                0.948933075     -59.1766994
9.032                0.948828362     -59.2632416
9.033                0.948723132     -59.3500028
9.034                0.948617384     -59.4369838
9.035                0.948511115     -59.5241852
9.036                0.948404322     -59.6116078
9.037                0.948297004     -59.6992524
9.038                0.948189158     -59.7871196
9.039                0.948080782     -59.8752103
9.04                 0.947971874     -59.9635251
9.041                0.947862433     -60.0520648
9.042                0.947752454     -60.1408303
9.043                0.947641937     -60.2298221
9.044                0.947530879     -60.3190411
9.045                0.947419277      -60.408488
9.046                0.947307131     -60.4981637
9.047                0.947194436     -60.5880687
9.048                0.947081192     -60.6782041
9.049                0.946967395     -60.7685704
9.05                 0.946853044     -60.8591685
9.051                0.946738136     -60.9499991
9.052                0.946622669     -61.0410631
9.053                 0.94650664     -61.1323611
9.054                0.946390048     -61.2238941
9.055                 0.94627289     -61.3156627
9.056                0.946155164     -61.4076679
9.057                0.946036867     -61.4999103
9.058                0.945917997     -61.5923907
9.059                0.945798552     -61.6851101
9.06                  0.94567853     -61.7780691
9.061                0.945557927     -61.8712685
9.062                0.945436742     -61.9647093
9.063                0.945314973     -62.0583922
9.064                0.945192617      -62.152318
9.065                0.945069671     -62.2464875
9.066                0.944946133     -62.3409015
9.067                0.944822002      -62.435561
9.068                0.944697274     -62.5304667
9.069                0.944571947     -62.6256194
9.07                 0.944446019     -62.7210199
9.071                0.944319487     -62.8166692
9.072                0.944192349     -62.9125681
9.073                0.944064603     -63.0087173
9.074                0.943936245     -63.1051178
9.075                0.943807275     -63.2017704
9.076                0.943677689     -63.2986759
9.077                0.943547484     -63.3958353
9.078                0.943416659     -63.4932493
9.079                0.943285211     -63.5909188
9.08                 0.943153137     -63.6888447
9.081                0.943020435     -63.7870279
9.082                0.942887103     -63.8854693
9.083                0.942753138     -63.9841696
9.084                0.942618538     -64.0831299
9.085                  0.9424833     -64.1823509
9.086                0.942347421     -64.2818336
9.087                0.942210899     -64.3815788
9.088                0.942073733     -64.4815875
9.089                0.941935918     -64.5818605
9.09                 0.941797453     -64.6823988
9.091                0.941658335     -64.7832032
9.092                0.941518562     -64.8842746
9.093                0.941378131     -64.9856141
9.094                 0.94123704     -65.0872223
9.095                0.941095285     -65.1891004
9.096                0.940952865     -65.2912492
9.097                0.940809777     -65.3936696
9.098                0.940666019     -65.4963626
9.099                0.940521587     -65.5993291
9.1                   0.94037648       -65.70257
9.101                0.940230695     -65.8060862
9.102                0.940084228     -65.9098788
9.103                0.939937079     -66.0139486
9.104                0.939789243     -66.1182966
9.105                0.939640719     -66.2229237
9.106                0.939491504     -66.3278309
9.107                0.939341596     -66.4330192
9.108                0.939190991     -66.5384895
9.109                0.939039687     -66.6442428
9.11                 0.938887681       -66.75028
9.111                0.938734972     -66.8566021
9.112                0.938581556     -66.9632102
9.113                0.938427431     -67.0701051
9.114                0.938272594     -67.1772879
9.115                0.938117042     -67.2847595
9.116                0.937960773     -67.3925209
9.117                0.937803785     -67.5005732
9.118                0.937646074     -67.6089173
9.119                0.937487638     -67.7175542
9.12                 0.937328474     -67.8264849
9.121                 0.93716858     -67.9357105
9.122                0.937007954     -68.0452319
9.123                0.936846591     -68.1550502
9.124                0.936684491     -68.2651664
9.125                 0.93652165     -68.3755815
9.126                0.936358065     -68.4862965
9.127                0.936193734     -68.5973124
9.128                0.936028654     -68.7086304
9.129                0.935862822     -68.8202514
9.13                 0.935696237     -68.9321764
9.131                0.935528895     -69.0444066
9.132                0.935360793     -69.1569429
9.133                0.935191929     -69.2697864
9.134                  0.9350223     -69.3829382
9.135                0.934851904     -69.4963993
9.136                0.934680737     -69.6101709
9.137                0.934508798     -69.7242538
9.138                0.934336083     -69.8386493
9.139                 0.93416259     -69.9533584
9.14                 0.933988316     -70.0683822
9.141                0.933813259     -70.1837218
9.142                0.933637415     -70.2993782
9.143                0.933460782     -70.4153525
9.144                0.933283358     -70.5316459
9.145                0.933105139     -70.6482593
9.146                0.932926124      -70.765194
9.147                0.932746308     -70.8824511
9.148                 0.93256569     -71.0000316
9.149                0.932384267     -71.1179366
9.15                 0.932202037     -71.2361673
9.151                0.932018996     -71.3547247
9.152                0.931835142     -71.4736101
9.153                0.931650472     -71.5928245
9.154                0.931464983     -71.7123691
9.155                0.931278673      -71.832245
9.156                0.931091539     -71.9524533
9.157                0.930903579     -72.0729952
9.158                 0.93071479     -72.1938719
9.159                0.930525168     -72.3150844
9.16                 0.930334712     -72.4366339
9.161                0.930143419     -72.5585217
9.162                0.929951285     -72.6807487
9.163                0.929758309     -72.8033163
9.164                0.929564488     -72.9262256
9.165                0.929369818     -73.0494778
9.166                0.929174298     -73.1730739
9.167                0.928977924     -73.2970153
9.168                0.928780695     -73.4213031
9.169                0.928582607     -73.5459385
9.17                 0.928383657     -73.6709227
9.171                0.928183843     -73.7962568
9.172                0.927983163     -73.9219421
9.173                0.927781613     -74.0479798
9.174                0.927579192     -74.1743711
9.175                0.927375896     -74.3011172
9.176                0.927171722     -74.4282193
9.177                0.926966669     -74.5556786
9.178                0.926760733     -74.6834964
9.179                0.926553913     -74.8116739
9.18                 0.926346204     -74.9402123
9.181                0.926137605     -75.0691129
9.182                0.925928113     -75.1983768
9.183                0.925717726     -75.3280054
9.184                 0.92550644     -75.4579998
9.185                0.925294254     -75.5883614
9.186                0.925081164     -75.7190913
9.187                0.924867168     -75.8501909
9.188                0.924652264     -75.9816614
9.189                0.924436449     -76.1135041
9.19                  0.92421972     -76.2457202
9.191                0.924002075      -76.378311
9.192                0.923783512     -76.5112777
9.193                0.923564027     -76.6446218
9.194                0.923343619     -76.7783444
9.195                0.923122284     -76.9124468
9.196                 0.92290002     -77.0469303
9.197                0.922676825     -77.1817963
9.198                0.922452697      -77.317046
9.199                0.922227632     -77.4526807
9.2                  0.922001629     -77.5887018
9.201                0.921774684     -77.7251105
9.202                0.921546796     -77.8619081
9.203                0.921317961      -77.999096
9.204                0.921088179     -78.1366755
9.205                0.920857445      -78.274648
9.206                0.920625758     -78.4130147
9.207                0.920393116     -78.5517769
9.208                0.920159515     -78.6909361
9.209                0.919924954     -78.8304935
9.21                 0.919689431     -78.9704506
9.211                0.919452942     -79.1108086
9.212                0.919215486     -79.2515689
9.213                 0.91897706     -79.3927328
9.214                0.918737662     -79.5343018
9.215                0.918497289     -79.6762771
9.216                 0.91825594     -79.8186601
9.217                0.918013613     -79.9614523
9.218                0.917770304     -80.1046549
9.219                0.917526012     -80.2482694
9.22                 0.917280734     -80.3922972
9.221                0.917034469     -80.5367395
9.222                0.916787214     -80.6815979
9.223                0.916538967     -80.8268736
9.224                0.916289726     -80.9725681
9.225                0.916039489     -81.1186828
9.226                0.915788253     -81.2652191
9.227                0.915536017     -81.4121783
9.228                0.915282778      -81.559562
9.229                0.915028535     -81.7073714
9.23                 0.914773285      -81.855608
9.231                0.914517027     -82.0042733
9.232                0.914259758     -82.1533686
9.233                0.914001477     -82.3028954
9.234                0.913742181     -82.4528551
9.235                 0.91348187     -82.6032491
9.236                 0.91322054     -82.7540788
9.237                0.912958189     -82.9053457
9.238                0.912694817     -83.0570513
9.239                0.912430422     -83.2091969
9.24                    0.912165      -83.361784
9.241                0.911898552     -83.5148141
9.242                0.911631074     -83.6682886
9.243                0.911362566      -83.822209
9.244                0.911093025     -83.9765767
9.245                0.910822451     -84.1313931
9.246                 0.91055084     -84.2866598
9.247                0.910278192     -84.4423782
9.248                0.910004505     -84.5985497
9.249                0.909729778     -84.7551759
9.25                 0.909454009     -84.9122582
9.251                0.909177196     -85.0697981
9.252                0.908899339      -85.227797
9.253                0.908620435     -85.3862565
9.254                0.908340483      -85.545178
9.255                0.908059482     -85.7045631
9.256                0.907777431     -85.8644131
9.257                0.907494328     -86.0247296
9.258                0.907210172     -86.1855141
9.259                0.906924962     -86.3467681
9.26                 0.906638696      -86.508493
9.261                0.906351374     -86.6706905
9.262                0.906062994     -86.8333619
9.263                0.905773555     -86.9965087
9.264                0.905483056     -87.1601326
9.265                0.905191496      -87.324235
9.266                0.904898874     -87.4888173
9.267                 0.90460519     -87.6538812
9.268                0.904310442     -87.8194281
9.269                0.904014629     -87.9854596
9.27                 0.903717751     -88.1519771
9.271                0.903419807     -88.3189822
9.272                0.903120795     -88.4864764
9.273                0.902820717     -88.6544612
9.274                0.902519569     -88.8229382
9.275                0.902217354     -88.9919088
9.276                0.901914068     -89.1613747
9.277                0.901609713     -89.3313373
9.278                0.901304287     -89.5017981
9.279                0.900997791     -89.6727587
9.28                 0.900690223     -89.8442207
9.281                0.900381584     -90.0161855
9.282                0.900071873     -90.1886547
9.283                0.899761089     -90.3616299
9.284                0.899449234     -90.5351125
9.285                0.899136306     -90.7091041
9.286                0.898822306     -90.8836063
9.287                0.898507233     -91.0586205
9.288                0.898191088     -91.2341483
9.289                0.897873871     -91.4101914
9.29                 0.897555581     -91.5867511
9.291                0.897236219      -91.763829
9.292                0.896915786     -91.9414268
9.293                0.896594281     -92.1195458
9.294                0.896271704     -92.2981878
9.295                0.895948057     -92.4773541
9.296                 0.89562334     -92.6570464
9.297                0.895297553     -92.8372662
9.298                0.894970697     -93.0180151
9.299                0.894642772     -93.1992945
9.3                  0.894313779      -93.381106
9.301                 0.89398372     -93.5634512
9.302                0.893652594     -93.7463316
9.303                0.893320403     -93.9297488
9.304                0.892987148     -94.1137042
9.305                0.892652829     -94.2981994
9.306                0.892317449     -94.4832361
9.307                0.891981007     -94.6688156
9.308                0.891643505     -94.8549395
9.309                0.891304945     -95.0416095
9.31                 0.890965328     -95.2288269
9.311                0.890624656     -95.4165933
9.312                0.890282929     -95.6049104
9.313                0.889940149     -95.7937795
9.314                0.889596319     -95.9832022
9.315                 0.88925144     -96.1731801
9.316                0.888905513     -96.3637147
9.317                0.888558541     -96.5548075
9.318                0.888210525       -96.74646
9.319                0.887861468     -96.9386737
9.32                 0.887511372     -97.1314502
9.321                0.887160238     -97.3247909
9.322                 0.88680807     -97.5186974
9.323                0.886454869     -97.7131712
9.324                0.886100638     -97.9082138
9.325                0.885745379     -98.1038267
9.326                0.885389096     -98.3000114
9.327                 0.88503179     -98.4967693
9.328                0.884673465     -98.6941021
9.329                0.884314123     -98.8920111
9.33                 0.883953768     -99.0904978
9.331                0.883592402     -99.2895638
9.332                0.883230028     -99.4892105
9.333                0.882866651     -99.6894394
9.334                0.882502272      -99.890252
9.335                0.882136896      -100.09165
9.336                0.881770525     -100.293634
9.337                0.881403165     -100.496206
9.338                0.881034817     -100.699368
9.339                0.880665486     -100.903121
9.34                 0.880295177     -101.107466
9.341                0.879923892     -101.312405
9.342                0.879551636     -101.517939
9.343                0.879178413      -101.72407
9.344                0.878804227     -101.930799
9.345                0.878429084     -102.138127
9.346                0.878052986     -102.346057
9.347                0.877675939     -102.554589
9.348                0.877297948     -102.763724
9.349                0.876919016     -102.973465
9.35                  0.87653915     -103.183812
9.351                0.876158354     -103.394767
9.352                0.875776633     -103.606331
9.353                0.875393993     -103.818506
9.354                0.875010438     -104.031293
9.355                0.874625975     -104.244693
9.356                0.874240608     -104.458708
9.357                0.873854344     -104.673338
9.358                0.873467187     -104.888587
9.359                0.873079145     -105.104453
9.36                 0.872690223      -105.32094
9.361                0.872300427     -105.538048
9.362                0.871909764     -105.755778
9.363                0.871518239     -105.974133
9.364                 0.87112586     -106.193112
9.365                0.870732632     -106.412718
9.366                0.870338563     -106.632951
9.367                0.869943659     -106.853813
9.368                0.869547927     -107.075305
9.369                0.869151375     -107.297429
9.37                  0.86875401     -107.520185
9.371                0.868355838     -107.743575
9.372                0.867956868       -107.9676
9.373                0.867557107      -108.19226
9.374                0.867156563     -108.417559
9.375                0.866755243     -108.643495
9.376                0.866353155     -108.870071
9.377                0.865950308     -109.097288
9.378                 0.86554671     -109.325147
9.379                0.865142369     -109.553648
9.38                 0.864737294     -109.782794
9.381                0.864331494     -110.012585
9.382                0.863924976     -110.243022
9.383                 0.86351775     -110.474106
9.384                0.863109825     -110.705839
9.385                0.862701211     -110.938221
9.386                0.862291916     -111.171253
9.387                 0.86188195     -111.404937
9.388                0.861471323     -111.639273
9.389                0.861060043     -111.874262
9.39                 0.860648122     -112.109906
9.391                 0.86023557     -112.346205
9.392                0.859822395      -112.58316
9.393                0.859408609     -112.820772
9.394                0.858994222     -113.059043
9.395                0.858579245     -113.297972
9.396                0.858163688      -113.53756
