! TOUCHSTONE file generated by CST DESIGN STUDIO
! Date and time: Tue Feb  4 18:02:53 2025
! Project name: C:\Work\MatlabApps\UnitCellOptimizationMatlab\CST\unitcell.cst
! Tree item: Tasks\Sweep1\SPara1\S-Parameters
! Header version: 2024
! Port assignment regex: !\s*Touchstone port\s*([0-9]+)\s*=\s*(CST MWS port|CST DES external port|CST DES block port)\s*(.+)\s* \(\"(.*)\"\)(\s*mode\s*([0-9]+))?.*
! Touchstone port assignment:
! Touchstone port 1 = CST DES external port 1 ("")
# GHz S MA R 50
9                    0.859652013     -110.924122
9.001                0.859351051     -111.173276
9.002                0.859049402     -111.423251
9.003                0.858747072     -111.674047
9.004                0.858444068     -111.925666
9.005                0.858140395      -112.17811
9.006                 0.85783606      -112.43138
9.007                0.857531068     -112.685478
9.008                0.857225426     -112.940404
9.009                 0.85691914     -113.196162
9.01                 0.856612218     -113.452751
9.011                0.856304665     -113.710174
9.012                 0.85599649     -113.968431
9.013                0.855687699     -114.227524
9.014                0.855378299     -114.487455
9.015                0.855068299     -114.748225
9.016                0.854757705     -115.009834
9.017                0.854446526     -115.272285
9.018                0.854134769     -115.535578
9.019                0.853822443     -115.799715
9.02                 0.853509556     -116.064696
9.021                0.853196116     -116.330524
9.022                0.852882132     -116.597198
9.023                0.852567614     -116.864721
9.024                0.852252569     -117.133093
9.025                0.851937007     -117.402315
9.026                0.851620937     -117.672388
9.027                0.851304369     -117.943313
9.028                0.850987313     -118.215091
9.029                0.850669778     -118.487723
9.03                 0.850351774      -118.76121
9.031                0.850033312     -119.035553
9.032                0.849714402     -119.310752
9.033                0.849395055     -119.586808
9.034                0.849075281     -119.863722
9.035                0.848755091     -120.141494
9.036                0.848434497     -120.420126
9.037                0.848113509     -120.699618
9.038                0.847792139      -120.97997
9.039                0.847470399     -121.261183
9.04                 0.847148301     -121.543257
9.041                0.846825856     -121.826193
9.042                0.846503077     -122.109992
9.043                0.846179977     -122.394653
9.044                0.845856567     -122.680177
9.045                0.845532861     -122.966565
9.046                0.845208872     -123.253817
9.047                0.844884613     -123.541932
9.048                0.844560097     -123.830911
9.049                0.844235337     -124.120755
9.05                 0.843910348     -124.411462
9.051                0.843585143     -124.703035
9.052                0.843259737     -124.995471
9.053                0.842934143     -125.288772
9.054                0.842608377     -125.582937
9.055                0.842282453     -125.877966
9.056                0.841956386     -126.173859
9.057                 0.84163019     -126.470615
9.058                0.841303882     -126.768235
9.059                0.840977476     -127.066719
9.06                 0.840650989     -127.366064
9.061                0.840324436     -127.666273
9.062                0.839997833     -127.967343
9.063                0.839671196     -128.269274
9.064                0.839344542     -128.572067
9.065                0.839017888     -128.875719
9.066                 0.83869125     -129.180231
9.067                0.838364645     -129.485602
9.068                 0.83803809     -129.791831
9.069                0.837711603     -130.098917
9.07                 0.837385201     -130.406859
9.071                0.837058902     -130.715657
9.072                0.836732724     -131.025309
9.073                0.836406685     -131.335814
9.074                0.836080804     -131.647172
9.075                0.835755098     -131.959381
9.076                0.835429587      -132.27244
9.077                0.835104288     -132.586347
9.078                0.834779222     -132.901102
9.079                0.834454408     -133.216702
9.08                 0.834129864     -133.533147
9.081                0.833805611     -133.850435
9.082                0.833481668     -134.168565
9.083                0.833158055     -134.487534
9.084                0.832834792     -134.807342
9.085                0.832511899     -135.127985
9.086                0.832189397     -135.449464
9.087                0.831867306     -135.771775
9.088                0.831545647     -136.094917
9.089                0.831224442     -136.418887
9.09                  0.83090371     -136.743685
9.091                0.830583473     -137.069307
9.092                0.830263754     -137.395751
9.093                0.829944572     -137.723016
9.094                 0.82962595     -138.051098
9.095                 0.82930791     -138.379996
9.096                0.828990474     -138.709707
9.097                0.828673663     -139.040228
9.098                0.828357501     -139.371558
9.099                0.828042009     -139.703692
9.1                   0.82772721      -140.03663
9.101                0.827413127     -140.370367
9.102                0.827099782     -140.704901
9.103                0.826787199     -141.040229
9.104                0.826475401     -141.376348
9.105                0.826164411     -141.713256
9.106                0.825854252     -142.050948
9.107                0.825544947     -142.389422
9.108                0.825236521     -142.728674
9.109                0.824928996     -143.068701
9.11                 0.824622397     -143.409501
9.111                0.824316748     -143.751068
9.112                0.824012072       -144.0934
9.113                0.823708394     -144.436493
9.114                0.823405737     -144.780344
9.115                0.823104127     -145.124948
9.116                0.822803586     -145.470302
9.117                0.822504141     -145.816402
9.118                0.822205815     -146.163244
9.119                0.821908632     -146.510824
9.12                 0.821612618     -146.859138
9.121                0.821317798     -147.208181
9.122                0.821024195      -147.55795
9.123                0.820731835     -147.908439
9.124                0.820440743     -148.259646
9.125                0.820150943     -148.611564
9.126                0.819862461      -148.96419
9.127                0.819575321     -149.317519
9.128                0.819289549     -149.671546
9.129                 0.81900517     -150.026267
9.13                 0.818722208     -150.381676
9.131                0.818440689     -150.737769
9.132                0.818160639     -151.094541
9.133                0.817882081     -151.451986
9.134                0.817605042       -151.8101
9.135                0.817329546     -152.168877
9.136                0.817055619     -152.528313
9.137                0.816783285     -152.888401
9.138                0.816512571     -153.249136
9.139                  0.8162435     -153.610513
9.14                 0.815976098     -153.972527
9.141                 0.81571039     -154.335171
9.142                0.815446401      -154.69844
9.143                0.815184156     -155.062328
9.144                 0.81492368     -155.426829
9.145                0.814664998     -155.791938
9.146                0.814408134     -156.157648
9.147                0.814153113     -156.523953
9.148                 0.81389996     -156.890847
9.149                  0.8136487     -157.258325
9.15                 0.813399356     -157.626379
9.151                0.813151954     -157.995003
9.152                0.812906518     -158.364192
9.153                0.812663072     -158.733937
9.154                0.812421639     -159.104234
9.155                0.812182245     -159.475075
9.156                0.811944913     -159.846454
9.157                0.811709667     -160.218364
9.158                0.811476529     -160.590797
9.159                0.811245525     -160.963748
9.16                 0.811016678      -161.33721
9.161                0.810790009     -161.711174
9.162                0.810565544     -162.085635
9.163                0.810343304     -162.460585
9.164                0.810123312     -162.836017
9.165                0.809905591     -163.211924
9.166                0.809690164     -163.588298
9.167                0.809477052     -163.965132
9.168                0.809266278     -164.342419
9.169                0.809057864      -164.72015
9.17                 0.808851831      -165.09832
9.171                0.808648201     -165.476919
9.172                0.808446995     -165.855941
9.173                0.808248234     -166.235377
9.174                0.808051939      -166.61522
9.175                0.807858131     -166.995463
9.176                 0.80766683     -167.376096
9.177                0.807478056     -167.757113
9.178                 0.80729183     -168.138505
9.179                 0.80710817     -168.520264
9.18                 0.806927096     -168.902382
9.181                0.806748628     -169.284852
9.182                0.806572785     -169.667664
9.183                0.806399585     -170.050811
9.184                0.806229046     -170.434285
9.185                0.806061187     -170.818076
9.186                0.805896025     -171.202177
9.187                0.805733579      -171.58658
9.188                0.805573864     -171.971276
9.189                  0.8054169     -172.356256
9.19                 0.805262701     -172.741512
9.191                0.805111284     -173.127036
9.192                0.804962666     -173.512818
9.193                0.804816863     -173.898851
9.194                0.804673889     -174.285125
9.195                0.804533759     -174.671632
9.196                 0.80439649     -175.058363
9.197                0.804262094      -175.44531
9.198                0.804130587     -175.832463
9.199                0.804001982     -176.219814
9.2                  0.803876293     -176.607354
9.201                0.803753532     -176.995074
9.202                0.803633713     -177.382965
9.203                0.803516847     -177.771019
9.204                0.803402948     -178.159225
9.205                0.803292027     -178.547577
9.206                0.803184094     -178.936063
9.207                0.803079162     -179.324676
9.208                0.802977241     -179.713407
9.209                0.802878341      179.897755
9.21                 0.802782471      179.508816
9.211                0.802689643      179.119788
9.212                0.802599864      178.730679
9.213                0.802513144      178.341497
9.214                 0.80242949      177.952253
9.215                0.802348912      177.562954
9.216                0.802271416      177.173611
9.217                 0.80219701      176.784232
9.218                0.802125701      176.394827
9.219                0.802057495      176.005404
9.22                 0.801992398      175.615973
9.221                0.801930417      175.226543
9.222                0.801871556      174.837123
9.223                 0.80181582      174.447723
9.224                0.801763214       174.05835
9.225                0.801713743      173.669015
9.226                0.801667409      173.279726
9.227                0.801624216      172.890493
9.228                0.801584167      172.501325
9.229                0.801547265       172.11223
9.23                 0.801513511      171.723219
9.231                0.801482909      171.334299
9.232                0.801455458      170.945481
9.233                 0.80143116      170.556772
9.234                0.801410015      170.168183
9.235                0.801392025      169.779722
9.236                0.801377187      169.391397
9.237                0.801365503      169.003219
9.238                0.801356971      168.615196
9.239                0.801351589      168.227337
9.24                 0.801349356       167.83965
9.241                0.801350269      167.452146
9.242                0.801354326      167.064832
9.243                0.801361525      166.677717
9.244                0.801371861      166.290811
9.245                0.801385332      165.904121
9.246                0.801401932      165.517657
9.247                0.801421658      165.131428
9.248                0.801444505      164.745441
9.249                0.801470467      164.359706
9.25                 0.801499539      163.974232
9.251                0.801531715      163.589026
9.252                0.801566988      163.204098
9.253                0.801605353      162.819455
9.254                0.801646801      162.435107
9.255                0.801691326      162.051062
9.256                0.801738919      161.667327
9.257                0.801789573      161.283912
9.258                0.801843279      160.900825
9.259                0.801900029      160.518074
9.26                 0.801959812      160.135666
9.261                 0.80202262      159.753611
9.262                0.802088443      159.371916
9.263                0.802157271      158.990589
9.264                0.802229092      158.609639
9.265                0.802303897      158.229073
9.266                0.802381674      157.848899
9.267                0.802462412      157.469125
9.268                0.802546098      157.089759
9.269                0.802632721      156.710808
9.27                 0.802722269       156.33228
9.271                0.802814728      155.954183
9.272                0.802910086      155.576524
9.273                 0.80300833      155.199311
9.274                0.803109445      154.822551
9.275                0.803213418      154.446252
9.276                0.803320235      154.070421
9.277                0.803429881      153.695065
9.278                0.803542342      153.320191
9.279                0.803657603      152.945806
9.28                 0.803775648      152.571919
9.281                0.803896462      152.198534
9.282                 0.80402003       151.82566
9.283                0.804146335      151.453304
9.284                0.804275361      151.081472
9.285                0.804407092       150.71017
9.286                 0.80454151      150.339406
9.287                  0.8046786      149.969187
9.288                0.804818343      149.599518
9.289                0.804960724      149.230406
9.29                 0.805105723      148.861858
9.291                0.805253323       148.49388
9.292                0.805403507      148.126478
9.293                0.805556255      147.759658
9.294                0.805711551      147.393427
9.295                0.805869375      147.027791
9.296                0.806029708      146.662755
9.297                0.806192531      146.298326
9.298                0.806357826      145.934509
9.299                0.806525573       145.57131
9.3                  0.806695753      145.208735
9.301                0.806868346       144.84679
9.302                0.807043333      144.485479
9.303                0.807220693      144.124809
9.304                0.807400407      143.764785
9.305                0.807582454      143.405412
9.306                0.807766815      143.046695
9.307                0.807953468      142.688641
9.308                0.808142394      142.331253
9.309                0.808333571      141.974536
9.31                  0.80852698      141.618497
9.311                0.808722598      141.263139
9.312                0.808920405      140.908468
9.313                0.809120381      140.554488
9.314                0.809322503      140.201204
9.315                0.809526752      139.848621
9.316                0.809733104      139.496743
9.317                 0.80994154      139.145574
9.318                0.810152037      138.795119
9.319                0.810364574      138.445382
9.32                  0.81057913      138.096368
9.321                0.810795683       137.74808
9.322                0.811014211      137.400523
9.323                0.811234692      137.053701
9.324                0.811457105      136.707617
9.325                0.811681428      136.362276
9.326                0.811907638      136.017681
9.327                0.812135715      135.673836
9.328                0.812365636      135.330744
9.329                 0.81259738       134.98841
9.33                 0.812830923      134.646836
9.331                0.813066245      134.306027
9.332                0.813303324      133.965985
9.333                0.813542136      133.626714
9.334                0.813782662      133.288217
9.335                0.814024877      132.950497
9.336                0.814268762      132.613557
9.337                0.814514292        132.2774
9.338                0.814761448       131.94203
9.339                0.815010206      131.607448
9.34                 0.815260545      131.273658
9.341                0.815512443      130.940663
9.342                0.815765878      130.608465
9.343                0.816020829      130.277067
9.344                0.816277273      129.946471
9.345                0.816535189      129.616679
9.346                0.816794555      129.287695
9.347                0.817055349       128.95952
9.348                0.817317551      128.632157
9.349                0.817581138      128.305608
9.35                 0.817846088      127.979874
9.351                0.818112382      127.654959
9.352                0.818379997      127.330864
9.353                0.818648911      127.007591
9.354                0.818919105      126.685141
9.355                0.819190555      126.363517
9.356                0.819463243      126.042721
9.357                0.819737146      125.722753
9.358                0.820012243      125.403616
9.359                0.820288515      125.085312
9.36                 0.820565939      124.767841
9.361                0.820844496      124.451205
9.362                0.821124165      124.135405
9.363                0.821404925      123.820443
9.364                0.821686757      123.506321
9.365                0.821969639      123.193038
9.366                0.822253552      122.880597
9.367                0.822538475      122.568998
9.368                0.822824389      122.258243
9.369                0.823111273      121.948332
9.37                 0.823399109      121.639267
9.371                0.823687875      121.331047
9.372                0.823977554      121.023675
9.373                0.824268125       120.71715
9.374                0.824559569      120.411474
9.375                0.824851867      120.106647
9.376                0.825144999      119.802669
9.377                0.825438948      119.499542
9.378                0.825733693      119.197265
9.379                0.826029217      118.895839
9.38                 0.826325501      118.595265
9.381                0.826622526      118.295542
9.382                0.826920274      117.996672
9.383                0.827218727      117.698653
9.384                0.827517866      117.401488
9.385                0.827817674      117.105174
9.386                0.828118133      116.809714
9.387                0.828419226      116.515106
9.388                0.828720934      116.221351
9.389                 0.82902324      115.928449
9.39                 0.829326128      115.636399
9.391                0.829629579      115.345202
9.392                0.829933578      115.054856
9.393                0.830238106      114.765363
9.394                0.830543148      114.476722
9.395                0.830848686      114.188932
9.396                0.831154705      113.901994
