! TOUCHSTONE file generated by CST DESIGN STUDIO
! Date and time: Tue Feb  4 15:48:36 2025
! Project name: C:\Work\MatlabApps\UnitCellOptimizationMatlab\CST\unitcell.cst
! Tree item: Tasks\Sweep1\SPara1\S-Parameters
! Header version: 2024
! Port assignment regex: !\s*Touchstone port\s*([0-9]+)\s*=\s*(CST MWS port|CST DES external port|CST DES block port)\s*(.+)\s* \(\"(.*)\"\)(\s*mode\s*([0-9]+))?.*
! Touchstone port assignment:
! Touchstone port 1 = CST DES external port 1 ("")
# GHz S MA R 50
9                     0.99239457     -72.4913295
9.001                0.992377665     -72.5964686
9.002                 0.99236071     -72.7018578
9.003                0.992343704     -72.8074978
9.004                0.992326648     -72.9133895
9.005                 0.99230954     -73.0195334
9.006                0.992292382     -73.1259304
9.007                0.992275173     -73.2325813
9.008                0.992257913     -73.3394867
9.009                0.992240602     -73.4466474
9.01                 0.992223239     -73.5540642
9.011                0.992205825     -73.6617379
9.012                 0.99218836     -73.7696691
9.013                0.992170842     -73.8778587
9.014                0.992153273     -73.9863074
9.015                0.992135652     -74.0950159
9.016                0.992117979     -74.2039851
9.017                0.992100253     -74.3132157
9.018                0.992082476     -74.4227084
9.019                0.992064646     -74.5324641
9.02                 0.992046763     -74.6424835
9.021                0.992028828     -74.7527674
9.022                 0.99201084     -74.8633165
9.023                0.991992799     -74.9741317
9.024                0.991974706     -75.0852137
9.025                0.991956559     -75.1965633
9.026                0.991938359     -75.3081813
9.027                0.991920105     -75.4200684
9.028                0.991901798     -75.5322255
9.029                0.991883438     -75.6446533
9.03                 0.991865024     -75.7573527
9.031                0.991846556     -75.8703244
9.032                0.991828034     -75.9835693
9.033                0.991809458      -76.097088
9.034                0.991790828     -76.2108815
9.035                0.991772144     -76.3249504
9.036                0.991753406     -76.4392957
9.037                0.991734613     -76.5539182
9.038                0.991715765     -76.6688185
9.039                0.991696863     -76.7839976
9.04                 0.991677906     -76.8994562
9.041                0.991658894     -77.0151952
9.042                0.991639827     -77.1312153
9.043                0.991620705     -77.2475175
9.044                0.991601528     -77.3641024
9.045                0.991582295      -77.480971
9.046                0.991563007     -77.5981239
9.047                0.991543664     -77.7155622
9.048                0.991524265     -77.8332865
9.049                 0.99150481     -77.9512977
9.05                 0.991485299     -78.0695967
9.051                0.991465732     -78.1881842
9.052                 0.99144611     -78.3070611
9.053                0.991426431     -78.4262283
9.054                0.991406696     -78.5456865
9.055                0.991386904     -78.6654366
9.056                0.991367056     -78.7854794
9.057                0.991347152     -78.9058158
9.058                0.991327191     -79.0264466
9.059                0.991307173     -79.1473726
9.06                 0.991287098     -79.2685948
9.061                0.991266967     -79.3901138
9.062                0.991246778     -79.5119307
9.063                0.991226532     -79.6340462
9.064                0.991206229     -79.7564612
9.065                0.991185869     -79.8791765
9.066                0.991165451      -80.002193
9.067                0.991144976     -80.1255115
9.068                0.991124443      -80.249133
9.069                0.991103853     -80.3730582
9.07                 0.991083205      -80.497288
9.071                0.991062499     -80.6218233
9.072                0.991041735     -80.7466649
9.073                0.991020913     -80.8718138
9.074                0.991000033     -80.9972707
9.075                0.990979095     -81.1230365
9.076                0.990958098     -81.2491121
9.077                0.990937043     -81.3754985
9.078                 0.99091593     -81.5021963
9.079                0.990894758     -81.6292066
9.08                 0.990873528     -81.7565302
9.081                0.990852239     -81.8841679
9.082                0.990830892     -82.0121206
9.083                0.990809485     -82.1403893
9.084                 0.99078802     -82.2689748
9.085                0.990766496      -82.397878
9.086                0.990744913     -82.5270997
9.087                 0.99072327     -82.6566409
9.088                0.990701569     -82.7865024
9.089                0.990679808     -82.9166851
9.09                 0.990657988     -83.0471899
9.091                0.990636109     -83.1780177
9.092                0.990614171     -83.3091693
9.093                0.990592173     -83.4406458
9.094                0.990570115     -83.5724479
9.095                0.990547998     -83.7045765
9.096                0.990525821     -83.8370326
9.097                0.990503584      -83.969817
9.098                0.990481288     -84.1029307
9.099                0.990458932     -84.2363745
9.1                  0.990436516     -84.3701493
9.101                0.990414041      -84.504256
9.102                0.990391505     -84.6386956
9.103                0.990368909     -84.7734689
9.104                0.990346254     -84.9085769
9.105                0.990323538     -85.0440203
9.106                0.990300762     -85.1798002
9.107                0.990277926     -85.3159175
9.108                 0.99025503      -85.452373
9.109                0.990232073     -85.5891676
9.11                 0.990209056     -85.7263023
9.111                0.990185979      -85.863778
9.112                0.990162842     -86.0015956
9.113                0.990139644     -86.1397559
9.114                0.990116386     -86.2782599
9.115                0.990093068     -86.4171085
9.116                0.990069689     -86.5563027
9.117                 0.99004625     -86.6958433
9.118                 0.99002275     -86.8357312
9.119                 0.98999919     -86.9759674
9.12                 0.989975569     -87.1165527
9.121                0.989951887     -87.2574881
9.122                0.989928146     -87.3987745
9.123                0.989904343     -87.5404129
9.124                 0.98988048      -87.682404
9.125                0.989856557     -87.8247489
9.126                0.989832573     -87.9674485
9.127                0.989808528     -88.1105036
9.128                0.989784423     -88.2539152
9.129                0.989760258     -88.3976843
9.13                 0.989736031     -88.5418116
9.131                0.989711745     -88.6862982
9.132                0.989687397      -88.831145
9.133                 0.98966299     -88.9763528
9.134                0.989638521     -89.1219227
9.135                0.989613993     -89.2678554
9.136                0.989589404      -89.414152
9.137                0.989564754     -89.5608133
9.138                0.989540044     -89.7078404
9.139                0.989515274     -89.8552339
9.14                 0.989490443     -90.0029951
9.141                0.989465552     -90.1511246
9.142                0.989440601     -90.2996234
9.143                0.989415589     -90.4484926
9.144                0.989390517     -90.5977329
9.145                0.989365385     -90.7473453
9.146                0.989340193     -90.8973307
9.147                0.989314941       -91.04769
9.148                0.989289629     -91.1984242
9.149                0.989264257     -91.3495341
9.15                 0.989238825     -91.5010207
9.151                0.989213333     -91.6528849
9.152                0.989187782     -91.8051276
9.153                0.989162171     -91.9577497
9.154                  0.9891365     -92.1107521
9.155                0.989110769     -92.2641358
9.156                0.989084979     -92.4179016
9.157                 0.98905913     -92.5720505
9.158                0.989033221     -92.7265833
9.159                0.989007253     -92.8815011
9.16                 0.988981226     -93.0368046
9.161                 0.98895514     -93.1924948
9.162                0.988928995     -93.3485726
9.163                0.988902791     -93.5050389
9.164                0.988876528     -93.6618946
9.165                0.988850207     -93.8191406
9.166                0.988823827     -93.9767778
9.167                0.988797388     -94.1348071
9.168                0.988770891     -94.2932295
9.169                0.988744336     -94.4520457
9.17                 0.988717723     -94.6112568
9.171                0.988691052     -94.7708636
9.172                0.988664323     -94.9308669
9.173                0.988637537     -95.0912677
9.174                0.988610693     -95.2520669
9.175                0.988583791     -95.4132654
9.176                0.988556832      -95.574864
9.177                0.988529816     -95.7368636
9.178                0.988502743     -95.8992651
9.179                0.988475613     -96.0620695
9.18                 0.988448427     -96.2252775
9.181                0.988421184       -96.38889
9.182                0.988393885      -96.552908
9.183                0.988366529     -96.7173323
9.184                0.988339118     -96.8821638
9.185                 0.98831165     -97.0474033
9.186                0.988284127     -97.2130517
9.187                0.988256549     -97.3791098
9.188                0.988228915     -97.5455786
9.189                0.988201227     -97.7124589
9.19                 0.988173483     -97.8797515
9.191                0.988145685     -98.0474574
9.192                0.988117832     -98.2155772
9.193                0.988089926      -98.384112
9.194                0.988061965     -98.5530625
9.195                 0.98803395     -98.7224296
9.196                0.988005882     -98.8922142
9.197                0.987977761      -99.062417
9.198                0.987949586     -99.2330389
9.199                0.987921359     -99.4040807
9.2                  0.987893079     -99.5755433
9.201                0.987864747     -99.7474274
9.202                0.987836362      -99.919734
9.203                0.987807926     -100.092464
9.204                0.987779438     -100.265618
9.205                0.987750899     -100.439196
9.206                0.987722309       -100.6132
9.207                0.987693669     -100.787631
9.208                0.987664977     -100.962489
9.209                0.987636236     -101.137775
9.21                 0.987607445      -101.31349
9.211                0.987578604     -101.489635
9.212                0.987549714      -101.66621
9.213                0.987520775     -101.843216
9.214                0.987491788     -102.020654
9.215                0.987462752     -102.198525
9.216                0.987433668     -102.376829
9.217                0.987404536     -102.555568
9.218                0.987375358     -102.734741
9.219                0.987346132      -102.91435
9.22                 0.987316859     -103.094396
9.221                0.987287541      -103.27488
9.222                0.987258176     -103.455801
9.223                0.987228766     -103.637161
9.224                0.987199311      -103.81896
9.225                0.987169811       -104.0012
9.226                0.987140267      -104.18388
9.227                0.987110678     -104.367002
9.228                0.987081046     -104.550567
9.229                0.987051371     -104.734574
9.23                 0.987021653     -104.919025
9.231                0.986991893     -105.103921
9.232                 0.98696209     -105.289262
9.233                0.986932246     -105.475048
9.234                0.986902361     -105.661281
9.235                0.986872435     -105.847961
9.236                0.986842469     -106.035089
9.237                0.986812464     -106.222665
9.238                0.986782419     -106.410691
9.239                0.986752335     -106.599166
9.24                 0.986722212     -106.788092
9.241                0.986692052     -106.977468
9.242                0.986661854     -107.167296
9.243                 0.98663162     -107.357577
9.244                0.986601348      -107.54831
9.245                0.986571041     -107.739497
9.246                0.986540699     -107.931137
9.247                0.986510321     -108.123233
9.248                0.986479909     -108.315783
9.249                0.986449463      -108.50879
9.25                 0.986418984     -108.702253
9.251                0.986388472     -108.896172
9.252                0.986357928      -109.09055
9.253                0.986327352     -109.285385
9.254                0.986296744     -109.480678
9.255                0.986266107     -109.676431
9.256                0.986235439     -109.872644
9.257                0.986204741     -110.069316
9.258                0.986174015     -110.266449
9.259                0.986143261     -110.464044
9.26                 0.986112479       -110.6621
9.261                 0.98608167     -110.860618
9.262                0.986050834     -111.059598
9.263                0.986019973     -111.259041
9.264                0.985989086     -111.458948
9.265                0.985958175     -111.659319
9.266                 0.98592724     -111.860155
9.267                0.985896282     -112.061455
9.268                0.985865301      -112.26322
9.269                0.985834298      -112.46545
9.27                 0.985803274     -112.668147
9.271                 0.98577223      -112.87131
9.272                0.985741166      -113.07494
9.273                0.985710082     -113.279037
9.274                 0.98567898     -113.483601
9.275                 0.98564786     -113.688634
9.276                0.985616723     -113.894134
9.277                 0.98558557     -114.100103
9.278                0.985554401     -114.306541
9.279                0.985523218     -114.513447
9.28                  0.98549202     -114.720824
9.281                0.985460809     -114.928669
9.282                0.985429585     -115.136985
9.283                 0.98539835     -115.345771
9.284                0.985367103     -115.555028
9.285                0.985335846     -115.764755
9.286                 0.98530458     -115.974953
9.287                0.985273305     -116.185623
9.288                0.985242023     -116.396763
9.289                0.985210733     -116.608376
9.29                 0.985179437      -116.82046
9.291                0.985148136     -117.033016
9.292                 0.98511683     -117.246044
9.293                 0.98508552     -117.459544
9.294                0.985054208     -117.673517
9.295                0.985022894     -117.887962
9.296                0.984991578      -118.10288
9.297                0.984960263      -118.31827
9.298                0.984928948     -118.534133
9.299                0.984897634     -118.750469
9.3                  0.984866323     -118.967278
9.301                0.984835016      -119.18456
9.302                0.984803713     -119.402315
9.303                0.984772414     -119.620543
9.304                0.984741123     -119.839244
9.305                0.984709838     -120.058418
9.306                0.984678561     -120.278065
9.307                0.984647293     -120.498185
9.308                0.984616035     -120.718777
9.309                0.984584788     -120.939843
9.31                 0.984553553     -121.161381
9.311                0.984522331     -121.383392
9.312                0.984491123     -121.605876
9.313                 0.98445993     -121.828832
9.314                0.984428752      -122.05226
9.315                0.984397592     -122.276161
9.316                0.984366449     -122.500533
9.317                0.984335326     -122.725377
9.318                0.984304222     -122.950693
9.319                0.984273139     -123.176481
9.32                 0.984242079     -123.402739
9.321                0.984211042     -123.629469
9.322                0.984180029     -123.856669
9.323                0.984149041     -124.084339
9.324                0.984118079      -124.31248
9.325                0.984087146      -124.54109
9.326                 0.98405624      -124.77017
9.327                0.984025365     -124.999719
9.328                 0.98399452     -125.229737
9.329                0.983963707     -125.460224
9.33                 0.983932927     -125.691178
9.331                0.983902182     -125.922601
9.332                0.983871472      -126.15449
9.333                0.983840798     -126.386846
9.334                0.983810162     -126.619669
9.335                0.983779565     -126.852957
9.336                0.983749007     -127.086711
9.337                0.983718491      -127.32093
9.338                0.983688017     -127.555613
9.339                0.983657587      -127.79076
9.34                 0.983627202     -128.026371
9.341                0.983596862     -128.262444
9.342                 0.98356657     -128.498979
9.343                0.983536325     -128.735976
9.344                0.983506131     -128.973433
9.345                0.983475987     -129.211351
9.346                0.983445896     -129.449729
9.347                0.983415857     -129.688565
9.348                0.983385873      -129.92786
9.349                0.983355945     -130.167612
9.35                 0.983326074      -130.40782
9.351                0.983296262     -130.648485
9.352                0.983266509     -130.889605
9.353                0.983236817      -131.13118
9.354                0.983207187     -131.373208
9.355                 0.98317762     -131.615689
9.356                0.983148119     -131.858622
9.357                0.983118683     -132.102006
9.358                0.983089315      -132.34584
9.359                0.983060015     -132.590124
9.36                 0.983030785     -132.834855
9.361                0.983001627     -133.080035
9.362                0.982972541      -133.32566
9.363                 0.98294353     -133.571732
9.364                0.982914593     -133.818247
9.365                0.982885734     -134.065206
9.366                0.982856952     -134.312608
9.367                 0.98282825      -134.56045
9.368                0.982799628     -134.808733
9.369                0.982771089     -135.057455
9.37                 0.982742633     -135.306616
9.371                0.982714261     -135.556213
9.372                0.982685976     -135.806245
9.373                0.982657779     -136.056712
9.374                 0.98262967     -136.307613
9.375                0.982601652     -136.558945
9.376                0.982573726     -136.810709
9.377                0.982545892     -137.062902
9.378                0.982518154     -137.315523
9.379                0.982490511     -137.568571
9.38                 0.982462965     -137.822045
9.381                0.982435518     -138.075942
9.382                0.982408172     -138.330263
9.383                0.982380926     -138.585006
9.384                0.982353784     -138.840168
9.385                0.982326746     -139.095749
9.386                0.982299814     -139.351747
9.387                0.982272989     -139.608161
9.388                0.982246273      -139.86499
9.389                0.982219667      -140.12223
9.39                 0.982193172     -140.379882
9.391                0.982166791     -140.637944
9.392                0.982140523     -140.896413
9.393                0.982114372     -141.155289
9.394                0.982088337      -141.41457
9.395                0.982062422     -141.674254
9.396                0.982036626     -141.934339
