! TOUCHSTONE file generated by CST DESIGN STUDIO
! Date and time: Tue Feb  4 15:48:30 2025
! Project name: C:\Work\MatlabApps\UnitCellOptimizationMatlab\CST\unitcell.cst
! Tree item: Tasks\Sweep1\SPara1\S-Parameters
! Header version: 2024
! Port assignment regex: !\s*Touchstone port\s*([0-9]+)\s*=\s*(CST MWS port|CST DES external port|CST DES block port)\s*(.+)\s* \(\"(.*)\"\)(\s*mode\s*([0-9]+))?.*
! Touchstone port assignment:
! Touchstone port 1 = CST DES external port 1 ("")
# GHz S MA R 50
9                     0.99169159     -75.3246809
9.001                0.991672239     -75.4360007
9.002                 0.99165283     -75.5475878
9.003                0.991633364     -75.6594432
9.004                0.991613839     -75.7715675
9.005                0.991594257     -75.8839616
9.006                0.991574616     -75.9966262
9.007                0.991554916     -76.1095622
9.008                0.991535158     -76.2227702
9.009                0.991515341     -76.3362512
9.01                 0.991495466     -76.4500058
9.011                0.991475532     -76.5640349
9.012                0.991455538     -76.6783393
9.013                0.991435485     -76.7929198
9.014                0.991415373     -76.9077771
9.015                0.991395202     -77.0229121
9.016                0.991374971     -77.1383256
9.017                0.991354681     -77.2540183
9.018                 0.99133433     -77.3699911
9.019                 0.99131392     -77.4862449
9.02                  0.99129345     -77.6027803
9.021                0.991272919     -77.7195982
9.022                0.991252329     -77.8366994
9.023                0.991231678     -77.9540848
9.024                0.991210966     -78.0717551
9.025                0.991190194     -78.1897112
9.026                0.991169361     -78.3079539
9.027                0.991148467     -78.4264839
9.028                0.991127513     -78.5453022
9.029                0.991106497     -78.6644096
9.03                  0.99108542     -78.7838068
9.031                0.991064282     -78.9034948
9.032                0.991043082     -79.0234742
9.033                0.991021821     -79.1437461
9.034                0.991000498     -79.2643111
9.035                0.990979113     -79.3851701
9.036                0.990957667     -79.5063241
9.037                0.990936159     -79.6277737
9.038                0.990914588     -79.7495198
9.039                0.990892956     -79.8715634
9.04                 0.990871261     -79.9939051
9.041                0.990849504      -80.116546
9.042                0.990827684     -80.2394867
9.043                0.990805802     -80.3627282
9.044                0.990783857     -80.4862713
9.045                0.990761849     -80.6101168
9.046                0.990739778     -80.7342657
9.047                0.990717645     -80.8587187
9.048                0.990695448     -80.9834767
9.049                0.990673188     -81.1085406
9.05                 0.990650865     -81.2339112
9.051                0.990628478     -81.3595893
9.052                0.990606028      -81.485576
9.053                0.990583515     -81.6118719
9.054                0.990560937     -81.7384779
9.055                0.990538297      -81.865395
9.056                0.990515592      -81.992624
9.057                0.990492823     -82.1201657
9.058                 0.99046999     -82.2480211
9.059                0.990447094     -82.3761909
9.06                 0.990424133     -82.5046761
9.061                0.990401108     -82.6334775
9.062                0.990378018      -82.762596
9.063                0.990354864     -82.8920325
9.064                0.990331646     -83.0217879
9.065                0.990308363     -83.1518629
9.066                0.990285015     -83.2822586
9.067                0.990261603     -83.4129758
9.068                0.990238126     -83.5440153
9.069                0.990214584     -83.6753781
9.07                 0.990190977      -83.807065
9.071                0.990167305     -83.9390768
9.072                0.990143568     -84.0714146
9.073                0.990119766     -84.2040792
9.074                0.990095898     -84.3370714
9.075                0.990071966     -84.4703922
9.076                0.990047968     -84.6040424
9.077                0.990023904     -84.7380229
9.078                0.989999775     -84.8723346
9.079                0.989975581     -85.0069785
9.08                 0.989951321     -85.1419553
9.081                0.989926996      -85.277266
9.082                0.989902605     -85.4129115
9.083                0.989878148     -85.5488927
9.084                0.989853625     -85.6852105
9.085                0.989829037     -85.8218657
9.086                0.989804382     -85.9588593
9.087                0.989779662     -86.0961921
9.088                0.989754876     -86.2338651
9.089                0.989730024     -86.3718792
9.09                 0.989705106     -86.5102352
9.091                0.989680121      -86.648934
9.092                0.989655071     -86.7879767
9.093                0.989629955     -86.9273639
9.094                0.989604772     -87.0670968
9.095                0.989579523     -87.2071761
9.096                0.989554208     -87.3476028
9.097                0.989528827     -87.4883777
9.098                 0.98950338     -87.6295018
9.099                0.989477866      -87.770976
9.1                  0.989452286     -87.9128011
9.101                 0.98942664     -88.0549782
9.102                0.989400927      -88.197508
9.103                0.989375149     -88.3403915
9.104                0.989349303     -88.4836296
9.105                0.989323392     -88.6272233
9.106                0.989297414     -88.7711733
9.107                 0.98927137     -88.9154807
9.108                0.989245259     -89.0601462
9.109                0.989219083     -89.2051709
9.11                 0.989192839     -89.3505557
9.111                 0.98916653     -89.4963014
9.112                0.989140154     -89.6424089
9.113                0.989113712     -89.7888792
9.114                0.989087204     -89.9357132
9.115                 0.98906063     -90.0829117
9.116                0.989033989     -90.2304757
9.117                0.989007282     -90.3784061
9.118                0.988980509     -90.5267038
9.119                 0.98895367     -90.6753696
9.12                 0.988926764     -90.8244046
9.121                0.988899793     -90.9738096
9.122                0.988872755     -91.1235855
9.123                0.988845652     -91.2737332
9.124                0.988818483     -91.4242536
9.125                0.988791247     -91.5751476
9.126                0.988763946     -91.7264161
9.127                 0.98873658     -91.8780601
9.128                0.988709147     -92.0300804
9.129                0.988681649     -92.1824779
9.13                 0.988654085     -92.3352536
9.131                0.988626455     -92.4884083
9.132                0.988598761     -92.6419429
9.133                   0.988571     -92.7958583
9.134                0.988543175     -92.9501554
9.135                0.988515284     -93.1048352
9.136                0.988487328     -93.2598985
9.137                0.988459307     -93.4153462
9.138                0.988431221     -93.5711792
9.139                 0.98840307     -93.7273983
9.14                 0.988374854     -93.8840046
9.141                0.988346574     -94.0409988
9.142                0.988318229     -94.1983819
9.143                 0.98828982     -94.3561548
9.144                0.988261346     -94.5143183
9.145                0.988232808     -94.6728733
9.146                0.988204206     -94.8318207
9.147                0.988175539     -94.9911613
9.148                0.988146809     -95.1508962
9.149                0.988118016     -95.3110261
9.15                 0.988089158     -95.4715519
9.151                0.988060237     -95.6324745
9.152                0.988031253     -95.7937948
9.153                0.988002206     -95.9555136
9.154                0.987973095     -96.1176318
9.155                0.987943922     -96.2801503
9.156                0.987914686       -96.44307
9.157                0.987885387     -96.6063917
9.158                0.987856026     -96.7701162
9.159                0.987826603     -96.9342444
9.16                 0.987797117     -97.0987773
9.161                 0.98776757     -97.2637156
9.162                0.987737961     -97.4290602
9.163                0.987708291     -97.5948119
9.164                0.987678559     -97.7609716
9.165                0.987648767     -97.9275402
9.166                0.987618913     -98.0945185
9.167                0.987588999     -98.2619072
9.168                0.987559024     -98.4297074
9.169                0.987528989     -98.5979197
9.17                 0.987498893     -98.7665451
9.171                0.987468738     -98.9355843
9.172                0.987438524     -99.1050382
9.173                 0.98740825     -99.2749076
9.174                0.987377917     -99.4451934
9.175                0.987347525     -99.6158963
9.176                0.987317074     -99.7870172
9.177                0.987286565     -99.9585568
9.178                0.987255998     -100.130516
9.179                0.987225373     -100.302896
9.18                 0.987194691     -100.475696
9.181                0.987163951     -100.648919
9.182                0.987133154     -100.822565
9.183                0.987102301     -100.996634
9.184                0.987071391     -101.171127
9.185                0.987040425     -101.346046
9.186                0.987009403      -101.52139
9.187                0.986978325     -101.697161
9.188                0.986947193      -101.87336
9.189                0.986916005     -102.049987
9.19                 0.986884763     -102.227043
9.191                0.986853466     -102.404528
9.192                0.986822116     -102.582444
9.193                0.986790712     -102.760792
9.194                0.986759255     -102.939571
9.195                0.986727745     -103.118783
9.196                0.986696182     -103.298429
9.197                0.986664568     -103.478508
9.198                0.986632901     -103.659023
9.199                0.986601183     -103.839973
9.2                  0.986569414      -104.02136
9.201                0.986537595     -104.203183
9.202                0.986505725     -104.385445
9.203                0.986473805     -104.568145
9.204                0.986441836     -104.751284
9.205                0.986409818     -104.934862
9.206                0.986377752     -105.118882
9.207                0.986345637     -105.303343
9.208                0.986313474     -105.488245
9.209                0.986281264      -105.67359
9.21                 0.986249008     -105.859378
9.211                0.986216705     -106.045611
9.212                0.986184356     -106.232287
9.213                0.986151961     -106.419409
9.214                0.986119521     -106.606977
9.215                0.986087037     -106.794991
9.216                0.986054509     -106.983452
9.217                0.986021937     -107.172361
9.218                0.985989323     -107.361718
9.219                0.985956665     -107.551524
9.22                 0.985923966     -107.741779
9.221                0.985891225     -107.932484
9.222                0.985858443      -108.12364
9.223                0.985825621     -108.315248
9.224                0.985792758     -108.507307
9.225                0.985759857     -108.699818
9.226                0.985726916     -108.892783
9.227                0.985693937     -109.086201
9.228                0.985660921     -109.280073
9.229                0.985627867     -109.474399
9.23                 0.985594777      -109.66918
9.231                0.985561651     -109.864417
9.232                0.985528489      -110.06011
9.233                0.985495293      -110.25626
9.234                0.985462063     -110.452867
9.235                0.985428799     -110.649931
9.236                0.985395502     -110.847453
9.237                0.985362173     -111.045434
9.238                0.985328812     -111.243874
9.239                0.985295421     -111.442773
9.24                 0.985261999     -111.642132
9.241                0.985228547     -111.841951
9.242                0.985195066     -112.042231
9.243                0.985161558     -112.242972
9.244                0.985128021     -112.444175
9.245                0.985094458      -112.64584
9.246                0.985060868     -112.847966
9.247                0.985027253     -113.050556
9.248                0.984993613     -113.253608
9.249                0.984959949     -113.457124
9.25                 0.984926262     -113.661104
9.251                0.984892552     -113.865548
9.252                 0.98485882     -114.070456
9.253                0.984825067     -114.275829
9.254                0.984791294     -114.481667
9.255                0.984757502      -114.68797
9.256                 0.98472369     -114.894739
9.257                0.984689861     -115.101974
9.258                0.984656014     -115.309674
9.259                0.984622152     -115.517842
9.26                 0.984588273     -115.726476
9.261                 0.98455438     -115.935577
9.262                0.984520473     -116.145145
9.263                0.984486553      -116.35518
9.264                0.984452621     -116.565683
9.265                0.984418677     -116.776653
9.266                0.984384723     -116.988091
9.267                0.984350759     -117.199998
9.268                0.984316787     -117.412372
9.269                0.984282806     -117.625215
9.27                 0.984248819     -117.838527
9.271                0.984214826     -118.052307
9.272                0.984180827     -118.266555
9.273                0.984146825     -118.481272
9.274                0.984112819     -118.696459
9.275                0.984078811     -118.912114
9.276                0.984044801     -119.128238
9.277                0.984010791     -119.344831
9.278                0.983976781     -119.561893
9.279                0.983942773     -119.779424
9.28                 0.983908767     -119.997424
9.281                0.983874765     -120.215893
9.282                0.983840767     -120.434831
9.283                0.983806775     -120.654238
9.284                0.983772789     -120.874114
9.285                0.983738811     -121.094458
9.286                0.983704841     -121.315272
9.287                0.983670881     -121.536554
9.288                0.983636931     -121.758305
9.289                0.983602993     -121.980524
9.29                 0.983569068     -122.203211
9.291                0.983535156     -122.426366
9.292                0.983501259      -122.64999
9.293                0.983467379     -122.874081
9.294                0.983433515      -123.09864
9.295                0.983399669     -123.323666
9.296                0.983365843     -123.549159
9.297                0.983332037     -123.775119
9.298                0.983298252     -124.001545
9.299                 0.98326449     -124.228438
9.3                  0.983230752     -124.455797
9.301                0.983197039     -124.683622
9.302                0.983163352     -124.911912
9.303                0.983129692     -125.140668
9.304                0.983096061     -125.369888
9.305                0.983062459     -125.599572
9.306                0.983028888     -125.829721
9.307                0.982995349     -126.060333
9.308                0.982961843     -126.291408
9.309                0.982928371     -126.522946
9.31                 0.982894935     -126.754946
9.311                0.982861536     -126.987408
9.312                0.982828175     -127.220331
9.313                0.982794854     -127.453715
9.314                0.982761573     -127.687559
9.315                0.982728334     -127.921864
9.316                0.982695137     -128.156627
9.317                0.982661986     -128.391849
9.318                 0.98262888     -128.627529
9.319                 0.98259582     -128.863666
9.32                  0.98256281     -129.100261
9.321                0.982529848     -129.337311
9.322                0.982496938     -129.574817
9.323                0.982464079     -129.812778
9.324                0.982431274     -130.051193
9.325                0.982398524     -130.290062
9.326                 0.98236583     -130.529383
9.327                0.982333194     -130.769156
9.328                0.982300616      -131.00938
9.329                0.982268099     -131.250055
9.33                 0.982235643     -131.491179
9.331                 0.98220325     -131.732752
9.332                0.982170921     -131.974773
9.333                0.982138658     -132.217242
9.334                0.982106462     -132.460156
9.335                0.982074334     -132.703515
9.336                0.982042277     -132.947319
9.337                 0.98201029     -133.191566
9.338                0.981978376     -133.436256
9.339                0.981946536     -133.681387
9.34                 0.981914772     -133.926959
9.341                0.981883085      -134.17297
9.342                0.981851475      -134.41942
9.343                0.981819946     -134.666307
9.344                0.981788498      -134.91363
9.345                0.981757132     -135.161389
9.346                0.981725851     -135.409581
9.347                0.981694655     -135.658207
9.348                0.981663546     -135.907264
9.349                0.981632526     -136.156752
9.35                 0.981601596      -136.40667
9.351                0.981570757     -136.657015
9.352                0.981540011     -136.907788
9.353                0.981509359     -137.158986
9.354                0.981478803     -137.410609
9.355                0.981448345     -137.662655
9.356                0.981417985     -137.915123
9.357                0.981387726     -138.168011
9.358                0.981357568     -138.421318
9.359                0.981327514     -138.675043
9.36                 0.981297565     -138.929185
9.361                0.981267722     -139.183741
9.362                0.981237987     -139.438711
9.363                0.981208361     -139.694093
9.364                0.981178846     -139.949885
9.365                0.981149443     -140.206086
9.366                0.981120155     -140.462695
9.367                0.981090982      -140.71971
9.368                0.981061926     -140.977129
9.369                0.981032988     -141.234951
9.37                  0.98100417     -141.493174
9.371                0.980975474     -141.751797
9.372                0.980946901     -142.010817
9.373                0.980918453     -142.270234
9.374                0.980890131     -142.530045
9.375                0.980861936     -142.790249
9.376                0.980833871     -143.050844
9.377                0.980805936     -143.311829
9.378                0.980778134     -143.573201
9.379                0.980750465     -143.834959
9.38                 0.980722932       -144.0971
9.381                0.980695536     -144.359624
9.382                0.980668278     -144.622528
9.383                 0.98064116      -144.88581
9.384                0.980614183     -145.149468
9.385                 0.98058735     -145.413501
9.386                0.980560661     -145.677907
9.387                0.980534118     -145.942683
9.388                0.980507722     -146.207827
9.389                0.980481476     -146.473338
9.39                  0.98045538     -146.739214
9.391                0.980429437     -147.005452
9.392                0.980403647      -147.27205
9.393                0.980378013     -147.539007
9.394                0.980352535     -147.806319
9.395                0.980327215     -148.073986
9.396                0.980302055     -148.342005
