! TOUCHSTONE file generated by CST DESIGN STUDIO
! Date and time: Tue Feb  4 15:48:38 2025
! Project name: C:\Work\MatlabApps\UnitCellOptimizationMatlab\CST\unitcell.cst
! Tree item: Tasks\Sweep1\SPara1\S-Parameters
! Header version: 2024
! Port assignment regex: !\s*Touchstone port\s*([0-9]+)\s*=\s*(CST MWS port|CST DES external port|CST DES block port)\s*(.+)\s* \(\"(.*)\"\)(\s*mode\s*([0-9]+))?.*
! Touchstone port assignment:
! Touchstone port 1 = CST DES external port 1 ("")
# GHz S MA R 50
9                    0.992560822     -71.7881532
9.001                0.992544498     -71.8918138
9.002                0.992528125     -71.9957204
9.003                0.992511703     -72.0998737
9.004                0.992495233     -72.2042743
9.005                0.992478713     -72.3089231
9.006                0.992462144     -72.4138208
9.007                0.992445526     -72.5189681
9.008                0.992428858     -72.6243657
9.009                0.992412141     -72.7300145
9.01                 0.992395374      -72.835915
9.011                0.992378558     -72.9420682
9.012                0.992361691     -73.0484747
9.013                0.992344775     -73.1551352
9.014                0.992327808     -73.2620506
9.015                0.992310791     -73.3692216
9.016                0.992293723     -73.4766489
9.017                0.992276606     -73.5843333
9.018                0.992259437     -73.6922755
9.019                0.992242218     -73.8004764
9.02                 0.992224948     -73.9089366
9.021                0.992207627      -74.017657
9.022                0.992190255     -74.1266383
9.023                0.992172831     -74.2358813
9.024                0.992155357     -74.3453867
9.025                0.992137831     -74.4551553
9.026                0.992120253     -74.5651879
9.027                0.992102624     -74.6754853
9.028                0.992084943     -74.7860482
9.029                 0.99206721     -74.8968775
9.03                 0.992049425     -75.0079738
9.031                0.992031588     -75.1193381
9.032                0.992013699      -75.230971
9.033                0.991995757     -75.3428734
9.034                0.991977763      -75.455046
9.035                0.991959717     -75.5674897
9.036                0.991941618     -75.6802052
9.037                0.991923466     -75.7931934
9.038                0.991905261      -75.906455
9.039                0.991887003     -76.0199908
9.04                 0.991868692     -76.1338016
9.041                0.991850328     -76.2478883
9.042                0.991831911     -76.3622516
9.043                 0.99181344     -76.4768924
9.044                0.991794915     -76.5918113
9.045                0.991776337     -76.7070094
9.046                0.991757706     -76.8224873
9.047                 0.99173902     -76.9382459
9.048                 0.99172028      -77.054286
9.049                0.991701487     -77.1706084
9.05                 0.991682639      -77.287214
9.051                0.991663737     -77.4041035
9.052                 0.99164478     -77.5212778
9.053                 0.99162577     -77.6387376
9.054                0.991606704     -77.7564839
9.055                0.991587584     -77.8745175
9.056                0.991568409     -77.9928391
9.057                0.991549179     -78.1114497
9.058                0.991529894     -78.2303499
9.059                0.991510555     -78.3495408
9.06                  0.99149116     -78.4690231
9.061                0.991471709     -78.5887976
9.062                0.991452204     -78.7088653
9.063                0.991432643     -78.8292268
9.064                0.991413026     -78.9498832
9.065                0.991393354     -79.0708351
9.066                0.991373626     -79.1920835
9.067                0.991353842     -79.3136293
9.068                0.991334002     -79.4354732
9.069                0.991314107     -79.5576161
9.07                 0.991294155     -79.6800589
9.071                0.991274147     -79.8028024
9.072                0.991254082     -79.9258475
9.073                0.991233962      -80.049195
9.074                0.991213785     -80.1728458
9.075                0.991193551     -80.2968008
9.076                0.991173261     -80.4210607
9.077                0.991152914     -80.5456266
9.078                 0.99113251     -80.6704992
9.079                0.991112049     -80.7956794
9.08                 0.991091532     -80.9211681
9.081                0.991070957     -81.0469661
9.082                0.991050325     -81.1730744
9.083                0.991029636     -81.2994937
9.084                 0.99100889     -81.4262251
9.085                0.990988087     -81.5532692
9.086                0.990967226     -81.6806271
9.087                0.990946307     -81.8082995
9.088                0.990925332     -81.9362875
9.089                0.990904298     -82.0645918
9.09                 0.990883207     -82.1932133
9.091                0.990862058     -82.3221529
9.092                0.990840851     -82.4514116
9.093                0.990819586     -82.5809901
9.094                0.990798264     -82.7108894
9.095                0.990776883     -82.8411104
9.096                0.990755444      -82.971654
9.097                0.990733947     -83.1025209
9.098                0.990712392     -83.2337123
9.099                0.990690779     -83.3652288
9.1                  0.990669107     -83.4970715
9.101                0.990647377     -83.6292412
9.102                0.990625588     -83.7617388
9.103                0.990603741     -83.8945652
9.104                0.990581836     -84.0277214
9.105                0.990559872     -84.1612081
9.106                0.990537849     -84.2950264
9.107                0.990515767     -84.4291771
9.108                0.990493627     -84.5636611
9.109                0.990471428     -84.6984794
9.11                 0.990449171     -84.8336327
9.111                0.990426854     -84.9691221
9.112                0.990404479     -85.1049485
9.113                0.990382044     -85.2411127
9.114                0.990359551     -85.3776156
9.115                0.990336999     -85.5144582
9.116                0.990314387     -85.6516414
9.117                0.990291717     -85.7891661
9.118                0.990268988     -85.9270332
9.119                0.990246199     -86.0652436
9.12                 0.990223351     -86.2037982
9.121                0.990200444      -86.342698
9.122                0.990177478     -86.4819438
9.123                0.990154453     -86.6215366
9.124                0.990131369     -86.7614772
9.125                0.990108225     -86.9017667
9.126                0.990085022     -87.0424059
9.127                 0.99006176     -87.1833957
9.128                0.990038439     -87.3247371
9.129                0.990015058     -87.4664309
9.13                 0.989991618     -87.6084782
9.131                0.989968119     -87.7508797
9.132                 0.98994456     -87.8936365
9.133                0.989920943     -88.0367494
9.134                0.989897266     -88.1802194
9.135                0.989873529     -88.3240474
9.136                0.989849734     -88.4682343
9.137                0.989825879     -88.6127811
9.138                0.989801965     -88.7576886
9.139                0.989777992     -88.9029577
9.14                 0.989753959     -89.0485895
9.141                0.989729868     -89.1945848
9.142                0.989705717     -89.3409445
9.143                0.989681507     -89.4876696
9.144                0.989657238     -89.6347609
9.145                 0.98963291     -89.7822195
9.146                0.989608523     -89.9300462
9.147                0.989584076      -90.078242
9.148                0.989559571     -90.2268077
9.149                0.989535007     -90.3757443
9.15                 0.989510384     -90.5250527
9.151                0.989485702     -90.6747339
9.152                0.989460962     -90.8247887
9.153                0.989436162      -90.975218
9.154                0.989411304     -91.1260229
9.155                0.989386388     -91.2772042
9.156                0.989361412     -91.4287628
9.157                0.989336379     -91.5806997
9.158                0.989311286     -91.7330157
9.159                0.989286136     -91.8857118
9.16                 0.989260927     -92.0387889
9.161                0.989235659     -92.1922479
9.162                0.989210334     -92.3460898
9.163                0.989184951     -92.5003154
9.164                0.989159509     -92.6549257
9.165                 0.98913401     -92.8099215
9.166                0.989108452     -92.9653038
9.167                0.989082838     -93.1210735
9.168                0.989057165     -93.2772315
9.169                0.989031435     -93.4337787
9.17                 0.989005647     -93.5907161
9.171                0.988979802     -93.7480444
9.172                  0.9889539     -93.9057647
9.173                0.988927941     -94.0638778
9.174                0.988901925     -94.2223847
9.175                0.988875852     -94.3812862
9.176                0.988849722     -94.5405832
9.177                0.988823535     -94.7002767
9.178                0.988797292     -94.8603675
9.179                0.988770993     -95.0208565
9.18                 0.988744637     -95.1817447
9.181                0.988718225     -95.3430329
9.182                0.988691758     -95.5047219
9.183                0.988665234     -95.6668128
9.184                0.988638655     -95.8293064
9.185                0.988612021     -95.9922035
9.186                0.988585331     -96.1555051
9.187                0.988558586      -96.319212
9.188                0.988531786     -96.4833251
9.189                0.988504931     -96.6478453
9.19                 0.988478021     -96.8127734
9.191                0.988451057     -96.9781104
9.192                0.988424039     -97.1438571
9.193                0.988396966     -97.3100144
9.194                 0.98836984     -97.4765831
9.195                 0.98834266     -97.6435641
9.196                0.988315427     -97.8109583
9.197                 0.98828814     -97.9787665
9.198                  0.9882608     -98.1469895
9.199                0.988233407     -98.3156283
9.2                  0.988205962     -98.4846837
9.201                0.988178464     -98.6541565
9.202                0.988150914     -98.8240475
9.203                0.988123312     -98.9943577
9.204                0.988095658     -99.1650878
9.205                0.988067952     -99.3362387
9.206                0.988040196     -99.5078112
9.207                0.988012388     -99.6798062
9.208                 0.98798453     -99.8522244
9.209                0.987956621     -100.025067
9.21                 0.987928662     -100.198334
9.211                0.987900653     -100.372027
9.212                0.987872594     -100.546146
9.213                0.987844486     -100.720693
9.214                0.987816329     -100.895668
9.215                0.987788123     -101.071072
9.216                0.987759868     -101.246906
9.217                0.987731565      -101.42317
9.218                0.987703214     -101.599865
9.219                0.987674816     -101.776993
9.22                  0.98764637     -101.954553
9.221                0.987617877     -102.132547
9.222                0.987589338     -102.310976
9.223                0.987560752      -102.48984
9.224                0.987532121     -102.669139
9.225                0.987503443     -102.848876
9.226                 0.98747472      -103.02905
9.227                0.987445953     -103.209662
9.228                0.987417141     -103.390713
9.229                0.987388284     -103.572204
9.23                 0.987359384     -103.754135
9.231                 0.98733044     -103.936507
9.232                0.987301453     -104.119321
9.233                0.987272423     -104.302578
9.234                0.987243351     -104.486278
9.235                0.987214237     -104.670422
9.236                0.987185082     -104.855011
9.237                0.987155885     -105.040045
9.238                0.987126648     -105.225526
9.239                 0.98709737     -105.411453
9.24                 0.987068053     -105.597827
9.241                0.987038696      -105.78465
9.242                  0.9870093     -105.971921
9.243                0.986979865     -106.159642
9.244                0.986950393     -106.347813
9.245                0.986920883     -106.536435
9.246                0.986891335     -106.725508
9.247                0.986861751     -106.915034
9.248                0.986832131     -107.105012
9.249                0.986802475     -107.295443
9.25                 0.986772784     -107.486328
9.251                0.986743058     -107.677667
9.252                0.986713298     -107.869462
9.253                0.986683504     -108.061712
9.254                0.986653677     -108.254419
9.255                0.986623817     -108.447582
9.256                0.986593925     -108.641203
9.257                0.986564001     -108.835282
9.258                0.986534046      -109.02982
9.259                0.986504061     -109.224816
9.26                 0.986474046     -109.420272
9.261                0.986444001     -109.616189
9.262                0.986413927     -109.812566
9.263                0.986383825     -110.009404
9.264                0.986353696     -110.206704
9.265                0.986323539     -110.404466
9.266                0.986293356     -110.602691
9.267                0.986263147     -110.801379
9.268                0.986232912      -111.00053
9.269                0.986202653     -111.200146
9.27                  0.98617237     -111.400226
9.271                0.986142063     -111.600772
9.272                0.986111734     -111.801783
9.273                0.986081382     -112.003259
9.274                0.986051009     -112.205202
9.275                0.986020615     -112.407612
9.276                0.985990201     -112.610489
9.277                0.985959768     -112.813833
9.278                0.985929315     -113.017646
9.279                0.985898845     -113.221926
9.28                 0.985868357     -113.426675
9.281                0.985837852     -113.631893
9.282                0.985807331     -113.837581
9.283                0.985776795     -114.043738
9.284                0.985746245     -114.250365
9.285                 0.98571568     -114.457462
9.286                0.985685103      -114.66503
9.287                0.985654513     -114.873069
9.288                0.985623912     -115.081578
9.289                0.985593299      -115.29056
9.29                 0.985562677     -115.500013
9.291                0.985532045     -115.709937
9.292                0.985501405     -115.920334
9.293                0.985470757     -116.131204
9.294                0.985440103     -116.342546
9.295                0.985409442      -116.55436
9.296                0.985378776     -116.766648
9.297                0.985348105     -116.979408
9.298                0.985317431     -117.192642
9.299                0.985286754      -117.40635
9.3                  0.985256075     -117.620531
9.301                0.985225395     -117.835185
9.302                0.985194715     -118.050314
9.303                0.985164035     -118.265916
9.304                0.985133357     -118.481993
9.305                0.985102681     -118.698543
9.306                0.985072008     -118.915568
9.307                 0.98504134     -119.133066
9.308                0.985010677     -119.351039
9.309                 0.98498002     -119.569486
9.31                 0.984949369     -119.788408
9.311                0.984918727     -120.007803
9.312                0.984888093     -120.227673
9.313                0.984857469     -120.448017
9.314                0.984826856     -120.668836
9.315                0.984796254     -120.890128
9.316                0.984765665     -121.111894
9.317                 0.98473509     -121.334134
9.318                0.984704529     -121.556848
9.319                0.984673984     -121.780036
9.32                 0.984643455     -122.003697
9.321                0.984612944     -122.227832
9.322                0.984582451     -122.452439
9.323                0.984551978      -122.67752
9.324                0.984521526     -122.903074
9.325                0.984491095     -123.129101
9.326                0.984460687     -123.355599
9.327                0.984430303      -123.58257
9.328                0.984399943     -123.810013
9.329                 0.98436961     -124.037928
9.33                 0.984339303     -124.266314
9.331                0.984309024     -124.495171
9.332                0.984278775     -124.724499
9.333                0.984248555     -124.954298
9.334                0.984218367     -125.184566
9.335                0.984188211     -125.415304
9.336                0.984158089     -125.646512
9.337                0.984128002     -125.878188
9.338                 0.98409795     -126.110333
9.339                0.984067935     -126.342946
9.34                 0.984037958     -126.576027
9.341                 0.98400802     -126.809574
9.342                0.983978123     -127.043589
9.343                0.983948267     -127.278069
9.344                0.983918454     -127.513016
9.345                0.983888684     -127.748427
9.346                 0.98385896     -127.984303
9.347                0.983829282     -128.220643
9.348                0.983799651     -128.457446
9.349                0.983770069     -128.694712
9.35                 0.983740537      -128.93244
9.351                0.983711056      -129.17063
9.352                0.983681627     -129.409281
9.353                0.983652251     -129.648391
9.354                 0.98362293     -129.887962
9.355                0.983593666      -130.12799
9.356                0.983564458     -130.368477
9.357                0.983535309     -130.609422
9.358                0.983506219     -130.850822
9.359                0.983477191     -131.092679
9.36                 0.983448225      -131.33499
9.361                0.983419322     -131.577755
9.362                0.983390484     -131.820974
9.363                0.983361712     -132.064645
9.364                0.983333008     -132.308767
9.365                0.983304372      -132.55334
9.366                0.983275806     -132.798362
9.367                0.983247311     -133.043833
9.368                0.983218889     -133.289752
9.369                0.983190541     -133.536117
9.37                 0.983162268     -133.782928
9.371                0.983134072     -134.030184
9.372                0.983105953     -134.277883
9.373                0.983077914     -134.526025
9.374                0.983049955     -134.774609
9.375                0.983022078     -135.023632
9.376                0.982994285     -135.273095
9.377                0.982966576     -135.522996
9.378                0.982938952     -135.773334
9.379                0.982911417     -136.024107
9.38                 0.982883969     -136.275315
9.381                0.982856612     -136.526957
9.382                0.982829346      -136.77903
9.383                0.982802173     -137.031534
9.384                0.982775094     -137.284467
9.385                0.982748111     -137.537829
9.386                0.982721224     -137.791617
9.387                0.982694436     -138.045831
9.388                0.982667747     -138.300469
9.389                 0.98264116     -138.555529
9.39                 0.982614675     -138.811011
9.391                0.982588294     -139.066912
9.392                0.982562018     -139.323232
9.393                0.982535848     -139.579969
9.394                0.982509787     -139.837121
9.395                0.982483835     -140.094686
9.396                0.982457994     -140.352665
