! TOUCHSTONE file generated by CST DESIGN STUDIO
! Date and time: Tue Feb  4 15:52:12 2025
! Project name: C:\Work\MatlabApps\UnitCellOptimizationMatlab\CST\unitcell.cst
! Tree item: Tasks\Sweep1\SPara1\S-Parameters
! Header version: 2024
! Port assignment regex: !\s*Touchstone port\s*([0-9]+)\s*=\s*(CST MWS port|CST DES external port|CST DES block port)\s*(.+)\s* \(\"(.*)\"\)(\s*mode\s*([0-9]+))?.*
! Touchstone port assignment:
! Touchstone port 1 = CST DES external port 1 ("")
# GHz S MA R 50
9                    0.962766126     -49.3595262
9.001                0.962651902     -49.4220772
9.002                0.962537423     -49.4847532
9.003                0.962422689     -49.5475547
9.004                  0.9623077     -49.6104821
9.005                0.962192456     -49.6735358
9.006                0.962076957     -49.7367162
9.007                0.961961202     -49.8000238
9.008                0.961845191      -49.863459
9.009                0.961728925     -49.9270222
9.01                 0.961612404      -49.990714
9.011                0.961495626     -50.0545346
9.012                0.961378591     -50.1184846
9.013                0.961261301     -50.1825644
9.014                0.961143754     -50.2467745
9.015                 0.96102595     -50.3111153
9.016                0.960907889     -50.3755872
9.017                0.960789572     -50.4401908
9.018                0.960670996     -50.5049264
9.019                0.960552164     -50.5697945
9.02                 0.960433073     -50.6347956
9.021                0.960313725     -50.6999301
9.022                0.960194119     -50.7651985
9.023                0.960074254     -50.8306013
9.024                0.959954131     -50.8961389
9.025                0.959833749     -50.9618118
9.026                0.959713108     -51.0276205
9.027                0.959592208     -51.0935654
9.028                0.959471049      -51.159647
9.029                0.959349629     -51.2258658
9.03                  0.95922795     -51.2922223
9.031                0.959106011      -51.358717
9.032                0.958983811     -51.4253503
9.033                0.958861351     -51.4921227
9.034                0.958738629     -51.5590347
9.035                0.958615646     -51.6260868
9.036                0.958492402     -51.6932795
9.037                0.958368896     -51.7606132
9.038                0.958245128     -51.8280886
9.039                0.958121098      -51.895706
9.04                 0.957996805      -51.963466
9.041                0.957872249     -52.0313691
9.042                0.957747429     -52.0994157
9.043                0.957622347     -52.1676065
9.044                   0.957497     -52.2359419
9.045                0.957371389     -52.3044223
9.046                0.957245514     -52.3730484
9.047                0.957119373     -52.4418206
9.048                0.956992968     -52.5107395
9.049                0.956866297     -52.5798056
9.05                  0.95673936     -52.6490194
9.051                0.956612157     -52.7183814
9.052                0.956484687     -52.7878921
9.053                0.956356951     -52.8575521
9.054                0.956228947      -52.927362
9.055                0.956100675     -52.9973222
9.056                0.955972135     -53.0674332
9.057                0.955843327     -53.1376957
9.058                 0.95571425     -53.2081102
9.059                0.955584904     -53.2786772
9.06                 0.955455288     -53.3493972
9.061                0.955325402     -53.4202708
9.062                0.955195246     -53.4912986
9.063                0.955064818      -53.562481
9.064                 0.95493412     -53.6338188
9.065                0.954803149     -53.7053123
9.066                0.954671907     -53.7769622
9.067                0.954540392     -53.8487691
9.068                0.954408603     -53.9207335
9.069                0.954276542     -53.9928559
9.07                 0.954144206     -54.0651369
9.071                0.954011596     -54.1375772
9.072                 0.95387871     -54.2101773
9.073                 0.95374555     -54.2829377
9.074                0.953612113     -54.3558591
9.075                  0.9534784     -54.4289419
9.076                 0.95334441     -54.5021869
9.077                0.953210143     -54.5755946
9.078                0.953075598     -54.6491656
9.079                0.952940774     -54.7229004
9.08                 0.952805671     -54.7967997
9.081                0.952670289     -54.8708641
9.082                0.952534627     -54.9450941
9.083                0.952398684     -55.0194904
9.084                 0.95226246     -55.0940535
9.085                0.952125954     -55.1687842
9.086                0.951989166     -55.2436829
9.087                0.951852096     -55.3187503
9.088                0.951714741      -55.393987
9.089                0.951577103     -55.4693937
9.09                  0.95143918     -55.5449709
9.091                0.951300972     -55.6207193
9.092                0.951162478     -55.6966394
9.093                0.951023698      -55.772732
9.094                0.950884631     -55.8489976
9.095                0.950745276      -55.925437
9.096                0.950605633     -56.0020506
9.097                0.950465701     -56.0788392
9.098                0.950325479     -56.1558034
9.099                0.950184967     -56.2329439
9.1                  0.950044164     -56.3102612
9.101                0.949903069     -56.3877561
9.102                0.949761683     -56.4654292
9.103                0.949620003     -56.5432811
9.104                 0.94947803     -56.6213125
9.105                0.949335762     -56.6995241
9.106                0.949193199     -56.7779165
9.107                0.949050341     -56.8564904
9.108                0.948907186     -56.9352464
9.109                0.948763734     -57.0141853
9.11                 0.948619984     -57.0933077
9.111                0.948475935     -57.1726142
9.112                0.948331587     -57.2521056
9.113                0.948186939     -57.3317826
9.114                 0.94804199     -57.4116458
9.115                0.947896739     -57.4916959
9.116                0.947751186     -57.5719335
9.117                 0.94760533     -57.6523595
9.118                0.947459169     -57.7329745
9.119                0.947312704     -57.8137792
9.12                 0.947165933     -57.8947742
9.121                0.947018855     -57.9759604
9.122                 0.94687147     -58.0573384
9.123                0.946723777     -58.1389088
9.124                0.946575775     -58.2206726
9.125                0.946427464     -58.3026302
9.126                0.946278841     -58.3847825
9.127                0.946129907     -58.4671303
9.128                0.945980661     -58.5496741
9.129                0.945831101     -58.6324148
9.13                 0.945681228      -58.715353
9.131                0.945531039     -58.7984896
9.132                0.945380534     -58.8818252
9.133                0.945229712     -58.9653605
9.134                0.945078573     -59.0490965
9.135                0.944927115     -59.1330337
9.136                0.944775337     -59.2171729
9.137                0.944623239     -59.3015149
9.138                 0.94447082     -59.3860604
9.139                0.944318077     -59.4708102
9.14                 0.944165012     -59.5557651
9.141                0.944011622     -59.6409258
9.142                0.943857907     -59.7262931
9.143                0.943703865     -59.8118677
9.144                0.943549496     -59.8976505
9.145                0.943394799     -59.9836422
9.146                0.943239772     -60.0698435
9.147                0.943084415     -60.1562554
9.148                0.942928727     -60.2428785
9.149                0.942772706     -60.3297137
9.15                 0.942616352     -60.4167617
9.151                0.942459663     -60.5040233
9.152                0.942302639     -60.5914994
9.153                0.942145278     -60.6791907
9.154                0.941987579     -60.7670981
9.155                0.941829542     -60.8552223
9.156                0.941671164     -60.9435642
9.157                0.941512446     -61.0321246
9.158                0.941353386     -61.1209043
9.159                0.941193983     -61.2099041
9.16                 0.941034235     -61.2991248
9.161                0.940874142     -61.3885674
9.162                0.940713702     -61.4782325
9.163                0.940552915     -61.5681211
9.164                0.940391779      -61.658234
9.165                0.940230292     -61.7485721
9.166                0.940068455     -61.8391361
9.167                0.939906265     -61.9299269
9.168                0.939743722     -62.0209454
9.169                0.939580824     -62.1121924
9.17                 0.939417571     -62.2036688
9.171                 0.93925396     -62.2953755
9.172                 0.93908999     -62.3873133
9.173                0.938925662     -62.4794831
9.174                0.938760972     -62.5718857
9.175                0.938595921     -62.6645221
9.176                0.938430506     -62.7573931
9.177                0.938264727     -62.8504996
9.178                0.938098582     -62.9438425
9.179                 0.93793207     -63.0374227
9.18                 0.937765189      -63.131241
9.181                0.937597939     -63.2252984
9.182                0.937430319     -63.3195958
9.183                0.937262326      -63.414134
9.184                0.937093959      -63.508914
9.185                0.936925218     -63.6039367
9.186                0.936756101     -63.6992031
9.187                0.936586606     -63.7947139
9.188                0.936416732     -63.8904702
9.189                0.936246479     -63.9864728
9.19                 0.936075843     -64.0827228
9.191                0.935904825      -64.179221
9.192                0.935733423     -64.2759683
9.193                0.935561635     -64.3729658
9.194                0.935389461     -64.4702143
9.195                0.935216898     -64.5677148
9.196                0.935043945     -64.6654683
9.197                0.934870601     -64.7634756
9.198                0.934696864     -64.8617379
9.199                0.934522734     -64.9602559
9.2                  0.934348208     -65.0590308
9.201                0.934173285     -65.1580634
9.202                0.933997964     -65.2573547
9.203                0.933822243     -65.3569058
9.204                0.933646121     -65.4567175
9.205                0.933469597     -65.5567909
9.206                0.933292668      -65.657127
9.207                0.933115334     -65.7577268
9.208                0.932937592     -65.8585911
9.209                0.932759442     -65.9597212
9.21                 0.932580883     -66.0611179
9.211                0.932401911     -66.1627822
9.212                0.932222526     -66.2647152
9.213                0.932042727     -66.3669179
9.214                0.931862512     -66.4693913
9.215                0.931681879     -66.5721365
9.216                0.931500827     -66.6751544
9.217                0.931319354      -66.778446
9.218                0.931137459     -66.8820125
9.219                 0.93095514     -66.9858549
9.22                 0.930772395     -67.0899741
9.221                0.930589224     -67.1943713
9.222                0.930405624     -67.2990475
9.223                0.930221594     -67.4040037
9.224                0.930037132      -67.509241
9.225                0.929852237     -67.6147605
9.226                0.929666907     -67.7205632
9.227                 0.92948114     -67.8266502
9.228                0.929294936     -67.9330226
9.229                0.929108291     -68.0396814
9.23                 0.928921205     -68.1466278
9.231                0.928733677     -68.2538628
9.232                0.928545703     -68.3613875
9.233                0.928357283      -68.469203
9.234                0.928168415     -68.5773104
9.235                0.927979098     -68.6857107
9.236                0.927789329     -68.7944052
9.237                0.927599108     -68.9033949
9.238                0.927408432     -69.0126809
9.239                0.927217299     -69.1222644
9.24                 0.927025709     -69.2321464
9.241                0.926833659     -69.3423282
9.242                0.926641147     -69.4528107
9.243                0.926448173     -69.5635952
9.244                0.926254734     -69.6746828
9.245                0.926060828     -69.7860746
9.246                0.925866455     -69.8977718
9.247                0.925671611     -70.0097755
9.248                0.925476296     -70.1220869
9.249                0.925280507     -70.2347072
9.25                 0.925084244     -70.3476375
9.251                0.924887504     -70.4608789
9.252                0.924690285     -70.5744327
9.253                0.924492586        -70.6883
9.254                0.924294405      -70.802482
9.255                 0.92409574     -70.9169799
9.256                 0.92389659     -71.0317948
9.257                0.923696953      -71.146928
9.258                0.923496826     -71.2623807
9.259                0.923296209      -71.378154
9.26                   0.9230951     -71.4942492
9.261                0.922893496     -71.6106675
9.262                0.922691396       -71.72741
9.263                0.922488798     -71.8444781
9.264                  0.9222857     -71.9618729
9.265                0.922082101     -72.0795956
9.266                0.921877999     -72.1976475
9.267                0.921673392     -72.3160298
9.268                0.921468279     -72.4347437
9.269                0.921262656     -72.5537906
9.27                 0.921056524     -72.6731716
9.271                0.920849879     -72.7928879
9.272                 0.92064272      -72.912941
9.273                0.920435046     -73.0333319
9.274                0.920226854      -73.154062
9.275                0.920018143     -73.2751325
9.276                0.919808911     -73.3965447
9.277                0.919599155        -73.5183
9.278                0.919388875     -73.6403994
9.279                0.919178069     -73.7628445
9.28                 0.918966734     -73.8856364
9.281                0.918754869     -74.0087764
9.282                0.918542472     -74.1322658
9.283                0.918329542      -74.256106
9.284                0.918116076     -74.3802982
9.285                0.917902072     -74.5048438
9.286                 0.91768753      -74.629744
9.287                0.917472446     -74.7550002
9.288                 0.91725682     -74.8806137
9.289                0.917040649     -75.0065859
9.29                 0.916823931      -75.132918
9.291                0.916606666     -75.2596114
9.292                0.916388851     -75.3866675
9.293                0.916170484     -75.5140875
9.294                0.915951563     -75.6418729
9.295                0.915732087      -75.770025
9.296                0.915512054     -75.8985451
9.297                0.915291462     -76.0274346
9.298                0.915070309     -76.1566949
9.299                0.914848594     -76.2863274
9.3                  0.914626314     -76.4163334
9.301                0.914403468     -76.5467142
9.302                0.914180055     -76.6774714
9.303                0.913956072     -76.8086062
9.304                0.913731518     -76.9401201
9.305                 0.91350639     -77.0720144
9.306                0.913280688     -77.2042906
9.307                0.913054409     -77.3369501
9.308                0.912827552     -77.4699942
9.309                0.912600114     -77.6034244
9.31                 0.912372095     -77.7372421
9.311                0.912143492     -77.8714487
9.312                0.911914304     -78.0060457
9.313                0.911684528     -78.1410344
9.314                0.911454164     -78.2764163
9.315                 0.91122321     -78.4121929
9.316                0.910991663     -78.5483655
9.317                0.910759523     -78.6849357
9.318                0.910526787     -78.8219048
9.319                0.910293453     -78.9592744
9.32                 0.910059521     -79.0970459
9.321                0.909824989     -79.2352207
9.322                0.909589854     -79.3738003
9.323                0.909354115     -79.5127862
9.324                0.909117771     -79.6521799
9.325                0.908880819     -79.7919828
9.326                0.908643259     -79.9321964
9.327                0.908405089     -80.0728223
9.328                0.908166306     -80.2138618
9.329                 0.90792691     -80.3553165
9.33                 0.907686899     -80.4971879
9.331                0.907446271     -80.6394775
9.332                0.907205025     -80.7821868
9.333                0.906963159     -80.9253172
9.334                0.906720672     -81.0688704
9.335                0.906477562     -81.2128478
9.336                0.906233827      -81.357251
9.337                0.905989467     -81.5020815
9.338                0.905744479     -81.6473407
9.339                0.905498863     -81.7930303
9.34                 0.905252616     -81.9391517
9.341                0.905005737     -82.0857066
9.342                0.904758226     -82.2326964
9.343                 0.90451008     -82.3801228
9.344                0.904261298     -82.5279871
9.345                0.904011878     -82.6762911
9.346                 0.90376182     -82.8250363
9.347                0.903511122     -82.9742241
9.348                0.903259782     -83.1238563
9.349                  0.9030078     -83.2739343
9.35                 0.902755174     -83.4244597
9.351                0.902501903     -83.5754341
9.352                0.902247985     -83.7268592
9.353                0.901993419     -83.8787363
9.354                0.901738204     -84.0310673
9.355                0.901482339     -84.1838535
9.356                0.901225823     -84.3370967
9.357                0.900968654     -84.4907984
9.358                0.900710832     -84.6449602
9.359                0.900452354     -84.7995838
9.36                 0.900193221     -84.9546706
9.361                0.899933431     -85.1102224
9.362                0.899672983     -85.2662408
9.363                0.899411875     -85.4227273
9.364                0.899150108     -85.5796835
9.365                0.898887679     -85.7371112
9.366                0.898624589     -85.8950118
9.367                0.898360835     -86.0533871
9.368                0.898096418     -86.2122387
9.369                0.897831336     -86.3715682
9.37                 0.897565588     -86.5313771
9.371                0.897299174     -86.6916673
9.372                0.897032093     -86.8524402
9.373                0.896764343     -87.0136976
9.374                0.896495925     -87.1754411
9.375                0.896226837     -87.3376723
9.376                0.895957079     -87.5003929
9.377                0.895686651     -87.6636045
9.378                 0.89541555     -87.8273088
9.379                0.895143778     -87.9915074
9.38                 0.894871333      -88.156202
9.381                0.894598214     -88.3213943
9.382                0.894324422     -88.4870858
9.383                0.894049956     -88.6532784
9.384                0.893774815     -88.8199736
9.385                   0.893499     -88.9871731
9.386                0.893222508     -89.1548786
9.387                0.892945341     -89.3230917
9.388                0.892667498     -89.4918141
9.389                0.892388979     -89.6610476
9.39                 0.892109783     -89.8307937
9.391                 0.89182991     -90.0010542
9.392                0.891549361     -90.1718306
9.393                0.891268134     -90.3431248
9.394                0.890986231     -90.5149384
9.395                 0.89070365      -90.687273
9.396                0.890420392     -90.8601304
