! TOUCHSTONE file generated by CST DESIGN STUDIO
! Date and time: Tue Feb  4 15:52:06 2025
! Project name: C:\Work\MatlabApps\UnitCellOptimizationMatlab\CST\unitcell.cst
! Tree item: Tasks\Sweep1\SPara1\S-Parameters
! Header version: 2024
! Port assignment regex: !\s*Touchstone port\s*([0-9]+)\s*=\s*(CST MWS port|CST DES external port|CST DES block port)\s*(.+)\s* \(\"(.*)\"\)(\s*mode\s*([0-9]+))?.*
! Touchstone port assignment:
! Touchstone port 1 = CST DES external port 1 ("")
# GHz S MA R 50
9                    0.932150256     -71.1022121
9.001                0.931874467     -71.2206613
9.002                 0.93159772     -71.3394317
9.003                0.931320012     -71.4585244
9.004                0.931041342     -71.5779405
9.005                0.930761706     -71.6976813
9.006                0.930481102     -71.8177479
9.007                0.930199527     -71.9381414
9.008                0.929916978      -72.058863
9.009                0.929633453     -72.1799138
9.01                 0.929348949     -72.3012952
9.011                0.929063464     -72.4230081
9.012                0.928776994     -72.5450539
9.013                0.928489538     -72.6674337
9.014                0.928201092     -72.7901486
9.015                0.927911654        -72.9132
9.016                0.927621222      -73.036589
9.017                0.927329792     -73.1603167
9.018                0.927037362     -73.2843845
9.019                 0.92674393     -73.4087935
9.02                 0.926449493     -73.5335449
9.021                0.926154048     -73.6586401
9.022                0.925857593     -73.7840801
9.023                0.925560126     -73.9098662
9.024                0.925261643     -74.0359997
9.025                0.924962143     -74.1624818
9.026                0.924661622     -74.2893137
9.027                0.924360078     -74.4164968
9.028                0.924057509     -74.5440322
9.029                0.923753912     -74.6719212
9.03                 0.923449285     -74.8001652
9.031                0.923143625     -74.9287652
9.032                 0.92283693     -75.0577227
9.033                0.922529197     -75.1870389
9.034                0.922220424     -75.3167151
9.035                0.921910608     -75.4467526
9.036                0.921599748     -75.5771526
9.037                 0.92128784     -75.7079164
9.038                0.920974882     -75.8390455
9.039                0.920660872      -75.970541
9.04                 0.920345808     -76.1024042
9.041                0.920029687     -76.2346366
9.042                0.919712506     -76.3672394
9.043                0.919394264     -76.5002139
9.044                0.919074958     -76.6335614
9.045                0.918754586     -76.7672834
9.046                0.918433146     -76.9013811
9.047                0.918110635     -77.0358558
9.048                0.917787051      -77.170709
9.049                0.917462392      -77.305942
9.05                 0.917136656      -77.441556
9.051                 0.91680984     -77.5775526
9.052                0.916481942      -77.713933
9.053                0.916152961     -77.8506986
9.054                0.915822893     -77.9878509
9.055                0.915491738     -78.1253911
9.056                0.915159492     -78.2633206
9.057                0.914826153     -78.4016409
9.058                0.914491721     -78.5403534
9.059                0.914156191     -78.6794594
9.06                 0.913819564     -78.8189603
9.061                0.913481836     -78.9588576
9.062                0.913143005     -79.0991526
9.063                 0.91280307     -79.2398468
9.064                0.912462029     -79.3809416
9.065                0.912119879     -79.5224384
9.066                0.911776619     -79.6643386
9.067                0.911432248     -79.8066438
9.068                0.911086762     -79.9493552
9.069                 0.91074016     -80.0924744
9.07                 0.910392441     -80.2360029
9.071                0.910043603      -80.379942
9.072                0.909693644     -80.5242932
9.073                0.909342562      -80.669058
9.074                0.908990355     -80.8142378
9.075                0.908637022     -80.9598342
9.076                0.908282562     -81.1058485
9.077                0.907926972     -81.2522824
9.078                0.907570251     -81.3991372
9.079                0.907212398     -81.5464144
9.08                  0.90685341     -81.6941156
9.081                0.906493287     -81.8422422
9.082                0.906132027     -81.9907957
9.083                0.905769628     -82.1397777
9.084                 0.90540609     -82.2891897
9.085                 0.90504141     -82.4390331
9.086                0.904675588     -82.5893095
9.087                0.904308622     -82.7400205
9.088                 0.90394051     -82.8911675
9.089                0.903571252      -83.042752
9.09                 0.903200847     -83.1947757
9.091                0.902829292     -83.3472401
9.092                0.902456588     -83.5001466
9.093                0.902082733     -83.6534969
9.094                0.901707725     -83.8072925
9.095                0.901331564      -83.961535
9.096                0.900954249     -84.1162259
9.097                0.900575779     -84.2713667
9.098                0.900196153     -84.4269592
9.099                 0.89981537     -84.5830048
9.1                  0.899433429     -84.7395052
9.101                 0.89905033     -84.8964618
9.102                0.898666071     -85.0538763
9.103                0.898280653     -85.2117504
9.104                0.897894073     -85.3700855
9.105                0.897506332     -85.5288833
9.106                 0.89711743     -85.6881454
9.107                0.896727365     -85.8478733
9.108                0.896336137     -86.0080688
9.109                0.895943745     -86.1687335
9.11                  0.89555019     -86.3298688
9.111                 0.89515547     -86.4914766
9.112                0.894759586     -86.6535583
9.113                0.894362538     -86.8161157
9.114                0.893964324     -86.9791503
9.115                0.893564945     -87.1426638
9.116                0.893164401     -87.3066579
9.117                0.892762692     -87.4711342
9.118                0.892359818     -87.6360943
9.119                0.891955778     -87.8015399
9.12                 0.891550573     -87.9674727
9.121                0.891144203     -88.1338943
9.122                0.890736668     -88.3008063
9.123                0.890327968     -88.4682105
9.124                0.889918104     -88.6361085
9.125                0.889507077      -88.804502
9.126                0.889094886     -88.9733927
9.127                0.888681532     -89.1427823
9.128                0.888267015     -89.3126723
9.129                0.887851337     -89.4830646
9.13                 0.887434497     -89.6539608
9.131                0.887016497     -89.8253626
9.132                0.886597338     -89.9972717
9.133                0.886177019     -90.1696898
9.134                0.885755543     -90.3426186
9.135                 0.88533291     -90.5160598
9.136                0.884909121     -90.6900151
9.137                0.884484177     -90.8644863
9.138                 0.88405808     -91.0394749
9.139                 0.88363083     -91.2149829
9.14                 0.883202429     -91.3910118
9.141                0.882772879     -91.5675634
9.142                 0.88234218     -91.7446394
9.143                0.881910335     -91.9222416
9.144                0.881477344     -92.1003716
9.145                 0.88104321     -92.2790313
9.146                0.880607935     -92.4582223
9.147                 0.88017152     -92.6379463
9.148                0.879733966     -92.8182051
9.149                0.879295277     -92.9990005
9.15                 0.878855454     -93.1803342
9.151                0.878414499     -93.3622079
9.152                0.877972414     -93.5446234
9.153                0.877529202     -93.7275824
9.154                0.877084865     -93.9110866
9.155                0.876639405     -94.0951379
9.156                0.876192825     -94.2797379
9.157                0.875745128     -94.4648884
9.158                0.875296316     -94.6505912
9.159                0.874846393      -94.836848
9.16                  0.87439536     -95.0236606
9.161                0.873943221     -95.2110307
9.162                0.873489979     -95.3989601
9.163                0.873035637     -95.5874506
9.164                0.872580198     -95.7765038
9.165                0.872123666     -95.9661216
9.166                0.871666044     -96.1563057
9.167                0.871207336      -96.347058
9.168                0.870747544       -96.53838
9.169                0.870286673     -96.7302737
9.17                 0.869824727     -96.9227407
9.171                0.869361709     -97.1157828
9.172                0.868897624     -97.3094018
9.173                0.868432475     -97.5035995
9.174                0.867966267     -97.6983775
9.175                0.867499004     -97.8937377
9.176                 0.86703069     -98.0896818
9.177                 0.86656133     -98.2862116
9.178                0.866090928     -98.4833289
9.179                 0.86561949     -98.6810353
9.18                 0.865147019     -98.8793327
9.181                0.864673521     -99.0782227
9.182                0.864199001     -99.2777073
9.183                0.863723464      -99.477788
9.184                0.863246915     -99.6784666
9.185                 0.86276936      -99.879745
9.186                0.862290804     -100.081625
9.187                0.861811252     -100.284108
9.188                 0.86133071     -100.487196
9.189                0.860849185      -100.69089
9.19                 0.860366682     -100.895193
9.191                0.859883206     -101.100107
9.192                0.859398765     -101.305632
9.193                0.858913364      -101.51177
9.194                 0.85842701     -101.718524
9.195                 0.85793971     -101.925895
9.196                 0.85745147     -102.133885
9.197                0.856962296     -102.342495
9.198                0.856472196     -102.551728
9.199                0.855981177     -102.761584
9.2                  0.855489246     -102.972066
9.201                0.854996409     -103.183175
9.202                0.854502676     -103.394914
9.203                0.854008052     -103.607283
9.204                0.853512547     -103.820284
9.205                0.853016166     -104.033919
9.206                 0.85251892     -104.248191
9.207                0.852020815     -104.463099
9.208                 0.85152186     -104.678647
9.209                0.851022063     -104.894835
9.21                 0.850521432     -105.111666
9.211                0.850019977     -105.329141
9.212                0.849517706     -105.547262
9.213                0.849014627      -105.76603
9.214                0.848510751     -105.985446
9.215                0.848006086     -106.205514
9.216                0.847500641     -106.426234
9.217                0.846994427     -106.647607
9.218                0.846487452     -106.869636
9.219                0.845979726     -107.092322
9.22                 0.845471259     -107.315666
9.221                0.844962062     -107.539671
9.222                0.844452145     -107.764337
9.223                0.843941517     -107.989667
9.224                 0.84343019     -108.215661
9.225                0.842918175     -108.442322
9.226                0.842405481     -108.669651
9.227                 0.84189212     -108.897649
9.228                0.841378103     -109.126318
9.229                0.840863442      -109.35566
9.23                 0.840348148     -109.585676
9.231                0.839832232     -109.816367
9.232                0.839315707     -110.047735
9.233                0.838798584     -110.279781
9.234                0.838280875     -110.512507
9.235                0.837762593     -110.745915
9.236                 0.83724375     -110.980005
9.237                0.836724358      -111.21478
9.238                0.836204431     -111.450239
9.239                0.835683982     -111.686386
9.24                 0.835163022     -111.923221
9.241                0.834641567     -112.160746
9.242                0.834119629     -112.398962
9.243                0.833597221      -112.63787
9.244                0.833074358     -112.877471
9.245                0.832551054     -113.117768
9.246                0.832027321     -113.358761
9.247                0.831503176     -113.600452
9.248                0.830978632     -113.842841
9.249                0.830453705      -114.08593
9.25                 0.829928407     -114.329721
9.251                0.829402756     -114.574214
9.252                0.828876766     -114.819411
9.253                0.828350451     -115.065313
9.254                0.827823829     -115.311921
9.255                0.827296914     -115.559237
9.256                0.826769722      -115.80726
9.257                0.826242269     -116.055993
9.258                0.825714572     -116.305437
9.259                0.825186647     -116.555592
9.26                 0.824658511      -116.80646
9.261                 0.82413018     -117.058042
9.262                0.823601671     -117.310339
9.263                0.823073001     -117.563351
9.264                0.822544189      -117.81708
9.265                 0.82201525     -118.071527
9.266                0.821486203     -118.326692
9.267                0.820957066     -118.582577
9.268                0.820427857     -118.839183
9.269                0.819898593      -119.09651
9.27                 0.819369294     -119.354559
9.271                0.818839978     -119.613331
9.272                0.818310663     -119.872827
9.273                 0.81778137     -120.133047
9.274                0.817252115     -120.393993
9.275                 0.81672292     -120.655665
9.276                0.816193804     -120.918064
9.277                0.815664786      -121.18119
9.278                0.815135886     -121.445045
9.279                0.814607124     -121.709628
9.28                  0.81407852     -121.974941
9.281                0.813550095     -122.240983
9.282                 0.81302187     -122.507756
9.283                0.812493865     -122.775261
9.284                0.811966101     -123.043496
9.285                0.811438599     -123.312464
9.286                0.810911381     -123.582164
9.287                0.810384468     -123.852597
9.288                0.809857882     -124.123763
9.289                0.809331644     -124.395663
9.29                 0.808805777     -124.668297
9.291                0.808280303     -124.941665
9.292                0.807755245     -125.215768
9.293                0.807230624     -125.490605
9.294                0.806706463     -125.766177
9.295                0.806182787     -126.042485
9.296                0.805659616     -126.319527
9.297                0.805136976     -126.597305
9.298                0.804614889     -126.875818
9.299                0.804093379     -127.155067
9.3                   0.80357247     -127.435051
9.301                0.803052186      -127.71577
9.302                 0.80253255     -127.997225
9.303                0.802013588     -128.279414
9.304                0.801495323     -128.562339
9.305                 0.80097778     -128.845999
9.306                0.800460985     -129.130394
9.307                0.799944961     -129.415523
9.308                0.799429734     -129.701386
9.309                 0.79891533     -129.987982
9.31                 0.798401774     -130.275313
9.311                 0.79788909     -130.563376
9.312                0.797377306     -130.852172
9.313                0.796866447       -131.1417
9.314                0.796356539     -131.431959
9.315                0.795847609      -131.72295
9.316                0.795339682     -132.014671
9.317                0.794832785     -132.307121
9.318                0.794326944     -132.600301
9.319                0.793822187     -132.894209
9.32                 0.793318541     -133.188845
9.321                0.792816032     -133.484207
9.322                0.792314687     -133.780296
9.323                0.791814535     -134.077109
9.324                0.791315602     -134.374646
9.325                0.790817916     -134.672907
9.326                0.790321505     -134.971889
9.327                0.789826396     -135.271592
9.328                0.789332617     -135.572015
9.329                0.788840198     -135.873157
9.33                 0.788349165     -136.175016
9.331                0.787859546     -136.477591
9.332                0.787371372     -136.780881
9.333                0.786884669     -137.084884
9.334                0.786399467       -137.3896
9.335                0.785915794     -137.695026
9.336                0.785433679     -138.001161
9.337                0.784953151     -138.308004
9.338                 0.78447424     -138.615552
9.339                0.783996973     -138.923805
9.34                  0.78352138      -139.23276
9.341                0.783047492     -139.542416
9.342                0.782575336     -139.852771
9.343                0.782104942     -140.163823
9.344                 0.78163634     -140.475571
9.345                0.781169559     -140.788011
9.346                0.780704629     -141.101143
9.347                 0.78024158     -141.414964
9.348                0.779780441     -141.729471
9.349                0.779321243     -142.044664
9.35                 0.778864014     -142.360539
9.351                0.778408785     -142.677095
9.352                0.777955586     -142.994328
9.353                0.777504447     -143.312237
9.354                0.777055397      -143.63082
9.355                0.776608468     -143.950072
9.356                0.776163688     -144.269993
9.357                0.775721087      -144.59058
9.358                0.775280697     -144.911829
9.359                0.774842547     -145.233738
9.36                 0.774406667     -145.556305
9.361                0.773973087     -145.879526
9.362                0.773541838     -146.203398
9.363                0.773112949     -146.527919
9.364                 0.77268645     -146.853086
9.365                0.772262372     -147.178895
9.366                0.771840745     -147.505344
9.367                0.771421599     -147.832429
9.368                0.771004963     -148.160147
9.369                0.770590867     -148.488494
9.37                 0.770179342     -148.817468
9.371                0.769770418     -149.147065
9.372                0.769364124     -149.477281
9.373                 0.76896049     -149.808114
9.374                0.768559545     -150.139558
9.375                 0.76816132     -150.471611
9.376                0.767765844      -150.80427
9.377                0.767373146     -151.137529
9.378                0.766983256     -151.471386
9.379                0.766596203     -151.805836
9.38                 0.766212016     -152.140876
9.381                0.765830725     -152.476502
9.382                0.765452359     -152.812709
9.383                0.765076946     -153.149494
9.384                0.764704515     -153.486852
9.385                0.764335095     -153.824779
9.386                0.763968715      -154.16327
9.387                0.763605403     -154.502323
9.388                0.763245187     -154.841931
9.389                0.762888095      -155.18209
9.39                 0.762534156     -155.522797
9.391                0.762183398     -155.864046
9.392                0.761835847     -156.205833
9.393                0.761491532     -156.548152
9.394                 0.76115048     -156.891001
9.395                0.760812719     -157.234372
9.396                0.760478274     -157.578263
