! TOUCHSTONE file generated by CST DESIGN STUDIO
! Date and time: Tue Feb  4 12:56:04 2025
! Project name: C:\Work\MatlabApps\UnitCellOptimizationMatlab\CST\unitcell.cst
! Tree item: Tasks\Sweep1\SPara1\S-Parameters
! Header version: 2024
! Port assignment regex: !\s*Touchstone port\s*([0-9]+)\s*=\s*(CST MWS port|CST DES external port|CST DES block port)\s*(.+)\s* \(\"(.*)\"\)(\s*mode\s*([0-9]+))?.*
! Touchstone port assignment:
! Touchstone port 1 = CST DES external port 1 ("")
# GHz S MA R 50
9                    0.976278156     -76.6078391
9.001                0.976219439     -76.7251177
9.002                0.976160546     -76.8426882
9.003                0.976101476     -76.9605512
9.004                0.976042228     -77.0787077
9.005                0.975982803     -77.1971586
9.006                0.975923199     -77.3159047
9.007                0.975863417      -77.434947
9.008                0.975803456     -77.5542862
9.009                0.975743315     -77.6739233
9.01                 0.975682995     -77.7938592
9.011                0.975622494     -77.9140948
9.012                0.975561813     -78.0346309
9.013                0.975500951     -78.1554684
9.014                0.975439908     -78.2766083
9.015                0.975378683     -78.3980514
9.016                0.975317276     -78.5197986
9.017                0.975255687     -78.6418508
9.018                0.975193915      -78.764209
9.019                 0.97513196      -78.886874
9.02                 0.975069822     -79.0098467
9.021                0.975007499     -79.1331281
9.022                0.974944993      -79.256719
9.023                0.974882302     -79.3806204
9.024                0.974819426     -79.5048331
9.025                0.974756365     -79.6293581
9.026                0.974693118     -79.7541963
9.027                0.974629685     -79.8793487
9.028                0.974566066      -80.004816
9.029                0.974502261     -80.1305993
9.03                 0.974438268     -80.2566995
9.031                0.974374089     -80.3831175
9.032                0.974309721     -80.5098543
9.033                0.974245166     -80.6369107
9.034                0.974180423     -80.7642877
9.035                0.974115491     -80.8919862
9.036                 0.97405037     -81.0200071
9.037                 0.97398506     -81.1483515
9.038                 0.97391956     -81.2770201
9.039                0.973853871     -81.4060141
9.04                 0.973787991     -81.5353342
9.041                0.973721921     -81.6649815
9.042                 0.97365566     -81.7949569
9.043                0.973589208     -81.9252612
9.044                0.973522565     -82.0558956
9.045                0.973455731     -82.1868609
9.046                0.973388704     -82.3181581
9.047                0.973321485     -82.4497881
9.048                0.973254074     -82.5817519
9.049                 0.97318647     -82.7140504
9.05                 0.973118673     -82.8466846
9.051                0.973050683     -82.9796554
9.052                0.972982499     -83.1129639
9.053                0.972914122     -83.2466109
9.054                 0.97284555     -83.3805974
9.055                0.972776784     -83.5149244
9.056                0.972707824     -83.6495929
9.057                0.972638669     -83.7846038
9.058                0.972569319      -83.919958
9.059                0.972499774     -84.0556566
9.06                 0.972430033     -84.1917005
9.061                0.972360096     -84.3280907
9.062                0.972289964     -84.4648281
9.063                0.972219636     -84.6019138
9.064                0.972149111     -84.7393487
9.065                 0.97207839     -84.8771337
9.066                0.972007472     -85.0152699
9.067                0.971936357     -85.1537582
9.068                0.971865045     -85.2925997
9.069                0.971793535     -85.4317952
9.07                 0.971721829     -85.5713457
9.071                0.971649924     -85.7112524
9.072                0.971577822      -85.851516
9.073                0.971505522     -85.9921377
9.074                0.971433024     -86.1331183
9.075                0.971360327     -86.2744589
9.076                0.971287432     -86.4161605
9.077                0.971214339      -86.558224
9.078                0.971141047     -86.7006505
9.079                0.971067556     -86.8434408
9.08                 0.970993866     -86.9865961
9.081                0.970919977     -87.1301173
9.082                0.970845889     -87.2740054
9.083                0.970771602     -87.4182614
9.084                0.970697115     -87.5628862
9.085                0.970622429     -87.7078809
9.086                0.970547543     -87.8532464
9.087                0.970472458     -87.9989838
9.088                0.970397174      -88.145094
9.089                0.970321689     -88.2915781
9.09                 0.970246005      -88.438437
9.091                0.970170121     -88.5856717
9.092                0.970094037     -88.7332832
9.093                0.970017754     -88.8812725
9.094                 0.96994127     -89.0296407
9.095                0.969864587     -89.1783886
9.096                0.969787703     -89.3275173
9.097                 0.96971062     -89.4770279
9.098                0.969633337     -89.6269212
9.099                0.969555854     -89.7771983
9.1                  0.969478171     -89.9278601
9.101                0.969400288     -90.0789078
9.102                0.969322205     -90.2303422
9.103                0.969243923     -90.3821644
9.104                0.969165441     -90.5343753
9.105                0.969086759      -90.686976
9.106                0.969007878     -90.8399675
9.107                0.968928797     -90.9933507
9.108                0.968849517     -91.1471266
9.109                0.968770038     -91.3012963
9.11                 0.968690359     -91.4558607
9.111                0.968610482     -91.6108208
9.112                0.968530405     -91.7661777
9.113                 0.96845013     -91.9219323
9.114                0.968369656     -92.0780855
9.115                0.968288983     -92.2346385
9.116                0.968208112     -92.3915921
9.117                0.968127043     -92.5489474
9.118                0.968045777     -92.7067054
9.119                0.967964312      -92.864867
9.12                  0.96788265     -93.0234333
9.121                 0.96780079     -93.1824052
9.122                0.967718734     -93.3417836
9.123                 0.96763648     -93.5015697
9.124                 0.96755403     -93.6617644
9.125                0.967471383     -93.8223686
9.126                0.967388541     -93.9833834
9.127                0.967305502     -94.1448097
9.128                0.967222268     -94.3066485
9.129                0.967138839     -94.4689007
9.13                 0.967055215     -94.6315674
9.131                0.966971396     -94.7946496
9.132                0.966887383     -94.9581481
9.133                0.966803176      -95.122064
9.134                0.966718776     -95.2863983
9.135                0.966634182     -95.4511518
9.136                0.966549396     -95.6163256
9.137                0.966464418     -95.7819207
9.138                0.966379247      -95.947938
9.139                0.966293885     -96.1143784
9.14                 0.966208331      -96.281243
9.141                0.966122587     -96.4485326
9.142                0.966036653     -96.6162482
9.143                0.965950529     -96.7843909
9.144                0.965864216     -96.9529614
9.145                0.965777715     -97.1219609
9.146                0.965691025     -97.2913902
9.147                0.965604147     -97.4612502
9.148                0.965517082     -97.6315419
9.149                 0.96542983     -97.8022663
9.15                 0.965342393     -97.9734243
9.151                 0.96525477     -98.1450168
9.152                0.965166962     -98.3170447
9.153                 0.96507897      -98.489509
9.154                0.964990795     -98.6624105
9.155                0.964902436     -98.8357503
9.156                0.964813895     -99.0095292
9.157                0.964725173     -99.1837482
9.158                0.964636269     -99.3584081
9.159                0.964547186     -99.5335098
9.16                 0.964457922     -99.7090543
9.161                 0.96436848     -99.8850425
9.162                 0.96427886     -100.061475
9.163                0.964189063     -100.238353
9.164                0.964099089     -100.415678
9.165                 0.96400894      -100.59345
9.166                0.963918615      -100.77167
9.167                0.963828117     -100.950338
9.168                0.963737445     -101.129457
9.169                0.963646601     -101.309027
9.17                 0.963555585     -101.489048
9.171                0.963464399     -101.669521
9.172                0.963373044     -101.850448
9.173                0.963281519     -102.031829
9.174                0.963189827     -102.213665
9.175                0.963097967     -102.395957
9.176                0.963005942     -102.578705
9.177                0.962913752     -102.761911
9.178                0.962821399     -102.945576
9.179                0.962728882     -103.129699
9.18                 0.962636204     -103.314283
9.181                0.962543365     -103.499327
9.182                0.962450366     -103.684833
9.183                0.962357209     -103.870802
9.184                0.962263895     -104.057233
9.185                0.962170424     -104.244129
9.186                0.962076799      -104.43149
9.187                0.961983019     -104.619316
9.188                0.961889087     -104.807608
9.189                0.961795004     -104.996367
9.19                  0.96170077     -105.185595
9.191                0.961606387     -105.375291
9.192                0.961511857     -105.565456
9.193                 0.96141718     -105.756092
9.194                0.961322359     -105.947198
9.195                0.961227393     -106.138776
9.196                0.961132286     -106.330826
9.197                0.961037037     -106.523349
9.198                0.960941649     -106.716346
9.199                0.960846123     -106.909818
9.2                   0.96075046     -107.103764
9.201                0.960654662     -107.298187
9.202                 0.96055873     -107.493086
9.203                0.960462666     -107.688462
9.204                0.960366472     -107.884316
9.205                0.960270148     -108.080648
9.206                0.960173697      -108.27746
9.207                0.960077119     -108.474751
9.208                0.959980418     -108.672523
9.209                0.959883594     -108.870776
9.21                 0.959786649      -109.06951
9.211                0.959689584     -109.268727
9.212                0.959592402     -109.468427
9.213                0.959495104      -109.66861
9.214                0.959397692     -109.869277
9.215                0.959300167     -110.070429
9.216                0.959202532     -110.272066
9.217                0.959104788     -110.474189
9.218                0.959006937     -110.676798
9.219                0.958908981     -110.879894
9.22                 0.958810922     -111.083478
9.221                0.958712762     -111.287549
9.222                0.958614502     -111.492109
9.223                0.958516145     -111.697157
9.224                0.958417693     -111.902695
9.225                0.958319147     -112.108723
9.226                 0.95822051     -112.315242
9.227                0.958121784     -112.522251
9.228                 0.95802297     -112.729751
9.229                0.957924072     -112.937743
9.23                  0.95782509     -113.146227
9.231                0.957726028     -113.355204
9.232                0.957626887     -113.564674
9.233                 0.95752767     -113.774637
9.234                0.957428378     -113.985093
9.235                0.957329015     -114.196044
9.236                0.957229582      -114.40749
9.237                0.957130081      -114.61943
9.238                0.957030516     -114.831865
9.239                0.956930887     -115.044796
9.24                 0.956831199     -115.258223
9.241                0.956731453     -115.472146
9.242                0.956631651     -115.686565
9.243                0.956531796     -115.901481
9.244                0.956431891     -116.116893
9.245                0.956331937     -116.332803
9.246                0.956231938     -116.549211
9.247                0.956131896     -116.766116
9.248                0.956031814     -116.983519
9.249                0.955931694      -117.20142
9.25                 0.955831539      -117.41982
9.251                0.955731351     -117.638718
9.252                0.955631134     -117.858114
9.253                0.955530889     -118.078009
9.254                0.955430621     -118.298404
9.255                 0.95533033     -118.519297
9.256                0.955230021     -118.740689
9.257                0.955129696     -118.962581
9.258                0.955029358     -119.184972
9.259                0.954929009     -119.407862
9.26                 0.954828653     -119.631251
9.261                0.954728293     -119.855141
9.262                0.954627931     -120.079529
9.263                 0.95452757     -120.304417
9.264                0.954427214     -120.529805
9.265                0.954326866     -120.755692
9.266                0.954226528     -120.982078
9.267                0.954126203     -121.208964
9.268                0.954025896     -121.436349
9.269                0.953925608     -121.664233
9.27                 0.953825343     -121.892617
9.271                0.953725104     -122.121499
9.272                0.953624894      -122.35088
9.273                0.953524717      -122.58076
9.274                0.953424576     -122.811138
9.275                0.953324474     -123.042015
9.276                0.953224415      -123.27339
9.277                0.953124401     -123.505262
9.278                0.953024436     -123.737633
9.279                0.952924524       -123.9705
9.28                 0.952824667     -124.203865
9.281                 0.95272487     -124.437727
9.282                0.952625136     -124.672085
9.283                0.952525468      -124.90694
9.284                0.952425869      -125.14229
9.285                0.952326344     -125.378136
9.286                0.952226896     -125.614477
9.287                0.952127528     -125.851313
9.288                0.952028245     -126.088643
9.289                0.951929048     -126.326467
9.29                 0.951829944     -126.564785
9.291                0.951730934     -126.803595
9.292                0.951632023     -127.042898
9.293                0.951533214     -127.282693
9.294                0.951434511      -127.52298
9.295                0.951335919     -127.763757
9.296                 0.95123744     -128.005025
9.297                0.951139079     -128.246783
9.298                0.951040839     -128.489029
9.299                0.950942724     -128.731764
9.3                  0.950844738     -128.974988
9.301                0.950746886     -129.218698
9.302                 0.95064917     -129.462895
9.303                0.950551596     -129.707578
9.304                0.950454166     -129.952746
9.305                0.950356886     -130.198398
9.306                0.950259758     -130.444534
9.307                0.950162787     -130.691153
9.308                0.950065977     -130.938253
9.309                0.949969333     -131.185835
9.31                 0.949872857     -131.433898
9.311                0.949776555     -131.682439
9.312                 0.94968043      -131.93146
9.313                0.949584487     -132.180958
9.314                 0.94948873     -132.430933
9.315                0.949393163     -132.681383
9.316                 0.94929779     -132.932309
9.317                0.949202616     -133.183708
9.318                0.949107644      -133.43558
9.319                 0.94901288     -133.687923
9.32                 0.948918326     -133.940738
9.321                0.948823988     -134.194022
9.322                0.948729871     -134.447774
9.323                0.948635977     -134.701994
9.324                0.948542312      -134.95668
9.325                0.948448881     -135.211831
9.326                0.948355686     -135.467446
9.327                0.948262734     -135.723524
9.328                0.948170027     -135.980062
9.329                0.948077572     -136.237061
9.33                 0.947985371     -136.494519
9.331                 0.94789343     -136.752434
9.332                0.947801753     -137.010806
9.333                0.947710345     -137.269632
9.334                 0.94761921     -137.528912
9.335                0.947528352     -137.788643
9.336                0.947437776     -138.048826
9.337                0.947347487     -138.309457
9.338                 0.94725749     -138.570536
9.339                0.947167788     -138.832061
9.34                 0.947078386     -139.094031
9.341                0.946989289     -139.356444
9.342                0.946900502     -139.619298
9.343                0.946812029     -139.882593
9.344                0.946723874     -140.146325
9.345                0.946636043     -140.410495
9.346                 0.94654854     -140.675099
9.347                0.946461369     -140.940137
9.348                0.946374536     -141.205606
9.349                0.946288045     -141.471505
9.35                 0.946201899     -141.737832
9.351                0.946116106     -142.004586
9.352                0.946030667     -142.271764
9.353                 0.94594559     -142.539365
9.354                0.945860877     -142.807386
9.355                0.945776535     -143.075827
9.356                0.945692567     -143.344684
9.357                0.945608977     -143.613957
9.358                0.945525772     -143.883643
9.359                0.945442956      -144.15374
9.36                 0.945360532     -144.424246
9.361                0.945278506     -144.695159
9.362                0.945196883     -144.966477
9.363                0.945115667     -145.238199
9.364                0.945034863     -145.510321
9.365                0.944954475     -145.782842
9.366                0.944874509      -146.05576
9.367                0.944794968     -146.329072
9.368                0.944715858     -146.602776
9.369                0.944637183     -146.876871
9.37                 0.944558948     -147.151353
9.371                0.944481158     -147.426221
9.372                0.944403816     -147.701472
9.373                0.944326929     -147.977105
9.374                0.944250499     -148.253115
9.375                0.944174533     -148.529502
9.376                0.944099034     -148.806263
9.377                0.944024007     -149.083395
9.378                0.943949457     -149.360897
9.379                0.943875388     -149.638764
9.38                 0.943801805     -149.916996
9.381                0.943728712      -150.19559
9.382                0.943656115     -150.474542
9.383                0.943584017     -150.753851
9.384                0.943512423     -151.033514
9.385                0.943441337     -151.313528
9.386                0.943370764     -151.593891
9.387                0.943300709     -151.874599
9.388                0.943231175     -152.155652
9.389                0.943162168     -152.437044
9.39                 0.943093691     -152.718775
9.391                 0.94302575     -153.000841
9.392                0.942958347      -153.28324
9.393                0.942891489     -153.565968
9.394                0.942825179     -153.849023
9.395                0.942759421     -154.132402
9.396                 0.94269422     -154.416102
