! TOUCHSTONE file generated by CST DESIGN STUDIO
! Date and time: Tue Feb  4 12:56:16 2025
! Project name: C:\Work\MatlabApps\UnitCellOptimizationMatlab\CST\unitcell.cst
! Tree item: Tasks\Sweep1\SPara1\S-Parameters
! Header version: 2024
! Port assignment regex: !\s*Touchstone port\s*([0-9]+)\s*=\s*(CST MWS port|CST DES external port|CST DES block port)\s*(.+)\s* \(\"(.*)\"\)(\s*mode\s*([0-9]+))?.*
! Touchstone port assignment:
! Touchstone port 1 = CST DES external port 1 ("")
# GHz S MA R 50
9                    0.978111373     -59.4512371
9.001                0.978069001     -59.5318715
9.002                  0.9780265     -59.6126885
9.003                0.977983868     -59.6936886
9.004                0.977941106     -59.7748725
9.005                0.977898214     -59.8562407
9.006                 0.97785519     -59.9377937
9.007                0.977812035     -60.0195323
9.008                0.977768748     -60.1014568
9.009                0.977725329      -60.183568
9.01                 0.977681777     -60.2658664
9.011                0.977638092     -60.3483525
9.012                0.977594273      -60.431027
9.013                0.977550321     -60.5138904
9.014                0.977506234     -60.5969434
9.015                0.977462012     -60.6801865
9.016                0.977417655     -60.7636203
9.017                0.977373162     -60.8472454
9.018                0.977328534     -60.9310624
9.019                0.977283769     -61.0150719
9.02                 0.977238867     -61.0992746
9.021                0.977193827     -61.1836709
9.022                 0.97714865     -61.2682616
9.023                0.977103335     -61.3530471
9.024                0.977057881     -61.4380282
9.025                0.977012289     -61.5232055
9.026                0.976966557     -61.6085795
9.027                0.976920685     -61.6941508
9.028                0.976874672     -61.7799202
9.029                0.976828519     -61.8658881
9.03                 0.976782225     -61.9520553
9.031                 0.97673579     -62.0384224
9.032                0.976689212     -62.1249899
9.033                0.976642492     -62.2117585
9.034                0.976595629     -62.2987288
9.035                0.976548623     -62.3859015
9.036                0.976501474     -62.4732773
9.037                 0.97645418     -62.5608566
9.038                0.976406741     -62.6486402
9.039                0.976359157     -62.7366288
9.04                 0.976311428     -62.8248228
9.041                0.976263553     -62.9132231
9.042                0.976215532     -63.0018303
9.043                0.976167364     -63.0906449
9.044                0.976119049     -63.1796677
9.045                0.976070586     -63.2688993
9.046                0.976021975     -63.3583404
9.047                0.975973215     -63.4479915
9.048                0.975924307     -63.5378535
9.049                0.975875249     -63.6279269
9.05                 0.975826041     -63.7182124
9.051                0.975776683     -63.8087106
9.052                0.975727174     -63.8994223
9.053                0.975677514     -63.9903481
9.054                0.975627702     -64.0814887
9.055                0.975577738     -64.1728448
9.056                0.975527621      -64.264417
9.057                0.975477352      -64.356206
9.058                0.975426929     -64.4482125
9.059                0.975376352     -64.5404372
9.06                  0.97532562     -64.6328807
9.061                0.975274734     -64.7255439
9.062                0.975223693     -64.8184272
9.063                0.975172496     -64.9115316
9.064                0.975121142     -65.0048575
9.065                0.975069633     -65.0984058
9.066                0.975017965     -65.1921772
9.067                0.974966141     -65.2861723
9.068                0.974914158     -65.3803918
9.069                0.974862017     -65.4748365
9.07                 0.974809717      -65.569507
9.071                0.974757258     -65.6644042
9.072                0.974704639     -65.7595286
9.073                0.974651859      -65.854881
9.074                0.974598919     -65.9504622
9.075                0.974545817     -66.0462728
9.076                0.974492554     -66.1423135
9.077                0.974439129     -66.2385852
9.078                0.974385541     -66.3350885
9.079                 0.97433179     -66.4318241
9.08                 0.974277875     -66.5287929
9.081                0.974223796     -66.6259954
9.082                0.974169553     -66.7234325
9.083                0.974115145     -66.8211049
9.084                0.974060572     -66.9190134
9.085                0.974005833     -67.0171587
9.086                0.973950927     -67.1155414
9.087                0.973895855     -67.2141625
9.088                0.973840615     -67.3130226
9.089                0.973785208     -67.4121225
9.09                 0.973729633     -67.5114629
9.091                0.973673889     -67.6110447
9.092                0.973617976     -67.7108685
9.093                0.973561893     -67.8109351
9.094                 0.97350564     -67.9112453
9.095                0.973449217     -68.0117999
9.096                0.973392622     -68.1125996
9.097                0.973335857     -68.2136453
9.098                0.973278919     -68.3149376
9.099                0.973221809     -68.4164774
9.1                  0.973164526     -68.5182654
9.101                 0.97310707     -68.6203024
9.102                 0.97304944     -68.7225893
9.103                0.972991636     -68.8251267
9.104                0.972933657     -68.9279155
9.105                0.972875503     -69.0309565
9.106                0.972817174     -69.1342505
9.107                0.972758668     -69.2377983
9.108                0.972699986     -69.3416006
9.109                0.972641126     -69.4456583
9.11                 0.972582089     -69.5499722
9.111                0.972522875      -69.654543
9.112                0.972463481     -69.7593716
9.113                0.972403909     -69.8644589
9.114                0.972344158     -69.9698056
9.115                0.972284226     -70.0754125
9.116                0.972224115     -70.1812804
9.117                0.972163823     -70.2874103
9.118                0.972103349     -70.3938028
9.119                0.972042694     -70.5004589
9.12                 0.971981857     -70.6073793
9.121                0.971920837     -70.7145649
9.122                0.971859634     -70.8220165
9.123                0.971798247      -70.929735
9.124                0.971736677     -71.0377211
9.125                0.971674922     -71.1459758
9.126                0.971612982     -71.2544999
9.127                0.971550857     -71.3632942
9.128                0.971488546     -71.4723596
9.129                0.971426049     -71.5816969
9.13                 0.971363365      -71.691307
9.131                0.971300494     -71.8011907
9.132                0.971237435     -71.9113489
9.133                0.971174189     -72.0217824
9.134                0.971110754     -72.1324922
9.135                0.971047129      -72.243479
9.136                0.970983316     -72.3547438
9.137                0.970919312     -72.4662874
9.138                0.970855118     -72.5781106
9.139                0.970790734     -72.6902145
9.14                 0.970726158     -72.8025998
9.141                0.970661391     -72.9152674
9.142                0.970596431     -73.0282182
9.143                0.970531279     -73.1414531
9.144                0.970465934      -73.254973
9.145                0.970400396     -73.3687787
9.146                0.970334663     -73.4828712
9.147                0.970268737     -73.5972513
9.148                0.970202616       -73.71192
9.149                0.970136299     -73.8268781
9.15                 0.970069787     -73.9421266
9.151                0.970003079     -74.0576663
9.152                0.969936175     -74.1734982
9.153                0.969869074     -74.2896232
9.154                0.969801775     -74.4060421
9.155                0.969734279     -74.5227559
9.156                0.969666584     -74.6397655
9.157                0.969598691     -74.7570718
9.158                0.969530599     -74.8746758
9.159                0.969462308     -74.9925784
9.16                 0.969393817     -75.1107804
9.161                0.969325126     -75.2292829
9.162                0.969256234     -75.3480867
9.163                0.969187141     -75.4671928
9.164                0.969117846     -75.5866021
9.165                 0.96904835     -75.7063155
9.166                0.968978652     -75.8263341
9.167                0.968908751     -75.9466586
9.168                0.968838646     -76.0672902
9.169                0.968768339     -76.1882297
9.17                 0.968697828      -76.309478
9.171                0.968627112     -76.4310362
9.172                0.968556192     -76.5529051
9.173                0.968485067     -76.6750858
9.174                0.968413737     -76.7975791
9.175                0.968342201     -76.9203861
9.176                0.968270459     -77.0435077
9.177                 0.96819851     -77.1669449
9.178                0.968126354     -77.2906986
9.179                0.968053992     -77.4147698
9.18                 0.967981422     -77.5391595
9.181                0.967908644     -77.6638686
9.182                0.967835657     -77.7888982
9.183                0.967762462     -77.9142492
9.184                0.967689058     -78.0399225
9.185                0.967615445     -78.1659192
9.186                0.967541622     -78.2922403
9.187                0.967467589     -78.4188866
9.188                0.967393346     -78.5458593
9.189                0.967318892     -78.6731593
9.19                 0.967244227     -78.8007876
9.191                0.967169351     -78.9287452
9.192                0.967094263     -79.0570331
9.193                0.967018963     -79.1856523
9.194                0.966943451     -79.3146037
9.195                0.966867727     -79.4438885
9.196                0.966791789     -79.5735075
9.197                0.966715638     -79.7034619
9.198                0.966639274     -79.8337525
9.199                0.966562697     -79.9643805
9.2                  0.966485905     -80.0953468
9.201                0.966408898     -80.2266524
9.202                0.966331678     -80.3582984
9.203                0.966254242     -80.4902858
9.204                0.966176591     -80.6226156
9.205                0.966098725     -80.7552888
9.206                0.966020643     -80.8883064
9.207                0.965942345     -81.0216695
9.208                0.965863831     -81.1553791
9.209                0.965785101     -81.2894362
9.21                 0.965706154     -81.4238419
9.211                 0.96562699     -81.5585972
9.212                0.965547609      -81.693703
9.213                 0.96546801     -81.8291606
9.214                0.965388194     -81.9649708
9.215                0.965308161     -82.1011347
9.216                0.965227909     -82.2376535
9.217                 0.96514744      -82.374528
9.218                0.965066751     -82.5117594
9.219                0.964985845     -82.6493487
9.22                  0.96490472     -82.7872969
9.221                0.964823375     -82.9256052
9.222                0.964741812     -83.0642744
9.223                 0.96466003     -83.2033058
9.224                0.964578028     -83.3427004
9.225                0.964495806     -83.4824591
9.226                0.964413365     -83.6225831
9.227                0.964330704     -83.7630734
9.228                0.964247824     -83.9039311
9.229                0.964164723     -84.0451573
9.23                 0.964081402     -84.1867529
9.231                0.963997861     -84.3287191
9.232                0.963914099     -84.4710569
9.233                0.963830117     -84.6137674
9.234                0.963745914     -84.7568517
9.235                0.963661491     -84.9003108
9.236                0.963576847     -85.0441458
9.237                0.963491982     -85.1883577
9.238                0.963406897     -85.3329477
9.239                0.963321591     -85.4779167
9.24                 0.963236063      -85.623266
9.241                0.963150315     -85.7689965
9.242                0.963064346     -85.9151093
9.243                0.962978156     -86.0616055
9.244                0.962891745     -86.2084862
9.245                0.962805113     -86.3557524
9.246                 0.96271826     -86.5034053
9.247                0.962631186     -86.6514459
9.248                0.962543891     -86.7998753
9.249                0.962456375     -86.9486945
9.25                 0.962368639     -87.0979047
9.251                0.962280682     -87.2475069
9.252                0.962192504     -87.3975022
9.253                0.962104105     -87.5478917
9.254                0.962015486     -87.6986765
9.255                0.961926647     -87.8498577
9.256                0.961837587     -88.0014363
9.257                0.961748307     -88.1534134
9.258                0.961658807     -88.3057902
9.259                0.961569087     -88.4585676
9.26                 0.961479147     -88.6117468
9.261                0.961388988     -88.7653289
9.262                0.961298609      -88.919315
9.263                0.961208011     -89.0737061
9.264                0.961117194     -89.2285033
9.265                0.961026158     -89.3837078
9.266                0.960934903     -89.5393205
9.267                 0.96084343     -89.6953426
9.268                0.960751738     -89.8517752
9.269                0.960659829     -90.0086194
9.27                 0.960567702     -90.1658762
9.271                0.960475357     -90.3235467
9.272                0.960382796      -90.481632
9.273                0.960290017     -90.6401332
9.274                0.960197022     -90.7990514
9.275                0.960103811     -90.9583877
9.276                0.960010384     -91.1181431
9.277                0.959916741     -91.2783188
9.278                0.959822883     -91.4389158
9.279                 0.95972881     -91.5999351
9.28                 0.959634523      -91.761378
9.281                0.959540022     -91.9232453
9.282                0.959445308     -92.0855384
9.283                 0.95935038     -92.2482581
9.284                0.959255239     -92.4114056
9.285                0.959159886      -92.574982
9.286                0.959064321     -92.7389884
9.287                0.958968545     -92.9034257
9.288                0.958872558     -93.0682951
9.289                0.958776361     -93.2335977
9.29                 0.958679954     -93.3993346
9.291                0.958583337     -93.5655067
9.292                0.958486512     -93.7321152
9.293                0.958389479     -93.8991611
9.294                0.958292238     -94.0666455
9.295                 0.95819479     -94.2345695
9.296                0.958097136     -94.4029341
9.297                0.957999277     -94.5717404
9.298                0.957901212     -94.7409894
9.299                0.957802942     -94.9106823
9.3                  0.957704469     -95.0808199
9.301                0.957605793     -95.2514035
9.302                0.957506915      -95.422434
9.303                0.957407835     -95.5939125
9.304                0.957308555     -95.7658401
9.305                0.957209074     -95.9382177
9.306                0.957109394     -96.1110465
9.307                0.957009515     -96.2843274
9.308                0.956909439     -96.4580616
9.309                0.956809166     -96.6322499
9.31                 0.956708697     -96.8068936
9.311                0.956608033     -96.9819935
9.312                0.956507175     -97.1575507
9.313                0.956406123     -97.3335663
9.314                0.956304879     -97.5100412
9.315                0.956203444     -97.6869765
9.316                0.956101818     -97.8643732
9.317                0.956000003     -98.0422322
9.318                0.955897999     -98.2205547
9.319                0.955795807     -98.3993416
9.32                  0.95569343     -98.5785938
9.321                0.955590867     -98.7583125
9.322                0.955488119     -98.9384985
9.323                0.955385189     -99.1191529
9.324                0.955282076     -99.3002766
9.325                0.955178782     -99.4818707
9.326                0.955075309     -99.6639361
9.327                0.954971657     -99.8464738
9.328                0.954867828     -100.029485
9.329                0.954763823      -100.21297
9.33                 0.954659642      -100.39693
9.331                0.954555288     -100.581367
9.332                0.954450762      -100.76628
9.333                0.954346065     -100.951672
9.334                0.954241198     -101.137542
9.335                0.954136162     -101.323892
9.336                 0.95403096     -101.510724
9.337                0.953925592     -101.698036
9.338                 0.95382006     -101.885832
9.339                0.953714365     -102.074111
9.34                 0.953608509     -102.262875
9.341                0.953502493     -102.452124
9.342                0.953396319     -102.641859
9.343                0.953289989     -102.832082
9.344                0.953183503     -103.022792
9.345                0.953076864     -103.213992
9.346                0.952970072     -103.405681
9.347                0.952863131     -103.597861
9.348                0.952756041     -103.790533
9.349                0.952648804     -103.983696
9.35                 0.952541421     -104.177354
9.351                0.952433895     -104.371505
9.352                0.952326228     -104.566151
9.353                 0.95221842     -104.761293
9.354                0.952110474     -104.956932
9.355                0.952002392     -105.153068
9.356                0.951894176     -105.349702
9.357                0.951785826     -105.546835
9.358                0.951677347     -105.744468
9.359                0.951568738     -105.942601
9.36                 0.951460003     -106.141236
9.361                0.951351142     -106.340373
9.362                 0.95124216     -106.540013
9.363                0.951133056     -106.740156
9.364                0.951023834     -106.940804
9.365                0.950914495     -107.141957
9.366                0.950805042     -107.343615
9.367                0.950695476     -107.545781
9.368                  0.9505858     -107.748453
9.369                0.950476017     -107.951634
9.37                 0.950366128     -108.155323
9.371                0.950256135     -108.359521
9.372                0.950146041      -108.56423
9.373                0.950035849     -108.769449
9.374                 0.94992556      -108.97518
9.375                0.949815177     -109.181422
9.376                0.949704702     -109.388177
9.377                0.949594138     -109.595446
9.378                0.949483488     -109.803228
9.379                0.949372753     -110.011525
9.38                 0.949261936     -110.220337
9.381                 0.94915104     -110.429664
9.382                0.949040068     -110.639508
9.383                0.948929021     -110.849868
9.384                0.948817903     -111.060746
9.385                0.948706717     -111.272142
9.386                0.948595464     -111.484056
9.387                0.948484148     -111.696489
9.388                0.948372772     -111.909441
9.389                0.948261338     -112.122914
9.39                 0.948149848     -112.336907
9.391                0.948038307      -112.55142
9.392                0.947926717     -112.766455
9.393                 0.94781508     -112.982012
9.394                  0.9477034     -113.198092
9.395                 0.94759168     -113.414693
9.396                0.947479922     -113.631818
