! TOUCHSTONE file generated by CST DESIGN STUDIO
! Date and time: Tue Feb  4 12:56:10 2025
! Project name: C:\Work\MatlabApps\UnitCellOptimizationMatlab\CST\unitcell.cst
! Tree item: Tasks\Sweep1\SPara1\S-Parameters
! Header version: 2024
! Port assignment regex: !\s*Touchstone port\s*([0-9]+)\s*=\s*(CST MWS port|CST DES external port|CST DES block port)\s*(.+)\s* \(\"(.*)\"\)(\s*mode\s*([0-9]+))?.*
! Touchstone port assignment:
! Touchstone port 1 = CST DES external port 1 ("")
# GHz S MA R 50
9                    0.977098676     -68.3296595
9.001                0.977047406     -68.4280681
9.002                0.976995981     -68.5267125
9.003                0.976944398     -68.6255934
9.004                0.976892657     -68.7247115
9.005                0.976840759     -68.8240675
9.006                0.976788702     -68.9236623
9.007                0.976736486     -69.0234966
9.008                0.976684111      -69.123571
9.009                0.976631577     -69.2238863
9.01                 0.976578882     -69.3244433
9.011                0.976526027     -69.4252427
9.012                 0.97647301     -69.5262852
9.013                0.976419832     -69.6275717
9.014                0.976366492     -69.7291028
9.015                 0.97631299     -69.8308794
9.016                0.976259325     -69.9329021
9.017                0.976205497     -70.0351717
9.018                0.976151505     -70.1376891
9.019                0.976097349     -70.2404549
9.02                 0.976043029     -70.3434699
9.021                0.975988543     -70.4467349
9.022                0.975933892     -70.5502507
9.023                0.975879075      -70.654018
9.024                0.975824092     -70.7580376
9.025                0.975768942     -70.8623103
9.026                0.975713625     -70.9668369
9.027                0.975658141     -71.0716181
9.028                0.975602488     -71.1766548
9.029                0.975546666     -71.2819476
9.03                 0.975490676     -71.3874975
9.031                0.975434516     -71.4933051
9.032                0.975378187     -71.5993714
9.033                0.975321687      -71.705697
9.034                0.975265017     -71.8122828
9.035                0.975208175     -71.9191296
9.036                0.975151162     -72.0262382
9.037                0.975093976     -72.1336094
9.038                0.975036619     -72.2412439
9.039                0.974979088     -72.3491427
9.04                 0.974921384     -72.4573064
9.041                0.974863507      -72.565736
9.042                0.974805455     -72.6744322
9.043                0.974747229     -72.7833959
9.044                0.974688827     -72.8926279
9.045                 0.97463025     -73.0021289
9.046                0.974571497     -73.1118999
9.047                0.974512568     -73.2219417
9.048                0.974453462      -73.332255
9.049                0.974394179     -73.4428407
9.05                 0.974334718     -73.5536996
9.051                 0.97427508     -73.6648327
9.052                0.974215262     -73.7762406
9.053                0.974155266     -73.8879243
9.054                0.974095091     -73.9998847
9.055                0.974034736     -74.1121224
9.056                  0.9739742     -74.2246384
9.057                0.973913484     -74.3374336
9.058                0.973852587     -74.4505088
9.059                0.973791509     -74.5638648
9.06                 0.973730249     -74.6775025
9.061                0.973668806     -74.7914227
9.062                0.973607181     -74.9056264
9.063                0.973545373     -75.0201143
9.064                0.973483381     -75.1348874
9.065                0.973421206     -75.2499465
9.066                0.973358846     -75.3652924
9.067                0.973296302     -75.4809261
9.068                0.973233572     -75.5968484
9.069                0.973170657     -75.7130602
9.07                 0.973107556     -75.8295624
9.071                0.973044268     -75.9463558
9.072                0.972980794     -76.0634413
9.073                0.972917133     -76.1808199
9.074                0.972853284     -76.2984924
9.075                0.972789247     -76.4164596
9.076                0.972725022     -76.5347225
9.077                0.972660609      -76.653282
9.078                0.972596006     -76.7721389
9.079                0.972531214     -76.8912942
9.08                 0.972466232     -77.0107488
9.081                0.972401059     -77.1305035
9.082                0.972335696     -77.2505593
9.083                0.972270143      -77.370917
9.084                0.972204397     -77.4915776
9.085                 0.97213846      -77.612542
9.086                0.972072331     -77.7338111
9.087                 0.97200601     -77.8553857
9.088                0.971939495     -77.9772669
9.089                0.971872788     -78.0994555
9.09                 0.971805886     -78.2219525
9.091                0.971738791     -78.3447587
9.092                0.971671502     -78.4678751
9.093                0.971604018     -78.5913027
9.094                0.971536339     -78.7150423
9.095                0.971468465     -78.8390948
9.096                0.971400395     -78.9634613
9.097                0.971332129     -79.0881426
9.098                0.971263666     -79.2131397
9.099                0.971195007     -79.3384534
9.1                  0.971126151     -79.4640849
9.101                0.971057098     -79.5900349
9.102                0.970987846     -79.7163044
9.103                0.970918397     -79.8428944
9.104                 0.97084875     -79.9698058
9.105                0.970778904     -80.0970396
9.106                0.970708858     -80.2245967
9.107                0.970638614      -80.352478
9.108                 0.97056817     -80.4806846
9.109                0.970497526     -80.6092173
9.11                 0.970426682     -80.7380772
9.111                0.970355638     -80.8672651
9.112                0.970284392     -80.9967821
9.113                0.970212946     -81.1266291
9.114                0.970141298     -81.2568071
9.115                0.970069449      -81.387317
9.116                0.969997398     -81.5181598
9.117                0.969925145     -81.6493364
9.118                0.969852689     -81.7808479
9.119                 0.96978003     -81.9126952
9.12                 0.969707169     -82.0448793
9.121                0.969634104     -82.1774012
9.122                0.969560836     -82.3102618
9.123                0.969487364     -82.4434621
9.124                0.969413688      -82.577003
9.125                0.969339808     -82.7108857
9.126                0.969265724      -82.845111
9.127                0.969191435     -82.9796799
9.128                0.969116941     -83.1145935
9.129                0.969042242     -83.2498527
9.13                 0.968967337     -83.3854585
9.131                0.968892227     -83.5214118
9.132                0.968816912     -83.6577138
9.133                 0.96874139     -83.7943653
9.134                0.968665663     -83.9313673
9.135                0.968589729     -84.0687209
9.136                0.968513589     -84.2064271
9.137                0.968437242     -84.3444868
9.138                0.968360688     -84.4829011
9.139                0.968283927     -84.6216709
9.14                 0.968206959     -84.7607973
9.141                0.968129784     -84.9002812
9.142                0.968052402     -85.0401237
9.143                0.967974812     -85.1803257
9.144                0.967897014     -85.3208883
9.145                0.967819008     -85.4618124
9.146                0.967740795     -85.6030992
9.147                0.967662373     -85.7447495
9.148                0.967583743     -85.8867644
9.149                0.967504905     -86.0291449
9.15                 0.967425859      -86.171892
9.151                0.967346604     -86.3150067
9.152                0.967267141     -86.4584901
9.153                0.967187469     -86.6023432
9.154                0.967107588     -86.7465669
9.155                0.967027499     -86.8911622
9.156                0.966947201     -87.0361303
9.157                0.966866694     -87.1814721
9.158                0.966785978     -87.3271886
9.159                0.966705053     -87.4732809
9.16                  0.96662392     -87.6197499
9.161                0.966542578     -87.7665967
9.162                0.966461026     -87.9138224
9.163                0.966379266     -88.0614278
9.164                0.966297297     -88.2094141
9.165                0.966215119     -88.3577822
9.166                0.966132732     -88.5065333
9.167                0.966050137     -88.6556682
9.168                0.965967332     -88.8051881
9.169                0.965884319     -88.9550939
9.17                 0.965801097     -89.1053867
9.171                0.965717667     -89.2560674
9.172                0.965634028     -89.4071372
9.173                0.965550181     -89.5585971
9.174                0.965466126      -89.710448
9.175                0.965381862     -89.8626909
9.176                 0.96529739      -90.015327
9.177                0.965212711     -90.1683572
9.178                0.965127823     -90.3217826
9.179                0.965042728     -90.4756041
9.18                 0.964957425     -90.6298228
9.181                0.964871915     -90.7844398
9.182                0.964786198      -90.939456
9.183                0.964700274     -91.0948724
9.184                0.964614143     -91.2506901
9.185                0.964527806     -91.4069101
9.186                0.964441262     -91.5635334
9.187                0.964354512     -91.7205611
9.188                0.964267556     -91.8779941
9.189                0.964180395     -92.0358335
9.19                 0.964093028     -92.1940803
9.191                0.964005456     -92.3527355
9.192                 0.96391768     -92.5118001
9.193                0.963829698     -92.6712752
9.194                0.963741513     -92.8311617
9.195                0.963653124     -92.9914607
9.196                0.963564531     -93.1521731
9.197                0.963475735     -93.3133001
9.198                0.963386737     -93.4748425
9.199                0.963297535     -93.6368015
9.2                  0.963208132      -93.799178
9.201                0.963118527     -93.9619729
9.202                0.963028721     -94.1251875
9.203                0.962938714     -94.2888225
9.204                0.962848506     -94.4528791
9.205                0.962758099     -94.6173582
9.206                0.962667492     -94.7822609
9.207                0.962576686      -94.947588
9.208                0.962485681     -95.1133407
9.209                0.962394478       -95.27952
9.21                 0.962303078     -95.4461267
9.211                0.962211481     -95.6131619
9.212                0.962119687     -95.7806267
9.213                0.962027698     -95.9485219
9.214                0.961935513     -96.1168485
9.215                0.961843133     -96.2856077
9.216                0.961750559     -96.4548002
9.217                0.961657792     -96.6244271
9.218                0.961564831     -96.7944895
9.219                0.961471679     -96.9649881
9.22                 0.961378334     -97.1359241
9.221                0.961284799     -97.3072984
9.222                0.961191074     -97.4791119
9.223                0.961097159     -97.6513657
9.224                0.961003055     -97.8240606
9.225                0.960908763     -97.9971976
9.226                0.960814284     -98.1707778
9.227                0.960719618     -98.3448019
9.228                0.960624767     -98.5192711
9.229                 0.96052973     -98.6941862
9.23                 0.960434509     -98.8695482
9.231                0.960339106      -99.045358
9.232                0.960243519     -99.2216165
9.233                0.960147751     -99.3983247
9.234                0.960051803     -99.5754835
9.235                0.959955674     -99.7530938
9.236                0.959859367     -99.9311566
9.237                0.959762882     -100.109673
9.238                0.959666219     -100.288643
9.239                0.959569381     -100.468069
9.24                 0.959472368     -100.647951
9.241                0.959375181     -100.828289
9.242                0.959277821     -101.009086
9.243                0.959180289     -101.190341
9.244                0.959082586     -101.372056
9.245                0.958984714     -101.554232
9.246                0.958886672     -101.736869
9.247                0.958788464     -101.919968
9.248                0.958690089     -102.103531
9.249                0.958591549     -102.287557
9.25                 0.958492844     -102.472049
9.251                0.958393978     -102.657006
9.252                0.958294949      -102.84243
9.253                 0.95819576     -103.028321
9.254                0.958096412     -103.214681
9.255                0.957996907     -103.401509
9.256                0.957897245     -103.588808
9.257                0.957797427     -103.776577
9.258                0.957697456     -103.964818
9.259                0.957597333     -104.153532
9.26                 0.957497058     -104.342718
9.261                0.957396634     -104.532379
9.262                0.957296062     -104.722514
9.263                0.957195343     -104.913125
9.264                0.957094479     -105.104213
9.265                0.956993471     -105.295777
9.266                0.956892321      -105.48782
9.267                 0.95679103     -105.680341
9.268                  0.9566896     -105.873341
9.269                0.956588033     -106.066822
9.27                  0.95648633     -106.260783
9.271                0.956384492     -106.455226
9.272                0.956282522     -106.650152
9.273                0.956180421      -106.84556
9.274                0.956078191     -107.041453
9.275                0.955975833      -107.23783
9.276                0.955873349     -107.434692
9.277                0.955770742      -107.63204
9.278                0.955668012     -107.829874
9.279                0.955565162     -108.028196
9.28                 0.955462194     -108.227006
9.281                0.955359108     -108.426304
9.282                0.955255908     -108.626091
9.283                0.955152596     -108.826369
9.284                0.955049172     -109.027136
9.285                 0.95494564     -109.228395
9.286                   0.954842     -109.430146
9.287                0.954738256     -109.632388
9.288                0.954634409     -109.835124
9.289                0.954530461     -110.038353
9.29                 0.954426414     -110.242077
9.291                0.954322271     -110.446295
9.292                0.954218034     -110.651008
9.293                0.954113704     -110.856216
9.294                0.954009284     -111.061922
9.295                0.953904776     -111.268124
9.296                0.953800183     -111.474823
9.297                0.953695507      -111.68202
9.298                0.953590749     -111.889715
9.299                0.953485913      -112.09791
9.3                     0.953381     -112.306603
9.301                0.953276014     -112.515796
9.302                0.953170956      -112.72549
9.303                0.953065828     -112.935684
9.304                0.952960635     -113.146379
9.305                0.952855377     -113.357576
9.306                0.952750057     -113.569275
9.307                0.952644678     -113.781476
9.308                0.952539243     -113.994179
9.309                0.952433754     -114.207386
9.31                 0.952328213     -114.421097
9.311                0.952222624     -114.635311
9.312                0.952116989     -114.850029
9.313                0.952011311     -115.065252
9.314                0.951905592     -115.280979
9.315                0.951799835     -115.497212
9.316                0.951694043      -115.71395
9.317                0.951588219     -115.931193
9.318                0.951482366     -116.148943
9.319                0.951376486     -116.367198
9.32                 0.951270583      -116.58596
9.321                0.951164659     -116.805229
9.322                0.951058717     -117.025005
9.323                0.950952761     -117.245287
9.324                0.950846793     -117.466077
9.325                0.950740816     -117.687374
9.326                0.950634833     -117.909179
9.327                0.950528849     -118.131491
9.328                0.950422864     -118.354312
9.329                0.950316884      -118.57764
9.33                  0.95021091     -118.801476
9.331                0.950104947      -119.02582
9.332                0.949998997     -119.250673
9.333                0.949893063     -119.476033
9.334                 0.94978715     -119.701902
9.335                 0.94968126     -119.928279
9.336                0.949575396     -120.155165
9.337                0.949469562     -120.382559
9.338                0.949363762     -120.610461
9.339                0.949257999     -120.838871
9.34                 0.949152276     -121.067789
9.341                0.949046596     -121.297216
9.342                0.948940964      -121.52715
9.343                0.948835383     -121.757592
9.344                0.948729856     -121.988542
9.345                0.948624387         -122.22
9.346                0.948518979     -122.451965
9.347                0.948413637     -122.684437
9.348                0.948308364     -122.917417
9.349                0.948203163     -123.150903
9.35                 0.948098039     -123.384896
9.351                0.947992995     -123.619396
9.352                0.947888035     -123.854401
9.353                0.947783163     -124.089913
9.354                0.947678382      -124.32593
9.355                0.947573696     -124.562452
9.356                 0.94746911     -124.799479
9.357                0.947364628     -125.037011
9.358                0.947260252     -125.275047
9.359                0.947155988     -125.513587
9.36                 0.947051838      -125.75263
9.361                0.946947808     -125.992176
9.362                0.946843902     -126.232225
9.363                0.946740122     -126.472775
9.364                0.946636474     -126.713828
9.365                0.946532962     -126.955381
9.366                0.946429589     -127.197435
9.367                 0.94632636     -127.439989
9.368                 0.94622328     -127.683042
9.369                0.946120351     -127.926594
9.37                  0.94601758     -128.170644
9.371                0.945914969     -128.415192
9.372                0.945812523     -128.660237
9.373                0.945710246     -128.905778
9.374                0.945608144     -129.151815
9.375                 0.94550622     -129.398347
9.376                0.945404478     -129.645373
9.377                0.945302923     -129.892892
9.378                 0.94520156     -130.140904
9.379                0.945100392     -130.389408
9.38                 0.944999425     -130.638403
9.381                0.944898663     -130.887888
9.382                 0.94479811     -131.137862
9.383                0.944697771     -131.388325
9.384                0.944597651     -131.639276
9.385                0.944497754     -131.890713
9.386                0.944398084     -132.142635
9.387                0.944298647     -132.395043
9.388                0.944199446     -132.647934
9.389                0.944100488     -132.901308
9.39                 0.944001775     -133.155164
9.391                0.943903314       -133.4095
9.392                0.943805108     -133.664316
9.393                0.943707163      -133.91961
9.394                0.943609483     -134.175382
9.395                0.943512073     -134.431629
9.396                0.943414938     -134.688352
