! TOUCHSTONE file generated by CST DESIGN STUDIO
! Date and time: Tue Feb  4 12:56:08 2025
! Project name: C:\Work\MatlabApps\UnitCellOptimizationMatlab\CST\unitcell.cst
! Tree item: Tasks\Sweep1\SPara1\S-Parameters
! Header version: 2024
! Port assignment regex: !\s*Touchstone port\s*([0-9]+)\s*=\s*(CST MWS port|CST DES external port|CST DES block port)\s*(.+)\s* \(\"(.*)\"\)(\s*mode\s*([0-9]+))?.*
! Touchstone port assignment:
! Touchstone port 1 = CST DES external port 1 ("")
# GHz S MA R 50
9                    0.976873193      -70.480964
9.001                0.976819791     -70.5840752
9.002                0.976766227     -70.6874363
9.003                0.976712501      -70.791048
9.004                0.976658613     -70.8949111
9.005                0.976604563     -70.9990264
9.006                0.976550348     -71.1033946
9.007                0.976495971     -71.2080165
9.008                0.976441429     -71.3128928
9.009                0.976386722     -71.4180245
9.01                  0.97633185     -71.5234122
9.011                0.976276813     -71.6290567
9.012                 0.97622161     -71.7349589
9.013                0.976166241     -71.8411194
9.014                0.976110705     -71.9475392
9.015                0.976055001      -72.054219
9.016                 0.97599913     -72.1611595
9.017                0.975943091     -72.2683617
9.018                0.975886883     -72.3758262
9.019                0.975830507      -72.483554
9.02                 0.975773961     -72.5915457
9.021                0.975717245     -72.6998023
9.022                0.975660359     -72.8083244
9.023                0.975603302      -72.917113
9.024                0.975546074     -73.0261689
9.025                0.975488675     -73.1354927
9.026                0.975431103     -73.2450855
9.027                0.975373359      -73.354948
9.028                0.975315443     -73.4650809
9.029                0.975257353     -73.5754853
9.03                 0.975199089     -73.6861618
9.031                0.975140651     -73.7971112
9.032                0.975082039     -73.9083346
9.033                0.975023251     -74.0198325
9.034                0.974964289      -74.131606
9.035                 0.97490515     -74.2436559
9.036                0.974845836     -74.3559829
9.037                0.974786344     -74.4685879
9.038                0.974726676     -74.5814718
9.039                 0.97466683     -74.6946353
9.04                 0.974606806     -74.8080795
9.041                0.974546603     -74.9218051
9.042                0.974486222     -75.0358129
9.043                0.974425662     -75.1501038
9.044                0.974364923     -75.2646788
9.045                0.974304003     -75.3795385
9.046                0.974242903      -75.494684
9.047                0.974181622      -75.610116
9.048                 0.97412016     -75.7258355
9.049                0.974058516     -75.8418432
9.05                  0.97399669     -75.9581401
9.051                0.973934682     -76.0747271
9.052                0.973872491     -76.1916049
9.053                0.973810117     -76.3087746
9.054                0.973747559     -76.4262369
9.055                0.973684818     -76.5439927
9.056                0.973621891      -76.662043
9.057                 0.97355878     -76.7803886
9.058                0.973495484     -76.8990305
9.059                0.973432002     -77.0179694
9.06                 0.973368334     -77.1372063
9.061                 0.97330448      -77.256742
9.062                 0.97324044     -77.3765776
9.063                0.973176212     -77.4967138
9.064                0.973111796     -77.6171515
9.065                0.973047193     -77.7378918
9.066                0.972982401     -77.8589354
9.067                0.972917421     -77.9802833
9.068                0.972852252     -78.1019364
9.069                0.972786893     -78.2238956
9.07                 0.972721345     -78.3461617
9.071                0.972655607     -78.4687358
9.072                0.972589678     -78.5916188
9.073                0.972523558     -78.7148115
9.074                0.972457247     -78.8383148
9.075                0.972390745     -78.9621297
9.076                0.972324051     -79.0862572
9.077                0.972257165     -79.2106981
9.078                0.972190086     -79.3354534
9.079                0.972122814     -79.4605239
9.08                 0.972055349     -79.5859107
9.081                 0.97198769     -79.7116146
9.082                0.971919838     -79.8376366
9.083                0.971851791     -79.9639777
9.084                 0.97178355     -80.0906387
9.085                0.971715114     -80.2176206
9.086                0.971646482     -80.3449244
9.087                0.971577655     -80.4725509
9.088                0.971508633     -80.6005012
9.089                0.971439414     -80.7287761
9.09                 0.971369998     -80.8573767
9.091                0.971300386     -80.9863039
9.092                0.971230577     -81.1155586
9.093                0.971160571     -81.2451417
9.094                0.971090367     -81.3750543
9.095                0.971019965     -81.5052973
9.096                0.970949364     -81.6358717
9.097                0.970878566     -81.7667783
9.098                0.970807568     -81.8980183
9.099                0.970736372     -82.0295925
9.1                  0.970664976     -82.1615018
9.101                 0.97059338     -82.2937474
9.102                0.970521585       -82.42633
9.103                 0.97044959     -82.5592508
9.104                0.970377394     -82.6925107
9.105                0.970304998     -82.8261106
9.106                0.970232401     -82.9600515
9.107                0.970159603     -83.0943344
9.108                0.970086603     -83.2289603
9.109                0.970013403     -83.3639302
9.11                     0.96994     -83.4992449
9.111                0.969866395     -83.6349056
9.112                0.969792588     -83.7709132
9.113                0.969718579     -83.9072686
9.114                0.969644367      -84.043973
9.115                0.969569953     -84.1810271
9.116                0.969495335     -84.3184321
9.117                0.969420515     -84.4561889
9.118                0.969345491     -84.5942986
9.119                0.969270263      -84.732762
9.12                 0.969194832     -84.8715802
9.121                0.969119197     -85.0107542
9.122                0.969043358      -85.150285
9.123                0.968967314     -85.2901736
9.124                0.968891067     -85.4304209
9.125                0.968814615     -85.5710281
9.126                0.968737958     -85.7119959
9.127                0.968661097     -85.8533256
9.128                0.968584031      -85.995018
9.129                 0.96850676     -86.1370742
9.13                 0.968429284     -86.2794951
9.131                0.968351602     -86.4222819
9.132                0.968273716     -86.5654354
9.133                0.968195624     -86.7089566
9.134                0.968117327     -86.8528467
9.135                0.968038824     -86.9971066
9.136                0.967960115     -87.1417372
9.137                0.967881201     -87.2867397
9.138                0.967802082     -87.4321149
9.139                0.967722756      -87.577864
9.14                 0.967643225     -87.7239879
9.141                0.967563488     -87.8704877
9.142                0.967483546     -88.0173643
9.143                0.967403397     -88.1646188
9.144                0.967323043     -88.3122521
9.145                0.967242482     -88.4602653
9.146                0.967161716     -88.6086594
9.147                0.967080744     -88.7574354
9.148                0.966999567     -88.9065943
9.149                0.966918183     -89.0561372
9.15                 0.966836594      -89.206065
9.151                0.966754799     -89.3563787
9.152                0.966672799     -89.5070794
9.153                0.966590593     -89.6581681
9.154                0.966508181     -89.8096458
9.155                0.966425565     -89.9615135
9.156                0.966342742     -90.1137722
9.157                0.966259715     -90.2664229
9.158                0.966176483     -90.4194667
9.159                0.966093046     -90.5729045
9.16                 0.966009404     -90.7267374
9.161                0.965925557     -90.8809664
9.162                0.965841506     -91.0355925
9.163                 0.96575725     -91.1906166
9.164                0.965672791     -91.3460399
9.165                0.965588127     -91.5018633
9.166                0.965503259     -91.6580879
9.167                0.965418188     -91.8147145
9.168                0.965332914     -91.9717444
9.169                0.965247436     -92.1291784
9.17                 0.965161756     -92.2870175
9.171                0.965075872     -92.4452629
9.172                0.964989787     -92.6039154
9.173                0.964903499     -92.7629761
9.174                0.964817009      -92.922446
9.175                0.964730318     -93.0823261
9.176                0.964643425     -93.2426173
9.177                0.964556332     -93.4033208
9.178                0.964469038     -93.5644375
9.179                0.964381543     -93.7259684
9.18                 0.964293849     -93.8879144
9.181                0.964205955     -94.0502767
9.182                0.964117862     -94.2130561
9.183                 0.96402957     -94.3762537
9.184                0.963941079     -94.5398705
9.185                0.963852391     -94.7039075
9.186                0.963763505     -94.8683656
9.187                0.963674421     -95.0332458
9.188                0.963585142     -95.1985492
9.189                0.963495665     -95.3642767
9.19                 0.963405993     -95.5304293
9.191                0.963316126     -95.6970079
9.192                0.963226064     -95.8640136
9.193                0.963135808     -96.0314474
9.194                0.963045358     -96.1993101
9.195                0.962954715     -96.3676028
9.196                0.962863879     -96.5363265
9.197                0.962772851     -96.7054821
9.198                0.962681632     -96.8750705
9.199                0.962590222     -97.0450928
9.2                  0.962498622     -97.2155499
9.201                0.962406832     -97.3864428
9.202                0.962314853     -97.5577724
9.203                0.962222686     -97.7295397
9.204                0.962130331     -97.9017455
9.205                0.962037789      -98.074391
9.206                0.961945062      -98.247477
9.207                0.961852148     -98.4210044
9.208                 0.96175905     -98.5949742
9.209                0.961665768     -98.7693873
9.21                 0.961572303     -98.9442448
9.211                0.961478655     -99.1195474
9.212                0.961384826     -99.2952961
9.213                0.961290816     -99.4714918
9.214                0.961196626     -99.6481355
9.215                0.961102257     -99.8252281
9.216                0.961007709      -100.00277
9.217                0.960912985     -100.180764
9.218                0.960818084     -100.359208
9.219                0.960723007     -100.538105
9.22                 0.960627756     -100.717456
9.221                0.960532331     -100.897261
9.222                0.960436734     -101.077521
9.223                0.960340965     -101.258237
9.224                0.960245025      -101.43941
9.225                0.960148916     -101.621041
9.226                0.960052639      -101.80313
9.227                0.959956194     -101.985679
9.228                0.959859582     -102.168688
9.229                0.959762805     -102.352159
9.23                 0.959665865     -102.536092
9.231                0.959568761     -102.720488
9.232                0.959471495     -102.905347
9.233                0.959374069     -103.090671
9.234                0.959276484     -103.276461
9.235                 0.95917874     -103.462717
9.236                0.959080839      -103.64944
9.237                0.958982783     -103.836631
9.238                0.958884572     -104.024291
9.239                0.958786208      -104.21242
9.24                 0.958687692     -104.401019
9.241                0.958589026      -104.59009
9.242                0.958490211     -104.779633
9.243                0.958391249     -104.969648
9.244                 0.95829214     -105.160137
9.245                0.958192886       -105.3511
9.246                0.958093489     -105.542538
9.247                 0.95799395     -105.734451
9.248                 0.95789427     -105.926841
9.249                0.957794452     -106.119709
9.25                 0.957694496     -106.313054
9.251                0.957594405     -106.506878
9.252                 0.95749418     -106.701182
9.253                0.957393821     -106.895965
9.254                0.957293332     -107.091229
9.255                0.957192714     -107.286975
9.256                0.957091968     -107.483203
9.257                0.956991096     -107.679914
9.258                  0.9568901     -107.877109
9.259                0.956788982     -108.074788
9.26                 0.956687743     -108.272951
9.261                0.956586385       -108.4716
9.262                 0.95648491     -108.670736
9.263                0.956383319     -108.870358
9.264                0.956281616     -109.070467
9.265                  0.9561798     -109.271065
9.266                0.956077876     -109.472151
9.267                0.955975843     -109.673727
9.268                0.955873705     -109.875792
9.269                0.955771464     -110.078348
9.27                  0.95566912     -110.281395
9.271                0.955566677     -110.484933
9.272                0.955464136     -110.688964
9.273                  0.9553615     -110.893487
9.274                0.955258771     -111.098503
9.275                 0.95515595     -111.304013
9.276                 0.95505304     -111.510017
9.277                0.954950043     -111.716516
9.278                0.954846962      -111.92351
9.279                0.954743798        -112.131
9.28                 0.954640554     -112.338986
9.281                0.954537232     -112.547469
9.282                0.954433834     -112.756449
9.283                0.954330363     -112.965926
9.284                0.954226821     -113.175902
9.285                0.954123211     -113.386375
9.286                0.954019534     -113.597348
9.287                0.953915794      -113.80882
9.288                0.953811993     -114.020791
9.289                0.953708133     -114.233262
9.29                 0.953604217     -114.446233
9.291                0.953500247     -114.659706
9.292                0.953396226     -114.873679
9.293                0.953292157     -115.088153
9.294                0.953188042     -115.303129
9.295                0.953083884     -115.518607
9.296                0.952979685     -115.734588
9.297                0.952875449      -115.95107
9.298                0.952771177     -116.168056
9.299                0.952666874     -116.385544
9.3                  0.952562541     -116.603536
9.301                0.952458181     -116.822032
9.302                0.952353798      -117.04103
9.303                0.952249393     -117.260533
9.304                0.952144971      -117.48054
9.305                0.952040533     -117.701051
9.306                0.951936084     -117.922067
9.307                0.951831625     -118.143587
9.308                 0.95172716     -118.365611
9.309                0.951622692     -118.588141
9.31                 0.951518224     -118.811175
9.311                0.951413759     -119.034714
9.312                0.951309301     -119.258759
9.313                0.951204851     -119.483308
9.314                0.951100414     -119.708362
9.315                0.950995993     -119.933922
9.316                0.950891591     -120.159987
9.317                0.950787211     -120.386557
9.318                0.950682857     -120.613632
9.319                0.950578531     -120.841212
9.32                 0.950474237     -121.069297
9.321                0.950369979     -121.297887
9.322                 0.95026576     -121.526982
9.323                0.950161583     -121.756581
9.324                0.950057452     -121.986686
9.325                 0.94995337     -122.217294
9.326                0.949849341     -122.448408
9.327                0.949745369     -122.680025
9.328                0.949641456     -122.912146
9.329                0.949537606     -123.144772
9.33                 0.949433824       -123.3779
9.331                0.949330112     -123.611532
9.332                0.949226474     -123.845667
9.333                0.949122915     -124.080305
9.334                0.949019437     -124.315446
9.335                0.948916045     -124.551089
9.336                0.948812742     -124.787233
9.337                0.948709532     -125.023879
9.338                0.948606419     -125.261027
9.339                0.948503407     -125.498675
9.34                 0.948400499     -125.736823
9.341                0.948297699     -125.975472
9.342                0.948195012      -126.21462
9.343                0.948092442     -126.454267
9.344                0.947989992     -126.694413
9.345                0.947887666     -126.935056
9.346                0.947785468     -127.176198
9.347                0.947683403     -127.417836
9.348                0.947581474     -127.659971
9.349                0.947479686     -127.902602
9.35                 0.947378042     -128.145728
9.351                0.947276547     -128.389349
9.352                0.947175206     -128.633464
9.353                0.947074021     -128.878073
9.354                0.946972998     -129.123174
9.355                 0.94687214     -129.368767
9.356                0.946771452     -129.614852
9.357                0.946670939     -129.861427
9.358                0.946570604     -130.108492
9.359                0.946470451     -130.356047
9.36                 0.946370486     -130.604089
9.361                0.946270713     -130.852619
9.362                0.946171135     -131.101635
9.363                0.946071757     -131.351138
9.364                0.945972584     -131.601125
9.365                0.945873621     -131.851596
9.366                0.945774871      -132.10255
9.367                0.945676339     -132.353986
9.368                 0.94557803     -132.605903
9.369                0.945479948     -132.858301
9.37                 0.945382098     -133.111177
9.371                0.945284484     -133.364531
9.372                0.945187111     -133.618363
9.373                0.945089983      -133.87267
9.374                0.944993106     -134.127452
9.375                0.944896483     -134.382708
9.376                 0.94480012     -134.638436
9.377                 0.94470402     -134.894636
9.378                 0.94460819     -135.151306
9.379                0.944512633     -135.408444
9.38                 0.944417354      -135.66605
9.381                0.944322358     -135.924123
9.382                0.944227649     -136.182661
9.383                0.944133233     -136.441662
9.384                0.944039114     -136.701126
9.385                0.943945298     -136.961051
9.386                0.943851787     -137.221436
9.387                0.943758589     -137.482279
9.388                0.943665707     -137.743579
9.389                0.943573146     -138.005334
9.39                 0.943480911     -138.267543
9.391                0.943389007     -138.530205
9.392                0.943297439     -138.793317
9.393                0.943206211     -139.056879
9.394                0.943115329     -139.320888
9.395                0.943024798     -139.585344
9.396                0.942934621     -139.850244
