! TOUCHSTONE file generated by CST DESIGN STUDIO
! Date and time: Tue Feb  4 18:02:07 2025
! Project name: C:\Work\MatlabApps\UnitCellOptimizationMatlab\CST\unitcell.cst
! Tree item: Tasks\Sweep1\SPara1\S-Parameters
! Header version: 2024
! Port assignment regex: !\s*Touchstone port\s*([0-9]+)\s*=\s*(CST MWS port|CST DES external port|CST DES block port)\s*(.+)\s* \(\"(.*)\"\)(\s*mode\s*([0-9]+))?.*
! Touchstone port assignment:
! Touchstone port 1 = CST DES external port 1 ("")
# GHz S MA R 50
9                    0.988674995     -72.6905383
9.001                0.988649278     -72.7967553
9.002                0.988623484      -72.903227
9.003                0.988597612      -73.009954
9.004                0.988571662     -73.1169371
9.005                0.988545634     -73.2241771
9.006                0.988519527     -73.3316748
9.007                0.988493342     -73.4394308
9.008                0.988467079     -73.5474461
9.009                0.988440737     -73.6557213
9.01                 0.988414315     -73.7642573
9.011                0.988387815     -73.8730547
9.012                0.988361235     -73.9821144
9.013                0.988334575     -74.0914372
9.014                0.988307836     -74.2010238
9.015                0.988281016     -74.3108751
9.016                0.988254117     -74.4209917
9.017                0.988227137     -74.5313745
9.018                0.988200077     -74.6420243
9.019                0.988172935     -74.7529418
9.02                 0.988145714     -74.8641279
9.021                 0.98811841     -74.9755833
9.022                0.988091026     -75.0873089
9.023                 0.98806356     -75.1993054
9.024                0.988036013     -75.3115737
9.025                0.988008384     -75.4241145
9.026                0.987980673     -75.5369286
9.027                 0.98795288     -75.6500169
9.028                0.987925004     -75.7633801
9.029                0.987897046     -75.8770191
9.03                 0.987869005     -75.9909346
9.031                0.987840881     -76.1051276
9.032                0.987812675     -76.2195987
9.033                0.987784385     -76.3343489
9.034                0.987756011     -76.4493789
9.035                0.987727554     -76.5646895
9.036                0.987699014     -76.6802816
9.037                0.987670389      -76.796156
9.038                 0.98764168     -76.9123136
9.039                0.987612887     -77.0287551
9.04                  0.98758401     -77.1454813
9.041                0.987555048     -77.2624932
9.042                0.987526001     -77.3797916
9.043                 0.98749687     -77.4973772
9.044                0.987467653     -77.6152509
9.045                0.987438351     -77.7334136
9.046                0.987408963      -77.851866
9.047                 0.98737949     -77.9706091
9.048                0.987349931     -78.0896437
9.049                0.987320287     -78.2089706
9.05                 0.987290556     -78.3285907
9.051                0.987260739     -78.4485048
9.052                0.987230835     -78.5687138
9.053                0.987200845     -78.6892185
9.054                0.987170768     -78.8100198
9.055                0.987140605     -78.9311185
9.056                0.987110354     -79.0525155
9.057                0.987080016     -79.1742117
9.058                0.987049591     -79.2962079
9.059                0.987019078     -79.4185049
9.06                 0.986988478     -79.5411037
9.061                 0.98695779     -79.6640051
9.062                0.986927014       -79.78721
9.063                0.986896149     -79.9107192
9.064                0.986865197     -80.0345337
9.065                0.986834156     -80.1586542
9.066                0.986803027     -80.2830817
9.067                0.986771809      -80.407817
9.068                0.986740503      -80.532861
9.069                0.986709107     -80.6582147
9.07                 0.986677622     -80.7838788
9.071                0.986646049     -80.9098542
9.072                0.986614385     -81.0361419
9.073                0.986582633     -81.1627428
9.074                0.986550791     -81.2896576
9.075                0.986518859     -81.4168873
9.076                0.986486837     -81.5444328
9.077                0.986454725      -81.672295
9.078                0.986422523     -81.8004748
9.079                0.986390231      -81.928973
9.08                 0.986357849     -82.0577906
9.081                0.986325376     -82.1869285
9.082                0.986292813     -82.3163875
9.083                0.986260159     -82.4461685
9.084                0.986227414     -82.5762725
9.085                0.986194578     -82.7067004
9.086                0.986161651      -82.837453
9.087                0.986128633     -82.9685313
9.088                0.986095524     -83.0999361
9.089                0.986062323     -83.2316684
9.09                 0.986029031     -83.3637292
9.091                0.985995648     -83.4961192
9.092                0.985962173     -83.6288394
9.093                0.985928606     -83.7618907
9.094                0.985894947      -83.895274
9.095                0.985861197     -84.0289903
9.096                0.985827354     -84.1630404
9.097                 0.98579342     -84.2974253
9.098                0.985759393     -84.4321459
9.099                0.985725274     -84.5672031
9.1                  0.985691063     -84.7025979
9.101                0.985656759     -84.8383311
9.102                0.985622363     -84.9744036
9.103                0.985587874     -85.1108164
9.104                0.985553293     -85.2475705
9.105                0.985518619     -85.3846667
9.106                0.985483852     -85.5221059
9.107                0.985448992     -85.6598891
9.108                 0.98541404     -85.7980173
9.109                0.985378995     -85.9364913
9.11                 0.985343856      -86.075312
9.111                0.985308625     -86.2144805
9.112                0.985273301     -86.3539976
9.113                0.985237883     -86.4938642
9.114                0.985202373     -86.6340813
9.115                0.985166769     -86.7746499
9.116                0.985131072     -86.9155708
9.117                0.985095281      -87.056845
9.118                0.985059398     -87.1984734
9.119                0.985023421     -87.3404569
9.12                 0.984987351     -87.4827966
9.121                0.984951187     -87.6254932
9.122                 0.98491493     -87.7685479
9.123                 0.98487858     -87.9119614
9.124                0.984842136     -88.0557347
9.125                0.984805599     -88.1998688
9.126                0.984768969     -88.3443646
9.127                0.984732245     -88.4892231
9.128                0.984695427     -88.6344451
9.129                0.984658517     -88.7800316
9.13                 0.984621513     -88.9259836
9.131                0.984584415      -89.072302
9.132                0.984547225     -89.2189877
9.133                 0.98450994     -89.3660416
9.134                0.984472563     -89.5134648
9.135                0.984435092     -89.6612581
9.136                0.984397528     -89.8094225
9.137                0.984359871     -89.9579589
9.138                0.984322121     -90.1068682
9.139                0.984284278     -90.2561515
9.14                 0.984246341     -90.4058095
9.141                0.984208312     -90.5558434
9.142                0.984170189     -90.7062539
9.143                0.984131974     -90.8570421
9.144                0.984093666     -91.0082088
9.145                0.984055265     -91.1597551
9.146                0.984016771     -91.3116818
9.147                0.983978185     -91.4639899
9.148                0.983939506     -91.6166803
9.149                0.983900735      -91.769754
9.15                 0.983861872     -91.9232119
9.151                0.983822916     -92.0770548
9.152                0.983783868     -92.2312838
9.153                0.983744728     -92.3858998
9.154                0.983705496     -92.5409038
9.155                0.983666173     -92.6962965
9.156                0.983626757      -92.852079
9.157                 0.98358725     -93.0082523
9.158                0.983547652     -93.1648171
9.159                0.983507962     -93.3217745
9.16                 0.983468181     -93.4791254
9.161                0.983428309     -93.6368707
9.162                0.983388347     -93.7950113
9.163                0.983348293     -93.9535481
9.164                0.983308149     -94.1124821
9.165                0.983267915     -94.2718142
9.166                 0.98322759     -94.4315453
9.167                0.983187176     -94.5916764
9.168                0.983146671     -94.7522082
9.169                0.983106077     -94.9131418
9.17                 0.983065393     -95.0744781
9.171                0.983024621     -95.2362179
9.172                0.982983759     -95.3983622
9.173                0.982942808     -95.5609119
9.174                0.982901768     -95.7238679
9.175                 0.98286064     -95.8872311
9.176                0.982819424     -96.0510023
9.177                 0.98277812     -96.2151826
9.178                0.982736729     -96.3797727
9.179                0.982695249     -96.5447737
9.18                 0.982653683     -96.7101863
9.181                 0.98261203     -96.8760115
9.182                 0.98257029     -97.0422501
9.183                0.982528463     -97.2089031
9.184                0.982486551     -97.3759713
9.185                0.982444552     -97.5434556
9.186                0.982402468     -97.7113569
9.187                0.982360299     -97.8796761
9.188                0.982318045      -98.048414
9.189                0.982275706     -98.2175715
9.19                 0.982233283     -98.3871495
9.191                0.982190775     -98.5571488
9.192                0.982148184     -98.7275703
9.193                 0.98210551     -98.8984149
9.194                0.982062753     -99.0696834
9.195                0.982019913     -99.2413767
9.196                0.981976991     -99.4134956
9.197                0.981933987      -99.586041
9.198                0.981890902     -99.7590137
9.199                0.981847735     -99.9324146
9.2                  0.981804487     -100.106244
9.201                 0.98176116     -100.280504
9.202                0.981717752     -100.455194
9.203                0.981674265     -100.630316
9.204                0.981630698      -100.80587
9.205                0.981587053     -100.981857
9.206                 0.98154333     -101.158279
9.207                0.981499529     -101.335134
9.208                 0.98145565     -101.512426
9.209                0.981411695     -101.690154
9.21                 0.981367663     -101.868319
9.211                0.981323555     -102.046922
9.212                0.981279372     -102.225963
9.213                0.981235113     -102.405444
9.214                0.981190781     -102.585366
9.215                0.981146374     -102.765728
9.216                0.981101894     -102.946532
9.217                0.981057341     -103.127779
9.218                0.981012715      -103.30947
9.219                0.980968018     -103.491604
9.22                 0.980923249     -103.674183
9.221                 0.98087841     -103.857208
9.222                  0.9808335      -104.04068
9.223                0.980788521     -104.224598
9.224                0.980743473     -104.408964
9.225                0.980698356     -104.593779
9.226                0.980653172     -104.779043
9.227                 0.98060792     -104.964757
9.228                0.980562602     -105.150922
9.229                0.980517218     -105.337538
9.23                 0.980471768     -105.524606
9.231                0.980426254     -105.712127
9.232                0.980380676     -105.900101
9.233                0.980335035      -106.08853
9.234                0.980289331     -106.277413
9.235                0.980243565     -106.466752
9.236                0.980197738     -106.656547
9.237                 0.98015185     -106.846799
9.238                0.980105903     -107.037508
9.239                0.980059896     -107.228675
9.24                 0.980013831     -107.420301
9.241                0.979967709     -107.612386
9.242                 0.97992153     -107.804931
9.243                0.979875294     -107.997937
9.244                0.979829003     -108.191404
9.245                0.979782658     -108.385332
9.246                0.979736259     -108.579723
9.247                0.979689808     -108.774577
9.248                0.979643304     -108.969894
9.249                0.979596749     -109.165676
9.25                 0.979550143     -109.361922
9.251                0.979503488     -109.558633
9.252                0.979456784     -109.755809
9.253                0.979410033     -109.953452
9.254                0.979363234     -110.151562
9.255                 0.97931639     -110.350139
9.256                  0.9792695     -110.549184
9.257                0.979222566     -110.748697
9.258                0.979175589     -110.948679
9.259                0.979128569     -111.149129
9.26                 0.979081509      -111.35005
9.261                0.979034407     -111.551441
9.262                0.978987266     -111.753302
9.263                0.978940087     -111.955635
9.264                 0.97889287     -112.158439
9.265                0.978845617     -112.361715
9.266                0.978798328     -112.565463
9.267                0.978751005     -112.769684
9.268                0.978703648     -112.974378
9.269                0.978656259     -113.179545
9.27                 0.978608839     -113.385187
9.271                0.978561388     -113.591302
9.272                0.978513909     -113.797893
9.273                0.978466401     -114.004958
9.274                0.978418866     -114.212498
9.275                0.978371306     -114.420515
9.276                 0.97832372     -114.629007
9.277                0.978276112     -114.837975
9.278                 0.97822848      -115.04742
9.279                0.978180828     -115.257341
9.28                 0.978133155      -115.46774
9.281                0.978085464     -115.678616
9.282                0.978037755     -115.889969
9.283                0.977990029       -116.1018
9.284                0.977942289     -116.314109
9.285                0.977894534     -116.526897
9.286                0.977846766     -116.740163
9.287                0.977798987     -116.953907
9.288                0.977751198      -117.16813
9.289                  0.9777034     -117.382832
9.29                 0.977655594     -117.598013
9.291                0.977607782     -117.813674
9.292                0.977559965     -118.029813
9.293                0.977512144     -118.246432
9.294                0.977464321     -118.463531
9.295                0.977416497     -118.681109
9.296                0.977368673     -118.899167
9.297                0.977320851     -119.117705
9.298                0.977273032     -119.336722
9.299                0.977225218     -119.556219
9.3                  0.977177409     -119.776196
9.301                0.977129608     -119.996653
9.302                0.977081816      -120.21759
9.303                0.977034034     -120.439006
9.304                0.976986264     -120.660903
9.305                0.976938507     -120.883278
9.306                0.976890765     -121.106134
9.307                0.976843039     -121.329469
9.308                 0.97679533     -121.553283
9.309                0.976747641     -121.777577
9.31                 0.976699973      -122.00235
9.311                0.976652327     -122.227602
9.312                0.976604705     -122.453333
9.313                0.976557108     -122.679543
9.314                0.976509538     -122.906231
9.315                0.976461997     -123.133398
9.316                0.976414486     -123.361042
9.317                0.976367007     -123.589165
9.318                0.976319562     -123.817765
9.319                0.976272151     -124.046842
9.32                 0.976224777     -124.276396
9.321                0.976177442     -124.506428
9.322                0.976130147     -124.736935
9.323                0.976082893     -124.967919
9.324                0.976035683     -125.199379
9.325                0.975988519     -125.431313
9.326                0.975941401     -125.663723
9.327                0.975894331     -125.896608
9.328                0.975847312     -126.129966
9.329                0.975800346     -126.363799
9.33                 0.975753433     -126.598104
9.331                0.975706575     -126.832883
9.332                0.975659776     -127.068134
9.333                0.975613035     -127.303856
9.334                0.975566355      -127.54005
9.335                0.975519739     -127.776715
9.336                0.975473187      -128.01385
9.337                0.975426701     -128.251455
9.338                0.975380284     -128.489528
9.339                0.975333937      -128.72807
9.34                 0.975287662      -128.96708
9.341                0.975241461     -129.206557
9.342                0.975195337       -129.4465
9.343                0.975149289     -129.686909
9.344                0.975103322     -129.927783
9.345                0.975057436     -130.169122
9.346                0.975011633     -130.410924
9.347                0.974965916     -130.653189
9.348                0.974920287     -130.895916
9.349                0.974874747     -131.139104
9.35                 0.974829298     -131.382753
9.351                0.974783942     -131.626861
9.352                0.974738682     -131.871428
9.353                0.974693519     -132.116453
9.354                0.974648455     -132.361934
9.355                0.974603492     -132.607872
9.356                0.974558633     -132.854265
9.357                0.974513879     -133.101111
9.358                0.974469233     -133.348411
9.359                0.974424695     -133.596163
9.36                  0.97438027     -133.844367
9.361                0.974335957      -134.09302
9.362                0.974291761     -134.342122
9.363                0.974247682     -134.591672
9.364                0.974203722     -134.841669
9.365                0.974159885     -135.092112
9.366                0.974116171     -135.342999
9.367                0.974072583     -135.594329
9.368                0.974029123     -135.846102
9.369                0.973985794     -136.098315
9.37                 0.973942597     -136.350969
9.371                0.973899534      -136.60406
9.372                0.973856608     -136.857589
9.373                 0.97381382     -137.111554
9.374                0.973771173     -137.365954
9.375                 0.97372867     -137.620787
9.376                0.973686311     -137.876051
9.377                  0.9736441     -138.131747
9.378                0.973602038     -138.387871
9.379                0.973560128     -138.644423
9.38                 0.973518371     -138.901401
9.381                0.973476771     -139.158804
9.382                0.973435328      -139.41663
9.383                0.973394046     -139.674878
9.384                0.973352926     -139.933547
9.385                0.973311971     -140.192634
9.386                0.973271183     -140.452138
9.387                0.973230564     -140.712058
9.388                0.973190116     -140.972391
9.389                0.973149842     -141.233137
9.39                 0.973109743     -141.494293
9.391                0.973069822     -141.755859
9.392                0.973030081     -142.017831
9.393                0.972990522     -142.280209
9.394                0.972951148     -142.542991
9.395                 0.97291196     -142.806174
9.396                0.972872961     -143.069758
