! TOUCHSTONE file generated by CST DESIGN STUDIO
! Date and time: Tue Feb  4 18:02:14 2025
! Project name: C:\Work\MatlabApps\UnitCellOptimizationMatlab\CST\unitcell.cst
! Tree item: Tasks\Sweep1\SPara1\S-Parameters
! Header version: 2024
! Port assignment regex: !\s*Touchstone port\s*([0-9]+)\s*=\s*(CST MWS port|CST DES external port|CST DES block port)\s*(.+)\s* \(\"(.*)\"\)(\s*mode\s*([0-9]+))?.*
! Touchstone port assignment:
! Touchstone port 1 = CST DES external port 1 ("")
# GHz S MA R 50
9                    0.989344091     -68.5189485
9.001                0.989321494     -68.6164182
9.002                 0.98929883     -68.7141176
9.003                0.989276097     -68.8120472
9.004                0.989253295     -68.9102078
9.005                0.989230425     -69.0086002
9.006                0.989207485     -69.1072249
9.007                0.989184477     -69.2060827
9.008                0.989161399     -69.3051743
9.009                0.989138252     -69.4045004
9.01                 0.989115035     -69.5040617
9.011                0.989091748      -69.603859
9.012                0.989068391     -69.7038929
9.013                0.989044964     -69.8041641
9.014                0.989021467     -69.9046734
9.015                0.988997899     -70.0054215
9.016                 0.98897426     -70.1064091
9.017                 0.98895055     -70.2076369
9.018                0.988926769     -70.3091057
9.019                0.988902917     -70.4108162
9.02                 0.988878993     -70.5127691
9.021                0.988854998     -70.6149652
9.022                 0.98883093     -70.7174051
9.023                0.988806791     -70.8200896
9.024                0.988782579     -70.9230195
9.025                0.988758295     -71.0261955
9.026                0.988733939     -71.1296183
9.027                0.988709509     -71.2332887
9.028                0.988685007     -71.3372075
9.029                0.988660431     -71.4413753
9.03                 0.988635782     -71.5457929
9.031                 0.98861106     -71.6504611
9.032                0.988586264     -71.7553806
9.033                0.988561394     -71.8605522
9.034                 0.98853645     -71.9659767
9.035                0.988511431     -72.0716548
9.036                0.988486339     -72.1775872
9.037                0.988461171     -72.2837748
9.038                0.988435929     -72.3902182
9.039                0.988410612     -72.4969184
9.04                  0.98838522      -72.603876
9.041                0.988359752     -72.7110917
9.042                0.988334209     -72.8185665
9.043                0.988308591      -72.926301
9.044                0.988282896     -73.0342961
9.045                0.988257126     -73.1425525
9.046                0.988231279      -73.251071
9.047                0.988205356     -73.3598524
9.048                0.988179356     -73.4688975
9.049                0.988153279      -73.578207
9.05                 0.988127126     -73.6877818
9.051                0.988100896     -73.7976227
9.052                0.988074588     -73.9077304
9.053                0.988048203     -74.0181057
9.054                 0.98802174     -74.1287495
9.055                0.987995199     -74.2396626
9.056                0.987968581     -74.3508457
9.057                0.987941884     -74.4622996
9.058                0.987915109     -74.5740252
9.059                0.987888256     -74.6860233
9.06                 0.987861324     -74.7982946
9.061                0.987834313     -74.9108401
9.062                0.987807223     -75.0236605
9.063                0.987780054     -75.1367566
9.064                0.987752806     -75.2501292
9.065                0.987725478     -75.3637792
9.066                 0.98769807     -75.4777075
9.067                0.987670583     -75.5919147
9.068                0.987643016     -75.7064018
9.069                0.987615368     -75.8211695
9.07                 0.987587641     -75.9362188
9.071                0.987559832     -76.0515504
9.072                0.987531944     -76.1671652
9.073                0.987503974      -76.283064
9.074                0.987475923     -76.3992477
9.075                0.987447792      -76.515717
9.076                0.987419579     -76.6324729
9.077                0.987391284     -76.7495162
9.078                0.987362908     -76.8668477
9.079                 0.98733445     -76.9844682
9.08                 0.987305911     -77.1023788
9.081                0.987277289       -77.22058
9.082                0.987248585      -77.339073
9.083                0.987219798     -77.4578584
9.084                0.987190929     -77.5769371
9.085                0.987161978     -77.6963101
9.086                0.987132943     -77.8159781
9.087                0.987103826     -77.9359421
9.088                0.987074625     -78.0562029
9.089                0.987045342     -78.1767613
9.09                 0.987015975     -78.2976183
9.091                0.986986524     -78.4187747
9.092                0.986956989     -78.5402314
9.093                0.986927371     -78.6619892
9.094                0.986897669      -78.784049
9.095                0.986867882     -78.9064118
9.096                0.986838012     -79.0290784
9.097                0.986808057     -79.1520496
9.098                0.986778017     -79.2753264
9.099                0.986747893     -79.3989096
9.1                  0.986717684     -79.5228001
9.101                 0.98668739     -79.6469989
9.102                 0.98665701     -79.7715067
9.103                0.986626546     -79.8963246
9.104                0.986595997     -80.0214533
9.105                0.986565362     -80.1468939
9.106                0.986534641     -80.2726471
9.107                0.986503835     -80.3987139
9.108                0.986472942     -80.5250951
9.109                0.986441964     -80.6517918
9.11                   0.9864109     -80.7788047
9.111                 0.98637975     -80.9061348
9.112                0.986348513      -81.033783
9.113                 0.98631719     -81.1617503
9.114                0.986285781     -81.2900374
9.115                0.986254285     -81.4186453
9.116                0.986222702      -81.547575
9.117                0.986191032     -81.6768274
9.118                0.986159276     -81.8064033
9.119                0.986127432     -81.9363036
9.12                 0.986095501     -82.0665294
9.121                0.986063483     -82.1970815
9.122                0.986031378     -82.3279608
9.123                0.985999185     -82.4591683
9.124                0.985966905     -82.5907049
9.125                0.985934537     -82.7225715
9.126                0.985902081      -82.854769
9.127                0.985869538     -82.9872984
9.128                0.985836906     -83.1201606
9.129                0.985804187     -83.2533564
9.13                  0.98577138      -83.386887
9.131                0.985738484     -83.5207531
9.132                0.985705501     -83.6549558
9.133                0.985672429     -83.7894959
9.134                0.985639269     -83.9243744
9.135                 0.98560602     -84.0595922
9.136                0.985572683     -84.1951503
9.137                0.985539257     -84.3310496
9.138                0.985505743      -84.467291
9.139                 0.98547214     -84.6038755
9.14                 0.985438449     -84.7408041
9.141                0.985404668     -84.8780776
9.142                0.985370799     -85.0156971
9.143                0.985336841     -85.1536634
9.144                0.985302794     -85.2919775
9.145                0.985268658     -85.4306403
9.146                0.985234433     -85.5696529
9.147                0.985200119     -85.7090161
9.148                0.985165716      -85.848731
9.149                0.985131224     -85.9887983
9.15                 0.985096643     -86.1292192
9.151                0.985061973     -86.2699946
9.152                0.985027213     -86.4111253
9.153                0.984992365     -86.5526124
9.154                0.984957427     -86.6944569
9.155                  0.9849224     -86.8366596
9.156                0.984887283     -86.9792215
9.157                0.984852078     -87.1221436
9.158                0.984816783     -87.2654268
9.159                0.984781399     -87.4090722
9.16                 0.984745925     -87.5530806
9.161                0.984710363      -87.697453
9.162                0.984674711     -87.8421904
9.163                 0.98463897     -87.9872937
9.164                 0.98460314     -88.1327639
9.165                 0.98456722     -88.2786019
9.166                0.984531212     -88.4248088
9.167                0.984495114     -88.5713854
9.168                0.984458927     -88.7183327
9.169                0.984422651     -88.8656518
9.17                 0.984386286     -89.0133434
9.171                0.984349833     -89.1614087
9.172                 0.98431329     -89.3098486
9.173                0.984276658      -89.458664
9.174                0.984239938     -89.6078558
9.175                0.984203128     -89.7574251
9.176                 0.98416623     -89.9073728
9.177                0.984129244     -90.0576999
9.178                0.984092168     -90.2084074
9.179                0.984055005     -90.3594961
9.18                 0.984017752      -90.510967
9.181                0.983980412     -90.6628212
9.182                0.983942983     -90.8150595
9.183                0.983905466      -90.967683
9.184                0.983867861     -91.1206925
9.185                0.983830168     -91.2740891
9.186                0.983792387     -91.4278737
9.187                0.983754519     -91.5820472
9.188                0.983716562     -91.7366107
9.189                0.983678519      -91.891565
9.19                 0.983640387     -92.0469111
9.191                0.983602169     -92.2026501
9.192                0.983563863     -92.3587827
9.193                0.983525471       -92.51531
9.194                0.983486991      -92.672233
9.195                0.983448425     -92.8295525
9.196                0.983409773     -92.9872696
9.197                0.983371033     -93.1453851
9.198                0.983332208     -93.3039001
9.199                0.983293297     -93.4628155
9.2                  0.983254299     -93.6221322
9.201                0.983215216     -93.7818511
9.202                0.983176048     -93.9419733
9.203                0.983136794     -94.1024996
9.204                0.983097455      -94.263431
9.205                0.983058031     -94.4247684
9.206                0.983018522     -94.5865128
9.207                0.982978929      -94.748665
9.208                0.982939251     -94.9112262
9.209                 0.98289949     -95.0741971
9.21                 0.982859644     -95.2375786
9.211                0.982819715     -95.4013718
9.212                0.982779702     -95.5655776
9.213                0.982739607     -95.7301969
9.214                0.982699428     -95.8952305
9.215                0.982659167     -96.0606795
9.216                0.982618823     -96.2265447
9.217                0.982578398      -96.392827
9.218                 0.98253789     -96.5595275
9.219                0.982497301     -96.7266469
9.22                 0.982456631     -96.8941862
9.221                 0.98241588     -97.0621463
9.222                0.982375049     -97.2305282
9.223                0.982334136     -97.3993326
9.224                0.982293144     -97.5685606
9.225                0.982252073     -97.7382129
9.226                0.982210922     -97.9082906
9.227                0.982169692     -98.0787945
9.228                0.982128383     -98.2497254
9.229                0.982086996     -98.4210843
9.23                 0.982045531     -98.5928721
9.231                0.982003988     -98.7650896
9.232                0.981962368     -98.9377377
9.233                0.981920672     -99.1108173
9.234                0.981878898     -99.2843293
9.235                0.981837049     -99.4582745
9.236                0.981795125     -99.6326537
9.237                0.981753124      -99.807468
9.238                 0.98171105      -99.982718
9.239                  0.9816689     -100.158405
9.24                 0.981626677     -100.334529
9.241                 0.98158438     -100.511091
9.242                 0.98154201     -100.688093
9.243                0.981499568     -100.865535
9.244                0.981457053     -101.043417
9.245                0.981414467     -101.221742
9.246                0.981371809     -101.400509
9.247                0.981329081     -101.579719
9.248                0.981286282     -101.759373
9.249                0.981243414     -101.939472
9.25                 0.981200476     -102.120017
9.251                 0.98115747     -102.301009
9.252                0.981114396     -102.482448
9.253                0.981071254     -102.664335
9.254                0.981028045     -102.846671
9.255                0.980984769     -103.029457
9.256                0.980941428     -103.212694
9.257                0.980898021     -103.396381
9.258                0.980854549     -103.580521
9.259                0.980811013     -103.765113
9.26                 0.980767413      -103.95016
9.261                 0.98072375      -104.13566
9.262                0.980680025     -104.321616
9.263                0.980636239     -104.508027
9.264                0.980592391     -104.694895
9.265                0.980548482      -104.88222
9.266                0.980504514     -105.070003
9.267                0.980460486     -105.258245
9.268                  0.9804164     -105.446947
9.269                0.980372256     -105.636108
9.27                 0.980328055      -105.82573
9.271                0.980283798     -106.015814
9.272                0.980239485      -106.20636
9.273                0.980195116     -106.397369
9.274                0.980150694     -106.588842
9.275                0.980106218     -106.780778
9.276                0.980061689      -106.97318
9.277                0.980017108     -107.166047
9.278                0.979972476      -107.35938
9.279                0.979927793      -107.55318
9.28                 0.979883061     -107.747448
9.281                 0.97983828     -107.942184
9.282                 0.97979345     -108.137388
9.283                0.979748574     -108.333061
9.284                0.979703651     -108.529205
9.285                0.979658682     -108.725819
9.286                0.979613669     -108.922904
9.287                0.979568611      -109.12046
9.288                0.979523511     -109.318489
9.289                0.979478368     -109.516991
9.29                 0.979433185     -109.715965
9.291                0.979387961     -109.915414
9.292                0.979342697     -110.115337
9.293                0.979297395     -110.315735
9.294                0.979252056     -110.516608
9.295                0.979206679     -110.717958
9.296                0.979161267     -110.919783
9.297                0.979115821     -111.122086
9.298                0.979070341     -111.324866
9.299                0.979024828     -111.528124
9.3                  0.978979283      -111.73186
9.301                0.978933707     -111.936074
9.302                0.978888102     -112.140768
9.303                0.978842468     -112.345942
9.304                0.978796807     -112.551596
9.305                0.978751119      -112.75773
9.306                0.978705405     -112.964345
9.307                0.978659667     -113.171441
9.308                0.978613906     -113.379019
9.309                0.978568123     -113.587078
9.31                 0.978522318      -113.79562
9.311                0.978476494     -114.004645
9.312                 0.97843065     -114.214153
9.313                0.978384789     -114.424144
9.314                0.978338912     -114.634619
9.315                0.978293019     -114.845577
9.316                0.978247111      -115.05702
9.317                0.978201191     -115.268948
9.318                0.978155259      -115.48136
9.319                0.978109317     -115.694257
9.32                 0.978063365     -115.907639
9.321                0.978017405     -116.121507
9.322                0.977971438     -116.335861
9.323                0.977925466     -116.550701
9.324                0.977879489     -116.766026
9.325                 0.97783351     -116.981838
9.326                0.977787529     -117.198137
9.327                0.977741547     -117.414922
9.328                0.977695566     -117.632194
9.329                0.977649587     -117.849953
9.33                 0.977603613     -118.068198
9.331                0.977557643     -118.286931
9.332                0.977511679     -118.506151
9.333                0.977465723     -118.725859
9.334                0.977419776     -118.946053
9.335                 0.97737384     -119.166735
9.336                0.977327916     -119.387905
9.337                0.977282005     -119.609562
9.338                0.977236109     -119.831706
9.339                0.977190229     -120.054337
9.34                 0.977144367     -120.277457
9.341                0.977098524     -120.501063
9.342                0.977052701     -120.725157
9.343                0.977006901     -120.949738
9.344                0.976961125     -121.174806
9.345                0.976915374     -121.400361
9.346                0.976869649     -121.626403
9.347                0.976823953     -121.852932
9.348                0.976778287     -122.079947
9.349                0.976732652     -122.307449
9.35                 0.976687051     -122.535437
9.351                0.976641484     -122.763912
9.352                0.976595953     -122.992872
9.353                 0.97655046     -123.222318
9.354                0.976505006      -123.45225
9.355                0.976459594     -123.682666
9.356                0.976414224     -123.913568
9.357                0.976368899     -124.144954
9.358                0.976323619     -124.376825
9.359                0.976278388     -124.609179
9.36                 0.976233206     -124.842017
9.361                0.976188075     -125.075339
9.362                0.976142997     -125.309143
9.363                0.976097974      -125.54343
9.364                0.976053007     -125.778199
9.365                0.976008098      -126.01345
9.366                0.975963249     -126.249181
9.367                0.975918461     -126.485394
9.368                0.975873737     -126.722087
9.369                0.975829079      -126.95926
9.37                 0.975784487     -127.196912
9.371                0.975739964     -127.435042
9.372                0.975695511     -127.673651
9.373                0.975651132     -127.912738
9.374                0.975606826     -128.152301
9.375                0.975562597     -128.392341
9.376                0.975518445     -128.632857
9.377                0.975474374     -128.873847
9.378                0.975430384     -129.115312
9.379                0.975386478     -129.357251
9.38                 0.975342657     -129.599663
9.381                0.975298925     -129.842547
9.382                0.975255281     -130.085903
9.383                0.975211729      -130.32973
9.384                 0.97516827     -130.574027
9.385                0.975124906     -130.818792
9.386                0.975081639     -131.064027
9.387                0.975038472     -131.309728
9.388                0.974995405     -131.555897
9.389                0.974952442     -131.802531
9.39                 0.974909584      -132.04963
9.391                0.974866833     -132.297193
9.392                 0.97482419     -132.545219
9.393                0.974781659     -132.793707
9.394                0.974739242     -133.042656
9.395                0.974696939     -133.292065
9.396                0.974654753     -133.541933
