! TOUCHSTONE file generated by CST DESIGN STUDIO
! Date and time: Tue Feb  4 18:02:02 2025
! Project name: C:\Work\MatlabApps\UnitCellOptimizationMatlab\CST\unitcell.cst
! Tree item: Tasks\Sweep1\SPara1\S-Parameters
! Header version: 2024
! Port assignment regex: !\s*Touchstone port\s*([0-9]+)\s*=\s*(CST MWS port|CST DES external port|CST DES block port)\s*(.+)\s* \(\"(.*)\"\)(\s*mode\s*([0-9]+))?.*
! Touchstone port assignment:
! Touchstone port 1 = CST DES external port 1 ("")
# GHz S MA R 50
9                    0.988166478     -75.7247354
9.001                 0.98813839     -75.8377205
9.002                0.988110219     -75.9509796
9.003                0.988081962     -76.0645133
9.004                0.988053621     -76.1783225
9.005                0.988025195      -76.292408
9.006                0.987996684     -76.4067706
9.007                0.987968088     -76.5214111
9.008                0.987939406     -76.6363304
9.009                0.987910638     -76.7515292
9.01                 0.987881785     -76.8670083
9.011                0.987852845     -76.9827686
9.012                0.987823819      -77.098811
9.013                0.987794707     -77.2151361
9.014                0.987765508     -77.3317448
9.015                0.987736223      -77.448638
9.016                 0.98770685     -77.5658165
9.017                0.987677391     -77.6832811
9.018                0.987647844     -77.8010327
9.019                0.987618209      -77.919072
9.02                 0.987588487     -78.0373999
9.021                0.987558677     -78.1560172
9.022                0.987528779     -78.2749248
9.023                0.987498793     -78.3941236
9.024                0.987468718     -78.5136143
9.025                0.987438555     -78.6333977
9.026                0.987408303     -78.7534748
9.027                0.987377963     -78.8738464
9.028                0.987347533     -78.9945134
9.029                0.987317014     -79.1154765
9.03                 0.987286406     -79.2367366
9.031                0.987255708     -79.3582946
9.032                 0.98722492     -79.4801513
9.033                0.987194043     -79.6023076
9.034                0.987163076     -79.7247644
9.035                0.987132018     -79.8475225
9.036                 0.98710087     -79.9705827
9.037                0.987069632     -80.0939459
9.038                0.987038303     -80.2176131
9.039                0.987006883     -80.3415849
9.04                 0.986975372     -80.4658624
9.041                 0.98694377     -80.5904464
9.042                0.986912077     -80.7153377
9.043                0.986880292     -80.8405373
9.044                0.986848416     -80.9660459
9.045                0.986816448     -81.0918646
9.046                0.986784389      -81.217994
9.047                0.986752237     -81.3444352
9.048                0.986719993      -81.471189
9.049                0.986687657     -81.5982562
9.05                 0.986655228     -81.7256378
9.051                0.986622707     -81.8533347
9.052                0.986590094     -81.9813477
9.053                0.986557387     -82.1096777
9.054                0.986524587     -82.2383256
9.055                0.986491695     -82.3672922
9.056                0.986458709     -82.4965786
9.057                 0.98642563     -82.6261855
9.058                0.986392457     -82.7561138
9.059                0.986359191     -82.8863646
9.06                 0.986325831     -83.0169385
9.061                0.986292377     -83.1478366
9.062                 0.98625883     -83.2790597
9.063                0.986225188     -83.4106088
9.064                0.986191452     -83.5424847
9.065                0.986157622     -83.6746883
9.066                0.986123697     -83.8072206
9.067                0.986089678     -83.9400824
9.068                0.986055564     -84.0732746
9.069                0.986021356     -84.2067982
9.07                 0.985987053     -84.3406541
9.071                0.985952655      -84.474843
9.072                0.985918162     -84.6093661
9.073                0.985883573     -84.7442241
9.074                 0.98584889     -84.8794181
9.075                0.985814111     -85.0149488
9.076                0.985779237     -85.1508172
9.077                0.985744268     -85.2870242
9.078                0.985709203     -85.4235708
9.079                0.985674042     -85.5604578
9.08                 0.985638786     -85.6976862
9.081                0.985603434     -85.8352569
9.082                0.985567986     -85.9731707
9.083                0.985532442     -86.1114287
9.084                0.985496803     -86.2500317
9.085                0.985461067     -86.3889807
9.086                0.985425235     -86.5282765
9.087                0.985389307     -86.6679201
9.088                0.985353283     -86.8079125
9.089                0.985317162     -86.9482544
9.09                 0.985280946     -87.0889469
9.091                0.985244633      -87.229991
9.092                0.985208223     -87.3713874
9.093                0.985171717     -87.5131371
9.094                0.985135115     -87.6552411
9.095                0.985098416     -87.7977002
9.096                0.985061621     -87.9405155
9.097                0.985024729     -88.0836878
9.098                 0.98498774      -88.227218
9.099                0.984950655     -88.3711072
9.1                  0.984913473     -88.5153561
9.101                0.984876195     -88.6599657
9.102                 0.98483882     -88.8049371
9.103                0.984801348      -88.950271
9.104                 0.98476378     -89.0959684
9.105                0.984726115     -89.2420303
9.106                0.984688353     -89.3884575
9.107                0.984650495      -89.535251
9.108                 0.98461254     -89.6824118
9.109                0.984574489     -89.8299407
9.11                 0.984536341     -89.9778386
9.111                0.984498096     -90.1261066
9.112                0.984459755     -90.2747455
9.113                0.984421317     -90.4237563
9.114                0.984382783     -90.5731399
9.115                0.984344152     -90.7228972
9.116                0.984305425     -90.8730291
9.117                0.984266602     -91.0235366
9.118                0.984227682     -91.1744206
9.119                0.984188666      -91.325682
9.12                 0.984149554     -91.4773217
9.121                0.984110346     -91.6293407
9.122                0.984071041     -91.7817399
9.123                0.984031641     -91.9345203
9.124                0.983992145     -92.0876826
9.125                0.983952553     -92.2412279
9.126                0.983912865     -92.3951571
9.127                0.983873082     -92.5494711
9.128                0.983833203     -92.7041708
9.129                0.983793228     -92.8592572
9.13                 0.983753158     -93.0147311
9.131                0.983712993     -93.1705935
9.132                0.983672733     -93.3268452
9.133                0.983632378     -93.4834873
9.134                0.983591928     -93.6405206
9.135                0.983551383      -93.797946
9.136                0.983510744     -93.9557645
9.137                 0.98347001     -94.1139769
9.138                0.983429182     -94.2725842
9.139                0.983388259     -94.4315873
9.14                 0.983347243      -94.590987
9.141                0.983306133     -94.7507844
9.142                0.983264929     -94.9109802
9.143                0.983223631     -95.0715754
9.144                0.983182241     -95.2325709
9.145                0.983140757     -95.3939675
9.146                 0.98309918     -95.5557663
9.147                 0.98305751     -95.7179681
9.148                0.983015748     -95.8805737
9.149                0.982973893     -96.0435841
9.15                 0.982931946     -96.2070001
9.151                0.982889908     -96.3708227
9.152                0.982847777     -96.5350527
9.153                0.982805556     -96.6996911
9.154                0.982763242     -96.8647386
9.155                0.982720838     -97.0301962
9.156                0.982678344     -97.1960648
9.157                0.982635758     -97.3623452
9.158                0.982593083     -97.5290383
9.159                0.982550317     -97.6961449
9.16                 0.982507462      -97.863666
9.161                0.982464517     -98.0316024
9.162                0.982421484      -98.199955
9.163                0.982378361     -98.3687246
9.164                 0.98233515     -98.5379121
9.165                0.982291851     -98.7075183
9.166                0.982248464     -98.8775441
9.167                0.982204989     -99.0479903
9.168                0.982161427     -99.2188578
9.169                0.982117779     -99.3901475
9.17                 0.982074043     -99.5618601
9.171                0.982030222     -99.7339965
9.172                0.981986314     -99.9065575
9.173                0.981942322     -100.079544
9.174                0.981898244     -100.252957
9.175                0.981854081     -100.426797
9.176                0.981809834     -100.601064
9.177                0.981765503     -100.775761
9.178                0.981721089     -100.950887
9.179                0.981676591     -101.126443
9.18                 0.981632011     -101.302431
9.181                0.981587349     -101.478851
9.182                0.981542604     -101.655703
9.183                0.981497779     -101.832989
9.184                0.981452872     -102.010709
9.185                0.981407885     -102.188864
9.186                0.981362818     -102.367455
9.187                0.981317671     -102.546483
9.188                0.981272445     -102.725948
9.189                0.981227141     -102.905852
9.19                 0.981181759     -103.086194
9.191                0.981136299     -103.266976
9.192                0.981090762     -103.448199
9.193                0.981045149     -103.629863
9.194                0.980999459     -103.811969
9.195                0.980953695     -103.994517
9.196                0.980907855     -104.177509
9.197                0.980861941     -104.360945
9.198                0.980815954     -104.544826
9.199                0.980769893     -104.729152
9.2                  0.980723759     -104.913925
9.201                0.980677554     -105.099144
9.202                0.980631278     -105.284812
9.203                 0.98058493     -105.470927
9.204                0.980538513     -105.657492
9.205                0.980492026     -105.844507
9.206                 0.98044547     -106.031972
9.207                0.980398846     -106.219888
9.208                0.980352155     -106.408255
9.209                0.980305396     -106.597075
9.21                 0.980258572     -106.786349
9.211                0.980211682     -106.976075
9.212                0.980164727     -107.166256
9.213                0.980117709     -107.356892
9.214                0.980070627     -107.547984
9.215                0.980023482     -107.739532
9.216                0.979976276     -107.931536
9.217                0.979929008     -108.123998
9.218                0.979881681     -108.316918
9.219                0.979834293     -108.510297
9.22                 0.979786847     -108.704134
9.221                0.979739343     -108.898432
9.222                0.979691782     -109.093189
9.223                0.979644164     -109.288408
9.224                0.979596491     -109.484087
9.225                0.979548764     -109.680229
9.226                0.979500982     -109.876833
9.227                0.979453147       -110.0739
9.228                0.979405261     -110.271431
9.229                0.979357323     -110.469425
9.23                 0.979309335     -110.667884
9.231                0.979261297     -110.866808
9.232                0.979213211     -111.066198
9.233                0.979165077     -111.266053
9.234                0.979116897     -111.466375
9.235                0.979068671     -111.667163
9.236                  0.9790204     -111.868419
9.237                0.978972085     -112.070143
9.238                0.978923728     -112.272334
9.239                0.978875328     -112.474994
9.24                 0.978826888     -112.678124
9.241                0.978778408     -112.881722
9.242                 0.97872989     -113.085791
9.243                0.978681333     -113.290329
9.244                 0.97863274     -113.495338
9.245                0.978584111     -113.700818
9.246                0.978535448     -113.906769
9.247                0.978486751     -114.113191
9.248                0.978438022     -114.320086
9.249                0.978389262     -114.527452
9.25                 0.978340471     -114.735291
9.251                0.978291651     -114.943603
9.252                0.978242804     -115.152388
9.253                 0.97819393     -115.361646
9.254                 0.97814503     -115.571378
9.255                0.978096105     -115.781584
9.256                0.978047158     -115.992263
9.257                0.977998189     -116.203417
9.258                0.977949198     -116.415046
9.259                0.977900189     -116.627149
9.26                  0.97785116     -116.839727
9.261                0.977802115     -117.052781
9.262                0.977753054     -117.266309
9.263                0.977703979     -117.480313
9.264                 0.97765489     -117.694792
9.265                0.977605789     -117.909748
9.266                0.977556677     -118.125179
9.267                0.977507557     -118.341086
9.268                0.977458428     -118.557469
9.269                0.977409292     -118.774328
9.27                 0.977360152     -118.991663
9.271                0.977311007     -119.209474
9.272                 0.97726186     -119.427762
9.273                0.977212711     -119.646526
9.274                0.977163563     -119.865766
9.275                0.977114417     -120.085482
9.276                0.977065273     -120.305675
9.277                0.977016135     -120.526344
9.278                0.976967002     -120.747489
9.279                0.976917877      -120.96911
9.28                  0.97686876     -121.191207
9.281                0.976819654     -121.413781
9.282                 0.97677056      -121.63683
9.283                 0.97672148     -121.860355
9.284                0.976672414     -122.084356
9.285                0.976623365     -122.308832
9.286                0.976574334     -122.533783
9.287                0.976525323      -122.75921
9.288                0.976476333     -122.985111
9.289                0.976427366     -123.211487
9.29                 0.976378423     -123.438338
9.291                0.976329506     -123.665663
9.292                0.976280617     -123.893463
9.293                0.976231757     -124.121736
9.294                0.976182928     -124.350482
9.295                0.976134132     -124.579702
9.296                 0.97608537     -124.809394
9.297                0.976036643     -125.039559
9.298                0.975987955     -125.270197
9.299                0.975939306     -125.501306
9.3                  0.975890697     -125.732887
9.301                0.975842132     -125.964938
9.302                0.975793611     -126.197461
9.303                0.975745137     -126.430453
9.304                 0.97569671     -126.663915
9.305                0.975648333     -126.897847
9.306                0.975600008     -127.132247
9.307                0.975551736     -127.367116
9.308                 0.97550352     -127.602453
9.309                 0.97545536     -127.838257
9.31                  0.97540726     -128.074527
9.311                0.975359219     -128.311264
9.312                0.975311242     -128.548466
9.313                0.975263329     -128.786133
9.314                0.975215482     -129.024264
9.315                0.975167703     -129.262859
9.316                0.975119995     -129.501917
9.317                0.975072358     -129.741438
9.318                0.975024795      -129.98142
9.319                0.974977308     -130.221863
9.32                 0.974929899     -130.462766
9.321                0.974882569     -130.704128
9.322                0.974835321     -130.945949
9.323                0.974788156     -131.188228
9.324                0.974741077     -131.430964
9.325                0.974694085     -131.674156
9.326                0.974647183     -131.917804
9.327                0.974600373     -132.161905
9.328                0.974553656     -132.406461
9.329                0.974507034     -132.651469
9.33                  0.97446051     -132.896929
9.331                0.974414086      -133.14284
9.332                0.974367763       -133.3892
9.333                0.974321544     -133.636009
9.334                 0.97427543     -133.883266
9.335                0.974229425      -134.13097
9.336                0.974183529      -134.37912
9.337                0.974137745     -134.627714
9.338                0.974092076     -134.876752
9.339                0.974046522     -135.126232
9.34                 0.974001087     -135.376154
9.341                0.973955772     -135.626515
9.342                0.973910579     -135.877316
9.343                0.973865511     -136.128555
9.344                 0.97382057      -136.38023
9.345                0.973775758      -136.63234
9.346                0.973731076     -136.884885
9.347                0.973686528     -137.137862
9.348                0.973642115     -137.391271
9.349                 0.97359784      -137.64511
9.35                 0.973553704     -137.899378
9.351                 0.97350971     -138.154073
9.352                 0.97346586     -138.409195
9.353                0.973422157     -138.664741
9.354                0.973378601      -138.92071
9.355                0.973335196     -139.177102
9.356                0.973291944     -139.433913
9.357                0.973248847     -139.691144
9.358                0.973205907     -139.948792
9.359                0.973163127     -140.206855
9.36                 0.973120508     -140.465333
9.361                0.973078052     -140.724224
9.362                0.973035763     -140.983525
9.363                0.972993642     -141.243236
9.364                0.972951692     -141.503355
9.365                0.972909914      -141.76388
9.366                0.972868311      -142.02481
9.367                0.972826885     -142.286142
9.368                0.972785638     -142.547875
9.369                0.972744573     -142.810008
9.37                 0.972703692     -143.072538
9.371                0.972662997     -143.335463
9.372                 0.97262249     -143.598783
9.373                0.972582174     -143.862495
9.374                0.972542051     -144.126596
9.375                0.972502122     -144.391086
9.376                0.972462391     -144.655963
9.377                0.972422859     -144.921224
9.378                0.972383529     -145.186867
9.379                0.972344403     -145.452891
9.38                 0.972305483     -145.719294
9.381                0.972266771     -145.986073
9.382                 0.97222827     -146.253226
9.383                0.972189982     -146.520752
9.384                0.972151909     -146.788649
9.385                0.972114053     -147.056913
9.386                0.972076416     -147.325544
9.387                0.972039001     -147.594538
9.388                0.972001811     -147.863895
9.389                0.971964846     -148.133611
9.39                 0.971928109     -148.403684
9.391                0.971891604     -148.674113
9.392                 0.97185533     -148.944895
9.393                0.971819292     -149.216027
9.394                0.971783491     -149.487507
9.395                0.971747929     -149.759334
9.396                0.971712608     -150.031504
