! TOUCHSTONE file generated by CST DESIGN STUDIO
! Date and time: Tue Feb  4 18:01:59 2025
! Project name: C:\Work\MatlabApps\UnitCellOptimizationMatlab\CST\unitcell.cst
! Tree item: Tasks\Sweep1\SPara1\S-Parameters
! Header version: 2024
! Port assignment regex: !\s*Touchstone port\s*([0-9]+)\s*=\s*(CST MWS port|CST DES external port|CST DES block port)\s*(.+)\s* \(\"(.*)\"\)(\s*mode\s*([0-9]+))?.*
! Touchstone port assignment:
! Touchstone port 1 = CST DES external port 1 ("")
# GHz S MA R 50
9                    0.987841294     -77.6139101
9.001                0.987811603     -77.7312684
9.002                0.987781824     -77.8489131
9.003                0.987751957     -77.9668449
9.004                0.987722001     -78.0850648
9.005                0.987691958     -78.2035735
9.006                0.987661825     -78.3223719
9.007                0.987631604     -78.4414608
9.008                0.987601293      -78.560841
9.009                0.987570894     -78.6805134
9.01                 0.987540405     -78.8004789
9.011                0.987509826     -78.9207382
9.012                0.987479158     -79.0412923
9.013                0.987448399     -79.1621419
9.014                0.987417551     -79.2832879
9.015                0.987386612     -79.4047312
9.016                0.987355583     -79.5264725
9.017                0.987324464     -79.6485129
9.018                0.987293253      -79.770853
9.019                0.987261952     -79.8934938
9.02                 0.987230559     -80.0164361
9.021                0.987199076     -80.1396808
9.022                0.987167501     -80.2632287
9.023                0.987135834     -80.3870808
9.024                0.987104075     -80.5112378
9.025                0.987072225     -80.6357006
9.026                0.987040282     -80.7604701
9.027                0.987008247     -80.8855472
9.028                 0.98697612     -81.0109327
9.029                0.986943901     -81.1366275
9.03                 0.986911588     -81.2626325
9.031                0.986879183     -81.3889485
9.032                0.986846685     -81.5155764
9.033                0.986814093     -81.6425171
9.034                0.986781408     -81.7697715
9.035                 0.98674863     -81.8973405
9.036                0.986715758     -82.0252249
9.037                0.986682793     -82.1534255
9.038                0.986649734     -82.2819434
9.039                 0.98661658     -82.4107794
9.04                 0.986583333     -82.5399343
9.041                0.986549991     -82.6694091
9.042                0.986516555     -82.7992047
9.043                0.986483024     -82.9293218
9.044                0.986449398     -83.0597615
9.045                0.986415678     -83.1905246
9.046                0.986381863      -83.321612
9.047                0.986347953     -83.4530246
9.048                0.986313947     -83.5847633
9.049                0.986279846      -83.716829
9.05                  0.98624565     -83.8492226
9.051                0.986211358     -83.9819449
9.052                0.986176971      -84.114997
9.053                0.986142488     -84.2483797
9.054                0.986107909     -84.3820938
9.055                0.986073234     -84.5161404
9.056                0.986038463     -84.6505202
9.057                0.986003595     -84.7852342
9.058                0.985968632     -84.9202834
9.059                0.985933572     -85.0556686
9.06                 0.985898415     -85.1913907
9.061                0.985863162     -85.3274506
9.062                0.985827812     -85.4638493
9.063                0.985792366     -85.6005877
9.064                0.985756823     -85.7376666
9.065                0.985721182      -85.875087
9.066                0.985685445     -86.0128498
9.067                0.985649611     -86.1509559
9.068                0.985613679     -86.2894062
9.069                 0.98557765     -86.4282017
9.07                 0.985541524     -86.5673432
9.071                  0.9855053     -86.7068317
9.072                 0.98546898     -86.8466681
9.073                0.985432561     -86.9868533
9.074                0.985396045     -87.1273882
9.075                0.985359431     -87.2682737
9.076                 0.98532272     -87.4095108
9.077                0.985285911     -87.5511004
9.078                0.985249004     -87.6930434
9.079                0.985211999     -87.8353408
9.08                 0.985174897     -87.9779933
9.081                0.985137696     -88.1210021
9.082                0.985100398     -88.2643679
9.083                0.985063002     -88.4080917
9.084                0.985025507     -88.5521745
9.085                0.984987915     -88.6966172
9.086                0.984950225     -88.8414206
9.087                0.984912436     -88.9865857
9.088                 0.98487455     -89.1321135
9.089                0.984836565     -89.2780048
9.09                 0.984798482     -89.4242605
9.091                0.984760301     -89.5708817
9.092                0.984722023     -89.7178692
9.093                0.984683646     -89.8652239
9.094                 0.98464517     -90.0129469
9.095                0.984606597     -90.1610389
9.096                0.984567926     -90.3095009
9.097                0.984529157     -90.4583338
9.098                 0.98449029     -90.6075387
9.099                0.984451324     -90.7571163
9.1                  0.984412261     -90.9070676
9.101                  0.9843731     -91.0573935
9.102                0.984333841      -91.208095
9.103                0.984294484      -91.359173
9.104                0.984255029     -91.5106284
9.105                0.984215477      -91.662462
9.106                0.984175827      -91.814675
9.107                0.984136079      -91.967268
9.108                0.984096234     -92.1202422
9.109                0.984056291     -92.2735983
9.11                 0.984016251     -92.4273373
9.111                0.983976113     -92.5814602
9.112                0.983935879     -92.7359678
9.113                0.983895547      -92.890861
9.114                0.983855118     -93.0461408
9.115                0.983814592     -93.2018081
9.116                0.983773969     -93.3578638
9.117                0.983733249     -93.5143088
9.118                0.983692433     -93.6711441
9.119                 0.98365152     -93.8283704
9.12                 0.983610511     -93.9859888
9.121                0.983569406     -94.1440001
9.122                0.983528204     -94.3024052
9.123                0.983486906     -94.4612051
9.124                0.983445513     -94.6204007
9.125                0.983404023     -94.7799928
9.126                0.983362439     -94.9399823
9.127                0.983320758     -95.1003702
9.128                0.983278983     -95.2611574
9.129                0.983237112     -95.4223447
9.13                 0.983195147      -95.583933
9.131                0.983153087     -95.7459232
9.132                0.983110932     -95.9083163
9.133                0.983068683     -96.0711131
9.134                 0.98302634     -96.2343144
9.135                0.982983903     -96.3979212
9.136                0.982941372     -96.5619344
9.137                0.982898748     -96.7263549
9.138                0.982856031     -96.8911834
9.139                 0.98281322     -97.0564209
9.14                 0.982770317     -97.2220683
9.141                0.982727321     -97.3881264
9.142                0.982684233     -97.5545961
9.143                0.982641053     -97.7214783
9.144                0.982597781     -97.8887739
9.145                0.982554417     -98.0564836
9.146                0.982510962     -98.2246083
9.147                0.982467417      -98.393149
9.148                 0.98242378     -98.5621065
9.149                0.982380053     -98.7314815
9.15                 0.982336237      -98.901275
9.151                 0.98229233     -99.0714878
9.152                0.982248334     -99.2421208
9.153                0.982204249     -99.4131747
9.154                0.982160075     -99.5846505
9.155                0.982115812     -99.7565489
9.156                0.982071462     -99.9288708
9.157                0.982027023     -100.101617
9.158                0.981982498     -100.274788
9.159                0.981937885     -100.448386
9.16                 0.981893186      -100.62241
9.161                  0.9818484     -100.796861
9.162                0.981803528     -100.971741
9.163                0.981758571      -101.14705
9.164                0.981713529     -101.322789
9.165                0.981668403     -101.498959
9.166                0.981623192     -101.675561
9.167                0.981577897     -101.852594
9.168                0.981532519     -102.030061
9.169                0.981487058     -102.207962
9.17                 0.981441514     -102.386298
9.171                0.981395888     -102.565069
9.172                0.981350181     -102.744276
9.173                0.981304393      -102.92392
9.174                0.981258524     -103.104002
9.175                0.981212575     -103.284523
9.176                0.981166547     -103.465482
9.177                 0.98112044     -103.646882
9.178                0.981074254     -103.828723
9.179                 0.98102799     -104.011004
9.18                 0.980981648     -104.193729
9.181                 0.98093523     -104.376895
9.182                0.980888735     -104.560506
9.183                0.980842164     -104.744561
9.184                0.980795519     -104.929061
9.185                0.980748798     -105.114007
9.186                0.980702004     -105.299399
9.187                0.980655136     -105.485238
9.188                0.980608195     -105.671525
9.189                0.980561182      -105.85826
9.19                 0.980514098     -106.045445
9.191                0.980466942     -106.233079
9.192                0.980419717     -106.421164
9.193                0.980372421       -106.6097
9.194                0.980325057     -106.798688
9.195                0.980277625     -106.988128
9.196                0.980230124     -107.178022
9.197                0.980182557     -107.368368
9.198                0.980134924      -107.55917
9.199                0.980087226     -107.750426
9.2                  0.980039462     -107.942137
9.201                0.979991635     -108.134305
9.202                0.979943744     -108.326929
9.203                0.979895791     -108.520011
9.204                0.979847776      -108.71355
9.205                0.979799701     -108.907548
9.206                0.979751565     -109.102005
9.207                 0.97970337     -109.296921
9.208                0.979655116     -109.492297
9.209                0.979606805     -109.688134
9.21                 0.979558437     -109.884432
9.211                0.979510012     -110.081192
9.212                0.979461533     -110.278414
9.213                0.979412999     -110.476098
9.214                0.979364412     -110.674246
9.215                0.979315773     -110.872857
9.216                0.979267081     -111.071933
9.217                0.979218339     -111.271473
9.218                0.979169548     -111.471478
9.219                0.979120707     -111.671949
9.22                 0.979071818     -111.872886
9.221                0.979022883     -112.074289
9.222                0.978973901     -112.276158
9.223                0.978924875     -112.478495
9.224                0.978875804       -112.6813
9.225                0.978826691     -112.884573
9.226                0.978777535     -113.088314
9.227                0.978728338     -113.292524
9.228                0.978679102     -113.497203
9.229                0.978629826     -113.702352
9.23                 0.978580513      -113.90797
9.231                0.978531163     -114.114059
9.232                0.978481777     -114.320618
9.233                0.978432356     -114.527648
9.234                0.978382902     -114.735149
9.235                0.978333416     -114.943122
9.236                0.978283898     -115.151566
9.237                 0.97823435     -115.360483
9.238                0.978184774     -115.569871
9.239                0.978135169     -115.779732
9.24                 0.978085538     -115.990066
9.241                0.978035881     -116.200873
9.242                  0.9779862     -116.412153
9.243                0.977936496     -116.623906
9.244                0.977886771     -116.836133
9.245                0.977837024     -117.048834
9.246                0.977787259     -117.262008
9.247                0.977737475     -117.475657
9.248                0.977687675      -117.68978
9.249                0.977637859     -117.904377
9.25                 0.977588028     -118.119449
9.251                0.977538185     -118.334995
9.252                0.977488331     -118.551016
9.253                0.977438466     -118.767512
9.254                0.977388592     -118.984483
9.255                0.977338711     -119.201928
9.256                0.977288824     -119.419849
9.257                0.977238932     -119.638244
9.258                0.977189036     -119.857114
9.259                0.977139138     -120.076459
9.26                  0.97708924     -120.296279
9.261                0.977039343     -120.516574
9.262                0.976989448     -120.737344
9.263                0.976939557     -120.958589
9.264                0.976889672     -121.180309
9.265                0.976839793     -121.402503
9.266                0.976789922     -121.625171
9.267                0.976740061     -121.848315
9.268                0.976690211     -122.071932
9.269                0.976640374     -122.296024
9.27                 0.976590551      -122.52059
9.271                0.976540744     -122.745629
9.272                0.976490955     -122.971142
9.273                0.976441185     -123.197129
9.274                0.976391435     -123.423589
9.275                0.976341708     -123.650522
9.276                0.976292004     -123.877928
9.277                0.976242326     -124.105806
9.278                0.976192675     -124.334156
9.279                0.976143053     -124.562979
9.28                 0.976093461     -124.792273
9.281                0.976043901     -125.022038
9.282                0.975994375     -125.252274
9.283                0.975944885     -125.482981
9.284                0.975895432     -125.714158
9.285                0.975846018     -125.945805
9.286                0.975796644     -126.177921
9.287                0.975747313     -126.410507
9.288                0.975698026      -126.64356
9.289                0.975648784     -126.877082
9.29                 0.975599591     -127.111071
9.291                0.975550447     -127.345528
9.292                0.975501354     -127.580451
9.293                0.975452315      -127.81584
9.294                 0.97540333     -128.051694
9.295                0.975354403     -128.288014
9.296                0.975305533     -128.524798
9.297                0.975256725     -128.762045
9.298                0.975207978     -128.999756
9.299                0.975159296     -129.237929
9.3                   0.97511068     -129.476564
9.301                0.975062132      -129.71566
9.302                0.975013654     -129.955217
9.303                0.974965248     -130.195233
9.304                0.974916915     -130.435708
9.305                0.974868658     -130.676642
9.306                0.974820479     -130.918033
9.307                0.974772379     -131.159881
9.308                0.974724362     -131.402185
9.309                0.974676427     -131.644943
9.31                 0.974628578     -131.888156
9.311                0.974580817     -132.131823
9.312                0.974533145     -132.375941
9.313                0.974485565     -132.620512
9.314                0.974438079     -132.865533
9.315                0.974390688     -133.111003
9.316                0.974343394     -133.356923
9.317                0.974296201      -133.60329
9.318                0.974249109     -133.850104
9.319                0.974202121     -134.097364
9.32                 0.974155239     -134.345068
9.321                0.974108466     -134.593216
9.322                0.974061802     -134.841807
9.323                 0.97401525     -135.090839
9.324                0.973968813     -135.340311
9.325                0.973922492     -135.590223
9.326                 0.97387629     -135.840572
9.327                0.973830208     -136.091358
9.328                 0.97378425      -136.34258
9.329                0.973738416     -136.594237
9.33                 0.973692709     -136.846326
9.331                0.973647132     -137.098848
9.332                0.973601686       -137.3518
9.333                0.973556374     -137.605181
9.334                0.973511197      -137.85899
9.335                0.973466159     -138.113226
9.336                 0.97342126     -138.367887
9.337                0.973376504     -138.622972
9.338                0.973331893     -138.878479
9.339                0.973287428     -139.134407
9.34                 0.973243112     -139.390755
9.341                0.973198947      -139.64752
9.342                0.973154936     -139.904703
9.343                 0.97311108       -140.1623
9.344                0.973067382     -140.420311
9.345                0.973023844     -140.678733
9.346                0.972980468     -140.937566
9.347                0.972937257     -141.196808
9.348                0.972894212     -141.456457
9.349                0.972851337     -141.716511
9.35                 0.972808632     -141.976968
9.351                0.972766102     -142.237828
9.352                0.972723746     -142.499089
9.353                0.972681569     -142.760747
9.354                0.972639572     -143.022803
9.355                0.972597757     -143.285254
9.356                0.972556127     -143.548097
9.357                0.972514684     -143.811333
9.358                 0.97247343     -144.074957
9.359                0.972432367      -144.33897
9.36                 0.972391498     -144.603368
9.361                0.972350825      -144.86815
9.362                 0.97231035     -145.133315
9.363                0.972270076     -145.398859
9.364                0.972230004     -145.664781
9.365                0.972190137     -145.931079
9.366                0.972150478     -146.197751
9.367                0.972111027     -146.464795
9.368                0.972071789     -146.732209
9.369                0.972032764     -146.999991
9.37                 0.971993955     -147.268138
9.371                0.971955365     -147.536649
9.372                0.971916995     -147.805521
9.373                0.971878849     -148.074753
9.374                0.971840927     -148.344341
9.375                0.971803232     -148.614284
9.376                0.971765767      -148.88458
9.377                0.971728533     -149.155226
9.378                0.971691534     -149.426221
9.379                 0.97165477      -149.69756
9.38                 0.971618245     -149.969244
9.381                 0.97158196     -150.241268
9.382                0.971545918     -150.513631
9.383                0.971510121      -150.78633
9.384                 0.97147457     -151.059363
9.385                0.971439269     -151.332728
9.386                0.971404219     -151.606422
9.387                0.971369423     -151.880442
9.388                0.971334882     -152.154786
9.389                0.971300599     -152.429451
9.39                 0.971266575     -152.704436
9.391                0.971232814     -152.979737
9.392                0.971199317     -153.255352
9.393                0.971166085     -153.531278
9.394                0.971133123     -153.807513
9.395                 0.97110043     -154.084054
9.396                 0.97106801     -154.360898
