! TOUCHSTONE file generated by CST DESIGN STUDIO
! Date and time: Tue Feb  4 18:02:01 2025
! Project name: C:\Work\MatlabApps\UnitCellOptimizationMatlab\CST\unitcell.cst
! Tree item: Tasks\Sweep1\SPara1\S-Parameters
! Header version: 2024
! Port assignment regex: !\s*Touchstone port\s*([0-9]+)\s*=\s*(CST MWS port|CST DES external port|CST DES block port)\s*(.+)\s* \(\"(.*)\"\)(\s*mode\s*([0-9]+))?.*
! Touchstone port assignment:
! Touchstone port 1 = CST DES external port 1 ("")
# GHz S MA R 50
9                    0.988001189     -76.6895812
9.001                0.987972318     -76.8047862
9.002                 0.98794336     -76.9202715
9.003                0.987914317     -77.0360377
9.004                0.987885186     -77.1520858
9.005                0.987855968     -77.2684165
9.006                0.987826663     -77.3850306
9.007                0.987797271     -77.5019291
9.008                0.987767791     -77.6191127
9.009                0.987738223     -77.7365822
9.01                 0.987708568     -77.8543385
9.011                0.987678824     -77.9723824
9.012                0.987648992     -78.0907148
9.013                0.987619072     -78.2093363
9.014                0.987589063      -78.328248
9.015                0.987558965     -78.4474507
9.016                0.987528778     -78.5669451
9.017                0.987498502     -78.6867321
9.018                0.987468137     -78.8068126
9.019                0.987437682     -78.9271873
9.02                 0.987407138     -79.0478572
9.021                0.987376504     -79.1688231
9.022                 0.98734578     -79.2900859
9.023                0.987314965     -79.4116463
9.024                 0.98728406     -79.5335053
9.025                0.987253065     -79.6556637
9.026                0.987221979     -79.7781223
9.027                0.987190802      -79.900882
9.028                0.987159535     -80.0239437
9.029                0.987128176     -80.1473082
9.03                 0.987096725     -80.2709764
9.031                0.987065184     -80.3949492
9.032                 0.98703355     -80.5192273
9.033                0.987001825     -80.6438118
9.034                0.986970008     -80.7687034
9.035                0.986938099      -80.893903
9.036                0.986906097     -81.0194115
9.037                0.986874003     -81.1452297
9.038                0.986841817     -81.2713586
9.039                0.986809538      -81.397799
9.04                 0.986777166     -81.5245518
9.041                0.986744701     -81.6516178
9.042                0.986712142      -81.778998
9.043                0.986679491     -81.9066932
9.044                0.986646746     -82.0347043
9.045                0.986613908     -82.1630321
9.046                0.986580976     -82.2916777
9.047                 0.98654795     -82.4206418
9.048                 0.98651483     -82.5499253
9.049                0.986481616     -82.6795292
9.05                 0.986448308     -82.8094543
9.051                0.986414906     -82.9397016
9.052                0.986381409     -83.0702718
9.053                0.986347817     -83.2011659
9.054                0.986314131     -83.3323848
9.055                 0.98628035     -83.4639295
9.056                0.986246474     -83.5958007
9.057                0.986212503     -83.7279994
9.058                0.986178437     -83.8605264
9.059                0.986144276     -83.9933828
9.06                 0.986110019     -84.1265694
9.061                0.986075666      -84.260087
9.062                0.986041218     -84.3939367
9.063                0.986006675     -84.5281192
9.064                0.985972035     -84.6626355
9.065                  0.9859373     -84.7974866
9.066                0.985902468     -84.9326733
9.067                0.985867541     -85.0681965
9.068                0.985832517     -85.2040572
9.069                0.985797397     -85.3402562
9.07                 0.985762181     -85.4767945
9.071                0.985726868     -85.6136729
9.072                0.985691459     -85.7508924
9.073                0.985655953      -85.888454
9.074                 0.98562035     -86.0263584
9.075                0.985584651     -86.1646067
9.076                0.985548855     -86.3031998
9.077                0.985512962     -86.4421385
9.078                0.985476971     -86.5814237
9.079                0.985440884     -86.7210565
9.08                   0.9854047     -86.8610378
9.081                0.985368419     -87.0013683
9.082                0.985332041     -87.1420491
9.083                0.985295565     -87.2830811
9.084                0.985258992     -87.4244652
9.085                0.985222322     -87.5662023
9.086                0.985185554     -87.7082934
9.087                0.985148689     -87.8507394
9.088                0.985111727     -87.9935411
9.089                0.985074667     -88.1366996
9.09                 0.985037509     -88.2802157
9.091                0.985000254     -88.4240903
9.092                0.984962902     -88.5683245
9.093                0.984925451      -88.712919
9.094                0.984887904     -88.8578749
9.095                0.984850258     -89.0031931
9.096                0.984812515     -89.1488744
9.097                0.984774675     -89.2949199
9.098                0.984736737     -89.4413304
9.099                0.984698701     -89.5881069
9.1                  0.984660568     -89.7352502
9.101                0.984622337     -89.8827614
9.102                0.984584008     -90.0306413
9.103                0.984545582     -90.1788909
9.104                0.984507059      -90.327511
9.105                0.984468437     -90.4765027
9.106                0.984429719     -90.6258668
9.107                0.984390903     -90.7756043
9.108                0.984351989      -90.925716
9.109                0.984312979      -91.076203
9.11                  0.98427387     -91.2270661
9.111                0.984234665     -91.3783063
9.112                0.984195362     -91.5299244
9.113                0.984155963     -91.6819215
9.114                0.984116466     -91.8342983
9.115                0.984076872     -91.9870559
9.116                0.984037181     -92.1401952
9.117                0.983997393     -92.2937171
9.118                0.983957509     -92.4476224
9.119                0.983917527     -92.6019122
9.12                  0.98387745     -92.7565873
9.121                0.983837275     -92.9116487
9.122                0.983797004     -93.0670972
9.123                0.983756637     -93.2229338
9.124                0.983716174     -93.3791595
9.125                0.983675614      -93.535775
9.126                0.983634959     -93.6927813
9.127                0.983594208     -93.8501794
9.128                0.983553361     -94.0079701
9.129                0.983512418     -94.1661544
9.13                  0.98347138     -94.3247331
9.131                0.983430247     -94.4837072
9.132                0.983389018     -94.6430775
9.133                0.983347695     -94.8028451
9.134                0.983306277     -94.9630106
9.135                0.983264764     -95.1235752
9.136                0.983223156     -95.2845396
9.137                0.983181455     -95.4459048
9.138                0.983139659     -95.6076716
9.139                0.983097769      -95.769841
9.14                 0.983055786     -95.9324138
9.141                0.983013709      -96.095391
9.142                0.982971538     -96.2587733
9.143                0.982929275     -96.4225618
9.144                0.982886918     -96.5867572
9.145                0.982844469     -96.7513606
9.146                0.982801928     -96.9163726
9.147                0.982759294     -97.0817943
9.148                0.982716569     -97.2476265
9.149                0.982673751       -97.41387
9.15                 0.982630843     -97.5805258
9.151                0.982587843     -97.7475947
9.152                0.982544752     -97.9150776
9.153                 0.98250157     -98.0829753
9.154                0.982458299     -98.2512886
9.155                0.982414937     -98.4200186
9.156                0.982371485     -98.5891659
9.157                0.982327944     -98.7587315
9.158                0.982284314     -98.9287162
9.159                0.982240595     -99.0991208
9.16                 0.982196787     -99.2699463
9.161                0.982152892     -99.4411933
9.162                0.982108908     -99.6128628
9.163                0.982064837     -99.7849557
9.164                0.982020679     -99.9574726
9.165                0.981976434     -100.130414
9.166                0.981932103     -100.303782
9.167                0.981887686     -100.477576
9.168                0.981843183     -100.651798
9.169                0.981798595     -100.826448
9.17                 0.981753922     -101.001527
9.171                0.981709164     -101.177036
9.172                0.981664323     -101.352975
9.173                0.981619398     -101.529346
9.174                 0.98157439     -101.706149
9.175                0.981529299     -101.883385
9.176                0.981484126     -102.061055
9.177                0.981438871     -102.239159
9.178                0.981393534     -102.417699
9.179                0.981348117     -102.596675
9.18                 0.981302619     -102.776088
9.181                0.981257042     -102.955938
9.182                0.981211385     -103.136227
9.183                0.981165649     -103.316955
9.184                0.981119834     -103.498123
9.185                0.981073942     -103.679731
9.186                0.981027973     -103.861781
9.187                0.980981926     -104.044273
9.188                0.980935803     -104.227208
9.189                0.980889605     -104.410586
9.19                 0.980843332     -104.594409
9.191                0.980796983     -104.778677
9.192                0.980750561      -104.96339
9.193                0.980704066      -105.14855
9.194                0.980657498     -105.334157
9.195                0.980610857     -105.520211
9.196                0.980564145     -105.706714
9.197                0.980517362     -105.893667
9.198                0.980470509     -106.081069
9.199                0.980423586     -106.268921
9.2                  0.980376595     -106.457225
9.201                0.980329535      -106.64598
9.202                0.980282407     -106.835188
9.203                0.980235212     -107.024849
9.204                0.980187952     -107.214963
9.205                0.980140625     -107.405532
9.206                0.980093234     -107.596556
9.207                0.980045779     -107.788035
9.208                0.979998261     -107.979971
9.209                0.979950679     -108.172363
9.21                 0.979903037     -108.365213
9.211                0.979855333      -108.55852
9.212                0.979807568     -108.752286
9.213                0.979759745     -108.946511
9.214                0.979711862     -109.141196
9.215                0.979663922     -109.336341
9.216                0.979615925     -109.531946
9.217                0.979567871     -109.728013
9.218                0.979519762     -109.924542
9.219                0.979471599     -110.121533
9.22                 0.979423382     -110.318986
9.221                0.979375112     -110.516903
9.222                 0.97932679     -110.715284
9.223                0.979278418     -110.914129
9.224                0.979229995     -111.113439
9.225                0.979181523     -111.313214
9.226                0.979133003     -111.513455
9.227                0.979084435     -111.714162
9.228                0.979035821     -111.915335
9.229                0.978987162     -112.116976
9.23                 0.978938459     -112.319084
9.231                0.978889712      -112.52166
9.232                0.978840922     -112.724704
9.233                0.978792092     -112.928217
9.234                 0.97874322     -113.132199
9.235                 0.97869431      -113.33665
9.236                0.978645361     -113.541571
9.237                0.978596375     -113.746962
9.238                0.978547353     -113.952824
9.239                0.978498296     -114.159156
9.24                 0.978449204      -114.36596
9.241                 0.97840008     -114.573235
9.242                0.978350924     -114.780982
9.243                0.978301738     -114.989201
9.244                0.978252521     -115.197892
9.245                0.978203277     -115.407056
9.246                0.978154005     -115.616692
9.247                0.978104707     -115.826802
9.248                0.978055385     -116.037385
9.249                0.978006038     -116.248442
9.25                  0.97795667     -116.459972
9.251                 0.97790728     -116.671977
9.252                 0.97785787     -116.884455
9.253                0.977808441     -117.097408
9.254                0.977758995     -117.310836
9.255                0.977709533     -117.524738
9.256                0.977660055     -117.739115
9.257                0.977610565     -117.953966
9.258                0.977561061     -118.169293
9.259                0.977511547     -118.385095
9.26                 0.977462023     -118.601373
9.261                0.977412491     -118.818125
9.262                0.977362952     -119.035353
9.263                0.977313407     -119.253056
9.264                0.977263858     -119.471235
9.265                0.977214306     -119.689889
9.266                0.977164753     -119.909019
9.267                0.977115199     -120.128624
9.268                0.977065647     -120.348705
9.269                0.977016098     -120.569261
9.27                 0.976966554     -120.790293
9.271                0.976917015       -121.0118
9.272                0.976867483     -121.233782
9.273                 0.97681796      -121.45624
9.274                0.976768447     -121.679172
9.275                0.976718946      -121.90258
9.276                0.976669459     -122.126462
9.277                0.976619986     -122.350819
9.278                0.976570529      -122.57565
9.279                0.976521091     -122.800956
9.28                 0.976471672     -123.026736
9.281                0.976422274      -123.25299
9.282                0.976372899     -123.479718
9.283                0.976323548     -123.706919
9.284                0.976274223     -123.934593
9.285                0.976224926     -124.162741
9.286                0.976175658     -124.391361
9.287                 0.97612642     -124.620453
9.288                0.976077216     -124.850018
9.289                0.976028045     -125.080054
9.29                 0.975978911     -125.310561
9.291                0.975929814      -125.54154
9.292                0.975880756     -125.772989
9.293                 0.97583174     -126.004909
9.294                0.975782766     -126.237298
9.295                0.975733837     -126.470157
9.296                0.975684954     -126.703485
9.297                 0.97563612     -126.937281
9.298                0.975587335     -127.171545
9.299                0.975538602     -127.406276
9.3                  0.975489922     -127.641475
9.301                0.975441298      -127.87714
9.302                0.975392731      -128.11327
9.303                0.975344223     -128.349867
9.304                0.975295776     -128.586927
9.305                0.975247391     -128.824452
9.306                0.975199071     -129.062441
9.307                0.975150818     -129.300892
9.308                0.975102632     -129.539805
9.309                0.975054517      -129.77918
9.31                 0.975006475     -130.019015
9.311                0.974958506     -130.259311
9.312                0.974910613     -130.500066
9.313                0.974862799     -130.741279
9.314                0.974815064     -130.982951
9.315                0.974767411     -131.225079
9.316                0.974719842     -131.467663
9.317                0.974672359     -131.710703
9.318                0.974624963     -131.954198
9.319                0.974577658     -132.198145
9.32                 0.974530444     -132.442546
9.321                0.974483325     -132.687399
9.322                0.974436301     -132.932702
9.323                0.974389375     -133.178455
9.324                0.974342549     -133.424657
9.325                0.974295825     -133.671308
9.326                0.974249205     -133.918405
9.327                0.974202691     -134.165948
9.328                0.974156286     -134.413936
9.329                0.974109991     -134.662368
9.33                 0.974063808     -134.911242
9.331                 0.97401774     -135.160558
9.332                0.973971789     -135.410315
9.333                0.973925956     -135.660511
9.334                0.973880244     -135.911145
9.335                0.973834655     -136.162216
9.336                0.973789191     -136.413723
9.337                0.973743855     -136.665664
9.338                0.973698648     -136.918039
9.339                0.973653573     -137.170846
9.34                 0.973608631     -137.424083
9.341                0.973563825     -137.677749
9.342                0.973519158     -137.931844
9.343                 0.97347463     -138.186365
9.344                0.973430246     -138.441312
9.345                0.973386005     -138.696682
9.346                0.973341912     -138.952475
9.347                0.973297968     -139.208689
9.348                0.973254174     -139.465323
9.349                0.973210535     -139.722374
9.35                 0.973167051     -139.979842
9.351                0.973123725     -140.237725
9.352                0.973080559     -140.496021
9.353                0.973037555      -140.75473
9.354                0.972994716     -141.013848
9.355                0.972952043     -141.273376
9.356                 0.97290954      -141.53331
9.357                0.972867208     -141.793649
9.358                0.972825049     -142.054393
9.359                0.972783066     -142.315538
9.36                 0.972741261     -142.577083
9.361                0.972699636     -142.839027
9.362                0.972658194     -143.101368
9.363                0.972616936     -143.364103
9.364                0.972575865     -143.627232
9.365                0.972534983     -143.890752
9.366                0.972494293     -144.154661
9.367                0.972453797     -144.418958
9.368                0.972413496      -144.68364
9.369                0.972373393     -144.948707
9.37                 0.972333491     -145.214155
9.371                0.972293791     -145.479982
9.372                0.972254296     -145.746188
9.373                0.972215009     -146.012769
9.374                 0.97217593     -146.279724
9.375                0.972137064     -146.547051
9.376                0.972098411     -146.814747
9.377                0.972059974     -147.082811
9.378                0.972021755      -147.35124
9.379                0.971983757     -147.620032
9.38                 0.971945981     -147.889186
9.381                 0.97190843     -148.158698
9.382                0.971871107     -148.428567
9.383                0.971834013     -148.698791
9.384                 0.97179715     -148.969367
9.385                0.971760521     -149.240292
9.386                0.971724128     -149.511566
9.387                0.971687973     -149.783184
9.388                0.971652059     -150.055146
9.389                0.971616387     -150.327448
9.39                 0.971580959     -150.600089
9.391                0.971545779     -150.873065
9.392                0.971510847     -151.146375
9.393                0.971476167     -151.420016
9.394                0.971441739     -151.693986
9.395                0.971407568     -151.968281
9.396                0.971373653       -152.2429
