! TOUCHSTONE file generated by CST DESIGN STUDIO
! Date and time: Tue Feb  4 13:52:46 2025
! Project name: C:\Work\MatlabApps\UnitCellOptimizationMatlab\CST\unitcell.cst
! Tree item: Tasks\Sweep1\SPara1\S-Parameters
! Header version: 2024
! Port assignment regex: !\s*Touchstone port\s*([0-9]+)\s*=\s*(CST MWS port|CST DES external port|CST DES block port)\s*(.+)\s* \(\"(.*)\"\)(\s*mode\s*([0-9]+))?.*
! Touchstone port assignment:
! Touchstone port 1 = CST DES external port 1 ("")
# GHz S MA R 50
9                    0.980489548     -71.1992093
9.001                0.980444363     -71.3041992
9.002                 0.98039904     -71.4094448
9.003                0.980353579     -71.5149471
9.004                0.980307979     -71.6207067
9.005                0.980262239     -71.7267245
9.006                0.980216361     -71.8330012
9.007                0.980170343     -71.9395376
9.008                0.980124184     -72.0463346
9.009                0.980077885      -72.153393
9.01                 0.980031445     -72.2607135
9.011                0.979984864     -72.3682969
9.012                0.979938141     -72.4761441
9.013                0.979891276     -72.5842558
9.014                0.979844269     -72.6926329
9.015                 0.97979712     -72.8012762
9.016                0.979749827     -72.9101864
9.017                 0.97970239     -73.0193645
9.018                 0.97965481     -73.1288112
9.019                0.979607086     -73.2385274
9.02                 0.979559217     -73.3485138
9.021                0.979511204     -73.4587713
9.022                0.979463045     -73.5693007
9.023                 0.97941474     -73.6801029
9.024                 0.97936629     -73.7911787
9.025                0.979317693     -73.9025289
9.026                 0.97926895     -74.0141544
9.027                0.979220059     -74.1260559
9.028                0.979171021     -74.2382344
9.029                0.979121836     -74.3506907
9.03                 0.979072502     -74.4634256
9.031                 0.97902302     -74.5764399
9.032                0.978973389     -74.6897346
9.033                0.978923609     -74.8033105
9.034                0.978873679     -74.9171684
9.035                  0.9788236     -75.0313091
9.036                 0.97877337     -75.1457336
9.037                 0.97872299     -75.2604427
9.038                0.978672459     -75.3754373
9.039                0.978621777     -75.4907182
9.04                 0.978570943     -75.6062863
9.041                0.978519957     -75.7221424
9.042                0.978468819     -75.8382875
9.043                0.978417528     -75.9547224
9.044                0.978366084     -76.0714479
9.045                0.978314488      -76.188465
9.046                0.978262737     -76.3057746
9.047                0.978210832     -76.4233775
9.048                0.978158774     -76.5412746
9.049                 0.97810656     -76.6594668
9.05                 0.978054192     -76.7779549
9.051                0.978001668     -76.8967399
9.052                0.977948989     -77.0158227
9.053                0.977896154     -77.1352041
9.054                0.977843162     -77.2548851
9.055                0.977790014     -77.3748666
9.056                0.977736709     -77.4951493
9.057                0.977683247     -77.6157344
9.058                0.977629627     -77.7366225
9.059                0.977575849     -77.8578148
9.06                 0.977521913      -77.979312
9.061                0.977467819     -78.1011151
9.062                0.977413566      -78.223225
9.063                0.977359154     -78.3456426
9.064                0.977304582     -78.4683688
9.065                 0.97724985     -78.5914045
9.066                0.977194959     -78.7147507
9.067                0.977139907     -78.8384083
9.068                0.977084695     -78.9623782
9.069                0.977029322     -79.0866614
9.07                 0.976973787     -79.2112587
9.071                0.976918091     -79.3361711
9.072                0.976862233     -79.4613995
9.073                0.976806213     -79.5869448
9.074                0.976750031     -79.7128081
9.075                0.976693686     -79.8389901
9.076                0.976637178      -79.965492
9.077                0.976580507     -80.0923145
9.078                0.976523672     -80.2194588
9.079                0.976466674     -80.3469255
9.08                 0.976409511     -80.4747159
9.081                0.976352185     -80.6028307
9.082                0.976294694      -80.731271
9.083                0.976237038     -80.8600376
9.084                0.976179216     -80.9891316
9.085                 0.97612123     -81.1185539
9.086                0.976063078     -81.2483055
9.087                 0.97600476     -81.3783872
9.088                0.975946276     -81.5088002
9.089                0.975887626     -81.6395452
9.09                 0.975828809     -81.7706234
9.091                0.975769826     -81.9020356
9.092                0.975710675     -82.0337829
9.093                0.975651357     -82.1658661
9.094                0.975591872     -82.2982864
9.095                0.975532219     -82.4310445
9.096                0.975472398     -82.5641416
9.097                0.975412409     -82.6975785
9.098                0.975352252     -82.8313563
9.099                0.975291926      -82.965476
9.1                  0.975231431     -83.0999384
9.101                0.975170767     -83.2347447
9.102                0.975109935     -83.3698957
9.103                0.975048933     -83.5053925
9.104                0.974987761      -83.641236
9.105                 0.97492642     -83.7774273
9.106                0.974864908     -83.9139672
9.107                0.974803227     -84.0508569
9.108                0.974741376     -84.1880973
9.109                0.974679354     -84.3256893
9.11                 0.974617162      -84.463634
9.111                0.974554798     -84.6019324
9.112                0.974492265     -84.7405854
9.113                 0.97442956     -84.8795941
9.114                0.974366683     -85.0189594
9.115                0.974303636     -85.1586824
9.116                0.974240417     -85.2987641
9.117                0.974177027     -85.4392053
9.118                0.974113465     -85.5800073
9.119                0.974049731     -85.7211708
9.12                 0.973985825     -85.8626971
9.121                0.973921748     -86.0045869
9.122                0.973857498     -86.1468415
9.123                0.973793076     -86.2894617
9.124                0.973728482     -86.4324485
9.125                0.973663715     -86.5758031
9.126                0.973598776     -86.7195263
9.127                0.973533664     -86.8636192
9.128                 0.97346838     -87.0080828
9.129                0.973402923     -87.1529181
9.13                 0.973337294     -87.2981261
9.131                0.973271491     -87.4437079
9.132                0.973205516     -87.5896644
9.133                0.973139368     -87.7359967
9.134                0.973073047     -87.8827057
9.135                0.973006554     -88.0297925
9.136                0.972939887     -88.1772581
9.137                0.972873047     -88.3251035
9.138                0.972806035     -88.4733297
9.139                0.972738849     -88.6219378
9.14                 0.972671491     -88.7709287
9.141                 0.97260396     -88.9203035
9.142                0.972536256     -89.0700631
9.143                0.972468379     -89.2202087
9.144                0.972400329     -89.3707411
9.145                0.972332106     -89.5216615
9.146                0.972263711     -89.6729709
9.147                0.972195143     -89.8246702
9.148                0.972126402     -89.9767604
9.149                0.972057489     -90.1292427
9.15                 0.971988403      -90.282118
9.151                0.971919146     -90.4353873
9.152                0.971849715     -90.5890516
9.153                0.971780113      -90.743112
9.154                0.971710339     -90.8975694
9.155                0.971640392      -91.052425
9.156                0.971570274     -91.2076796
9.157                0.971499985     -91.3633344
9.158                0.971429523     -91.5193902
9.159                0.971358891     -91.6758483
9.16                 0.971288087     -91.8327094
9.161                0.971217113     -91.9899748
9.162                0.971145967     -92.1476453
9.163                0.971074651     -92.3057219
9.164                0.971003164     -92.4642058
9.165                0.970931507     -92.6230979
9.166                0.970859681     -92.7823992
9.167                0.970787684     -92.9421107
9.168                0.970715518     -93.1022334
9.169                0.970643182     -93.2627684
9.17                 0.970570678     -93.4237166
9.171                0.970498005      -93.585079
9.172                0.970425163     -93.7468567
9.173                0.970352153     -93.9090506
9.174                0.970278975     -94.0716617
9.175                 0.97020563     -94.2346911
9.176                0.970132117     -94.3981397
9.177                0.970058438     -94.5620085
9.178                0.969984591     -94.7262986
9.179                0.969910579     -94.8910109
9.18                   0.9698364     -95.0561463
9.181                0.969762057      -95.221706
9.182                0.969687547     -95.3876908
9.183                0.969612874     -95.5541019
9.184                0.969538035       -95.72094
9.185                0.969463033     -95.8882063
9.186                0.969387868     -96.0559017
9.187                0.969312539     -96.2240271
9.188                0.969237048     -96.3925837
9.189                0.969161394     -96.5615722
9.19                 0.969085579     -96.7309938
9.191                0.969009603     -96.9008493
9.192                0.968933466     -97.0711398
9.193                0.968857168     -97.2418661
9.194                0.968780712     -97.4130294
9.195                0.968704096     -97.5846304
9.196                0.968627321     -97.7566702
9.197                0.968550389     -97.9291497
9.198                0.968473299     -98.1020699
9.199                0.968396052     -98.2754318
9.2                  0.968318649     -98.4492362
9.201                 0.96824109     -98.6234841
9.202                0.968163377     -98.7981764
9.203                0.968085509     -98.9733141
9.204                0.968007487     -99.1488981
9.205                0.967929312     -99.3249294
9.206                0.967850985     -99.5014088
9.207                0.967772506     -99.6783373
9.208                0.967693877     -99.8557158
9.209                0.967615097     -100.033545
9.21                 0.967536168     -100.211826
9.211                 0.96745709      -100.39056
9.212                0.967377864     -100.569748
9.213                0.967298491      -100.74939
9.214                0.967218971     -100.929487
9.215                0.967139306     -101.110041
9.216                0.967059497     -101.291052
9.217                0.966979543     -101.472521
9.218                0.966899447     -101.654449
9.219                0.966819208     -101.836837
9.22                 0.966738828     -102.019686
9.221                0.966658308     -102.202996
9.222                0.966577648     -102.386768
9.223                 0.96649685     -102.571004
9.224                0.966415914     -102.755704
9.225                0.966334842     -102.940868
9.226                0.966253635     -103.126499
9.227                0.966172292     -103.312596
9.228                0.966090817     -103.499161
9.229                0.966009208     -103.686193
9.23                 0.965927469     -103.873695
9.231                0.965845599     -104.061667
9.232                0.965763599      -104.25011
9.233                0.965681472     -104.439024
9.234                0.965599218      -104.62841
9.235                0.965516837     -104.818269
9.236                0.965434332     -105.008602
9.237                0.965351704      -105.19941
9.238                0.965268953     -105.390693
9.239                0.965186081     -105.582452
9.24                 0.965103089     -105.774688
9.241                0.965019978     -105.967402
9.242                 0.96493675     -106.160594
9.243                0.964853406     -106.354266
9.244                0.964769947     -106.548417
9.245                0.964686375     -106.743048
9.246                 0.96460269     -106.938161
9.247                0.964518895     -107.133756
9.248                 0.96443499     -107.329834
9.249                0.964350977     -107.526395
9.25                 0.964266858      -107.72344
9.251                0.964182634     -107.920969
9.252                0.964098306     -108.118984
9.253                0.964013876     -108.317485
9.254                0.963929345     -108.516473
9.255                0.963844715     -108.715948
9.256                0.963759988     -108.915911
9.257                0.963675164     -109.116363
9.258                0.963590246     -109.317304
9.259                0.963505235     -109.518734
9.26                 0.963420132     -109.720655
9.261                 0.96333494     -109.923067
9.262                0.963249661     -110.125971
9.263                0.963164294     -110.329366
9.264                0.963078844     -110.533255
9.265                 0.96299331     -110.737636
9.266                0.962907695     -110.942512
9.267                0.962822001     -111.147881
9.268                 0.96273623     -111.353746
9.269                0.962650382     -111.560106
9.27                 0.962564461     -111.766962
9.271                0.962478468     -111.974314
9.272                0.962392404     -112.182163
9.273                0.962306273     -112.390509
9.274                0.962220074     -112.599353
9.275                0.962133812     -112.808695
9.276                0.962047487     -113.018536
9.277                0.961961101     -113.228876
9.278                0.961874657     -113.439716
9.279                0.961788156     -113.651055
9.28                 0.961701601     -113.862895
9.281                0.961614994     -114.075235
9.282                0.961528336     -114.288076
9.283                0.961441631     -114.501419
9.284                0.961354879     -114.715264
9.285                0.961268083      -114.92961
9.286                0.961181246     -115.144459
9.287                0.961094369     -115.359811
9.288                0.961007455     -115.575666
9.289                0.960920507     -115.792024
9.29                 0.960833525     -116.008885
9.291                0.960746513     -116.226251
9.292                0.960659473      -116.44412
9.293                0.960572407     -116.662494
9.294                0.960485318     -116.881372
9.295                0.960398208     -117.100755
9.296                0.960311079     -117.320643
9.297                0.960223934     -117.541036
9.298                0.960136775     -117.761935
9.299                0.960049606     -117.983338
9.3                  0.959962427     -118.205248
9.301                0.959875243     -118.427663
9.302                0.959788054     -118.650583
9.303                0.959700865      -118.87401
9.304                0.959613677     -119.097943
9.305                0.959526494     -119.322381
9.306                0.959439317     -119.547326
9.307                 0.95935215     -119.772777
9.308                0.959264995     -119.998734
9.309                0.959177854     -120.225197
9.31                 0.959090732     -120.452166
9.311                 0.95900363     -120.679641
9.312                0.958916551     -120.907623
9.313                0.958829498      -121.13611
9.314                0.958742473     -121.365103
9.315                0.958655481     -121.594602
9.316                0.958568523     -121.824607
9.317                0.958481602     -122.055117
9.318                0.958394722     -122.286133
9.319                0.958307884     -122.517654
9.32                 0.958221094      -122.74968
9.321                0.958134352     -122.982211
9.322                0.958047663     -123.215247
9.323                0.957961029     -123.448787
9.324                0.957874453     -123.682832
9.325                0.957787939      -123.91738
9.326                0.957701489     -124.152432
9.327                0.957615107     -124.387988
9.328                0.957528795     -124.624046
9.329                0.957442558     -124.860608
9.33                 0.957356398     -125.097671
9.331                0.957270318     -125.335237
9.332                0.957184321     -125.573304
9.333                0.957098412     -125.811873
9.334                0.957012592     -126.050942
9.335                0.956926866     -126.290512
9.336                0.956841237     -126.530581
9.337                0.956755708      -126.77115
9.338                0.956670282     -127.012218
9.339                0.956584963     -127.253784
9.34                 0.956499754     -127.495848
9.341                0.956414659      -127.73841
9.342                0.956329681     -127.981467
9.343                0.956244824     -128.225021
9.344                 0.95616009     -128.469071
9.345                0.956075484     -128.713615
9.346                 0.95599101     -128.958654
9.347                0.955906669     -129.204185
9.348                0.955822467      -129.45021
9.349                0.955738407     -129.696727
9.35                 0.955654492     -129.943734
9.351                0.955570726     -130.191233
9.352                0.955487113     -130.439221
9.353                0.955403655     -130.687698
9.354                0.955320358     -130.936663
9.355                0.955237225     -131.186115
9.356                0.955154258     -131.436054
9.357                0.955071463     -131.686478
9.358                0.954988843     -131.937387
9.359                0.954906401     -132.188779
9.36                 0.954824142     -132.440654
9.361                0.954742068      -132.69301
9.362                0.954660185     -132.945847
9.363                0.954578496     -133.199164
9.364                0.954497004     -133.452959
9.365                0.954415713     -133.707232
9.366                0.954334628     -133.961981
9.367                0.954253752     -134.217206
9.368                 0.95417309     -134.472904
9.369                0.954092644     -134.729076
9.37                  0.95401242     -134.985719
9.371                 0.95393242     -135.242833
9.372                0.953852649     -135.500416
9.373                0.953773111     -135.758467
9.374                 0.95369381     -136.016985
9.375                 0.95361475     -136.275969
9.376                0.953535935     -136.535416
9.377                0.953457368     -136.795327
9.378                0.953379054     -137.055699
9.379                0.953300998     -137.316531
9.38                 0.953223202     -137.577821
9.381                0.953145671     -137.839569
9.382                 0.95306841     -138.101772
9.383                0.952991421      -138.36443
9.384                 0.95291471      -138.62754
9.385                 0.95283828     -138.891101
9.386                0.952762136     -139.155112
9.387                0.952686281     -139.419571
9.388                 0.95261072     -139.684476
9.389                0.952535456     -139.949826
9.39                 0.952460495     -140.215619
9.391                 0.95238584     -140.481853
9.392                0.952311495     -140.748527
9.393                0.952237464     -141.015639
9.394                0.952163752     -141.283187
9.395                0.952090362     -141.551169
9.396                  0.9520173     -141.819584
