! TOUCHSTONE file generated by CST DESIGN STUDIO
! Date and time: Tue Feb  4 13:52:41 2025
! Project name: C:\Work\MatlabApps\UnitCellOptimizationMatlab\CST\unitcell.cst
! Tree item: Tasks\Sweep1\SPara1\S-Parameters
! Header version: 2024
! Port assignment regex: !\s*Touchstone port\s*([0-9]+)\s*=\s*(CST MWS port|CST DES external port|CST DES block port)\s*(.+)\s* \(\"(.*)\"\)(\s*mode\s*([0-9]+))?.*
! Touchstone port assignment:
! Touchstone port 1 = CST DES external port 1 ("")
# GHz S MA R 50
9                    0.979675848     -76.5500793
9.001                0.979625714     -76.6673827
9.002                0.979575429     -76.7849784
9.003                0.979524991     -76.9028672
9.004                0.979474401       -77.02105
9.005                0.979423657     -77.1395276
9.006                0.979372761      -77.258301
9.007                0.979321711     -77.3773711
9.008                0.979270508     -77.4967386
9.009                 0.97921915     -77.6164046
9.01                 0.979167638     -77.7363698
9.011                 0.97911597     -77.8566352
9.012                0.979064148     -77.9772017
9.013                 0.97901217     -78.0980702
9.014                0.978960036     -78.2192416
9.015                0.978907746     -78.3407167
9.016                  0.9788553     -78.4624964
9.017                0.978802697     -78.5845818
9.018                0.978749937     -78.7069736
9.019                0.978697019     -78.8296727
9.02                 0.978643944     -78.9526802
9.021                 0.97859071     -79.0759969
9.022                0.978537319     -79.1996236
9.023                0.978483768     -79.3235614
9.024                0.978430059     -79.4478112
9.025                 0.97837619     -79.5723737
9.026                0.978322162     -79.6972501
9.027                0.978267974     -79.8224411
9.028                0.978213626     -79.9479478
9.029                0.978159117      -80.073771
9.03                 0.978104447     -80.1999117
9.031                0.978049617     -80.3263708
9.032                0.977994625     -80.4531492
9.033                0.977939471     -80.5802478
9.034                0.977884156     -80.7076677
9.035                0.977828678     -80.8354096
9.036                0.977773038     -80.9634747
9.037                0.977717236     -81.0918637
9.038                 0.97766127     -81.2205777
9.039                0.977605141     -81.3496175
9.04                 0.977548848     -81.4789842
9.041                0.977492392     -81.6086787
9.042                0.977435771     -81.7387019
9.043                0.977378986     -81.8690547
9.044                0.977322037     -81.9997382
9.045                0.977264922     -82.1307532
9.046                0.977207643     -82.2621008
9.047                0.977150198     -82.3937818
9.048                0.977092588     -82.5257973
9.049                0.977034812     -82.6581481
9.05                  0.97697687     -82.7908353
9.051                0.976918761     -82.9238598
9.052                0.976860486     -83.0572226
9.053                0.976802044     -83.1909246
9.054                0.976743436     -83.3249669
9.055                 0.97668466     -83.4593502
9.056                0.976625717     -83.5940758
9.057                0.976566606     -83.7291444
9.058                0.976507327      -83.864557
9.059                 0.97644788     -84.0003148
9.06                 0.976388265     -84.1364185
9.061                0.976328482     -84.2728692
9.062                 0.97626853     -84.4096679
9.063                0.976208409     -84.5468156
9.064                0.976148119     -84.6843131
9.065                 0.97608766     -84.8221616
9.066                0.976027032     -84.9603619
9.067                0.975966234     -85.0989151
9.068                0.975905267     -85.2378221
9.069                0.975844129     -85.3770839
9.07                 0.975782822     -85.5167015
9.071                0.975721344      -85.656676
9.072                0.975659697     -85.7970082
9.073                0.975597878     -85.9376991
9.074                 0.97553589     -86.0787498
9.075                 0.97547373     -86.2201613
9.076                  0.9754114     -86.3619345
9.077                0.975348898     -86.5040704
9.078                0.975286226       -86.64657
9.079                0.975223382     -86.7894343
9.08                 0.975160368     -86.9326643
9.081                0.975097181     -87.0762609
9.082                0.975033823     -87.2202253
9.083                0.974970294     -87.3645584
9.084                0.974906593     -87.5092611
9.085                 0.97484272     -87.6543344
9.086                0.974778675     -87.7997795
9.087                0.974714459     -87.9455972
9.088                 0.97465007     -88.0917885
9.089                 0.97458551     -88.2383545
9.09                 0.974520777     -88.3852962
9.091                0.974455872     -88.5326145
9.092                0.974390795     -88.6803105
9.093                0.974325546     -88.8283851
9.094                0.974260125     -88.9768394
9.095                0.974194531     -89.1256743
9.096                0.974128765     -89.2748909
9.097                0.974062827     -89.4244901
9.098                0.973996717     -89.5744729
9.099                0.973930434     -89.7248404
9.1                  0.973863979     -89.8755936
9.101                0.973797352     -90.0267334
9.102                0.973730553     -90.1782609
9.103                0.973663581      -90.330177
9.104                0.973596438     -90.4824828
9.105                0.973529122     -90.6351792
9.106                0.973461635     -90.7882672
9.107                0.973393975      -90.941748
9.108                0.973326144     -91.0956223
9.109                 0.97325814     -91.2498914
9.11                 0.973189966      -91.404556
9.111                0.973121619     -91.5596173
9.112                0.973053101     -91.7150763
9.113                0.972984412     -91.8709339
9.114                0.972915551     -92.0271911
9.115                0.972846519      -92.183849
9.116                0.972777316     -92.3409085
9.117                0.972707943     -92.4983706
9.118                0.972638398     -92.6562363
9.119                0.972568683     -92.8145067
9.12                 0.972498798     -92.9731826
9.121                0.972428743     -93.1322651
9.122                0.972358517     -93.2917552
9.123                0.972288122     -93.4516539
9.124                0.972217557     -93.6119622
9.125                0.972146823      -93.772681
9.126                0.972075919     -93.9338113
9.127                0.972004847     -94.0953541
9.128                0.971933606     -94.2573105
9.129                0.971862196     -94.4196813
9.13                 0.971790619     -94.5824676
9.131                0.971718873     -94.7456703
9.132                 0.97164696     -94.9092905
9.133                 0.97157488     -95.0733291
9.134                0.971502633      -95.237787
9.135                0.971430219     -95.4026652
9.136                0.971357638     -95.5679648
9.137                0.971284892     -95.7336867
9.138                 0.97121198     -95.8998318
9.139                0.971138902     -96.0664011
9.14                  0.97106566     -96.2333956
9.141                0.970992253     -96.4008162
9.142                0.970918682      -96.568664
9.143                0.970844947     -96.7369398
9.144                0.970771049     -96.9056446
9.145                0.970696988     -97.0747794
9.146                0.970622764      -97.244345
9.147                0.970548378     -97.4143426
9.148                0.970473831     -97.5847729
9.149                0.970399123      -97.755637
9.15                 0.970324254     -97.9269358
9.151                0.970249225     -98.0986702
9.152                0.970174036     -98.2708411
9.153                0.970098688     -98.4434496
9.154                0.970023181     -98.6164964
9.155                0.969947517     -98.7899826
9.156                0.969871695     -98.9639091
9.157                0.969795716     -99.1382767
9.158                0.969719581     -99.3130864
9.159                 0.96964329     -99.4883392
9.16                 0.969566844     -99.6640358
9.161                0.969490243     -99.8401773
9.162                0.969413489     -100.016765
9.163                0.969336581     -100.193798
9.164                0.969259521      -100.37128
9.165                0.969182309     -100.549209
9.166                0.969104946     -100.727588
9.167                0.969027433     -100.906418
9.168                0.968949769     -101.085698
9.169                0.968871957      -101.26543
9.17                 0.968793997     -101.445615
9.171                0.968715889     -101.626254
9.172                0.968637634     -101.807347
9.173                0.968559233     -101.988896
9.174                0.968480688       -102.1709
9.175                0.968401998     -102.353362
9.176                0.968323164     -102.536282
9.177                0.968244188     -102.719661
9.178                0.968165071     -102.903499
9.179                0.968085812     -103.087797
9.18                 0.968006414     -103.272557
9.181                0.967926876     -103.457779
9.182                0.967847201     -103.643464
9.183                0.967767388     -103.829612
9.184                0.967687439     -104.016225
9.185                0.967607356     -104.203303
9.186                0.967527137     -104.390847
9.187                0.967446786     -104.578859
9.188                0.967366303     -104.767337
9.189                0.967285688     -104.956284
9.19                 0.967204944     -105.145701
9.191                 0.96712407     -105.335587
9.192                0.967043069     -105.525944
9.193                0.966961941     -105.716772
9.194                0.966880687     -105.908073
9.195                0.966799309     -106.099846
9.196                0.966717808     -106.292093
9.197                0.966636184     -106.484814
9.198                 0.96655444     -106.678011
9.199                0.966472576     -106.871683
9.2                  0.966390593     -107.065832
9.201                0.966308494     -107.260458
9.202                0.966226278     -107.455561
9.203                0.966143948     -107.651144
9.204                0.966061505     -107.847205
9.205                0.965978949     -108.043746
9.206                0.965896284     -108.240768
9.207                0.965813508     -108.438271
9.208                0.965730625     -108.636256
9.209                0.965647636     -108.834723
9.21                 0.965564542     -109.033673
9.211                0.965481344     -109.233107
9.212                0.965398044     -109.433025
9.213                0.965314643     -109.633428
9.214                0.965231143     -109.834317
9.215                0.965147546     -110.035691
9.216                0.965063853     -110.237552
9.217                0.964980065     -110.439901
9.218                0.964896184     -110.642737
9.219                0.964812212     -110.846061
9.22                  0.96472815     -111.049874
9.221                0.964644001     -111.254176
9.222                0.964559765     -111.458968
9.223                0.964475444     -111.664251
9.224                0.964391041     -111.870024
9.225                0.964306556     -112.076289
9.226                0.964221991     -112.283045
9.227                0.964137349     -112.490294
9.228                0.964052631     -112.698035
9.229                0.963967839      -112.90627
9.23                 0.963882975     -113.114998
9.231                 0.96379804      -113.32422
9.232                0.963713037     -113.533937
9.233                0.963627967     -113.744148
9.234                0.963542832     -113.954854
9.235                0.963457635     -114.166056
9.236                0.963372377     -114.377754
9.237                0.963287059     -114.589949
9.238                0.963201685      -114.80264
9.239                0.963116257     -115.015828
9.24                 0.963030775     -115.229513
9.241                0.962945243     -115.443695
9.242                0.962859662     -115.658376
9.243                0.962774034     -115.873555
9.244                0.962688362     -116.089232
9.245                0.962602648     -116.305408
9.246                0.962516894     -116.522083
9.247                0.962431102     -116.739257
9.248                0.962345275      -116.95693
9.249                0.962259414     -117.175103
9.25                 0.962173522     -117.393776
9.251                0.962087601     -117.612949
9.252                0.962001654     -117.832621
9.253                0.961915682     -118.052795
9.254                0.961829689     -118.273468
9.255                0.961743676     -118.494642
9.256                0.961657647     -118.716317
9.257                0.961571602     -118.938492
9.258                0.961485546     -119.161168
9.259                 0.96139948     -119.384345
9.26                 0.961313406     -119.608023
9.261                0.961227328     -119.832202
9.262                0.961141248     -120.056882
9.263                0.961055169     -120.282063
9.264                0.960969092     -120.507745
9.265                0.960883021     -120.733928
9.266                0.960796958     -120.960612
9.267                0.960710907     -121.187796
9.268                0.960624868     -121.415482
9.269                0.960538846     -121.643668
9.27                 0.960452843     -121.872355
9.271                0.960366862     -122.101542
9.272                0.960280905      -122.33123
9.273                0.960194976     -122.561417
9.274                0.960109076     -122.792105
9.275                 0.96002321     -123.023293
9.276                0.959937379      -123.25498
9.277                0.959851587     -123.487167
9.278                0.959765836     -123.719853
9.279                 0.95968013     -123.953037
9.28                 0.959594472     -124.186721
9.281                0.959508863     -124.420903
9.282                0.959423308     -124.655583
9.283                 0.95933781      -124.89076
9.284                 0.95925237     -125.126435
9.285                0.959166993     -125.362607
9.286                0.959081682     -125.599276
9.287                0.958996439     -125.836441
9.288                0.958911268     -126.074102
9.289                0.958826172     -126.312258
9.29                 0.958741154     -126.550909
9.291                0.958656217     -126.790055
9.292                0.958571364     -127.029695
9.293                0.958486599     -127.269828
9.294                0.958401924     -127.510454
9.295                0.958317344     -127.751573
9.296                0.958232861     -127.993183
9.297                0.958148479     -128.235285
9.298                0.958064201     -128.477877
9.299                 0.95798003     -128.720959
9.3                  0.957895969     -128.964531
9.301                0.957812023     -129.208592
9.302                0.957728194      -129.45314
9.303                0.957644486     -129.698176
9.304                0.957560903     -129.943698
9.305                0.957477447     -130.189707
9.306                0.957394122       -130.4362
9.307                0.957310932     -130.683178
9.308                0.957227881     -130.930639
9.309                0.957144971     -131.178582
9.31                 0.957062206     -131.427008
9.311                0.956979591     -131.675915
9.312                0.956897127     -131.925301
9.313                 0.95681482     -132.175167
9.314                0.956732672     -132.425511
9.315                0.956650688     -132.676332
9.316                0.956568871     -132.927629
9.317                0.956487224     -133.179402
9.318                0.956405752     -133.431648
9.319                0.956324457     -133.684368
9.32                 0.956243344      -133.93756
9.321                0.956162417     -134.191223
9.322                0.956081679     -134.445356
9.323                0.956001134     -134.699958
9.324                0.955920785     -134.955027
9.325                0.955840637     -135.210563
9.326                0.955760693     -135.466564
9.327                0.955680958     -135.723029
9.328                0.955601434     -135.979956
9.329                0.955522126     -136.237345
9.33                 0.955443037     -136.495195
9.331                0.955364172     -136.753503
9.332                0.955285534     -137.012268
9.333                0.955207128      -137.27149
9.334                0.955128957     -137.531167
9.335                0.955051024     -137.791296
9.336                0.954973335     -138.051878
9.337                0.954895892      -138.31291
9.338                0.954818701     -138.574392
9.339                0.954741763      -138.83632
9.34                 0.954665085     -139.098695
9.341                 0.95458867     -139.361514
9.342                0.954512521     -139.624776
9.343                0.954436642     -139.888479
9.344                0.954361038     -140.152621
9.345                0.954285713     -140.417202
9.346                0.954210671     -140.682218
9.347                0.954135915      -140.94767
9.348                0.954061449     -141.213554
9.349                0.953987278     -141.479869
9.35                 0.953913406     -141.746614
9.351                0.953839837     -142.013786
9.352                0.953766574     -142.281383
9.353                0.953693622     -142.549405
9.354                0.953620985     -142.817849
9.355                0.953548667     -143.086713
9.356                0.953476671     -143.355995
9.357                0.953405003     -143.625693
9.358                0.953333665     -143.895806
9.359                0.953262662     -144.166331
9.36                 0.953191999     -144.437266
9.361                0.953121678     -144.708609
9.362                0.953051705     -144.980359
9.363                0.952982083     -145.252513
9.364                0.952912816     -145.525069
9.365                0.952843908     -145.798024
9.366                0.952775364     -146.071378
9.367                0.952707187     -146.345127
9.368                0.952639381     -146.619269
9.369                0.952571951     -146.893803
9.37                   0.9525049     -147.168725
9.371                0.952438233     -147.444034
9.372                0.952371953     -147.719727
9.373                0.952306064     -147.995802
9.374                0.952240571     -148.272257
9.375                0.952175478     -148.549089
9.376                0.952110788     -148.826295
9.377                0.952046505     -149.103875
9.378                0.951982634     -149.381824
9.379                0.951919178      -149.66014
9.38                 0.951856141     -149.938822
9.381                0.951793527     -150.217866
9.382                0.951731341      -150.49727
9.383                0.951669585     -150.777031
9.384                0.951608265     -151.057147
9.385                0.951547383     -151.337616
9.386                0.951486945     -151.618433
9.387                0.951426952     -151.899598
9.388                 0.95136741     -152.181107
9.389                0.951308323     -152.462957
9.39                 0.951249693     -152.745147
9.391                0.951191526     -153.027672
9.392                0.951133823      -153.31053
9.393                0.951076591     -153.593719
9.394                0.951019831     -153.877235
9.395                0.950963549     -154.161077
9.396                0.950907747      -154.44524
