! TOUCHSTONE file generated by CST DESIGN STUDIO
! Date and time: Tue Feb  4 13:52:44 2025
! Project name: C:\Work\MatlabApps\UnitCellOptimizationMatlab\CST\unitcell.cst
! Tree item: Tasks\Sweep1\SPara1\S-Parameters
! Header version: 2024
! Port assignment regex: !\s*Touchstone port\s*([0-9]+)\s*=\s*(CST MWS port|CST DES external port|CST DES block port)\s*(.+)\s* \(\"(.*)\"\)(\s*mode\s*([0-9]+))?.*
! Touchstone port assignment:
! Touchstone port 1 = CST DES external port 1 ("")
# GHz S MA R 50
9                    0.980210431     -73.0160138
9.001                0.980163571     -73.1250964
9.002                0.980116567     -73.2344469
9.003                 0.98006942     -73.3440661
9.004                 0.98002213     -73.4539548
9.005                0.979974695     -73.5641139
9.006                0.979927115     -73.6745441
9.007                 0.97987939     -73.7852464
9.008                 0.97983152     -73.8962214
9.009                0.979783504     -74.0074702
9.01                 0.979735342     -74.1189934
9.011                0.979687034     -74.2307919
9.012                0.979638578     -74.3428666
9.013                0.979589976     -74.4552183
9.014                0.979541226     -74.5678479
9.015                0.979492328     -74.6807561
9.016                0.979443283     -74.7939438
9.017                0.979394088      -74.907412
9.018                0.979344745     -75.0211613
9.019                0.979295252     -75.1351927
9.02                 0.979245609     -75.2495071
9.021                0.979195817     -75.3641052
9.022                0.979145875      -75.478988
9.023                0.979095781     -75.5941562
9.024                0.979045537     -75.7096109
9.025                0.978995141     -75.8253527
9.026                0.978944594     -75.9413827
9.027                0.978893895     -76.0577016
9.028                0.978843043     -76.1743104
9.029                0.978792038     -76.2912098
9.03                 0.978740881     -76.4084009
9.031                 0.97868957     -76.5258844
9.032                0.978638105     -76.6436612
9.033                0.978586486     -76.7617323
9.034                0.978534713     -76.8800984
9.035                0.978482786     -76.9987605
9.036                0.978430703     -77.1177195
9.037                0.978378464     -77.2369763
9.038                 0.97832607     -77.3565317
9.039                 0.97827352     -77.4763867
9.04                 0.978220814     -77.5965421
9.041                0.978167951     -77.7169989
9.042                0.978114931     -77.8377579
9.043                0.978061753       -77.95882
9.044                0.978008418     -78.0801862
9.045                0.977954926     -78.2018573
9.046                0.977901274     -78.3238342
9.047                0.977847464      -78.446118
9.048                0.977793496     -78.5687094
9.049                0.977739368     -78.6916094
9.05                 0.977685081     -78.8148189
9.051                0.977630633     -78.9383388
9.052                0.977576026     -79.0621701
9.053                0.977521258     -79.1863136
9.054                 0.97746633     -79.3107703
9.055                0.977411241     -79.4355411
9.056                 0.97735599      -79.560627
9.057                0.977300578     -79.6860288
9.058                0.977245004     -79.8117475
9.059                0.977189267      -79.937784
9.06                 0.977133369     -80.0641392
9.061                0.977077307     -80.1908142
9.062                0.977021083     -80.3178098
9.063                0.976964695      -80.445127
9.064                0.976908144     -80.5727666
9.065                0.976851429     -80.7007298
9.066                 0.97679455     -80.8290173
9.067                0.976737507     -80.9576301
9.068                0.976680299     -81.0865693
9.069                0.976622926     -81.2158357
9.07                 0.976565388     -81.3454302
9.071                0.976507685      -81.475354
9.072                0.976449816     -81.6056078
9.073                0.976391781     -81.7361926
9.074                 0.97633358     -81.8671095
9.075                0.976275213     -81.9983593
9.076                0.976216679     -82.1299431
9.077                0.976157979     -82.2618618
9.078                0.976099111     -82.3941163
9.079                0.976040076     -82.5267076
9.08                 0.975980874     -82.6596368
9.081                0.975921504     -82.7929046
9.082                0.975861966     -82.9265122
9.083                 0.97580226     -83.0604605
9.084                0.975742385     -83.1947505
9.085                0.975682342     -83.3293831
9.086                 0.97562213     -83.4643593
9.087                0.975561749     -83.5996802
9.088                0.975501199     -83.7353465
9.089                 0.97544048     -83.8713595
9.09                 0.975379591       -84.00772
9.091                0.975318533      -84.144429
9.092                0.975257305     -84.2814874
9.093                0.975195906     -84.4188964
9.094                0.975134338     -84.5566568
9.095                0.975072599     -84.6947697
9.096                0.975010689      -84.833236
9.097                0.974948609     -84.9720568
9.098                0.974886358      -85.111233
9.099                0.974823936     -85.2507656
9.1                  0.974761343     -85.3906556
9.101                0.974698579     -85.5309039
9.102                0.974635643     -85.6715117
9.103                0.974572536     -85.8124799
9.104                0.974509257     -85.9538094
9.105                0.974445807     -86.0955014
9.106                0.974382184     -86.2375567
9.107                 0.97431839     -86.3799763
9.108                0.974254423     -86.5227614
9.109                0.974190285     -86.6659128
9.11                 0.974125974     -86.8094316
9.111                0.974061491     -86.9533188
9.112                0.973996835     -87.0975753
9.113                0.973932007     -87.2422023
9.114                0.973867007     -87.3872006
9.115                0.973801834     -87.5325713
9.116                0.973736488     -87.6783155
9.117                 0.97367097      -87.824434
9.118                0.973605279     -87.9709279
9.119                0.973539415     -88.1177983
9.12                 0.973473378      -88.265046
9.121                0.973407169     -88.4126722
9.122                0.973340786     -88.5606779
9.123                0.973274231     -88.7090639
9.124                0.973207503     -88.8578315
9.125                0.973140602     -89.0069815
9.126                0.973073529     -89.1565149
9.127                0.973006282     -89.3064329
9.128                0.972938863     -89.4567363
9.129                0.972871271     -89.6074262
9.13                 0.972803506     -89.7585037
9.131                0.972735569     -89.9099696
9.132                0.972667459     -90.0618251
9.133                0.972599176     -90.2140711
9.134                0.972530721     -90.3667087
9.135                0.972462094     -90.5197388
9.136                0.972393295     -90.6731625
9.137                0.972324323     -90.8269807
9.138                0.972255179     -90.9811946
9.139                0.972185863      -91.135805
9.14                 0.972116375      -91.290813
9.141                0.972046715     -91.4462196
9.142                0.971976884     -91.6020258
9.143                0.971906881     -91.7582326
9.144                0.971836707     -91.9148411
9.145                0.971766362     -92.0718522
9.146                0.971695846     -92.2292669
9.147                0.971625158     -92.3870862
9.148                0.971554301     -92.5453112
9.149                0.971483272     -92.7039428
9.15                 0.971412074      -92.862982
9.151                0.971340705     -93.0224299
9.152                0.971269167     -93.1822875
9.153                0.971197459     -93.3425556
9.154                0.971125582     -93.5032354
9.155                0.971053536     -93.6643278
9.156                 0.97098132     -93.8258339
9.157                0.970908937     -93.9877546
9.158                0.970836385     -94.1500908
9.159                0.970763665     -94.3128437
9.16                 0.970690777     -94.4760142
9.161                0.970617722     -94.6396033
9.162                  0.9705445     -94.8036119
9.163                0.970471111     -94.9680411
9.164                0.970397556     -95.1328918
9.165                0.970323834      -95.298165
9.166                0.970249948     -95.4638617
9.167                0.970175895     -95.6299829
9.168                0.970101678     -95.7965296
9.169                0.970027297     -95.9635026
9.17                 0.969952751     -96.1309031
9.171                0.969878042      -96.298732
9.172                0.969803169     -96.4669901
9.173                0.969728133     -96.6356786
9.174                0.969652936     -96.8047984
9.175                0.969577576     -96.9743503
9.176                0.969502055     -97.1443355
9.177                0.969426373     -97.3147548
9.178                0.969350531     -97.4856092
9.179                0.969274528     -97.6568997
9.18                 0.969198367     -97.8286271
9.181                0.969122046     -98.0007925
9.182                0.969045567     -98.1733967
9.183                0.968968931     -98.3464408
9.184                0.968892138     -98.5199257
9.185                0.968815187     -98.6938522
9.186                0.968738081     -98.8682214
9.187                 0.96866082     -99.0430341
9.188                0.968583404     -99.2182913
9.189                0.968505834     -99.3939939
9.19                 0.968428111     -99.5701429
9.191                0.968350235      -99.746739
9.192                0.968272207     -99.9237833
9.193                0.968194027     -100.101277
9.194                0.968115697      -100.27922
9.195                0.968037218     -100.457614
9.196                0.967958589      -100.63646
9.197                0.967879811     -100.815758
9.198                0.967800887      -100.99551
9.199                0.967721815     -101.175717
9.2                  0.967642597     -101.356379
9.201                0.967563235     -101.537496
9.202                0.967483727     -101.719071
9.203                0.967404077     -101.901104
9.204                0.967324284     -102.083596
9.205                0.967244349     -102.266547
9.206                0.967164273     -102.449958
9.207                0.967084057     -102.633831
9.208                0.967003702     -102.818166
9.209                0.966923209     -103.002964
9.21                 0.966842579     -103.188226
9.211                0.966761813     -103.373953
9.212                0.966680912     -103.560145
9.213                0.966599877     -103.746803
9.214                0.966518708     -103.933928
9.215                0.966437408     -104.121521
9.216                0.966355976     -104.309583
9.217                0.966274415     -104.498115
9.218                0.966192724     -104.687116
9.219                0.966110906     -104.876589
9.22                 0.966028962     -105.066533
9.221                0.965946892      -105.25695
9.222                0.965864697     -105.447841
9.223                 0.96578238     -105.639205
9.224                 0.96569994     -105.831044
9.225                 0.96561738     -106.023359
9.226                0.965534701      -106.21615
9.227                0.965451903     -106.409419
9.228                0.965368989     -106.603165
9.229                0.965285958     -106.797389
9.23                 0.965202814     -106.992093
9.231                0.965119556     -107.187276
9.232                0.965036187      -107.38294
9.233                0.964952707     -107.579086
9.234                0.964869119     -107.775713
9.235                0.964785423     -107.972823
9.236                0.964701621     -108.170416
9.237                0.964617714     -108.368493
9.238                0.964533704     -108.567055
9.239                0.964449592     -108.766102
9.24                  0.96436538     -108.965635
9.241                 0.96428107     -109.165654
9.242                0.964196662      -109.36616
9.243                0.964112159     -109.567154
9.244                0.964027562     -109.768636
9.245                0.963942872     -109.970607
9.246                0.963858092     -110.173068
9.247                0.963773222     -110.376018
9.248                0.963688265     -110.579459
9.249                0.963603223     -110.783391
9.25                 0.963518096     -110.987814
9.251                0.963432886      -111.19273
9.252                0.963347597     -111.398139
9.253                0.963262228      -111.60404
9.254                0.963176782     -111.810436
9.255                0.963091261     -112.017325
9.256                0.963005667     -112.224709
9.257                0.962920001     -112.432588
9.258                0.962834265     -112.640963
9.259                0.962748461     -112.849834
9.26                 0.962662592     -113.059201
9.261                0.962576659     -113.269065
9.262                0.962490663     -113.479427
9.263                0.962404608     -113.690286
9.264                0.962318494     -113.901643
9.265                0.962232325     -114.113499
9.266                0.962146102     -114.325853
9.267                0.962059827     -114.538707
9.268                0.961973502      -114.75206
9.269                0.961887129     -114.965913
9.27                 0.961800711     -115.180266
9.271                0.961714249      -115.39512
9.272                0.961627747     -115.610475
9.273                0.961541205      -115.82633
9.274                0.961454627     -116.042687
9.275                0.961368014     -116.259546
9.276                0.961281369     -116.476906
9.277                0.961194693     -116.694769
9.278                0.961107991     -116.913133
9.279                0.961021263     -117.132001
9.28                 0.960934512     -117.351371
9.281                 0.96084774     -117.571244
9.282                0.960760951     -117.791619
9.283                0.960674145     -118.012499
9.284                0.960587327     -118.233881
9.285                0.960500497     -118.455767
9.286                 0.96041366     -118.678156
9.287                0.960326816     -118.901049
9.288                 0.96023997     -119.124446
9.289                0.960153122     -119.348347
9.29                 0.960066277     -119.572751
9.291                0.959979436     -119.797659
9.292                0.959892603     -120.023072
9.293                0.959805779     -120.248988
9.294                0.959718968     -120.475408
9.295                0.959632172     -120.702332
9.296                0.959545394     -120.929759
9.297                0.959458637     -121.157691
9.298                0.959371903     -121.386126
9.299                0.959285196     -121.615065
9.3                  0.959198517     -121.844507
9.301                0.959111871     -122.074453
9.302                0.959025259     -122.304902
9.303                0.958938686     -122.535854
9.304                0.958852152     -122.767308
9.305                0.958765663     -122.999266
9.306                 0.95867922     -123.231726
9.307                0.958592826     -123.464688
9.308                0.958506485     -123.698153
9.309                0.958420199     -123.932119
9.31                 0.958333972     -124.166587
9.311                0.958247806     -124.401556
9.312                0.958161705     -124.637026
9.313                0.958075672     -124.872996
9.314                 0.95798971     -125.109467
9.315                0.957903822     -125.346437
9.316                0.957818012     -125.583907
9.317                0.957732281     -125.821876
9.318                0.957646635     -126.060344
9.319                0.957561075      -126.29931
9.32                 0.957475606     -126.538773
9.321                 0.95739023     -126.778734
9.322                0.957304951     -127.019192
9.323                0.957219772     -127.260146
9.324                0.957134696     -127.501596
9.325                0.957049727      -127.74354
9.326                0.956964869      -127.98598
9.327                0.956880124     -128.228913
9.328                0.956795496      -128.47234
9.329                0.956710988     -128.716259
9.33                 0.956626604     -128.960671
9.331                0.956542348     -129.205574
9.332                0.956458223     -129.450968
9.333                0.956374232     -129.696851
9.334                0.956290379     -129.943224
9.335                0.956206668     -130.190086
9.336                0.956123102     -130.437435
9.337                0.956039685     -130.685271
9.338                 0.95595642     -130.933593
9.339                0.955873311     -131.182401
9.34                 0.955790361     -131.431692
9.341                0.955707575     -131.681468
9.342                0.955624956     -131.931726
9.343                0.955542507     -132.182465
9.344                0.955460233     -132.433685
9.345                0.955378138     -132.685385
9.346                0.955296224     -132.937564
9.347                0.955214495      -133.19022
9.348                0.955132956     -133.443354
9.349                0.955051611     -133.696962
9.35                 0.954970462     -133.951045
9.351                0.954889515     -134.205602
9.352                0.954808772     -134.460631
9.353                0.954728238     -134.716131
9.354                0.954647916     -134.972101
9.355                 0.95456781      -135.22854
9.356                0.954487925     -135.485446
9.357                0.954408264     -135.742819
9.358                0.954328831     -136.000657
9.359                 0.95424963     -136.258958
9.36                 0.954170666     -136.517722
9.361                0.954091941     -136.776947
9.362                 0.95401346     -137.036632
9.363                0.953935227     -137.296775
9.364                0.953857245     -137.557375
9.365                 0.95377952      -137.81843
9.366                0.953702055      -138.07994
9.367                0.953624853     -138.341902
9.368                 0.95354792     -138.604315
9.369                0.953471258     -138.867178
9.37                 0.953394873     -139.130489
9.371                0.953318768     -139.394246
9.372                0.953242947     -139.658448
9.373                0.953167414     -139.923093
9.374                0.953092173     -140.188179
9.375                0.953017229     -140.453706
9.376                0.952942586     -140.719671
9.377                0.952868247     -140.986072
9.378                0.952794217     -141.252908
9.379                0.952720499     -141.520177
9.38                 0.952647099     -141.787877
9.381                 0.95257402     -142.056006
9.382                0.952501265     -142.324563
9.383                 0.95242884     -142.593545
9.384                0.952356749     -142.862951
9.385                0.952284995     -143.132779
9.386                0.952213582     -143.403027
9.387                0.952142516     -143.673693
9.388                0.952071799     -143.944774
9.389                0.952001436      -144.21627
9.39                 0.951931432     -144.488177
9.391                0.951861789     -144.760495
9.392                0.951792513     -145.033219
9.393                0.951723608      -145.30635
9.394                0.951655077     -145.579884
9.395                0.951586925     -145.853819
9.396                0.951519156     -146.128154
