! TOUCHSTONE file generated by CST DESIGN STUDIO
! Date and time: Tue Feb  4 13:52:50 2025
! Project name: C:\Work\MatlabApps\UnitCellOptimizationMatlab\CST\unitcell.cst
! Tree item: Tasks\Sweep1\SPara1\S-Parameters
! Header version: 2024
! Port assignment regex: !\s*Touchstone port\s*([0-9]+)\s*=\s*(CST MWS port|CST DES external port|CST DES block port)\s*(.+)\s* \(\"(.*)\"\)(\s*mode\s*([0-9]+))?.*
! Touchstone port assignment:
! Touchstone port 1 = CST DES external port 1 ("")
# GHz S MA R 50
9                    0.981356584      -65.650695
9.001                0.981316799     -65.7438436
9.002                0.981276892     -65.8372127
9.003                0.981236862     -65.9308031
9.004                0.981196709     -66.0246153
9.005                0.981156433     -66.1186501
9.006                0.981116032     -66.2129081
9.007                0.981075507     -66.3073901
9.008                0.981034858     -66.4020967
9.009                0.980994084     -66.4970287
9.01                 0.980953184     -66.5921867
9.011                0.980912158     -66.6875715
9.012                0.980871007     -66.7831837
9.013                0.980829729     -66.8790241
9.014                0.980788324     -66.9750934
9.015                0.980746792     -67.0713923
9.016                0.980705132     -67.1679215
9.017                0.980663344     -67.2646817
9.018                0.980621428     -67.3616736
9.019                0.980579384      -67.458898
9.02                  0.98053721     -67.5563556
9.021                0.980494908      -67.654047
9.022                0.980452475     -67.7519732
9.023                0.980409912     -67.8501347
9.024                0.980367219     -67.9485322
9.025                0.980324395     -68.0471667
9.026                 0.98028144     -68.1460387
9.027                0.980238353      -68.245149
9.028                0.980195134     -68.3444983
9.029                0.980151783     -68.4440875
9.03                 0.980108299     -68.5439172
9.031                0.980064682     -68.6439882
9.032                0.980020931     -68.7443013
9.033                0.979977047     -68.8448571
9.034                0.979933029     -68.9456565
9.035                0.979888876     -69.0467002
9.036                0.979844588     -69.1479889
9.037                0.979800165     -69.2495235
9.038                0.979755606     -69.3513047
9.039                0.979710911     -69.4533333
9.04                  0.97966608       -69.55561
9.041                0.979621112     -69.6581356
9.042                0.979576007     -69.7609108
9.043                0.979530765     -69.8639366
9.044                0.979485384     -69.9672135
9.045                0.979439866     -70.0707425
9.046                0.979394209     -70.1745242
9.047                0.979348412     -70.2785596
9.048                0.979302477     -70.3828493
9.049                0.979256402     -70.4873941
9.05                 0.979210186      -70.592195
9.051                0.979163831     -70.6972525
9.052                0.979117334     -70.8025676
9.053                0.979070696     -70.9081411
9.054                0.979023917     -71.0139737
9.055                0.978976996     -71.1200662
9.056                0.978929932     -71.2264195
9.057                0.978882726     -71.3330343
9.058                0.978835377     -71.4399115
9.059                0.978787884     -71.5470519
9.06                 0.978740248     -71.6544563
9.061                0.978692468     -71.7621256
9.062                0.978644543     -71.8700604
9.063                0.978596473     -71.9782617
9.064                0.978548258     -72.0867303
9.065                0.978499898      -72.195467
9.066                0.978451391     -72.3044727
9.067                0.978402739     -72.4137481
9.068                0.978353939     -72.5232942
9.069                0.978304993     -72.6331116
9.07                 0.978255899     -72.7432014
9.071                0.978206658     -72.8535643
9.072                0.978157268     -72.9642011
9.073                 0.97810773     -73.0751128
9.074                0.978058043     -73.1863001
9.075                0.978008207     -73.2977639
9.076                0.977958222     -73.4095051
9.077                0.977908086     -73.5215245
9.078                0.977857801      -73.633823
9.079                0.977807365     -73.7464014
9.08                 0.977756777     -73.8592606
9.081                0.977706039     -73.9724014
9.082                0.977655149     -74.0858248
9.083                0.977604107     -74.1995316
9.084                0.977552913     -74.3135226
9.085                0.977501566     -74.4277988
9.086                0.977450066     -74.5423609
9.087                0.977398412       -74.65721
9.088                0.977346605     -74.7723468
9.089                0.977294644     -74.8877723
9.09                 0.977242528     -75.0034873
9.091                0.977190258     -75.1194927
9.092                0.977137833     -75.2357895
9.093                0.977085252     -75.3523784
9.094                0.977032515     -75.4692604
9.095                0.976979622     -75.5864364
9.096                0.976926573     -75.7039073
9.097                0.976873368      -75.821674
9.098                0.976820005     -75.9397374
9.099                0.976766484     -76.0580983
9.1                  0.976712806     -76.1767578
9.101                 0.97665897     -76.2957167
9.102                0.976604976     -76.4149758
9.103                0.976550822     -76.5345362
9.104                 0.97649651     -76.6543988
9.105                0.976442039     -76.7745644
9.106                0.976387407      -76.895034
9.107                0.976332616     -77.0158085
9.108                0.976277665     -77.1368888
9.109                0.976222553     -77.2582758
9.11                 0.976167279     -77.3799706
9.111                0.976111845     -77.5019739
9.112                0.976056249     -77.6242868
9.113                0.976000492     -77.7469102
9.114                0.975944572      -77.869845
9.115                 0.97588849     -77.9930921
9.116                0.975832245     -78.1166525
9.117                0.975775837     -78.2405272
9.118                0.975719266      -78.364717
9.119                0.975662531      -78.489223
9.12                 0.975605632      -78.614046
9.121                0.975548569      -78.739187
9.122                0.975491342      -78.864647
9.123                 0.97543395      -78.990427
9.124                0.975376393     -79.1165278
9.125                 0.97531867     -79.2429505
9.126                0.975260782     -79.3696959
9.127                0.975202729     -79.4967652
9.128                0.975144509     -79.6241592
9.129                0.975086123     -79.7518788
9.13                  0.97502757     -79.8799252
9.131                 0.97496885     -80.0082991
9.132                0.974909963     -80.1370017
9.133                0.974850909     -80.2660338
9.134                0.974791687     -80.3953966
9.135                0.974732298     -80.5250908
9.136                 0.97467274     -80.6551175
9.137                0.974613014     -80.7854778
9.138                0.974553119     -80.9161725
9.139                0.974493055     -81.0472027
9.14                 0.974432823     -81.1785693
9.141                0.974372421     -81.3102733
9.142                0.974311849     -81.4423158
9.143                0.974251108     -81.5746977
9.144                0.974190197       -81.70742
9.145                0.974129116     -81.8404837
9.146                0.974067865     -81.9738898
9.147                0.974006443     -82.1076393
9.148                 0.97394485     -82.2417331
9.149                0.973883087     -82.3761724
9.15                 0.973821152     -82.5109581
9.151                0.973759046     -82.6460911
9.152                0.973696768     -82.7815726
9.153                0.973634319     -82.9174035
9.154                0.973571698     -83.0535848
9.155                0.973508905     -83.1901176
9.156                 0.97344594     -83.3270028
9.157                0.973382802     -83.4642414
9.158                0.973319492     -83.6018345
9.159                0.973256009     -83.7397832
9.16                 0.973192354     -83.8780883
9.161                0.973128526     -84.0167509
9.162                0.973064524     -84.1557721
9.163                 0.97300035     -84.2951528
9.164                0.972936002     -84.4348941
9.165                0.972871481     -84.5749971
9.166                0.972806786     -84.7154626
9.167                0.972741917     -84.8562918
9.168                0.972676875     -84.9974857
9.169                0.972611659     -85.1390453
9.17                 0.972546269     -85.2809717
9.171                0.972480705     -85.4232658
9.172                0.972414967     -85.5659287
9.173                0.972349054     -85.7089615
9.174                0.972282967     -85.8523651
9.175                0.972216706     -85.9961406
9.176                0.972150271     -86.1402891
9.177                0.972083661     -86.2848115
9.178                0.972016877     -86.4297089
9.179                0.971949918     -86.5749824
9.18                 0.971882785     -86.7206329
9.181                0.971815477     -86.8666616
9.182                0.971747994     -87.0130694
9.183                0.971680337     -87.1598574
9.184                0.971612505     -87.3070267
9.185                0.971544498     -87.4545783
9.186                0.971476317     -87.6025131
9.187                0.971407962     -87.7508324
9.188                0.971339431      -87.899537
9.189                0.971270726     -88.0486281
9.19                 0.971201847     -88.1981067
9.191                0.971132793     -88.3479738
9.192                0.971063565     -88.4982305
9.193                0.970994162     -88.6488779
9.194                0.970924585     -88.7999169
9.195                0.970854833     -88.9513486
9.196                0.970784908     -89.1031741
9.197                0.970714808     -89.2553944
9.198                0.970644535     -89.4080106
9.199                0.970574087     -89.5610236
9.2                  0.970503466     -89.7144346
9.201                0.970432671     -89.8682446
9.202                0.970361703     -90.0224547
9.203                0.970290561     -90.1770658
9.204                0.970219246      -90.332079
9.205                0.970147758     -90.4874954
9.206                0.970076097     -90.6433161
9.207                0.970004263      -90.799542
9.208                0.969932256     -90.9561742
9.209                0.969860078     -91.1132137
9.21                 0.969787727     -91.2706617
9.211                0.969715204     -91.4285191
9.212                0.969642509     -91.5867869
9.213                0.969569643     -91.7454663
9.214                0.969496605     -91.9045582
9.215                0.969423397     -92.0640638
9.216                0.969350017      -92.223984
9.217                0.969276467     -92.3843198
9.218                0.969202747     -92.5450724
9.219                0.969128857     -92.7062428
9.22                 0.969054797     -92.8678319
9.221                0.968980568     -93.0298408
9.222                0.968906169     -93.1922707
9.223                0.968831602     -93.3551224
9.224                0.968756867      -93.518397
9.225                0.968681964     -93.6820956
9.226                0.968606892     -93.8462191
9.227                0.968531654     -94.0107687
9.228                0.968456249     -94.1757453
9.229                0.968380677       -94.34115
9.23                 0.968304939     -94.5069837
9.231                0.968229035     -94.6732476
9.232                0.968152966     -94.8399426
9.233                0.968076733     -95.0070697
9.234                0.968000334       -95.17463
9.235                0.967923772     -95.3426244
9.236                0.967847047     -95.5110541
9.237                0.967770158     -95.6799199
9.238                0.967693107     -95.8492229
9.239                0.967615894     -96.0189642
9.24                  0.96753852     -96.1891446
9.241                0.967460985     -96.3597653
9.242                 0.96738329     -96.5308272
9.243                0.967305434     -96.7023313
9.244                 0.96722742     -96.8742786
9.245                0.967149247     -97.0466701
9.246                0.967070916     -97.2195067
9.247                0.966992428     -97.3927896
9.248                0.966913783     -97.5665196
9.249                0.966834981     -97.7406977
9.25                 0.966756025     -97.9153249
9.251                0.966676914     -98.0904023
9.252                0.966597648     -98.2659307
9.253                0.966518229     -98.4419111
9.254                0.966438658     -98.6183445
9.255                0.966358935     -98.7952318
9.256                 0.96627906     -98.9725741
9.257                0.966199035     -99.1503722
9.258                0.966118861     -99.3286271
9.259                0.966038537     -99.5073398
9.26                 0.965958066     -99.6865112
9.261                0.965877447     -99.8661423
9.262                0.965796682     -100.046234
9.263                0.965715772     -100.226787
9.264                0.965634716     -100.407803
9.265                0.965553517     -100.589282
9.266                0.965472176     -100.771225
9.267                0.965390692     -100.953633
9.268                0.965309067     -101.136508
9.269                0.965227302     -101.319849
9.27                 0.965145398     -101.503659
9.271                0.965063356     -101.687937
9.272                0.964981176     -101.872685
9.273                0.964898861     -102.057903
9.274                 0.96481641     -102.243593
9.275                0.964733826     -102.429756
9.276                0.964651108     -102.616391
9.277                0.964568259     -102.803501
9.278                0.964485279     -102.991086
9.279                0.964402169     -103.179146
9.28                  0.96431893     -103.367683
9.281                0.964235564     -103.556697
9.282                0.964152072      -103.74619
9.283                0.964068455     -103.936162
9.284                0.963984714     -104.126614
9.285                0.963900851     -104.317547
9.286                0.963816866     -104.508961
9.287                0.963732761     -104.700858
9.288                0.963648538     -104.893238
9.289                0.963564197     -105.086102
9.29                 0.963479739     -105.279451
9.291                0.963395167     -105.473285
9.292                0.963310482     -105.667606
9.293                0.963225684     -105.862414
9.294                0.963140776     -106.057709
9.295                0.963055758     -106.253494
9.296                0.962970633     -106.449767
9.297                0.962885401     -106.646531
9.298                0.962800065     -106.843786
9.299                0.962714625     -107.041532
9.3                  0.962629083      -107.23977
9.301                0.962543441     -107.438502
9.302                  0.9624577     -107.637727
9.303                0.962371862     -107.837446
9.304                0.962285928     -108.037661
9.305                0.962199901     -108.238371
9.306                0.962113781     -108.439577
9.307                 0.96202757     -108.641281
9.308                 0.96194127     -108.843482
9.309                0.961854884     -109.046182
9.31                 0.961768411      -109.24938
9.311                0.961681855     -109.453079
9.312                0.961595217     -109.657277
9.313                0.961508499     -109.861976
9.314                0.961421702     -110.067176
9.315                0.961334829     -110.272879
9.316                0.961247881     -110.479084
9.317                 0.96116086     -110.685792
9.318                0.961073769     -110.893003
9.319                0.960986608     -111.100719
9.32                 0.960899381     -111.308939
9.321                0.960812088     -111.517665
9.322                0.960724732     -111.726896
9.323                0.960637315     -111.936634
9.324                 0.96054984     -112.146878
9.325                0.960462307      -112.35763
9.326                0.960374719     -112.568889
9.327                0.960287079     -112.780656
9.328                0.960199388     -112.992932
9.329                0.960111648     -113.205717
9.33                 0.960023863     -113.419011
9.331                0.959936033     -113.632816
9.332                0.959848161      -113.84713
9.333                 0.95976025     -114.061955
9.334                0.959672301     -114.277291
9.335                0.959584317     -114.493138
9.336                0.959496301     -114.709497
9.337                0.959408254     -114.926368
9.338                0.959320179     -115.143751
9.339                0.959232078     -115.361647
9.34                 0.959143955     -115.580056
9.341                 0.95905581     -115.798978
9.342                0.958967647     -116.018413
9.343                0.958879469     -116.238362
9.344                0.958791277     -116.458825
9.345                0.958703074     -116.679803
9.346                0.958614863     -116.901295
9.347                0.958526646     -117.123301
9.348                0.958438426     -117.345823
9.349                0.958350206     -117.568859
9.35                 0.958261988      -117.79241
9.351                0.958173775     -118.016477
9.352                 0.95808557     -118.241059
9.353                0.957997375     -118.466157
9.354                0.957909193      -118.69177
9.355                0.957821027     -118.917899
9.356                0.957732879     -119.144543
9.357                0.957644753     -119.371704
9.358                0.957556651      -119.59938
9.359                0.957468577     -119.827572
9.36                 0.957380532      -120.05628
9.361                0.957292521     -120.285504
9.362                0.957204546     -120.515244
9.363                0.957116609     -120.745499
9.364                0.957028714     -120.976271
9.365                0.956940865     -121.207557
9.366                0.956853063      -121.43936
9.367                0.956765312     -121.671678
9.368                0.956677616     -121.904511
9.369                0.956589976     -122.137859
9.37                 0.956502397     -122.371722
9.371                0.956414882       -122.6061
9.372                0.956327433     -122.840993
9.373                0.956240054       -123.0764
9.374                0.956152748     -123.312321
9.375                0.956065518     -123.548756
9.376                0.955978369     -123.785704
9.377                0.955891302     -124.023166
9.378                0.955804321     -124.261141
9.379                 0.95571743     -124.499629
9.38                 0.955630632     -124.738629
9.381                 0.95554393     -124.978141
9.382                0.955457328     -125.218164
9.383                0.955370829     -125.458699
9.384                0.955284437     -125.699744
9.385                0.955198155       -125.9413
9.386                0.955111986     -126.183366
9.387                0.955025935      -126.42594
9.388                0.954940004     -126.669024
9.389                0.954854198     -126.912616
9.39                  0.95476852     -127.156716
9.391                0.954682972     -127.401323
9.392                 0.95459756     -127.646437
9.393                0.954512287     -127.892056
9.394                0.954427156     -128.138181
9.395                0.954342171     -128.384811
9.396                0.954257336     -128.631945
