! TOUCHSTONE file generated by CST DESIGN STUDIO
! Date and time: Tue Feb  4 12:47:59 2025
! Project name: C:\Work\MatlabApps\UnitCellOptimizationMatlab\CST\unitcell.cst
! Tree item: Tasks\Sweep1\SPara1\S-Parameters
! Header version: 2024
! Port assignment regex: !\s*Touchstone port\s*([0-9]+)\s*=\s*(CST MWS port|CST DES external port|CST DES block port)\s*(.+)\s* \(\"(.*)\"\)(\s*mode\s*([0-9]+))?.*
! Touchstone port assignment:
! Touchstone port 1 = CST DES external port 1 ("")
# GHz S MA R 50
9                     0.97463517     -69.3501546
9.001                0.974575844     -69.4521071
9.002                0.974516335     -69.5543083
9.003                0.974456642     -69.6567592
9.004                0.974396765     -69.7594604
9.005                0.974336702     -69.8624129
9.006                0.974276454     -69.9656173
9.007                 0.97421602     -70.0690744
9.008                  0.9741554     -70.1727851
9.009                0.974094592     -70.2767501
9.01                 0.974033597     -70.3809702
9.011                0.973972414     -70.4854463
9.012                0.973911042     -70.5901791
9.013                0.973849481     -70.6951694
9.014                 0.97378773      -70.800418
9.015                 0.97372579     -70.9059258
9.016                0.973663658     -71.0116936
9.017                0.973601336     -71.1177221
9.018                0.973538822     -71.2240122
9.019                0.973476115     -71.3305647
9.02                 0.973413216     -71.4373804
9.021                0.973350124     -71.5444602
9.022                0.973286837     -71.6518048
9.023                0.973223357     -71.7594151
9.024                0.973159682      -71.867292
9.025                0.973095811     -71.9754361
9.026                0.973031745     -72.0838485
9.027                0.972967483     -72.1925299
9.028                0.972903023     -72.3014811
9.029                0.972838366     -72.4107031
9.03                 0.972773512     -72.5201966
9.031                0.972708459     -72.6299624
9.032                0.972643207     -72.7400016
9.033                0.972577756     -72.8503148
9.034                0.972512105     -72.9609029
9.035                0.972446253     -73.0717669
9.036                0.972380201     -73.1829075
9.037                0.972313947     -73.2943256
9.038                0.972247491     -73.4060221
9.039                0.972180833     -73.5179978
9.04                 0.972113972     -73.6302536
9.041                0.972046907     -73.7427904
9.042                0.971979639     -73.8556091
9.043                0.971912166     -73.9687105
9.044                0.971844488     -74.0820955
9.045                0.971776605      -74.195765
9.046                0.971708516     -74.3097198
9.047                 0.97164022     -74.4239608
9.048                0.971571718      -74.538489
9.049                0.971503008     -74.6533053
9.05                  0.97143409     -74.7684104
9.051                0.971364964     -74.8838053
9.052                0.971295629     -74.9994909
9.053                0.971226085     -75.1154681
9.054                0.971156331     -75.2317378
9.055                0.971086366     -75.3483009
9.056                0.971016191     -75.4651583
9.057                0.970945804     -75.5823109
9.058                0.970875206     -75.6997597
9.059                0.970804395     -75.8175054
9.06                 0.970733372     -75.9355491
9.061                0.970662135     -76.0538916
9.062                0.970590685      -76.172534
9.063                 0.97051902      -76.291477
9.064                0.970447141     -76.4107216
9.065                0.970375047     -76.5302688
9.066                0.970302738     -76.6501194
9.067                0.970230212     -76.7702744
9.068                 0.97015747     -76.8907348
9.069                0.970084511     -77.0115014
9.07                 0.970011334     -77.1325752
9.071                 0.96993794     -77.2539572
9.072                0.969864327     -77.3756482
9.073                0.969790496     -77.4976493
9.074                0.969716445     -77.6199613
9.075                0.969642175     -77.7425853
9.076                0.969567685     -77.8655221
9.077                0.969492974     -77.9887727
9.078                0.969418042      -78.112338
9.079                0.969342889     -78.2362191
9.08                 0.969267514     -78.3604169
9.081                0.969191917     -78.4849323
9.082                0.969116097     -78.6097664
9.083                0.969040054     -78.7349199
9.084                0.968963788     -78.8603941
9.085                0.968887297     -78.9861897
9.086                0.968810583     -79.1123077
9.087                0.968733643     -79.2387493
9.088                0.968656479     -79.3655152
9.089                0.968579089     -79.4926065
9.09                 0.968501472     -79.6200242
9.091                 0.96842363     -79.7477693
9.092                0.968345561     -79.8758427
9.093                0.968267265     -80.0042454
9.094                0.968188741     -80.1329784
9.095                0.968109989     -80.2620427
9.096                0.968031009     -80.3914393
9.097                0.967951801     -80.5211691
9.098                0.967872363     -80.6512332
9.099                0.967792696     -80.7816326
9.1                    0.9677128     -80.9123683
9.101                0.967632673     -81.0434412
9.102                0.967552316     -81.1748524
9.103                0.967471728     -81.3066028
9.104                0.967390909     -81.4386935
9.105                0.967309859     -81.5711255
9.106                0.967228576     -81.7038997
9.107                0.967147062     -81.8370173
9.108                0.967065315     -81.9704792
9.109                0.966983336     -82.1042864
9.11                 0.966901123     -82.2384399
9.111                0.966818677     -82.3729408
9.112                0.966735997       -82.50779
9.113                0.966653083     -82.6429887
9.114                0.966569936     -82.7785378
9.115                0.966486553     -82.9144383
9.116                0.966402936     -83.0506912
9.117                0.966319083     -83.1872977
9.118                0.966234995     -83.3242587
9.119                0.966150672     -83.4615752
9.12                 0.966066112     -83.5992483
9.121                0.965981317      -83.737279
9.122                0.965896285     -83.8756684
9.123                0.965811016     -84.0144174
9.124                 0.96572551     -84.1535272
9.125                0.965639768     -84.2929987
9.126                0.965553787      -84.432833
9.127                 0.96546757     -84.5730312
9.128                0.965381115     -84.7135942
9.129                0.965294421     -84.8545232
9.13                  0.96520749     -84.9958191
9.131                 0.96512032     -85.1374831
9.132                0.965032912     -85.2795161
9.133                0.964945265     -85.4219192
9.134                0.964857379     -85.5646935
9.135                0.964769254     -85.7078399
9.136                 0.96468089     -85.8513597
9.137                0.964592286     -85.9952537
9.138                0.964503443     -86.1395232
9.139                0.964414361      -86.284169
9.14                 0.964325039     -86.4291923
9.141                0.964235477     -86.5745942
9.142                0.964145675     -86.7203756
9.143                0.964055633     -86.8665377
9.144                0.963965351     -87.0130815
9.145                0.963874828     -87.1600081
9.146                0.963784066     -87.3073185
9.147                0.963693063     -87.4550138
9.148                 0.96360182      -87.603095
9.149                0.963510336     -87.7515633
9.15                 0.963418612     -87.9004196
9.151                0.963326648      -88.049665
9.152                0.963234443     -88.1993007
9.153                0.963141997     -88.3493277
9.154                0.963049311     -88.4997469
9.155                0.962956385     -88.6505596
9.156                0.962863218     -88.8017667
9.157                 0.96276981     -88.9533694
9.158                0.962676162     -89.1053686
9.159                0.962582274     -89.2577656
9.16                 0.962488146     -89.4105612
9.161                0.962393777     -89.5637567
9.162                0.962299168      -89.717353
9.163                 0.96220432     -89.8713512
9.164                0.962109231     -90.0257525
9.165                0.962013902     -90.1805578
9.166                0.961918334     -90.3357682
9.167                0.961822526     -90.4913849
9.168                0.961726479     -90.6474088
9.169                0.961630193     -90.8038411
9.17                 0.961533667     -90.9606827
9.171                0.961436903     -91.1179348
9.172                  0.9613399     -91.2755985
9.173                0.961242659     -91.4336747
9.174                0.961145179     -91.5921646
9.175                0.961047461     -91.7510693
9.176                0.960949506     -91.9103897
9.177                0.960851313      -92.070127
9.178                0.960752883     -92.2302822
9.179                0.960654216     -92.3908564
9.18                 0.960555312     -92.5518506
9.181                0.960456172     -92.7132659
9.182                0.960356796     -92.8751034
9.183                0.960257184     -93.0373641
9.184                0.960157337     -93.2000491
9.185                0.960057254     -93.3631594
9.186                0.959956938     -93.5266961
9.187                0.959856387     -93.6906603
9.188                0.959755602     -93.8550529
9.189                0.959654584     -94.0198751
9.19                 0.959553333     -94.1851279
9.191                 0.95945185     -94.3508124
9.192                0.959350134     -94.5169295
9.193                0.959248187     -94.6834804
9.194                0.959146009      -94.850466
9.195                0.959043601     -95.0178875
9.196                0.958940962     -95.1857459
9.197                0.958838095     -95.3540421
9.198                0.958734998     -95.5227774
9.199                0.958631673     -95.6919526
9.2                   0.95852812     -95.8615688
9.201                 0.95842434      -96.031627
9.202                0.958320334     -96.2021284
9.203                0.958216102     -96.3730738
9.204                0.958111644     -96.5444644
9.205                0.958006963     -96.7163011
9.206                0.957902057      -96.888585
9.207                0.957796928      -97.061317
9.208                0.957691577     -97.2344983
9.209                0.957586005     -97.4081298
9.21                 0.957480211     -97.5822125
9.211                0.957374198     -97.7567475
9.212                0.957267965     -97.9317356
9.213                0.957161514      -98.107178
9.214                0.957054845     -98.2830757
9.215                 0.95694796     -98.4594296
9.216                0.956840858     -98.6362407
9.217                0.956733542       -98.81351
9.218                0.956626012     -98.9912385
9.219                0.956518268     -99.1694272
9.22                 0.956410312      -99.348077
9.221                0.956302146     -99.5271889
9.222                0.956193769      -99.706764
9.223                0.956085183     -99.8868031
9.224                0.955976388     -100.067307
9.225                0.955867387     -100.248277
9.226                 0.95575818     -100.429714
9.227                0.955648767     -100.611619
9.228                0.955539151     -100.793993
9.229                0.955429333     -100.976837
9.23                 0.955319313     -101.160151
9.231                0.955209092     -101.343937
9.232                0.955098673     -101.528196
9.233                0.954988055     -101.712928
9.234                0.954877241     -101.898134
9.235                0.954766232     -102.083816
9.236                0.954655029     -102.269974
9.237                0.954543633     -102.456609
9.238                0.954432045     -102.643722
9.239                0.954320268     -102.831315
9.24                 0.954208302     -103.019387
9.241                0.954096149     -103.207939
9.242                 0.95398381     -103.396974
9.243                0.953871286      -103.58649
9.244                 0.95375858     -103.776491
9.245                0.953645693     -103.966975
9.246                0.953532625     -104.157944
9.247                 0.95341938     -104.349399
9.248                0.953305958     -104.541341
9.249                0.953192361     -104.733771
9.25                  0.95307859     -104.926689
9.251                0.952964648     -105.120096
9.252                0.952850535     -105.313993
9.253                0.952736255     -105.508381
9.254                0.952621807     -105.703261
9.255                0.952507195     -105.898633
9.256                 0.95239242     -106.094498
9.257                0.952277483     -106.290858
9.258                0.952162387     -106.487712
9.259                0.952047133     -106.685061
9.26                 0.951931724     -106.882907
9.261                0.951816161      -107.08125
9.262                0.951700446     -107.280091
9.263                0.951584582      -107.47943
9.264                0.951468569     -107.679269
9.265                0.951352411     -107.879607
9.266                0.951236109     -108.080446
9.267                0.951119666     -108.281787
9.268                0.951003082      -108.48363
9.269                0.950886362     -108.685975
9.27                 0.950769506     -108.888824
9.271                0.950652517     -109.092177
9.272                0.950535398     -109.296034
9.273                 0.95041815     -109.500397
9.274                0.950300775     -109.705267
9.275                0.950183277     -109.910642
9.276                0.950065657     -110.116525
9.277                0.949947918     -110.322916
9.278                0.949830062     -110.529816
9.279                0.949712092     -110.737224
9.28                  0.94959401     -110.945142
9.281                0.949475818     -111.153571
9.282                 0.94935752      -111.36251
9.283                0.949239117      -111.57196
9.284                0.949120612     -111.781923
9.285                0.949002009     -111.992398
9.286                0.948883309     -112.203385
9.287                0.948764515     -112.414887
9.288                 0.94864563     -112.626902
9.289                0.948526656     -112.839431
9.29                 0.948407597     -113.052475
9.291                0.948288455     -113.266035
9.292                0.948169234      -113.48011
9.293                0.948049935     -113.694702
9.294                0.947930562      -113.90981
9.295                0.947811117     -114.125436
9.296                0.947691605     -114.341578
9.297                0.947572027     -114.558239
9.298                0.947452387     -114.775418
9.299                0.947332687     -114.993115
9.3                  0.947212932     -115.211331
9.301                0.947093123     -115.430067
9.302                0.946973265     -115.649322
9.303                 0.94685336     -115.869097
9.304                0.946733411     -116.089392
9.305                0.946613423     -116.310207
9.306                0.946493397     -116.531543
9.307                0.946373338       -116.7534
9.308                0.946253248     -116.975779
9.309                0.946133132     -117.198678
9.31                 0.946012992       -117.4221
9.311                0.945892832     -117.646043
9.312                0.945772656     -117.870508
9.313                0.945652466     -118.095496
9.314                0.945532267     -118.321005
9.315                0.945412063     -118.547037
9.316                0.945291856     -118.773592
9.317                 0.94517165      -119.00067
9.318                0.945051449      -119.22827
9.319                0.944931257     -119.456393
9.32                 0.944811078     -119.685039
9.321                0.944690915     -119.914207
9.322                0.944570771     -120.143899
9.323                0.944450652     -120.374114
9.324                0.944330561     -120.604852
9.325                0.944210501     -120.836112
9.326                0.944090477     -121.067896
9.327                0.943970493     -121.300202
9.328                0.943850552     -121.533031
9.329                0.943730659     -121.766383
9.33                 0.943610817     -122.000257
9.331                0.943491032     -122.234654
9.332                0.943371306     -122.469573
9.333                0.943251644     -122.705014
9.334                0.943132051     -122.940977
9.335                0.943012531     -123.177462
9.336                0.942893087     -123.414468
9.337                0.942773724     -123.651996
9.338                0.942654447     -123.890044
9.339                 0.94253526     -124.128613
9.34                 0.942416167     -124.367703
9.341                0.942297173     -124.607313
9.342                0.942178281     -124.847442
9.343                0.942059497     -125.088091
9.344                0.941940826     -125.329259
9.345                0.941822271     -125.570946
9.346                0.941703837     -125.813151
9.347                0.941585529     -126.055874
9.348                0.941467352     -126.299114
9.349                 0.94134931     -126.542871
9.35                 0.941231407     -126.787144
9.351                0.941113649     -127.031934
9.352                0.940996041     -127.277239
9.353                0.940878587     -127.523058
9.354                0.940761291     -127.769392
9.355                 0.94064416     -128.016239
9.356                0.940527197     -128.263599
9.357                0.940410408     -128.511472
9.358                0.940293797     -128.759856
9.359                 0.94017737     -129.008752
9.36                 0.940061131     -129.258157
9.361                0.939945086     -129.508073
9.362                0.939829239     -129.758497
9.363                0.939713596     -130.009429
9.364                0.939598162     -130.260868
9.365                0.939482941     -130.512814
9.366                0.939367939     -130.765266
9.367                0.939253162     -131.018222
9.368                0.939138614     -131.271682
9.369                0.939024301     -131.525645
9.37                 0.938910227      -131.78011
9.371                0.938796399     -132.035076
9.372                 0.93868282     -132.290542
9.373                0.938569498     -132.546507
9.374                0.938456437     -132.802971
9.375                0.938343642     -133.059931
9.376                0.938231119     -133.317387
9.377                0.938118873     -133.575338
9.378                 0.93800691     -133.833783
9.379                0.937895235      -134.09272
9.38                 0.937783854     -134.352149
9.381                0.937672772     -134.612067
9.382                0.937561994     -134.872475
9.383                0.937451527     -135.133371
9.384                0.937341375     -135.394753
9.385                0.937231545      -135.65662
9.386                0.937122042     -135.918971
9.387                0.937012871     -136.181804
9.388                0.936904038     -136.445119
9.389                0.936795549     -136.708913
9.39                 0.936687409     -136.973186
9.391                0.936579624     -137.237936
9.392                0.936472201     -137.503161
9.393                0.936365143      -137.76886
9.394                0.936258458     -138.035031
9.395                0.936152151     -138.301673
9.396                0.936046227     -138.568784
