! TOUCHSTONE file generated by CST DESIGN STUDIO
! Date and time: Tue Feb  4 12:47:58 2025
! Project name: C:\Work\MatlabApps\UnitCellOptimizationMatlab\CST\unitcell.cst
! Tree item: Tasks\Sweep1\SPara1\S-Parameters
! Header version: 2024
! Port assignment regex: !\s*Touchstone port\s*([0-9]+)\s*=\s*(CST MWS port|CST DES external port|CST DES block port)\s*(.+)\s* \(\"(.*)\"\)(\s*mode\s*([0-9]+))?.*
! Touchstone port assignment:
! Touchstone port 1 = CST DES external port 1 ("")
# GHz S MA R 50
9                    0.974154533     -71.7546255
9.001                0.974092656     -71.8620012
9.002                0.974030587     -71.9696426
9.003                0.973968325     -72.0775503
9.004                 0.97390587     -72.1857253
9.005                0.973843222     -72.2941684
9.006                0.973780379     -72.4028804
9.007                0.973717341     -72.5118621
9.008                0.973654108     -72.6211145
9.009                0.973590679     -72.7306382
9.01                 0.973527054     -72.8404342
9.011                0.973463232     -72.9505034
9.012                0.973399213     -73.0608465
9.013                0.973334996     -73.1714644
9.014                0.973270581      -73.282358
9.015                0.973205966     -73.3935281
9.016                0.973141153     -73.5049755
9.017                0.973076139     -73.6167012
9.018                0.973010926      -73.728706
9.019                0.972945511     -73.8409907
9.02                 0.972879895     -73.9535563
9.021                0.972814077     -74.0664035
9.022                0.972748056     -74.1795333
9.023                0.972681833     -74.2929466
9.024                0.972615406     -74.4066441
9.025                0.972548776     -74.5206268
9.026                0.972481941     -74.6348956
9.027                0.972414901     -74.7494513
9.028                0.972347656     -74.8642948
9.029                0.972280204     -74.9794271
9.03                 0.972212547      -75.094849
9.031                0.972144683     -75.2105613
9.032                0.972076611     -75.3265651
9.033                0.972008331     -75.4428611
9.034                0.971939843     -75.5594503
9.035                0.971871147     -75.6763336
9.036                0.971802241     -75.7935118
9.037                0.971733125      -75.910986
9.038                0.971663799     -76.0287569
9.039                0.971594262     -76.1468256
9.04                 0.971524514     -76.2651928
9.041                0.971454554     -76.3838596
9.042                0.971384382     -76.5028268
9.043                0.971313997     -76.6220954
9.044                0.971243399     -76.7416663
9.045                0.971172588     -76.8615404
9.046                0.971101563     -76.9817186
9.047                0.971030323     -77.1022018
9.048                0.970958868     -77.2229911
9.049                0.970887197     -77.3440872
9.05                 0.970815311     -77.4654913
9.051                0.970743208     -77.5872041
9.052                0.970670889     -77.7092266
9.053                0.970598352     -77.8315598
9.054                0.970525597     -77.9542045
9.055                0.970452625     -78.0771619
9.056                0.970379433     -78.2004327
9.057                0.970306023      -78.324018
9.058                0.970232393     -78.4479186
9.059                0.970158544     -78.5721356
9.06                 0.970084473       -78.69667
9.061                0.970010183     -78.8215225
9.062                 0.96993567     -78.9466943
9.063                0.969860937     -79.0721863
9.064                0.969785981     -79.1979994
9.065                0.969710802     -79.3241346
9.066                0.969635401     -79.4505929
9.067                0.969559777     -79.5773752
9.068                0.969483929     -79.7044825
9.069                0.969407856     -79.8319159
9.07                 0.969331559     -79.9596761
9.071                0.969255038     -80.0877644
9.072                 0.96917829     -80.2161815
9.073                0.969101318     -80.3449285
9.074                0.969024119     -80.4740064
9.075                0.968946693     -80.6034162
9.076                0.968869041     -80.7331588
9.077                0.968791162     -80.8632353
9.078                0.968713055     -80.9936466
9.079                 0.96863472     -81.1243937
9.08                 0.968556156     -81.2554776
9.081                0.968477364     -81.3868993
9.082                0.968398343     -81.5186598
9.083                0.968319092     -81.6507602
9.084                0.968239612     -81.7832013
9.085                0.968159902     -81.9159842
9.086                0.968079961       -82.04911
9.087                0.967999789     -82.1825796
9.088                0.967919387      -82.316394
9.089                0.967838753     -82.4505542
9.09                 0.967757887     -82.5850613
9.091                0.967676789     -82.7199162
9.092                0.967595459       -82.85512
9.093                0.967513896     -82.9906737
9.094                0.967432101     -83.1265783
9.095                0.967350072     -83.2628349
9.096                0.967267809     -83.3994443
9.097                0.967185313     -83.5364078
9.098                0.967102582     -83.6737262
9.099                0.967019618     -83.8114006
9.1                  0.966936418     -83.9494321
9.101                0.966852984     -84.0878216
9.102                0.966769315     -84.2265703
9.103                 0.96668541      -84.365679
9.104                 0.96660127     -84.5051489
9.105                0.966516894      -84.644981
9.106                0.966432281     -84.7851764
9.107                0.966347433      -84.925736
9.108                0.966262348     -85.0666608
9.109                0.966177026     -85.2079521
9.11                 0.966091467     -85.3496106
9.111                0.966005672     -85.4916376
9.112                0.965919639     -85.6340341
9.113                0.965833368      -85.776801
9.114                 0.96574686     -85.9199395
9.115                0.965660114     -86.0634506
9.116                 0.96557313     -86.2073353
9.117                0.965485908     -86.3515947
9.118                0.965398448     -86.4962297
9.119                0.965310749     -86.6412416
9.12                 0.965222812     -86.7866313
9.121                0.965134636     -86.9323998
9.122                0.965046221     -87.0785483
9.123                0.964957568     -87.2250777
9.124                0.964868675     -87.3719891
9.125                0.964779544     -87.5192837
9.126                0.964690173     -87.6669623
9.127                0.964600563     -87.8150261
9.128                0.964510714     -87.9634762
9.129                0.964420626     -88.1123136
9.13                 0.964330298     -88.2615392
9.131                0.964239731     -88.4111543
9.132                0.964148925     -88.5611599
9.133                0.964057879      -88.711557
9.134                0.963966594     -88.8623466
9.135                0.963875069     -89.0135299
9.136                0.963783305     -89.1651079
9.137                0.963691301     -89.3170816
9.138                0.963599058     -89.4694521
9.139                0.963506576     -89.6222205
9.14                 0.963413855     -89.7753878
9.141                0.963320894     -89.9289551
9.142                0.963227695     -90.0829234
9.143                0.963134256     -90.2372938
9.144                0.963040578     -90.3920674
9.145                0.962946662     -90.5472452
9.146                0.962852507     -90.7028282
9.147                0.962758113     -90.8588176
9.148                0.962663481     -91.0152144
9.149                 0.96256861     -91.1720196
9.15                 0.962473502     -91.3292344
9.151                0.962378155     -91.4868597
9.152                0.962282571     -91.6448966
9.153                0.962186749     -91.8033462
9.154                 0.96209069     -91.9622095
9.155                0.961994393     -92.1214876
9.156                 0.96189786     -92.2811815
9.157                 0.96180109     -92.4412924
9.158                0.961704084     -92.6018211
9.159                0.961606841     -92.7627689
9.16                 0.961509363     -92.9241367
9.161                0.961411649     -93.0859256
9.162                  0.9613137     -93.2481367
9.163                0.961215517     -93.4107709
9.164                0.961117098     -93.5738294
9.165                0.961018445     -93.7373132
9.166                0.960919559     -93.9012233
9.167                0.960820439     -94.0655608
9.168                0.960721086     -94.2303267
9.169                  0.9606215     -94.3955221
9.17                 0.960521683      -94.561148
9.171                0.960421633     -94.7272054
9.172                0.960321352     -94.8936953
9.173                 0.96022084     -95.0606189
9.174                0.960120098     -95.2279771
9.175                0.960019126      -95.395771
9.176                0.959917924     -95.5640016
9.177                0.959816494     -95.7326699
9.178                0.959714836      -95.901777
9.179                0.959612949     -96.0713238
9.18                 0.959510836     -96.2413114
9.181                0.959408496     -96.4117409
9.182                 0.95930593     -96.5826132
9.183                0.959203139     -96.7539293
9.184                0.959100123     -96.9256903
9.185                0.958996883     -97.0978971
9.186                 0.95889342     -97.2705508
9.187                0.958789734     -97.4436524
9.188                0.958685826     -97.6172029
9.189                0.958581697     -97.7912033
9.19                 0.958477348     -97.9656545
9.191                0.958372779     -98.1405576
9.192                0.958267991     -98.3159136
9.193                0.958162984     -98.4917234
9.194                0.958057761     -98.6679881
9.195                0.957952321     -98.8447085
9.196                0.957846666     -99.0218858
9.197                0.957740796     -99.1995208
9.198                0.957634712     -99.3776145
9.199                0.957528415      -99.556168
9.2                  0.957421907     -99.7351821
9.201                0.957315187     -99.9146578
9.202                0.957208257     -100.094596
9.203                0.957101119     -100.274998
9.204                0.956993772     -100.455864
9.205                0.956886218     -100.637196
9.206                0.956778459     -100.818994
9.207                0.956670495     -101.001259
9.208                0.956562327     -101.183993
9.209                0.956453956     -101.367196
9.21                 0.956345384     -101.550869
9.211                0.956236611     -101.735013
9.212                 0.95612764     -101.919628
9.213                 0.95601847     -102.104717
9.214                0.955909104     -102.290279
9.215                0.955799542     -102.476316
9.216                0.955689787     -102.662828
9.217                0.955579838     -102.849817
9.218                0.955469698     -103.037283
9.219                0.955359367     -103.225227
9.22                 0.955248848     -103.413651
9.221                0.955138141     -103.602554
9.222                0.955027248     -103.791938
9.223                0.954916171     -103.981803
9.224                 0.95480491     -104.172151
9.225                0.954693468     -104.362982
9.226                0.954581846     -104.554298
9.227                0.954470045     -104.746098
9.228                0.954358067     -104.938384
9.229                0.954245913     -105.131157
9.23                 0.954133585     -105.324417
9.231                0.954021086     -105.518165
9.232                0.953908415     -105.712402
9.233                0.953795576     -105.907129
9.234                0.953682569     -106.102347
9.235                0.953569397     -106.298056
9.236                0.953456061     -106.494257
9.237                0.953342563     -106.690951
9.238                0.953228905     -106.888139
9.239                0.953115089     -107.085821
9.24                 0.953001116     -107.283998
9.241                0.952886989     -107.482671
9.242                0.952772709     -107.681841
9.243                0.952658278     -107.881508
9.244                0.952543699     -108.081672
9.245                0.952428973     -108.282336
9.246                0.952314102     -108.483499
9.247                0.952199088     -108.685162
9.248                0.952083934     -108.887326
9.249                0.951968641     -109.089991
9.25                 0.951853212     -109.293158
9.251                0.951737649     -109.496828
9.252                0.951621954     -109.701001
9.253                0.951506129     -109.905678
9.254                0.951390177      -110.11086
9.255                0.951274099     -110.316546
9.256                0.951157899     -110.522739
9.257                0.951041578     -110.729438
9.258                0.950925138     -110.936644
9.259                0.950808583     -111.144357
9.26                 0.950691914     -111.352579
9.261                0.950575135     -111.561309
9.262                0.950458247     -111.770548
9.263                0.950341253     -111.980297
9.264                0.950224156     -112.190556
9.265                0.950106957     -112.401326
9.266                0.949989661     -112.612607
9.267                0.949872269     -112.824399
9.268                0.949754784     -113.036704
9.269                0.949637209     -113.249521
9.27                 0.949519546     -113.462852
9.271                0.949401799     -113.676696
9.272                 0.94928397     -113.891053
9.273                0.949166061     -114.105925
9.274                0.949048077     -114.321312
9.275                0.948930019     -114.537214
9.276                 0.94881189     -114.753631
9.277                0.948693694     -114.970564
9.278                0.948575433     -115.188013
9.279                0.948457111     -115.405979
9.28                 0.948338731     -115.624462
9.281                0.948220295     -115.843462
9.282                0.948101806     -116.062979
9.283                0.947983269     -116.283014
9.284                0.947864685     -116.503567
9.285                0.947746058     -116.724638
9.286                0.947627392     -116.946227
9.287                 0.94750869     -117.168336
9.288                0.947389955     -117.390963
9.289                 0.94727119     -117.614109
9.29                 0.947152398     -117.837775
9.291                0.947033584      -118.06196
9.292                 0.94691475     -118.286665
9.293                  0.9467959      -118.51189
9.294                0.946677038     -118.737634
9.295                0.946558167     -118.963898
9.296                 0.94643929     -119.190683
9.297                0.946320411     -119.417988
9.298                0.946201534     -119.645813
9.299                0.946082662     -119.874158
9.3                  0.945963799     -120.103023
9.301                0.945844949     -120.332409
9.302                0.945726116     -120.562316
9.303                0.945607303     -120.792742
9.304                0.945488514     -121.023689
9.305                0.945369753     -121.255156
9.306                0.945251024     -121.487143
9.307                 0.94513233      -121.71965
9.308                0.945013677     -121.952677
9.309                0.944895067     -122.186224
9.31                 0.944776505     -122.420291
9.311                0.944657994     -122.654877
9.312                0.944539539     -122.889982
9.313                0.944421145     -123.125607
9.314                0.944302814     -123.361751
9.315                0.944184551     -123.598413
9.316                0.944066361     -123.835594
9.317                0.943948248     -124.073293
9.318                0.943830215      -124.31151
9.319                0.943712268     -124.550245
9.32                  0.94359441     -124.789497
9.321                0.943476646     -125.029266
9.322                 0.94335898     -125.269552
9.323                0.943241417     -125.510353
9.324                0.943123961     -125.751671
9.325                0.943006617     -125.993504
9.326                0.942889389     -126.235852
9.327                0.942772281     -126.478714
9.328                0.942655299     -126.722091
9.329                0.942538446     -126.965981
9.33                 0.942421728     -127.210384
9.331                0.942305149     -127.455299
9.332                0.942188714     -127.700727
9.333                0.942072427     -127.946666
9.334                0.941956294     -128.193115
9.335                0.941840318     -128.440074
9.336                0.941724506     -128.687543
9.337                0.941608861     -128.935521
9.338                0.941493388     -129.184007
9.339                0.941378093        -129.433
9.34                  0.94126298       -129.6825
9.341                0.941148054     -129.932505
9.342                0.941033321     -130.183016
9.343                0.940918784     -130.434031
9.344                 0.94080445      -130.68555
9.345                0.940690323     -130.937571
9.346                0.940576409     -131.190094
9.347                0.940462712     -131.443117
9.348                0.940349237     -131.696641
9.349                 0.94023599     -131.950664
9.35                 0.940122976     -132.205185
9.351                0.940010199     -132.460203
9.352                0.939897666     -132.715717
9.353                0.939785382     -132.971726
9.354                0.939673351     -133.228229
9.355                0.939561579     -133.485225
9.356                0.939450071     -133.742713
9.357                0.939338833     -134.000691
9.358                 0.93922787     -134.259159
9.359                0.939117188     -134.518115
9.36                 0.939006791     -134.777559
9.361                0.938896685     -135.037488
9.362                0.938786876     -135.297903
9.363                0.938677368       -135.5588
9.364                0.938568168      -135.82018
9.365                0.938459281     -136.082041
9.366                0.938350713     -136.344381
9.367                0.938242468     -136.607199
9.368                0.938134553     -136.870494
9.369                0.938026973     -137.134264
9.37                 0.937919734     -137.398508
9.371                 0.93781284     -137.663225
9.372                0.937706299     -137.928412
9.373                0.937600114     -138.194069
9.374                0.937494293     -138.460194
9.375                 0.93738884     -138.726785
9.376                0.937283762      -138.99384
9.377                0.937179064     -139.261359
9.378                0.937074751     -139.529339
9.379                0.936970829     -139.797778
9.38                 0.936867304     -140.066676
9.381                0.936764182      -140.33603
9.382                0.936661468     -140.605839
9.383                0.936559169       -140.8761
9.384                0.936457289     -141.146812
9.385                0.936355834     -141.417973
9.386                0.936254811     -141.689582
9.387                0.936154225     -141.961636
9.388                0.936054081     -142.234134
9.389                0.935954386     -142.507073
9.39                 0.935855145     -142.780452
9.391                0.935756365     -143.054268
9.392                 0.93565805      -143.32852
9.393                0.935560206     -143.603206
9.394                 0.93546284     -143.878323
9.395                0.935365956     -144.153869
9.396                0.935269562     -144.429843
