! TOUCHSTONE file generated by CST DESIGN STUDIO
! Date and time: Tue Feb  4 12:47:51 2025
! Project name: C:\Work\MatlabApps\UnitCellOptimizationMatlab\CST\unitcell.cst
! Tree item: Tasks\Sweep1\SPara1\S-Parameters
! Header version: 2024
! Port assignment regex: !\s*Touchstone port\s*([0-9]+)\s*=\s*(CST MWS port|CST DES external port|CST DES block port)\s*(.+)\s* \(\"(.*)\"\)(\s*mode\s*([0-9]+))?.*
! Touchstone port assignment:
! Touchstone port 1 = CST DES external port 1 ("")
# GHz S MA R 50
9                    0.972073117     -82.9087948
9.001                0.971998184     -83.0434843
9.002                 0.97192303     -83.1785211
9.003                0.971847655     -83.3139063
9.004                 0.97177206     -83.4496409
9.005                0.971696243     -83.5857259
9.006                0.971620204     -83.7221623
9.007                0.971543943     -83.8589511
9.008                0.971467459     -83.9960933
9.009                0.971390753       -84.13359
9.01                 0.971313824     -84.2714422
9.011                0.971236671     -84.4096508
9.012                0.971159295     -84.5482169
9.013                0.971081695     -84.6871415
9.014                 0.97100387     -84.8264257
9.015                0.970925821     -84.9660704
9.016                0.970847547     -85.1060767
9.017                0.970769048     -85.2464456
9.018                0.970690324     -85.3871781
9.019                0.970611374     -85.5282753
9.02                 0.970532199     -85.6697381
9.021                0.970452797     -85.8115677
9.022                0.970373169      -85.953765
9.023                0.970293314     -86.0963311
9.024                0.970213233      -86.239267
9.025                0.970132924     -86.3825737
9.026                0.970052388     -86.5262523
9.027                0.969971625     -86.6703039
9.028                0.969890634     -86.8147293
9.029                0.969809415     -86.9595297
9.03                 0.969727968     -87.1047062
9.031                0.969646293     -87.2502597
9.032                 0.96956439     -87.3961913
9.033                0.969482258      -87.542502
9.034                0.969399897     -87.6891929
9.035                0.969317307      -87.836265
9.036                0.969234488     -87.9837193
9.037                 0.96915144      -88.131557
9.038                0.969068163      -88.279779
9.039                0.968984656     -88.4283863
9.04                  0.96890092     -88.5773801
9.041                0.968816954     -88.7267614
9.042                0.968732758     -88.8765312
9.043                0.968648333     -89.0266905
9.044                0.968563677     -89.1772405
9.045                0.968478792      -89.328182
9.046                0.968393676     -89.4795163
9.047                 0.96830833     -89.6312443
9.048                0.968222754     -89.7833672
9.049                0.968136948     -89.9358858
9.05                 0.968050911     -90.0888013
9.051                0.967964644     -90.2421147
9.052                0.967878147     -90.3958271
9.053                 0.96779142     -90.5499396
9.054                0.967704462      -90.704453
9.055                0.967617274     -90.8593686
9.056                0.967529855     -91.0146874
9.057                0.967442207     -91.1704103
9.058                0.967354328     -91.3265385
9.059                0.967266219      -91.483073
9.06                  0.96717788     -91.6400148
9.061                0.967089311     -91.7973649
9.062                0.967000512     -91.9551245
9.063                0.966911483     -92.1132946
9.064                0.966822224     -92.2718761
9.065                0.966732736     -92.4308702
9.066                0.966643018     -92.5902779
9.067                0.966553072     -92.7501002
9.068                0.966462895     -92.9103382
9.069                 0.96637249     -93.0709929
9.07                 0.966281856     -93.2320653
9.071                0.966190993     -93.3935565
9.072                0.966099902     -93.5554675
9.073                0.966008583     -93.7177994
9.074                0.965917035     -93.8805531
9.075                 0.96582526     -94.0437298
9.076                0.965733257     -94.2073304
9.077                0.965641027      -94.371356
9.078                 0.96554857     -94.5358075
9.079                0.965455886     -94.7006861
9.08                 0.965362976     -94.8659928
9.081                0.965269839     -95.0317285
9.082                0.965176477     -95.1978944
9.083                0.965082889     -95.3644913
9.084                0.964989076     -95.5315204
9.085                0.964895038     -95.6989827
9.086                0.964800776     -95.8668791
9.087                 0.96470629     -96.0352108
9.088                 0.96461158     -96.2039786
9.089                0.964516648     -96.3731836
9.09                 0.964421492     -96.5428268
9.091                0.964326114     -96.7129093
9.092                0.964230514      -96.883432
9.093                0.964134693     -97.0543959
9.094                0.964038651      -97.225802
9.095                0.963942389     -97.3976513
9.096                0.963845907     -97.5699448
9.097                0.963749205     -97.7426836
9.098                0.963652285     -97.9158685
9.099                0.963555147     -98.0895006
9.1                  0.963457791     -98.2635808
9.101                0.963360218     -98.4381102
9.102                0.963262429     -98.6130896
9.103                0.963164424     -98.7885202
9.104                0.963066204     -98.9644028
9.105                 0.96296777     -99.1407384
9.106                0.962869122     -99.3175279
9.107                0.962770261     -99.4947725
9.108                0.962671187     -99.6724729
9.109                0.962571902     -99.8506301
9.11                 0.962472407     -100.029245
9.111                0.962372701     -100.208319
9.112                0.962272786     -100.387852
9.113                0.962172663     -100.567846
9.114                0.962072332     -100.748302
9.115                0.961971794      -100.92922
9.116                0.961871051     -101.110602
9.117                0.961770102     -101.292448
9.118                 0.96166895     -101.474759
9.119                0.961567594     -101.657536
9.12                 0.961466036      -101.84078
9.121                0.961364277     -102.024492
9.122                0.961262317     -102.208674
9.123                0.961160159     -102.393324
9.124                0.961057802     -102.578446
9.125                0.960955248     -102.764039
9.126                0.960852497     -102.950104
9.127                0.960749552     -103.136643
9.128                0.960646413     -103.323656
9.129                 0.96054308     -103.511144
9.13                 0.960439557     -103.699107
9.131                0.960335842     -103.887548
9.132                0.960231938     -104.076466
9.133                0.960127846     -104.265862
9.134                0.960023568     -104.455738
9.135                0.959919103     -104.646094
9.136                0.959814454      -104.83693
9.137                0.959709623     -105.028248
9.138                0.959604609     -105.220049
9.139                0.959499415     -105.412333
9.14                 0.959394042     -105.605101
9.141                0.959288491     -105.798354
9.142                0.959182764     -105.992093
9.143                0.959076862     -106.186318
9.144                0.958970787     -106.381031
9.145                0.958864539     -106.576231
9.146                0.958758122      -106.77192
9.147                0.958651535     -106.968099
9.148                0.958544782     -107.164767
9.149                0.958437862     -107.361927
9.15                 0.958330778     -107.559579
9.151                0.958223532     -107.757722
9.152                0.958116125     -107.956359
9.153                0.958008559      -108.15549
9.154                0.957900835     -108.355115
9.155                0.957792956     -108.555235
9.156                0.957684922     -108.755852
9.157                0.957576737     -108.956964
9.158                  0.9574684     -109.158574
9.159                0.957359916     -109.360682
9.16                 0.957251284     -109.563288
9.161                0.957142508     -109.766394
9.162                0.957033588     -109.969999
9.163                0.956924528     -110.174104
9.164                0.956815328      -110.37871
9.165                0.956705991     -110.583818
9.166                0.956596519     -110.789428
9.167                0.956486914     -110.995541
9.168                0.956377179     -111.202156
9.169                0.956267314     -111.409276
9.17                 0.956157322       -111.6169
9.171                0.956047206     -111.825029
9.172                0.955936967     -112.033663
9.173                0.955826608     -112.242804
9.174                0.955716131      -112.45245
9.175                0.955605538     -112.662604
9.176                0.955494831     -112.873265
9.177                0.955384014     -113.084434
9.178                0.955273087     -113.296111
9.179                0.955162054     -113.508297
9.18                 0.955050917     -113.720992
9.181                0.954939678     -113.934197
9.182                0.954828341     -114.147912
9.183                0.954716906     -114.362137
9.184                0.954605377     -114.576873
9.185                0.954493756     -114.792121
9.186                0.954382047     -115.007879
9.187                0.954270251      -115.22415
9.188                0.954158371     -115.440933
9.189                 0.95404641     -115.658229
9.19                  0.95393437     -115.876038
9.191                0.953822254      -116.09436
9.192                0.953710066     -116.313195
9.193                0.953597807     -116.532544
9.194                0.953485481     -116.752407
9.195                 0.95337309     -116.972784
9.196                0.953260637     -117.193676
9.197                0.953148126     -117.415083
9.198                0.953035558     -117.637004
9.199                0.952922938     -117.859441
9.2                  0.952810267     -118.082393
9.201                 0.95269755      -118.30586
9.202                0.952584789     -118.529843
9.203                0.952471987     -118.754341
9.204                0.952359147     -118.979356
9.205                0.952246272     -119.204886
9.206                0.952133367     -119.430933
9.207                0.952020433     -119.657495
9.208                0.951907474     -119.884574
9.209                0.951794493     -120.112169
9.21                 0.951681494      -120.34028
9.211                0.951568479     -120.568907
9.212                0.951455453     -120.798051
9.213                0.951342419      -121.02771
9.214                 0.95122938     -121.257886
9.215                0.951116339     -121.488578
9.216                  0.9510033     -121.719786
9.217                0.950890267      -121.95151
9.218                0.950777242      -122.18375
9.219                0.950664231     -122.416505
9.22                 0.950551235     -122.649776
9.221                0.950438259     -122.883563
9.222                0.950325307     -123.117864
9.223                0.950212382     -123.352681
9.224                0.950099488     -123.588012
9.225                0.949986628     -123.823858
9.226                0.949873807     -124.060219
9.227                0.949761028     -124.297093
9.228                0.949648295     -124.534481
9.229                0.949535612     -124.772382
9.23                 0.949422982     -125.010797
9.231                0.949310411     -125.249725
9.232                0.949197901     -125.489165
9.233                0.949085457     -125.729117
9.234                0.948973083      -125.96958
9.235                0.948860782     -126.210555
9.236                0.948748559     -126.452041
9.237                0.948636418     -126.694037
9.238                0.948524363     -126.936542
9.239                0.948412399     -127.179558
9.24                 0.948300528     -127.423082
9.241                0.948188757     -127.667114
9.242                0.948077088     -127.911654
9.243                0.947965527     -128.156701
9.244                0.947854076     -128.402255
9.245                0.947742742     -128.648314
9.246                0.947631528     -128.894879
9.247                0.947520438     -129.141949
9.248                0.947409477     -129.389522
9.249                 0.94729865     -129.637599
9.25                  0.94718796     -129.886178
9.251                0.947077413     -130.135259
9.252                0.946967012     -130.384841
9.253                0.946856763     -130.634923
9.254                 0.94674667     -130.885504
9.255                0.946636737     -131.136584
9.256                 0.94652697     -131.388162
9.257                0.946417372     -131.640236
9.258                0.946307949     -131.892807
9.259                0.946198705     -132.145872
9.26                 0.946089644     -132.399431
9.261                0.945980773     -132.653483
9.262                0.945872095     -132.908027
9.263                0.945763614     -133.163063
9.264                0.945655337     -133.418588
9.265                0.945547268     -133.674602
9.266                0.945439411     -133.931104
9.267                0.945331772     -134.188092
9.268                0.945224355     -134.445566
9.269                0.945117165     -134.703525
9.27                 0.945010208     -134.961967
9.271                0.944903488      -135.22089
9.272                 0.94479701     -135.480295
9.273                0.944690779     -135.740179
9.274                0.944584801     -136.000541
9.275                 0.94447908      -136.26138
9.276                0.944373621     -136.522695
9.277                0.944268429     -136.784484
9.278                 0.94416351     -137.046746
9.279                0.944058868     -137.309479
9.28                 0.943954509     -137.572682
9.281                0.943850438     -137.836354
9.282                 0.94374666     -138.100493
9.283                 0.94364318     -138.365098
9.284                0.943540003     -138.630166
9.285                0.943437134     -138.895697
9.286                 0.94333458      -139.16169
9.287                0.943232344     -139.428141
9.288                0.943130433      -139.69505
9.289                 0.94302885     -139.962415
9.29                 0.942927603     -140.230235
9.291                0.942826695     -140.498507
9.292                0.942726133      -140.76723
9.293                0.942625921     -141.036403
9.294                0.942526065     -141.306023
9.295                 0.94242657     -141.576088
9.296                0.942327441     -141.846597
9.297                0.942228685     -142.117548
9.298                0.942130305     -142.388939
9.299                0.942032307     -142.660768
9.3                  0.941934698     -142.933034
9.301                0.941837481     -143.205734
9.302                0.941740663     -143.478865
9.303                0.941644249     -143.752428
9.304                0.941548244     -144.026418
9.305                0.941452653     -144.300834
9.306                0.941357483     -144.575675
9.307                0.941262737     -144.850937
9.308                0.941168423     -145.126619
9.309                0.941074544     -145.402719
9.31                 0.940981106     -145.679234
9.311                0.940888116     -145.956162
9.312                0.940795577     -146.233502
9.313                0.940703496      -146.51125
9.314                0.940611878     -146.789404
9.315                0.940520728     -147.067963
9.316                0.940430051     -147.346923
9.317                0.940339854     -147.626282
9.318                 0.94025014     -147.906039
9.319                0.940160916      -148.18619
9.32                 0.940072187     -148.466733
9.321                0.939983958     -148.747665
9.322                0.939896235     -149.028985
9.323                0.939809022     -149.310689
9.324                0.939722326     -149.592776
9.325                0.939636151     -149.875241
9.326                0.939550503     -150.158084
9.327                0.939465386     -150.441301
9.328                0.939380807     -150.724889
9.329                 0.93929677     -151.008846
9.33                  0.93921328     -151.293169
9.331                0.939130344     -151.577856
9.332                0.939047965     -151.862903
9.333                 0.93896615     -152.148309
9.334                0.938884902     -152.434069
9.335                0.938804229     -152.720182
9.336                0.938724133     -153.006644
9.337                0.938644622     -153.293453
9.338                0.938565699     -153.580605
9.339                 0.93848737     -153.868098
9.34                 0.938409639     -154.155929
9.341                0.938332513     -154.444094
9.342                0.938255995     -154.732592
9.343                0.938180091     -155.021418
9.344                0.938104805      -155.31057
9.345                0.938030143     -155.600044
9.346                 0.93795611     -155.889838
9.347                 0.93788271     -156.179949
9.348                0.937809948     -156.470373
9.349                0.937737828     -156.761107
9.35                 0.937666357     -157.052148
9.351                0.937595538     -157.343493
9.352                0.937525376     -157.635138
9.353                0.937455875     -157.927081
9.354                0.937387042     -158.219317
9.355                0.937318879     -158.511845
9.356                0.937251392     -158.804659
9.357                0.937184584     -159.097758
9.358                0.937118462     -159.391138
9.359                0.937053028     -159.684795
9.36                 0.936988289     -159.978726
9.361                0.936924246     -160.272927
9.362                0.936860907     -160.567396
9.363                0.936798273     -160.862128
9.364                0.936736351      -161.15712
9.365                0.936675144     -161.452369
9.366                0.936614655     -161.747871
9.367                 0.93655489     -162.043623
9.368                0.936495853      -162.33962
9.369                0.936437547      -162.63586
9.37                 0.936379977     -162.932339
9.371                0.936323146     -163.229053
9.372                0.936267058     -163.525999
9.373                0.936211718     -163.823173
9.374                0.936157129     -164.120571
9.375                0.936103295     -164.418189
9.376                0.936050219     -164.716024
9.377                0.935997906     -165.014073
9.378                0.935946358     -165.312331
9.379                 0.93589558     -165.610794
9.38                 0.935845575      -165.90946
9.381                0.935796347     -166.208323
9.382                0.935747898     -166.507381
9.383                0.935700233     -166.806629
9.384                0.935653354     -167.106064
9.385                0.935607265     -167.405681
9.386                0.935561969     -167.705478
9.387                0.935517469     -168.005449
9.388                0.935473769     -168.305592
9.389                0.935430871     -168.605902
9.39                 0.935388778     -168.906375
9.391                0.935347493     -169.207008
9.392                0.935307019     -169.507796
9.393                0.935267359     -169.808735
9.394                0.935228516     -170.109822
9.395                0.935190492     -170.411052
9.396                 0.93515329     -170.712422
