! TOUCHSTONE file generated by CST DESIGN STUDIO
! Date and time: Tue Feb  4 12:47:53 2025
! Project name: C:\Work\MatlabApps\UnitCellOptimizationMatlab\CST\unitcell.cst
! Tree item: Tasks\Sweep1\SPara1\S-Parameters
! Header version: 2024
! Port assignment regex: !\s*Touchstone port\s*([0-9]+)\s*=\s*(CST MWS port|CST DES external port|CST DES block port)\s*(.+)\s* \(\"(.*)\"\)(\s*mode\s*([0-9]+))?.*
! Touchstone port assignment:
! Touchstone port 1 = CST DES external port 1 ("")
# GHz S MA R 50
9                    0.972823375     -78.7211301
9.001                0.972753808     -78.8452186
9.002                0.972684028     -78.9696232
9.003                0.972614033     -79.0943448
9.004                0.972543824     -79.2193842
9.005                0.972473399     -79.3447426
9.006                 0.97240276     -79.4704208
9.007                0.972331904     -79.5964198
9.008                0.972260832     -79.7227405
9.009                0.972189543     -79.8493839
9.01                 0.972118037      -79.976351
9.011                0.972046314     -80.1036427
9.012                0.971974372     -80.2312601
9.013                0.971902212     -80.3592039
9.014                0.971829833     -80.4874753
9.015                0.971757235     -80.6160752
9.016                0.971684417     -80.7450046
9.017                0.971611379     -80.8742645
9.018                0.971538121     -81.0038557
9.019                0.971464642     -81.1337794
9.02                 0.971390941     -81.2640364
9.021                0.971317019     -81.3946278
9.022                0.971242875     -81.5255546
9.023                0.971168509     -81.6568177
9.024                0.971093919     -81.7884181
9.025                0.971019107     -81.9203569
9.026                0.970944071     -82.0526349
9.027                0.970868811     -82.1852532
9.028                0.970793327     -82.3182129
9.029                0.970717618     -82.4515148
9.03                 0.970641684       -82.58516
9.031                0.970565525     -82.7191494
9.032                0.970489141     -82.8534842
9.033                 0.97041253     -82.9881652
9.034                0.970335693     -83.1231935
9.035                 0.97025863     -83.2585702
9.036                0.970181339     -83.3942961
9.037                0.970103821     -83.5303723
9.038                0.970026076     -83.6667998
9.039                0.969948102     -83.8035797
9.04                 0.969869901     -83.9407129
9.041                0.969791471     -84.0782005
9.042                0.969712812     -84.2160434
9.043                0.969633924     -84.3542427
9.044                0.969554806     -84.4927994
9.045                0.969475459     -84.6317146
9.046                0.969395882     -84.7709892
9.047                0.969316075     -84.9106242
9.048                0.969236037     -85.0506208
9.049                0.969155769     -85.1909798
9.05                  0.96907527     -85.3317024
9.051                0.968994539     -85.4727895
9.052                0.968913577     -85.6142423
9.053                0.968832383     -85.7560616
9.054                0.968750958     -85.8982486
9.055                  0.9686693     -86.0408043
9.056                 0.96858741     -86.1837297
9.057                0.968505287     -86.3270258
9.058                0.968422932     -86.4706938
9.059                0.968340343     -86.6147345
9.06                 0.968257522     -86.7591491
9.061                0.968174467     -86.9039385
9.062                0.968091179     -87.0491039
9.063                0.968007657     -87.1946462
9.064                0.967923902     -87.3405665
9.065                0.967839912     -87.4868659
9.066                0.967755688     -87.6335454
9.067                0.967671231     -87.7806059
9.068                0.967586538     -87.9280486
9.069                0.967501612     -88.0758745
9.07                 0.967416451     -88.2240847
9.071                0.967331055     -88.3726801
9.072                0.967245424     -88.5216619
9.073                0.967159559      -88.671031
9.074                0.967073458     -88.8207886
9.075                0.966987123     -88.9709356
9.076                0.966900553     -89.1214731
9.077                0.966813747     -89.2724022
9.078                0.966726707     -89.4237238
9.079                0.966639431     -89.5754391
9.08                  0.96655192     -89.7275491
9.081                0.966464174     -89.8800548
9.082                0.966376192     -90.0329573
9.083                0.966287976     -90.1862576
9.084                0.966199524     -90.3399568
9.085                0.966110837     -90.4940559
9.086                0.966021915      -90.648556
9.087                0.965932758     -90.8034581
9.088                0.965843366     -90.9587632
9.089                0.965753738     -91.1144724
9.09                 0.965663876     -91.2705868
9.091                0.965573779     -91.4271073
9.092                0.965483448     -91.5840351
9.093                0.965392881     -91.7413711
9.094                0.965302081     -91.8991165
9.095                0.965211046     -92.0572722
9.096                0.965119776     -92.2158393
9.097                0.965028273     -92.3748189
9.098                0.964936536      -92.534212
9.099                0.964844565     -92.6940196
9.1                   0.96475236     -92.8542427
9.101                0.964659922     -93.0148824
9.102                0.964567251     -93.1759398
9.103                0.964474347     -93.3374159
9.104                 0.96438121     -93.4993117
9.105                0.964287841     -93.6616282
9.106                 0.96419424     -93.8243665
9.107                0.964100406     -93.9875276
9.108                0.964006341     -94.1511125
9.109                0.963912045     -94.3151223
9.11                 0.963817518     -94.4795581
9.111                 0.96372276     -94.6444207
9.112                0.963627772     -94.8097113
9.113                0.963532554     -94.9754309
9.114                0.963437106     -95.1415804
9.115                0.963341428      -95.308161
9.116                0.963245522     -95.4751737
9.117                0.963149388     -95.6426193
9.118                0.963053025     -95.8104991
9.119                0.962956435     -95.9788139
9.12                 0.962859618     -96.1475648
9.121                0.962762574     -96.3167529
9.122                0.962665304      -96.486379
9.123                0.962567808     -96.6564443
9.124                0.962470087     -96.8269497
9.125                0.962372141     -96.9978961
9.126                0.962273971     -97.1692847
9.127                0.962175578     -97.3411165
9.128                0.962076961     -97.5133923
9.129                0.961978122     -97.6861132
9.13                 0.961879061     -97.8592802
9.131                 0.96177978     -98.0328943
9.132                0.961680277     -98.2069564
9.133                0.961580555     -98.3814675
9.134                0.961480613     -98.5564287
9.135                0.961380453     -98.7318408
9.136                0.961280076     -98.9077048
9.137                0.961179481     -99.0840218
9.138                0.961078669     -99.2607926
9.139                0.960977642     -99.4380183
9.14                 0.960876401     -99.6156998
9.141                0.960774945      -99.793838
9.142                0.960673276     -99.9724339
9.143                0.960571395     -100.151488
9.144                0.960469302     -100.331003
9.145                0.960366999     -100.510977
9.146                0.960264486     -100.691413
9.147                0.960161764     -100.872312
9.148                0.960058834     -101.053673
9.149                0.959955697     -101.235499
9.15                 0.959852354     -101.417791
9.151                0.959748806     -101.600548
9.152                0.959645054     -101.783772
9.153                0.959541099     -101.967464
9.154                0.959436942     -102.151625
9.155                0.959332584     -102.336255
9.156                0.959228027     -102.521356
9.157                0.959123271     -102.706928
9.158                0.959018317     -102.892973
9.159                0.958913167     -103.079491
9.16                 0.958807821     -103.266483
9.161                0.958702282      -103.45395
9.162                 0.95859655     -103.641892
9.163                0.958490626     -103.830312
9.164                0.958384512     -104.019208
9.165                0.958278209     -104.208583
9.166                0.958171718     -104.398437
9.167                0.958065041     -104.588771
9.168                0.957958178     -104.779586
9.169                0.957851132     -104.970883
9.17                 0.957743904     -105.162661
9.171                0.957636495     -105.354924
9.172                0.957528906      -105.54767
9.173                0.957421139       -105.7409
9.174                0.957313196     -105.934617
9.175                0.957205078      -106.12882
9.176                0.957096787      -106.32351
9.177                0.956988323     -106.518687
9.178                 0.95687969     -106.714354
9.179                0.956770887      -106.91051
9.18                 0.956661918     -107.107156
9.181                0.956552783     -107.304293
9.182                0.956443485     -107.501921
9.183                0.956334024     -107.700042
9.184                0.956224403     -107.898655
9.185                0.956114624     -108.097763
9.186                0.956004688     -108.297365
9.187                0.955894598     -108.497462
9.188                0.955784354     -108.698054
9.189                0.955673959     -108.899143
9.19                 0.955563414      -109.10073
9.191                0.955452723     -109.302814
9.192                0.955341885     -109.505396
9.193                0.955230905     -109.708477
9.194                0.955119783     -109.912058
9.195                0.955008521      -110.11614
9.196                0.954897122     -110.320722
9.197                0.954785588     -110.525805
9.198                 0.95467392     -110.731391
9.199                0.954562122     -110.937479
9.2                  0.954450194      -111.14407
9.201                 0.95433814     -111.351165
9.202                0.954225961     -111.558765
9.203                 0.95411366     -111.766869
9.204                0.954001239     -111.975478
9.205                  0.9538887     -112.184594
9.206                0.953776046     -112.394215
9.207                0.953663279     -112.604344
9.208                0.953550402      -112.81498
9.209                0.953437416     -113.026124
9.21                 0.953324324     -113.237775
9.211                0.953211129     -113.449936
9.212                0.953097833     -113.662606
9.213                 0.95298444     -113.875785
9.214                 0.95287095     -114.089475
9.215                0.952757367     -114.303674
9.216                0.952643694     -114.518385
9.217                0.952529933     -114.733606
9.218                0.952416087     -114.949339
9.219                0.952302159     -115.165584
9.22                  0.95218815     -115.382342
9.221                0.952074065     -115.599611
9.222                0.951959906     -115.817394
9.223                0.951845676     -116.035689
9.224                0.951731377     -116.254499
9.225                0.951617013     -116.473821
9.226                0.951502586     -116.693658
9.227                0.951388099     -116.914009
9.228                0.951273556     -117.134875
9.229                0.951158959     -117.356255
9.23                 0.951044312      -117.57815
9.231                0.950929617      -117.80056
9.232                0.950814878     -118.023485
9.233                0.950700097     -118.246925
9.234                0.950585279     -118.470882
9.235                0.950470425     -118.695353
9.236                 0.95035554     -118.920341
9.237                0.950240627     -119.145845
9.238                0.950125688     -119.371864
9.239                0.950010728       -119.5984
9.24                 0.949895749     -119.825451
9.241                0.949780756     -120.053019
9.242                 0.94966575     -120.281103
9.243                0.949550737     -120.509703
9.244                0.949435719      -120.73882
9.245                0.949320699     -120.968452
9.246                0.949205682     -121.198601
9.247                0.949090671     -121.429265
9.248                 0.94897567     -121.660446
9.249                0.948860682     -121.892143
9.25                 0.948745711     -122.124355
9.251                 0.94863076     -122.357083
9.252                0.948515834     -122.590326
9.253                0.948400935     -122.824085
9.254                0.948286069     -123.058359
9.255                0.948171238     -123.293148
9.256                0.948056447     -123.528452
9.257                0.947941699      -123.76427
9.258                0.947826999     -124.000603
9.259                 0.94771235      -124.23745
9.26                 0.947597756      -124.47481
9.261                0.947483221     -124.712684
9.262                 0.94736875     -124.951071
9.263                0.947254346     -125.189971
9.264                0.947140013     -125.429383
9.265                0.947025756     -125.669307
9.266                0.946911579     -125.909743
9.267                0.946797486      -126.15069
9.268                0.946683481     -126.392148
9.269                0.946569568     -126.634116
9.27                 0.946455752     -126.876594
9.271                0.946342037     -127.119581
9.272                0.946228427     -127.363077
9.273                0.946114927     -127.607082
9.274                0.946001541     -127.851594
9.275                0.945888273     -128.096613
9.276                0.945775128     -128.342139
9.277                0.945662111     -128.588171
9.278                0.945549225     -128.834708
9.279                0.945436476      -129.08175
9.28                 0.945323868     -129.329295
9.281                0.945211405     -129.577344
9.282                0.945099093     -129.825895
9.283                0.944986935     -130.074948
9.284                0.944874936     -130.324503
9.285                0.944763102     -130.574557
9.286                0.944651437      -130.82511
9.287                0.944539945     -131.076163
9.288                0.944428632     -131.327712
9.289                0.944317501     -131.579759
9.29                 0.944206559     -131.832302
9.291                0.944095809     -132.085339
9.292                0.943985257     -132.338871
9.293                0.943874908     -132.592895
9.294                0.943764766     -132.847412
9.295                0.943654836     -133.102419
9.296                0.943545124     -133.357917
9.297                0.943435634     -133.613903
9.298                0.943326371     -133.870378
9.299                0.943217341     -134.127339
9.3                  0.943108548     -134.384786
9.301                0.942999997     -134.642717
9.302                0.942891694     -134.901131
9.303                0.942783644     -135.160027
9.304                0.942675851     -135.419404
9.305                0.942568321     -135.679261
9.306                0.942461059     -135.939596
9.307                 0.94235407     -136.200408
9.308                 0.94224736     -136.461696
9.309                0.942140934     -136.723458
9.31                 0.942034796     -136.985692
9.311                0.941928952     -137.248399
9.312                0.941823408     -137.511575
9.313                0.941718168      -137.77522
9.314                0.941613239     -138.039332
9.315                0.941508624      -138.30391
9.316                0.941404331     -138.568952
9.317                0.941300363     -138.834456
9.318                0.941196726     -139.100422
9.319                0.941093426     -139.366847
9.32                 0.940990468     -139.633729
9.321                0.940887858     -139.901068
9.322                  0.9407856     -140.168861
9.323                0.940683701     -140.437107
9.324                0.940582165     -140.705804
9.325                0.940480999     -140.974951
9.326                0.940380206     -141.244544
9.327                0.940279794     -141.514584
9.328                0.940179768     -141.785067
9.329                0.940080132     -142.055992
9.33                 0.939980892     -142.327358
9.331                0.939882054     -142.599161
9.332                0.939783624     -142.871401
9.333                0.939685607     -143.144075
9.334                0.939588007     -143.417181
9.335                0.939490832     -143.690718
9.336                0.939394086     -143.964683
9.337                0.939297774     -144.239074
9.338                0.939201903      -144.51389
9.339                0.939106478     -144.789127
9.34                 0.939011503     -145.064784
9.341                0.938916986     -145.340859
9.342                0.938822931      -145.61735
9.343                0.938729344     -145.894253
9.344                 0.93863623     -146.171568
9.345                0.938543594     -146.449292
9.346                0.938451443     -146.727422
9.347                0.938359782     -147.005956
9.348                0.938268616     -147.284892
9.349                0.938177951     -147.564228
9.35                 0.938087791      -147.84396
9.351                0.937998144     -148.124087
9.352                0.937909013     -148.404607
9.353                0.937820405     -148.685516
9.354                0.937732325     -148.966812
9.355                0.937644778     -149.248493
9.356                0.937557769     -149.530556
9.357                0.937471305     -149.812998
9.358                0.937385391     -150.095818
9.359                0.937300031     -150.379012
9.36                 0.937215232     -150.662577
9.361                0.937130998     -150.946512
9.362                0.937047335     -151.230812
9.363                0.936964249     -151.515477
9.364                0.936881744     -151.800502
9.365                0.936799825     -152.085885
9.366                0.936718499     -152.371623
9.367                 0.93663777     -152.657714
9.368                0.936557643     -152.944155
9.369                0.936478125     -153.230942
9.37                 0.936399219     -153.518072
9.371                0.936320931     -153.805544
9.372                0.936243266     -154.093353
9.373                0.936166229     -154.381498
9.374                0.936089826     -154.669974
9.375                0.936014061     -154.958779
9.376                 0.93593894     -155.247911
9.377                0.935864467     -155.537365
9.378                0.935790647     -155.827138
9.379                0.935717485     -156.117228
9.38                 0.935644987     -156.407632
9.381                0.935573157     -156.698346
9.382                   0.935502     -156.989367
9.383                 0.93543152     -157.280692
9.384                0.935361723     -157.572318
9.385                0.935292613     -157.864241
9.386                0.935224196     -158.156459
9.387                0.935156474     -158.448967
9.388                0.935089455     -158.741763
9.389                0.935023141     -159.034843
9.39                 0.934957537     -159.328204
9.391                0.934892649     -159.621842
9.392                 0.93482848     -159.915755
9.393                0.934765035     -160.209938
9.394                0.934702318     -160.504388
9.395                0.934640334     -160.799103
9.396                0.934579087     -161.094077
