! TOUCHSTONE file generated by CST DESIGN STUDIO
! Date and time: Tue Feb  4 16:06:26 2025
! Project name: C:\Work\MatlabApps\UnitCellOptimizationMatlab\CST\unitcell.cst
! Tree item: Tasks\Sweep1\SPara1\S-Parameters
! Header version: 2024
! Port assignment regex: !\s*Touchstone port\s*([0-9]+)\s*=\s*(CST MWS port|CST DES external port|CST DES block port)\s*(.+)\s* \(\"(.*)\"\)(\s*mode\s*([0-9]+))?.*
! Touchstone port assignment:
! Touchstone port 1 = CST DES external port 1 ("")
# GHz S MA R 50
9                    0.966342533      -52.134534
9.001                0.966275971     -52.2025869
9.002                 0.96620923      -52.270789
9.003                0.966142307     -52.3391407
9.004                0.966075203     -52.4076426
9.005                0.966007917     -52.4762952
9.006                0.965940449     -52.5450989
9.007                0.965872798     -52.6140541
9.008                0.965804962     -52.6831615
9.009                0.965736943     -52.7524215
9.01                 0.965668738     -52.8218345
9.011                0.965600348     -52.8914011
9.012                0.965531771     -52.9611218
9.013                0.965463008      -53.030997
9.014                0.965394057     -53.1010273
9.015                0.965324918     -53.1712131
9.016                 0.96525559      -53.241555
9.017                0.965186073     -53.3120535
9.018                0.965116365      -53.382709
9.019                0.965046467     -53.4535221
9.02                 0.964976378     -53.5244933
9.021                0.964906097     -53.5956231
9.022                0.964835623      -53.666912
9.023                0.964764955     -53.7383606
9.024                0.964694094     -53.8099693
9.025                0.964623038     -53.8817387
9.026                0.964551787     -53.9536692
9.027                 0.96448034     -54.0257615
9.028                0.964408697      -54.098016
9.029                0.964336856     -54.1704333
9.03                 0.964264817     -54.2430139
9.031                0.964192579     -54.3157583
9.032                0.964120143      -54.388667
9.033                0.964047506     -54.4617407
9.034                0.963974669     -54.5349798
9.035                 0.96390163     -54.6083849
9.036                0.963828389     -54.6819565
9.037                0.963754946     -54.7556951
9.038                0.963681299     -54.8296014
9.039                0.963607448     -54.9036758
9.04                 0.963533392     -54.9779189
9.041                0.963459131     -55.0523313
9.042                0.963384664     -55.1269135
9.043                0.963309989     -55.2016661
9.044                0.963235107     -55.2765895
9.045                0.963160017     -55.3516845
9.046                0.963084718     -55.4269515
9.047                0.963009209     -55.5023912
9.048                0.962933489      -55.578004
9.049                0.962857558     -55.6537905
9.05                 0.962781416     -55.7297514
9.051                 0.96270506     -55.8058872
9.052                0.962628492     -55.8821985
9.053                0.962551709     -55.9586857
9.054                0.962474711     -56.0353497
9.055                0.962397498     -56.1121908
9.056                0.962320068     -56.1892097
9.057                0.962242422      -56.266407
9.058                0.962164557     -56.3437833
9.059                0.962086474     -56.4213391
9.06                 0.962008172     -56.4990751
9.061                0.961929649     -56.5769919
9.062                0.961850906     -56.6550899
9.063                0.961771941       -56.73337
9.064                0.961692754     -56.8118325
9.065                0.961613343     -56.8904783
9.066                0.961533709     -56.9693078
9.067                 0.96145385     -57.0483216
9.068                0.961373766     -57.1275204
9.069                0.961293455     -57.2069049
9.07                 0.961212918     -57.2864755
9.071                0.961132152      -57.366233
9.072                0.961051159     -57.4461779
9.073                0.960969935     -57.5263109
9.074                0.960888482     -57.6066325
9.075                0.960806798     -57.6871435
9.076                0.960724881     -57.7678445
9.077                0.960642733      -57.848736
9.078                0.960560351     -57.9298188
9.079                0.960477735     -58.0110934
9.08                 0.960394884     -58.0925605
9.081                0.960311797     -58.1742208
9.082                0.960228474     -58.2560748
9.083                0.960144913     -58.3381233
9.084                0.960061114     -58.4203669
9.085                0.959977077     -58.5028062
9.086                0.959892799     -58.5854418
9.087                 0.95980828     -58.6682745
9.088                0.959723521      -58.751305
9.089                0.959638518     -58.8345337
9.09                 0.959553273     -58.9179615
9.091                0.959467784      -59.001589
9.092                 0.95938205     -59.0854169
9.093                 0.95929607     -59.1694458
9.094                0.959209843     -59.2536764
9.095                 0.95912337     -59.3381094
9.096                0.959036648     -59.4227454
9.097                0.958949677     -59.5075852
9.098                0.958862456     -59.5926295
9.099                0.958774984     -59.6778788
9.1                  0.958687261      -59.763334
9.101                0.958599285     -59.8489956
9.102                0.958511056     -59.9348644
9.103                0.958422572     -60.0209412
9.104                0.958333834     -60.1072265
9.105                0.958244839     -60.1937211
9.106                0.958155587     -60.2804257
9.107                0.958066078      -60.367341
9.108                 0.95797631     -60.4544678
9.109                0.957886283     -60.5418066
9.11                 0.957795995     -60.6293583
9.111                0.957705446     -60.7171236
9.112                0.957614635     -60.8051031
9.113                0.957523561     -60.8932976
9.114                0.957432223     -60.9817079
9.115                0.957340619     -61.0703347
9.116                 0.95724875     -61.1591786
9.117                0.957156615     -61.2482404
9.118                0.957064212      -61.337521
9.119                 0.95697154     -61.4270209
9.12                 0.956878599      -61.516741
9.121                0.956785387     -61.6066819
9.122                0.956691905     -61.6968445
9.123                 0.95659815     -61.7872295
9.124                0.956504122     -61.8778376
9.125                 0.95640982     -61.9686697
9.126                0.956315243     -62.0597264
9.127                 0.95622039     -62.1510085
9.128                0.956125261     -62.2425168
9.129                0.956029853      -62.334252
9.13                 0.955934167      -62.426215
9.131                0.955838202     -62.5184065
9.132                0.955741956     -62.6108273
9.133                0.955645428     -62.7034781
9.134                0.955548618     -62.7963597
9.135                0.955451524      -62.889473
9.136                0.955354146     -62.9828186
9.137                0.955256483     -63.0763975
9.138                0.955158534     -63.1702103
9.139                0.955060297      -63.264258
9.14                 0.954961772     -63.3585412
9.141                0.954862958     -63.4530608
9.142                0.954763854     -63.5478176
9.143                0.954664459     -63.6428124
9.144                0.954564772      -63.738046
9.145                0.954464792     -63.8335193
9.146                0.954364517      -63.929233
9.147                0.954263948     -64.0251879
9.148                0.954163083     -64.1213849
9.149                0.954061921     -64.2178249
9.15                 0.953960461     -64.3145086
9.151                0.953858702     -64.4114368
9.152                0.953756644     -64.5086105
9.153                0.953654284     -64.6060304
9.154                0.953551623     -64.7036974
9.155                0.953448659     -64.8016123
9.156                0.953345391      -64.899776
9.157                0.953241818     -64.9981893
9.158                0.953137939     -65.0968531
9.159                0.953033754     -65.1957682
9.16                  0.95292926     -65.2949355
9.161                0.952824458     -65.3943559
9.162                0.952719346     -65.4940302
9.163                0.952613924     -65.5939592
9.164                0.952508189      -65.694144
9.165                0.952402142     -65.7945852
9.166                 0.95229578     -65.8952839
9.167                0.952189104     -65.9962409
9.168                0.952082112      -66.097457
9.169                0.951974803     -66.1989332
9.17                 0.951867176     -66.3006703
9.171                0.951759231     -66.4026693
9.172                0.951650965     -66.5049311
9.173                0.951542378     -66.6074565
9.174                 0.95143347     -66.7102464
9.175                0.951324238     -66.8133017
9.176                0.951214682     -66.9166235
9.177                0.951104802     -67.0202124
9.178                0.950994595     -67.1240696
9.179                0.950884061     -67.2281959
9.18                 0.950773199     -67.3325922
9.181                0.950662007     -67.4372595
9.182                0.950550486     -67.5421986
9.183                0.950438633     -67.6474105
9.184                0.950326448     -67.7528962
9.185                 0.95021393     -67.8586566
9.186                0.950101077     -67.9646926
9.187                0.949987889     -68.0710051
9.188                0.949874365     -68.1775952
9.189                0.949760503     -68.2844637
9.19                 0.949646303     -68.3916117
9.191                0.949531763       -68.49904
9.192                0.949416882     -68.6067496
9.193                 0.94930166     -68.7147416
9.194                0.949186096     -68.8230168
9.195                0.949070187     -68.9315763
9.196                0.948953934      -69.040421
9.197                0.948837336     -69.1495518
9.198                 0.94872039     -69.2589698
9.199                0.948603097      -69.368676
9.2                  0.948485454     -69.4786713
9.201                0.948367462     -69.5889568
9.202                0.948249119     -69.6995333
9.203                0.948130424      -69.810402
9.204                0.948011376     -69.9215638
9.205                0.947891973     -70.0330197
9.206                0.947772216     -70.1447707
9.207                0.947652102     -70.2568179
9.208                0.947531632     -70.3691622
9.209                0.947410802     -70.4818047
9.21                 0.947289614     -70.5947464
9.211                0.947168066     -70.7079883
9.212                0.947046156     -70.8215314
9.213                0.946923883     -70.9353768
9.214                0.946801247     -71.0495255
9.215                0.946678247     -71.1639785
9.216                0.946554881     -71.2787369
9.217                0.946431149     -71.3938017
9.218                0.946307049      -71.509174
9.219                0.946182581     -71.6248548
9.22                 0.946057743     -71.7408452
9.221                0.945932534     -71.8571461
9.222                0.945806954     -71.9737588
9.223                   0.945681     -72.0906842
9.224                0.945554674     -72.2079235
9.225                0.945427972     -72.3254776
9.226                0.945300895     -72.4433477
9.227                 0.94517344     -72.5615348
9.228                0.945045608       -72.68004
9.229                0.944917397     -72.7988644
9.23                 0.944788807     -72.9180091
9.231                0.944659835     -73.0374752
9.232                0.944530482     -73.1572638
9.233                0.944400745     -73.2773759
9.234                0.944270625     -73.3978127
9.235                 0.94414012     -73.5185752
9.236                0.944009229     -73.6396646
9.237                0.943877951      -73.761082
9.238                0.943746286     -73.8828285
9.239                0.943614231     -74.0049053
9.24                 0.943481787     -74.1273133
9.241                0.943348951     -74.2500538
9.242                0.943215724     -74.3731279
9.243                0.943082104     -74.4965368
9.244                0.942948091     -74.6202814
9.245                0.942813682     -74.7443631
9.246                0.942678878     -74.8687829
9.247                0.942543677     -74.9935419
9.248                0.942408079     -75.1186414
9.249                0.942272082     -75.2440824
9.25                 0.942135685     -75.3698662
9.251                0.941998888     -75.4959938
9.252                 0.94186169     -75.6224665
9.253                0.941724089     -75.7492853
9.254                0.941586084     -75.8764515
9.255                0.941447676     -76.0039663
9.256                0.941308862     -76.1318308
9.257                0.941169642     -76.2600461
9.258                0.941030015     -76.3886135
9.259                 0.94088998     -76.5175342
9.26                 0.940749537     -76.6468092
9.261                0.940608683     -76.7764399
9.262                0.940467419     -76.9064275
9.263                0.940325744      -77.036773
9.264                0.940183656     -77.1674777
9.265                0.940041155     -77.2985428
9.266                0.939898239     -77.4299696
9.267                0.939754909     -77.5617591
9.268                0.939611163     -77.6939127
9.269                0.939466999     -77.8264315
9.27                 0.939322419     -77.9593168
9.271                 0.93917742     -78.0925698
9.272                0.939032001     -78.2261916
9.273                0.938886163     -78.3601836
9.274                0.938739904      -78.494547
9.275                0.938593223     -78.6292829
9.276                0.938446119     -78.7643927
9.277                0.938298592     -78.8998775
9.278                0.938150642     -79.0357387
9.279                0.938002266     -79.1719774
9.28                 0.937853464     -79.3085949
9.281                0.937704237     -79.4455924
9.282                0.937554582     -79.5829713
9.283                0.937404499     -79.7207327
9.284                0.937253987     -79.8588779
9.285                0.937103046     -79.9974082
9.286                0.936951675     -80.1363249
9.287                0.936799873     -80.2756292
9.288                 0.93664764     -80.4153223
9.289                0.936494975     -80.5554056
9.29                 0.936341876     -80.6958804
9.291                0.936188344     -80.8367478
9.292                0.936034378     -80.9780092
9.293                0.935879978      -81.119666
9.294                0.935725141     -81.2617192
9.295                0.935569869     -81.4041704
9.296                 0.93541416     -81.5470206
9.297                0.935258013     -81.6902714
9.298                0.935101429     -81.8339238
9.299                0.934944406     -81.9779793
9.3                  0.934786944     -82.1224391
9.301                0.934629042     -82.2673046
9.302                0.934470701      -82.412577
9.303                0.934311918     -82.5582577
9.304                0.934152695      -82.704348
9.305                0.933993029     -82.8508491
9.306                0.933832922     -82.9977625
9.307                0.933672372     -83.1450894
9.308                0.933511378     -83.2928311
9.309                0.933349942      -83.440989
9.31                 0.933188061     -83.5895644
9.311                0.933025735     -83.7385587
9.312                0.932862965     -83.8879731
9.313                0.932699749     -84.0378089
9.314                0.932536088     -84.1880676
9.315                0.932371981     -84.3387505
9.316                0.932207428     -84.4898589
9.317                0.932042428     -84.6413941
9.318                 0.93187698     -84.7933575
9.319                0.931711086     -84.9457504
9.32                 0.931544744     -85.0985742
9.321                0.931377954     -85.2518302
9.322                0.931210716     -85.4055198
9.323                 0.93104303     -85.5596443
9.324                0.930874896     -85.7142052
9.325                0.930706312     -85.8692036
9.326                 0.93053728     -86.0246411
9.327                0.930367799     -86.1805189
9.328                0.930197868     -86.3368384
9.329                0.930027488      -86.493601
9.33                 0.929856659      -86.650808
9.331                0.929685381     -86.8084608
9.332                0.929513652     -86.9665608
9.333                0.929341475     -87.1251094
9.334                0.929168847     -87.2841079
9.335                 0.92899577     -87.4435576
9.336                0.928822244       -87.60346
9.337                0.928648267     -87.7638164
9.338                0.928473842     -87.9246282
9.339                0.928298967     -88.0858968
9.34                 0.928123643     -88.2476235
9.341                0.927947869     -88.4098097
9.342                0.927771647     -88.5724568
9.343                0.927594975     -88.7355663
9.344                0.927417856     -88.8991393
9.345                0.927240287     -89.0631774
9.346                0.927062271     -89.2276819
9.347                0.926883807     -89.3926543
9.348                0.926704895     -89.5580957
9.349                0.926525536     -89.7240078
9.35                  0.92634573     -89.8903918
9.351                0.926165477     -90.0572491
9.352                0.925984778     -90.2245811
9.353                0.925803634     -90.3923892
9.354                0.925622044     -90.5606748
9.355                 0.92544001     -90.7294392
9.356                0.925257531     -90.8986839
9.357                0.925074609     -91.0684101
9.358                0.924891243     -91.2386194
9.359                0.924707435     -91.4093131
9.36                 0.924523185     -91.5804925
9.361                0.924338494     -91.7521591
9.362                0.924153362     -91.9243142
9.363                 0.92396779     -92.0969592
9.364                0.923781778     -92.2700955
9.365                0.923595329     -92.4437244
9.366                0.923408442     -92.6178475
9.367                0.923221118     -92.7924659
9.368                0.923033358     -92.9675811
9.369                0.922845163     -93.1431945
9.37                 0.922656534     -93.3193075
9.371                0.922467472     -93.4959214
9.372                0.922277978     -93.6730375
9.373                0.922088052     -93.8506574
9.374                0.921897697     -94.0287822
9.375                0.921706913     -94.2074135
9.376                0.921515701     -94.3865526
9.377                0.921324062     -94.5662008
9.378                0.921131998     -94.7463594
9.379                0.920939509       -94.92703
9.38                 0.920746598     -95.1082137
9.381                0.920553265      -95.289912
9.382                0.920359512     -95.4721263
9.383                 0.92016534     -95.6548578
9.384                 0.91997075      -95.838108
9.385                0.919775745     -96.0218781
9.386                0.919580325     -96.2061695
9.387                0.919384492     -96.3909836
9.388                0.919188247     -96.5763218
9.389                0.918991593     -96.7621852
9.39                 0.918794531     -96.9485753
9.391                0.918597062     -97.1354934
9.392                0.918399189     -97.3229409
9.393                0.918200913      -97.510919
9.394                0.918002236      -97.699429
9.395                0.917803159     -97.8884724
9.396                0.917603686     -98.0780503
