! TOUCHSTONE file generated by CST DESIGN STUDIO
! Date and time: Tue Feb  4 16:06:25 2025
! Project name: C:\Work\MatlabApps\UnitCellOptimizationMatlab\CST\unitcell.cst
! Tree item: Tasks\Sweep1\SPara1\S-Parameters
! Header version: 2024
! Port assignment regex: !\s*Touchstone port\s*([0-9]+)\s*=\s*(CST MWS port|CST DES external port|CST DES block port)\s*(.+)\s* \(\"(.*)\"\)(\s*mode\s*([0-9]+))?.*
! Touchstone port assignment:
! Touchstone port 1 = CST DES external port 1 ("")
# GHz S MA R 50
9                    0.963738289     -55.6378131
9.001                0.963653589     -55.7127195
9.002                0.963568682     -55.7877942
9.003                0.963483567     -55.8630376
9.004                0.963398242     -55.9384504
9.005                0.963312709      -56.014033
9.006                0.963226966     -56.0897862
9.007                0.963141012     -56.1657104
9.008                0.963054847     -56.2418061
9.009                0.962968471     -56.3180741
9.01                 0.962881883     -56.3945148
9.011                0.962795082     -56.4711287
9.012                0.962708067     -56.5479166
9.013                0.962620839     -56.6248789
9.014                0.962533396     -56.7020162
9.015                0.962445738     -56.7793292
9.016                0.962357865     -56.8568183
9.017                0.962269775     -56.9344843
9.018                0.962181468     -57.0123275
9.019                0.962092944     -57.0903488
9.02                 0.962004202     -57.1685486
9.021                0.961915241     -57.2469275
9.022                0.961826061     -57.3254862
9.023                0.961736661     -57.4042251
9.024                0.961647041     -57.4831451
9.025                0.961557199     -57.5622465
9.026                0.961467136     -57.6415301
9.027                 0.96137685     -57.7209964
9.028                0.961286342     -57.8006461
9.029                 0.96119561     -57.8804797
9.03                 0.961104654      -57.960498
9.031                0.961013473     -58.0407014
9.032                0.960922067     -58.1210906
9.033                0.960830434     -58.2016663
9.034                0.960738576      -58.282429
9.035                0.960646489     -58.3633794
9.036                0.960554175     -58.4445181
9.037                0.960461633     -58.5258457
9.038                0.960368861     -58.6073629
9.039                0.960275859     -58.6890703
9.04                 0.960182628     -58.7709686
9.041                0.960089165     -58.8530583
9.042                 0.95999547     -58.9353402
9.043                0.959901543     -59.0178148
9.044                0.959807383     -59.1004828
9.045                 0.95971299     -59.1833449
9.046                0.959618362     -59.2664017
9.047                0.959523499     -59.3496539
9.048                0.959428401      -59.433102
9.049                0.959333067     -59.5167469
9.05                 0.959237496     -59.6005891
9.051                0.959141687     -59.6846294
9.052                0.959045641     -59.7688682
9.053                0.958949355     -59.8533065
9.054                 0.95885283     -59.9379447
9.055                0.958756065     -60.0227837
9.056                 0.95865906     -60.1078239
9.057                0.958561813     -60.1930663
9.058                0.958464324     -60.2785113
9.059                0.958366592     -60.3641598
9.06                 0.958268617     -60.4500123
9.061                0.958170398     -60.5360696
9.062                0.958071934     -60.6223324
9.063                0.957973225     -60.7088014
9.064                 0.95787427     -60.7954772
9.065                0.957775069     -60.8823606
9.066                 0.95767562     -60.9694522
9.067                0.957575923     -61.0567528
9.068                0.957475977     -61.1442631
9.069                0.957375782     -61.2319838
9.07                 0.957275337     -61.3199155
9.071                0.957174642     -61.4080591
9.072                0.957073695     -61.4964152
9.073                0.956972497     -61.5849845
9.074                0.956871045     -61.6737678
9.075                0.956769341     -61.7627658
9.076                0.956667382     -61.8519792
9.077                0.956565169     -61.9414088
9.078                0.956462701     -62.0310552
9.079                0.956359977     -62.1209193
9.08                 0.956256996     -62.2110018
9.081                0.956153757     -62.3013033
9.082                0.956050261     -62.3918247
9.083                0.955946506     -62.4825667
9.084                0.955842492       -62.57353
9.085                0.955738218     -62.6647154
9.086                0.955633683     -62.7561237
9.087                0.955528887     -62.8477556
9.088                0.955423829     -62.9396118
9.089                0.955318509     -63.0316932
9.09                 0.955212925     -63.1240005
9.091                0.955107077     -63.2165344
9.092                0.955000965     -63.3092958
9.093                0.954894587     -63.4022854
9.094                0.954787944      -63.495504
9.095                0.954681033     -63.5889524
9.096                0.954573856     -63.6826314
9.097                0.954466411     -63.7765416
9.098                0.954358697      -63.870684
9.099                0.954250714     -63.9650594
9.1                  0.954142461     -64.0596684
9.101                0.954033937      -64.154512
9.102                0.953925143     -64.2495909
9.103                0.953816076     -64.3449059
9.104                0.953706737     -64.4404579
9.105                0.953597125     -64.5362476
9.106                0.953487239     -64.6322758
9.107                0.953377079     -64.7285434
9.108                0.953266644     -64.8250512
9.109                0.953155933        -64.9218
9.11                 0.953044945     -65.0187907
9.111                0.952933681     -65.1160239
9.112                0.952822139     -65.2135007
9.113                0.952710319     -65.3112218
9.114                 0.95259822     -65.4091881
9.115                0.952485841     -65.5074003
9.116                0.952373183     -65.6058594
9.117                0.952260244     -65.7045662
9.118                0.952147023     -65.8035216
9.119                0.952033521     -65.9027263
9.12                 0.951919736     -66.0021812
9.121                0.951805667     -66.1018873
9.122                0.951691316     -66.2018453
9.123                0.951576679     -66.3020561
9.124                0.951461758     -66.4025206
9.125                0.951346551     -66.5032397
9.126                0.951231058     -66.6042143
9.127                0.951115279     -66.7054451
9.128                0.950999212     -66.8069331
9.129                0.950882857     -66.9086792
9.13                 0.950766214     -67.0106843
9.131                0.950649282     -67.1129492
9.132                0.950532061     -67.2154749
9.133                0.950414549     -67.3182622
9.134                0.950296747      -67.421312
9.135                0.950178654     -67.5246253
9.136                0.950060268     -67.6282029
9.137                0.949941591     -67.7320458
9.138                0.949822621     -67.8361549
9.139                0.949703357      -67.940531
9.14                   0.9495838     -68.0451752
9.141                0.949463949     -68.1500882
9.142                0.949343803     -68.2552711
9.143                0.949223361     -68.3607248
9.144                0.949102624     -68.4664502
9.145                 0.94898159     -68.5724483
9.146                 0.94886026     -68.6787199
9.147                0.948738632     -68.7852661
9.148                0.948616707     -68.8920877
9.149                0.948494484     -68.9991858
9.15                 0.948371962     -69.1065612
9.151                0.948249142     -69.2142149
9.152                0.948126021      -69.322148
9.153                0.948002602     -69.4303613
9.154                0.947878882     -69.5388558
9.155                0.947754861     -69.6476325
9.156                0.947630539     -69.7566924
9.157                0.947505917     -69.8660364
9.158                0.947380992     -69.9756656
9.159                0.947255765     -70.0855808
9.16                 0.947130236     -70.1957832
9.161                0.947004404     -70.3062736
9.162                0.946878269     -70.4170531
9.163                0.946751831     -70.5281227
9.164                0.946625089     -70.6394833
9.165                0.946498043     -70.7511361
9.166                0.946370693     -70.8630819
9.167                0.946243038     -70.9753219
9.168                0.946115079      -71.087857
9.169                0.945986814     -71.2006882
9.17                 0.945858245     -71.3138166
9.171                0.945729369     -71.4272432
9.172                0.945600189     -71.5409691
9.173                0.945470702     -71.6549952
9.174                0.945340909     -71.7693227
9.175                 0.94521081     -71.8839525
9.176                0.945080405     -71.9988857
9.177                0.944949693     -72.1141233
9.178                0.944818675     -72.2296665
9.179                 0.94468735     -72.3455163
9.18                 0.944555719     -72.4616737
9.181                 0.94442378     -72.5781398
9.182                0.944291535     -72.6949157
9.183                0.944158983     -72.8120024
9.184                0.944026123     -72.9294011
9.185                0.943892957     -73.0471129
9.186                0.943759484     -73.1651387
9.187                0.943625704     -73.2834797
9.188                0.943491617     -73.4021371
9.189                0.943357224     -73.5211119
9.19                 0.943222523     -73.6404051
9.191                0.943087516     -73.7600181
9.192                0.942952203     -73.8799517
9.193                0.942816583     -74.0002073
9.194                0.942680657     -74.1207858
9.195                0.942544425     -74.2416884
9.196                0.942407888     -74.3629164
9.197                0.942271044     -74.4844707
9.198                0.942133895     -74.6063525
9.199                0.941996441     -74.7285631
9.2                  0.941858683     -74.8511035
9.201                0.941720619     -74.9739749
9.202                0.941582252     -75.0971784
9.203                 0.94144358     -75.2207153
9.204                0.941304605     -75.3445868
9.205                0.941165327     -75.4687939
9.206                0.941025746     -75.5933379
9.207                0.940885863       -75.71822
9.208                0.940745677     -75.8434413
9.209                 0.94060519     -75.9690031
9.21                 0.940464403     -76.0949066
9.211                0.940323314      -76.221153
9.212                0.940181926     -76.3477435
9.213                0.940040238     -76.4746793
9.214                0.939898251     -76.6019617
9.215                0.939755966     -76.7295919
9.216                0.939613383     -76.8575711
9.217                0.939470503     -76.9859006
9.218                0.939327326     -77.1145817
9.219                0.939183853     -77.2436155
9.22                 0.939040085     -77.3730035
9.221                0.938896023     -77.5027468
9.222                0.938751666     -77.6328467
9.223                0.938607017     -77.7633045
9.224                0.938462075     -77.8941216
9.225                0.938316841     -78.0252992
9.226                0.938171316     -78.1568385
9.227                0.938025501     -78.2887411
9.228                0.937879396     -78.4210081
9.229                0.937733003     -78.5536409
9.23                 0.937586322     -78.6866408
9.231                0.937439353     -78.8200092
9.232                0.937292098     -78.9537475
9.233                0.937144557     -79.0878569
9.234                0.936996732     -79.2223389
9.235                0.936848622     -79.3571949
9.236                0.936700229     -79.4924262
9.237                0.936551554     -79.6280342
9.238                0.936402597     -79.7640203
9.239                0.936253359      -79.900386
9.24                  0.93610384     -80.0371327
9.241                0.935954042     -80.1742618
9.242                0.935803965     -80.3117747
9.243                 0.93565361     -80.4496729
9.244                0.935502977     -80.5879578
9.245                0.935352067     -80.7266309
9.246                0.935200881     -80.8656938
9.247                0.935049418     -81.0051478
9.248                0.934897681     -81.1449945
9.249                0.934745668     -81.2852354
9.25                 0.934593381     -81.4258719
9.251                 0.93444082     -81.5669058
9.252                0.934287984     -81.7083383
9.253                0.934134875     -81.8501712
9.254                0.933981492      -81.992406
9.255                0.933827835     -82.1350442
9.256                0.933673904     -82.2780874
9.257                  0.9335197     -82.4215372
9.258                0.933365221     -82.5653953
9.259                0.933210468     -82.7096631
9.26                 0.933055439     -82.8543424
9.261                0.932900135     -82.9994348
9.262                0.932744555     -83.1449419
9.263                0.932588697     -83.2908654
9.264                0.932432561     -83.4372069
9.265                0.932276145     -83.5839681
9.266                0.932119448     -83.7311507
9.267                0.931962468     -83.8787564
9.268                0.931805204     -84.0267869
9.269                0.931647654     -84.1752438
9.27                 0.931489816      -84.324129
9.271                0.931331686     -84.4734441
9.272                0.931173263     -84.6231909
9.273                0.931014544     -84.7733711
9.274                0.930855525     -84.9239865
9.275                0.930696204     -85.0750388
9.276                0.930536576     -85.2265298
9.277                0.930376637     -85.3784613
9.278                0.930216384      -85.530835
9.279                0.930055812     -85.6836528
9.28                 0.929894915     -85.8369164
9.281                 0.92973369     -85.9906275
9.282                0.929572129      -86.144788
9.283                0.929410228     -86.2993997
9.284                0.929247979     -86.4544644
9.285                0.929085377     -86.6099837
9.286                0.928922415     -86.7659596
9.287                0.928759085     -86.9223938
9.288                0.928595379     -87.0792881
9.289                0.928431289     -87.2366442
9.29                 0.928266806     -87.3944639
9.291                0.928101923     -87.5527489
9.292                0.927936629      -87.711501
9.293                0.927770914     -87.8707219
9.294                0.927604769     -88.0304133
9.295                0.927438182     -88.1905769
9.296                0.927271144     -88.3512144
9.297                0.927103642     -88.5123274
9.298                0.926935665     -88.6739176
9.299                  0.9267672     -88.8359865
9.3                  0.926598236     -88.9985358
9.301                0.926428759      -89.161567
9.302                0.926258756     -89.3250817
9.303                0.926088214     -89.4890813
9.304                0.925917119     -89.6535672
9.305                0.925745457      -89.818541
9.306                0.925573214      -89.984004
9.307                0.925400374     -90.1499576
9.308                0.925226924      -90.316403
9.309                0.925052848     -90.4833415
9.31                 0.924878132     -90.6507744
9.311                 0.92470276     -90.8187028
9.312                0.924526718     -90.9871279
9.313                0.924349989     -91.1560507
9.314                 0.92417256     -91.3254723
9.315                0.923994415     -91.4953936
9.316                0.923815538     -91.6658157
9.317                0.923635916     -91.8367393
9.318                0.923455535     -92.0081653
9.319                0.923274378     -92.1800945
9.32                 0.923092434     -92.3525277
9.321                0.922909688     -92.5254655
9.322                0.922726128     -92.6989084
9.323                 0.92254174     -92.8728572
9.324                0.922356513     -93.0473124
9.325                0.922170436     -93.2222744
9.326                0.921983497     -93.3977436
9.327                0.921795687     -93.5737205
9.328                0.921606996     -93.7502055
9.329                0.921417415     -93.9271987
9.33                 0.921226937     -94.1047006
9.331                0.921035555     -94.2827114
9.332                0.920843263     -94.4612313
9.333                0.920650056     -94.6402604
9.334                 0.92045593     -94.8197989
9.335                0.920260881      -94.999847
9.336                0.920064907     -95.1804048
9.337                0.919868007     -95.3614725
9.338                0.919670182       -95.54305
9.339                0.919471431     -95.7251375
9.34                 0.919271758     -95.9077351
9.341                0.919071164     -96.0908429
9.342                0.918869654     -96.2744609
9.343                0.918667233     -96.4585893
9.344                0.918463906     -96.6432282
9.345                0.918259682     -96.8283777
9.346                0.918054567      -97.014038
9.347                0.917848571     -97.2002091
9.348                0.917641703     -97.3868914
9.349                0.917433974      -97.574085
9.35                 0.917225396     -97.7617902
9.351                 0.91701598     -97.9500073
9.352                 0.91680574     -98.1387365
9.353                0.916594689     -98.3279783
9.354                0.916382842      -98.517733
9.355                0.916170213      -98.708001
9.356                0.915956818     -98.8987829
9.357                0.915742672     -99.0900792
9.358                0.915527793     -99.2818904
9.359                0.915312197     -99.4742171
9.36                 0.915095901     -99.6670599
9.361                0.914878923     -99.8604197
9.362                0.914661279     -100.054297
9.363                0.914442989     -100.248693
9.364                 0.91422407     -100.443608
9.365                 0.91400454     -100.639043
9.366                0.913784418     -100.834999
9.367                0.913563721     -101.031478
9.368                0.913342468     -101.228479
9.369                0.913120676     -101.426004
9.37                 0.912898365     -101.624054
9.371                0.912675552     -101.822631
9.372                0.912452254     -102.021735
9.373                0.912228489     -102.221368
9.374                0.912004275      -102.42153
9.375                0.911779628     -102.622223
9.376                0.911554566     -102.823449
9.377                0.911329104     -103.025208
9.378                 0.91110326     -103.227503
9.379                0.910877049     -103.430333
9.38                 0.910650487     -103.633702
9.381                0.910423589     -103.837609
9.382                 0.91019637     -104.042057
9.383                0.909968844     -104.247046
9.384                0.909741027     -104.452579
9.385                0.909512931     -104.658656
9.386                 0.90928457      -104.86528
9.387                0.909055958     -105.072451
9.388                0.908827107     -105.280172
9.389                 0.90859803     -105.488443
9.39                 0.908368739     -105.697266
9.391                0.908139245     -105.906642
9.392                 0.90790956     -106.116573
9.393                0.907679695     -106.327061
9.394                0.907449662     -106.538106
9.395                0.907219469     -106.749711
9.396                0.906989128     -106.961877
