! TOUCHSTONE file generated by CST DESIGN STUDIO
! Date and time: Tue Feb  4 16:06:11 2025
! Project name: C:\Work\MatlabApps\UnitCellOptimizationMatlab\CST\unitcell.cst
! Tree item: Tasks\Sweep1\SPara1\S-Parameters
! Header version: 2024
! Port assignment regex: !\s*Touchstone port\s*([0-9]+)\s*=\s*(CST MWS port|CST DES external port|CST DES block port)\s*(.+)\s* \(\"(.*)\"\)(\s*mode\s*([0-9]+))?.*
! Touchstone port assignment:
! Touchstone port 1 = CST DES external port 1 ("")
# GHz S MA R 50
9                    0.942499818     -95.7062905
9.001                0.942209493     -95.8853649
9.002                0.941918367     -96.0649125
9.003                0.941626443     -96.2449345
9.004                0.941333724     -96.4254321
9.005                0.941040213     -96.6064065
9.006                0.940745914     -96.7878589
9.007                0.940450829     -96.9697904
9.008                0.940154961     -97.1522023
9.009                0.939858314     -97.3350958
9.01                 0.939560892      -97.518472
9.011                0.939262696     -97.7023322
9.012                0.938963732     -97.8866775
9.013                0.938664002     -98.0715092
9.014                 0.93836351     -98.2568283
9.015                0.938062259     -98.4426361
9.016                0.937760253     -98.6289338
9.017                0.937457496     -98.8157225
9.018                0.937153992     -99.0030035
9.019                0.936849744     -99.1907778
9.02                 0.936544756     -99.3790467
9.021                0.936239033     -99.5678113
9.022                0.935932578     -99.7570729
9.023                0.935625395     -99.9468324
9.024                0.935317489     -100.137091
9.025                0.935008864      -100.32785
9.026                0.934699524     -100.519111
9.027                0.934389473     -100.710874
9.028                0.934078716     -100.903142
9.029                0.933767257     -101.095914
9.03                 0.933455101     -101.289192
9.031                0.933142252     -101.482977
9.032                0.932828715     -101.677271
9.033                0.932514496     -101.872074
9.034                0.932199597     -102.067388
9.035                0.931884026     -102.263214
9.036                0.931567786     -102.459553
9.037                0.931250882     -102.656405
9.038                 0.93093332     -102.853773
9.039                0.930615105     -103.051656
9.04                 0.930296241     -103.250057
9.041                0.929976735     -103.448977
9.042                0.929656592     -103.648416
9.043                0.929335816     -103.848375
9.044                0.929014415     -104.048856
9.045                0.928692392      -104.24986
9.046                0.928369754     -104.451387
9.047                0.928046507     -104.653439
9.048                0.927722657     -104.856018
9.049                0.927398208     -105.059123
9.05                 0.927073168     -105.262756
9.051                0.926747542     -105.466918
9.052                0.926421337      -105.67161
9.053                0.926094558     -105.876833
9.054                0.925767212     -106.082588
9.055                0.925439305     -106.288876
9.056                0.925110844     -106.495699
9.057                0.924781836     -106.703056
9.058                0.924452285      -106.91095
9.059                0.924122201     -107.119381
9.06                 0.923791588     -107.328349
9.061                0.923460454     -107.537857
9.062                0.923128806     -107.747905
9.063                0.922796651     -107.958494
9.064                0.922463996     -108.169624
9.065                0.922130848     -108.381298
9.066                0.921797214     -108.593515
9.067                0.921463102     -108.806277
9.068                0.921128518     -109.019584
9.069                0.920793471     -109.233439
9.07                 0.920457968      -109.44784
9.071                0.920122016      -109.66279
9.072                0.919785624     -109.878289
9.073                0.919448799     -110.094338
9.074                0.919111549     -110.310937
9.075                0.918773882     -110.528089
9.076                0.918435805     -110.745793
9.077                0.918097328     -110.964051
9.078                0.917758459     -111.182863
9.079                0.917419204      -111.40223
9.08                 0.917079575     -111.622152
9.081                0.916739577     -111.842632
9.082                0.916399221     -112.063669
9.083                0.916058514     -112.285264
9.084                0.915717466     -112.507418
9.085                0.915376086     -112.730132
9.086                0.915034381     -112.953406
9.087                0.914692362     -113.177241
9.088                0.914350038     -113.401638
9.089                0.914007417     -113.626598
9.09                 0.913664509     -113.852121
9.091                0.913321322     -114.078208
9.092                0.912977868     -114.304859
9.093                0.912634155     -114.532076
9.094                0.912290192     -114.759858
9.095                0.911945991     -114.988207
9.096                0.911601559     -115.217123
9.097                0.911256908     -115.446607
9.098                0.910912047     -115.676659
9.099                0.910566986      -115.90728
9.1                  0.910221735     -116.138471
9.101                0.909876306     -116.370231
9.102                0.909530707     -116.602561
9.103                 0.90918495     -116.835463
9.104                0.908839045     -117.068936
9.105                0.908493002     -117.302981
9.106                0.908146833     -117.537599
9.107                0.907800548     -117.772789
9.108                0.907454158     -118.008553
9.109                0.907107673      -118.24489
9.11                 0.906761106     -118.481802
9.111                0.906414467     -118.719288
9.112                0.906067768     -118.957349
9.113                0.905721019     -119.195985
9.114                0.905374232     -119.435196
9.115                 0.90502742     -119.674984
9.116                0.904680592     -119.915347
9.117                0.904333761     -120.156288
9.118                 0.90398694     -120.397804
9.119                0.903640139     -120.639898
9.12                  0.90329337     -120.882569
9.121                0.902946646     -121.125818
9.122                0.902599979     -121.369644
9.123                0.902253381     -121.614048
9.124                0.901906865     -121.859029
9.125                0.901560442     -122.104589
9.126                0.901214125     -122.350727
9.127                0.900867927     -122.597444
9.128                0.900521861     -122.844738
9.129                0.900175939     -123.092611
9.13                 0.899830174     -123.341063
9.131                0.899484579     -123.590093
9.132                0.899139167     -123.839702
9.133                0.898793951     -124.089888
9.134                0.898448944     -124.340654
9.135                 0.89810416     -124.591997
9.136                0.897759612     -124.843919
9.137                0.897415313     -125.096419
9.138                0.897071277     -125.349497
9.139                0.896727517     -125.603153
9.14                 0.896384048     -125.857387
9.141                0.896040882     -126.112198
9.142                0.895698034     -126.367586
9.143                0.895355518     -126.623551
9.144                0.895013347     -126.880093
9.145                0.894671537     -127.137211
9.146                  0.8943301     -127.394906
9.147                0.893989051     -127.653176
9.148                0.893648404     -127.912021
9.149                0.893308175     -128.171442
9.15                 0.892968376     -128.431437
9.151                0.892629024     -128.692006
9.152                0.892290132     -128.953149
9.153                0.891951715     -129.214866
9.154                0.891613787     -129.477154
9.155                0.891276365     -129.740015
9.156                0.890939462     -130.003448
9.157                0.890603094     -130.267451
9.158                0.890267275     -130.532025
9.159                0.889932021     -130.797169
9.16                 0.889597347     -131.062882
9.161                0.889263268     -131.329163
9.162                  0.8889298     -131.596011
9.163                0.888596957     -131.863427
9.164                0.888264755     -132.131408
9.165                 0.88793321     -132.399955
9.166                0.887602338     -132.669066
9.167                0.887272153     -132.938741
9.168                0.886942672     -133.208978
9.169                 0.88661391     -133.479778
9.17                 0.886285883     -133.751138
9.171                0.885958607     -134.023057
9.172                0.885632097     -134.295536
9.173                0.885306371     -134.568572
9.174                0.884981443     -134.842166
9.175                0.884657329     -135.116314
9.176                0.884334047     -135.391017
9.177                0.884011611     -135.666274
9.178                0.883690039     -135.942083
9.179                0.883369346     -136.218442
9.18                 0.883049548     -136.495351
9.181                0.882730663     -136.772809
9.182                0.882412705     -137.050814
9.183                0.882095692     -137.329364
9.184                0.881779641     -137.608459
9.185                0.881464566     -137.888097
9.186                0.881150486     -138.168276
9.187                0.880837416     -138.448995
9.188                0.880525373     -138.730253
9.189                0.880214374     -139.012048
9.19                 0.879904435     -139.294378
9.191                0.879595573     -139.577243
9.192                0.879287804     -139.860639
9.193                0.878981145     -140.144566
9.194                0.878675613     -140.429023
9.195                0.878371225     -140.714006
9.196                0.878067996     -140.999514
9.197                0.877765945     -141.285547
9.198                0.877465088     -141.572101
9.199                 0.87716544     -141.859175
9.2                  0.876867021     -142.146767
9.201                0.876569845     -142.434875
9.202                0.876273929     -142.723497
9.203                0.875979292     -143.012632
9.204                0.875685948     -143.302277
9.205                0.875393916      -143.59243
9.206                0.875103211     -143.883088
9.207                0.874813851     -144.174251
9.208                0.874525852     -144.465916
9.209                0.874239232      -144.75808
9.21                 0.873954006     -145.050741
9.211                0.873670192     -145.343897
9.212                0.873387805     -145.637546
9.213                0.873106864     -145.931686
9.214                0.872827384     -146.226313
9.215                0.872549383     -146.521426
9.216                0.872272876     -146.817023
9.217                 0.87199788       -147.1131
9.218                0.871724412     -147.409655
9.219                0.871452489     -147.706686
9.22                 0.871182127      -148.00419
9.221                0.870913342     -148.302165
9.222                 0.87064615     -148.600608
9.223                0.870380569     -148.899515
9.224                0.870116614     -149.198886
9.225                0.869854302     -149.498715
9.226                0.869593648     -149.799002
9.227                 0.86933467     -150.099743
9.228                0.869077383     -150.400936
9.229                0.868821803     -150.702576
9.23                 0.868567946     -151.004662
9.231                0.868315828     -151.307191
9.232                0.868065465     -151.610159
9.233                0.867816874     -151.913564
9.234                0.867570068     -152.217402
9.235                0.867325065     -152.521671
9.236                 0.86708188     -152.826366
9.237                0.866840528     -153.131486
9.238                0.866601025     -153.437027
9.239                0.866363386     -153.742985
9.24                 0.866127627     -154.049358
9.241                0.865893762     -154.356141
9.242                0.865661807     -154.663333
9.243                0.865431776     -154.970929
9.244                0.865203685     -155.278926
9.245                0.864977549      -155.58732
9.246                0.864753382     -155.896109
9.247                0.864531198     -156.205288
9.248                0.864311013     -156.514854
9.249                0.864092841     -156.824803
9.25                 0.863876695     -157.135133
9.251                0.863662591     -157.445839
9.252                0.863450542     -157.756917
9.253                0.863240562     -158.068365
9.254                0.863032666     -158.380177
9.255                0.862826866     -158.692351
9.256                0.862623177     -159.004883
9.257                0.862421611     -159.317768
9.258                0.862222183     -159.631004
9.259                0.862024905     -159.944585
9.26                  0.86182979     -160.258509
9.261                0.861636852     -160.572771
9.262                0.861446104     -160.887367
9.263                0.861257557     -161.202294
9.264                0.861071225     -161.517547
9.265                0.860887119     -161.833122
9.266                0.860705253     -162.149015
9.267                0.860525637     -162.465222
9.268                0.860348285     -162.781738
9.269                0.860173207     -163.098561
9.27                 0.860000416     -163.415684
9.271                0.859829923     -163.733105
9.272                0.859661739     -164.050819
9.273                0.859495876     -164.368822
9.274                0.859332343     -164.687108
9.275                0.859171153     -165.005675
9.276                0.859012315     -165.324517
9.277                0.858855841     -165.643631
9.278                 0.85870174     -165.963011
9.279                0.858550023     -166.282654
9.28                 0.858400699     -166.602554
9.281                0.858253778     -166.922708
9.282                 0.85810927     -167.243111
9.283                0.857967185     -167.563758
9.284                 0.85782753     -167.884644
9.285                0.857690317     -168.205766
9.286                0.857555552     -168.527118
9.287                0.857423245     -168.848697
9.288                0.857293405     -169.170496
9.289                0.857166039     -169.492512
9.29                 0.857041155      -169.81474
9.291                0.856918762     -170.137174
9.292                0.856798867     -170.459811
9.293                0.856681477     -170.782646
9.294                0.856566601     -171.105674
9.295                0.856454243     -171.428889
9.296                0.856344413     -171.752288
9.297                0.856237116     -172.075865
9.298                0.856132358     -172.399615
9.299                0.856030146     -172.723534
9.3                  0.855930486     -173.047617
9.301                0.855833383     -173.371859
9.302                0.855738843     -173.696254
9.303                0.855646872     -174.020798
9.304                0.855557475     -174.345486
9.305                0.855470656     -174.670314
9.306                 0.85538642     -174.995275
9.307                0.855304772     -175.320365
9.308                0.855225715     -175.645579
9.309                0.855149255     -175.970912
9.31                 0.855075394     -176.296359
9.311                0.855004136     -176.621915
9.312                0.854935485     -176.947575
9.313                0.854869444     -177.273333
9.314                0.854806015     -177.599185
9.315                0.854745202     -177.925126
9.316                0.854687006      -178.25115
9.317                0.854631431     -178.577252
9.318                0.854578477     -178.903427
9.319                0.854528147     -179.229671
9.32                 0.854480442     -179.555977
9.321                0.854435364     -179.882341
9.322                0.854392913      179.791242
9.323                0.854353091      179.464777
9.324                0.854315897      179.138271
9.325                0.854281333      178.811727
9.326                0.854249399      178.485152
9.327                0.854220094      178.158549
9.328                0.854193418      177.831925
9.329                0.854169371      177.505285
9.33                 0.854147951      177.178633
9.331                0.854129158      176.851975
9.332                0.854112991      176.525317
9.333                0.854099447      176.198662
9.334                0.854088526      175.872018
9.335                0.854080225      175.545388
9.336                0.854074542      175.218777
9.337                0.854071475      174.892192
9.338                0.854071021      174.565637
9.339                0.854073178      174.239118
9.34                 0.854077941      173.912639
9.341                0.854085309      173.586207
9.342                0.854095277      173.259825
9.343                0.854107841      172.933499
9.344                0.854122997      172.607234
9.345                0.854140743      172.281036
9.346                0.854161071       171.95491
9.347                0.854183979       171.62886
9.348                0.854209462      171.302893
9.349                0.854237513      170.977012
9.35                 0.854268129      170.651223
9.351                0.854301302      170.325532
9.352                0.854337029      169.999943
9.353                0.854375301      169.674462
9.354                0.854416114      169.349093
9.355                0.854459461      169.023842
9.356                0.854505335      168.698713
9.357                 0.85455373      168.373712
9.358                0.854604638      168.048844
9.359                0.854658052      167.724114
9.36                 0.854713964      167.399527
9.361                0.854772368      167.075087
9.362                0.854833255      166.750801
9.363                0.854896616      166.426672
9.364                0.854962445      166.102705
9.365                0.855030731      165.778907
9.366                0.855101468      165.455281
9.367                0.855174644      165.131833
9.368                0.855250253      164.808567
9.369                0.855328283      164.485488
9.37                 0.855408727      164.162602
9.371                0.855491574      163.839912
9.372                0.855576814      163.517425
9.373                0.855664437      163.195144
9.374                0.855754434      162.873074
9.375                0.855846793      162.551221
9.376                0.855941505      162.229589
9.377                0.856038558      161.908182
9.378                0.856137942      161.587005
9.379                0.856239645      161.266064
9.38                 0.856343656      160.945362
9.381                0.856449965      160.624905
9.382                0.856558558      160.304697
9.383                0.856669425      159.984742
9.384                0.856782554      159.665045
9.385                0.856897932      159.345611
9.386                0.857015547      159.026444
9.387                0.857135387      158.707549
9.388                0.857257439       158.38893
9.389                0.857381691      158.070592
9.39                  0.85750813      157.752539
9.391                0.857636743      157.434775
9.392                0.857767517      157.117305
9.393                0.857900438      156.800133
9.394                0.858035493      156.483263
9.395                0.858172669      156.166701
9.396                0.858311951      155.850449
