! TOUCHSTONE file generated by CST DESIGN STUDIO
! Date and time: Tue Feb  4 18:19:09 2025
! Project name: C:\Work\MatlabApps\UnitCellOptimizationMatlab\CST\unitcell.cst
! Tree item: Tasks\Sweep1\SPara1\S-Parameters
! Header version: 2024
! Port assignment regex: !\s*Touchstone port\s*([0-9]+)\s*=\s*(CST MWS port|CST DES external port|CST DES block port)\s*(.+)\s* \(\"(.*)\"\)(\s*mode\s*([0-9]+))?.*
! Touchstone port assignment:
! Touchstone port 1 = CST DES external port 1 ("")
# GHz S MA R 50
9                    0.969095092      -67.323283
9.001                0.969024669     -67.4200898
9.002                 0.96895403     -67.5171294
9.003                0.968883175     -67.6144025
9.004                0.968812103     -67.7119099
9.005                0.968740814     -67.8096522
9.006                0.968669306     -67.9076301
9.007                 0.96859758     -68.0058445
9.008                0.968525635     -68.1042961
9.009                0.968453469     -68.2029855
9.01                 0.968381083     -68.3019137
9.011                0.968308476     -68.4010812
9.012                0.968235647     -68.5004888
9.013                0.968162595     -68.6001374
9.014                 0.96808932     -68.7000275
9.015                0.968015821     -68.8001601
9.016                0.967942098     -68.9005359
9.017                0.967868149     -69.0011555
9.018                0.967793975     -69.1020199
9.019                0.967719575     -69.2031297
9.02                 0.967644947     -69.3044857
9.021                0.967570092     -69.4060886
9.022                0.967495009     -69.5079394
9.023                0.967419696     -69.6100386
9.024                0.967344154     -69.7123872
9.025                0.967268381     -69.8149858
9.026                0.967192378     -69.9178353
9.027                0.967116143     -70.0209364
9.028                0.967039676       -70.12429
9.029                0.966962977     -70.2278967
9.03                 0.966886043     -70.3317575
9.031                0.966808876     -70.4358731
9.032                0.966731474     -70.5402442
9.033                0.966653836     -70.6448718
9.034                0.966575963     -70.7497565
9.035                0.966497852     -70.8548993
9.036                0.966419505     -70.9603008
9.037                0.966340919     -71.0659619
9.038                0.966262095     -71.1718835
9.039                0.966183032     -71.2780662
9.04                 0.966103728      -71.384511
9.041                0.966024185     -71.4912187
9.042                  0.9659444       -71.59819
9.043                0.965864373     -71.7054258
9.044                0.965784104      -71.812927
9.045                0.965703591     -71.9206942
9.046                0.965622835     -72.0287285
9.047                0.965541835     -72.1370305
9.048                 0.96546059     -72.2456012
9.049                0.965379099     -72.3544413
9.05                 0.965297361     -72.4635517
9.051                0.965215377     -72.5729333
9.052                0.965133146     -72.6825869
9.053                0.965050666     -72.7925133
9.054                0.964967937     -72.9027133
9.055                0.964884959     -73.0131879
9.056                0.964801731     -73.1239379
9.057                0.964718252     -73.2349641
9.058                0.964634522     -73.3462674
9.059                 0.96455054     -73.4578486
9.06                 0.964466306     -73.5697086
9.061                0.964381818     -73.6818483
9.062                0.964297077     -73.7942686
9.063                0.964212081     -73.9069702
9.064                 0.96412683     -74.0199541
9.065                0.964041323     -74.1332212
9.066                0.963955561     -74.2467723
9.067                0.963869541     -74.3606082
9.068                0.963783264       -74.47473
9.069                0.963696728     -74.5891384
9.07                 0.963609934     -74.7038343
9.071                0.963522881     -74.8188187
9.072                0.963435568     -74.9340924
9.073                0.963347994     -75.0496563
9.074                0.963260159     -75.1655113
9.075                0.963172063     -75.2816584
9.076                0.963083704     -75.3980983
9.077                0.962995082      -75.514832
9.078                0.962906197     -75.6318604
9.079                0.962817047     -75.7491844
9.08                 0.962727633     -75.8668049
9.081                0.962637954     -75.9847228
9.082                0.962548008     -76.1029391
9.083                0.962457797     -76.2214546
9.084                0.962367318     -76.3402703
9.085                0.962276571      -76.459387
9.086                0.962185557     -76.5788058
9.087                0.962094274     -76.6985275
9.088                0.962002721      -76.818553
9.089                0.961910899     -76.9388833
9.09                 0.961818806     -77.0595193
9.091                0.961726442      -77.180462
9.092                0.961633806     -77.3017122
9.093                0.961540899      -77.423271
9.094                0.961447719     -77.5451391
9.095                0.961354265     -77.6673177
9.096                0.961260538     -77.7898076
9.097                0.961166537     -77.9126098
9.098                 0.96107226     -78.0357252
9.099                0.960977709     -78.1591547
9.1                  0.960882881     -78.2828994
9.101                0.960787777     -78.4069601
9.102                0.960692397     -78.5313379
9.103                0.960596738     -78.6560337
9.104                0.960500802     -78.7810484
9.105                0.960404587      -78.906383
9.106                0.960308094     -79.0320385
9.107                 0.96021132     -79.1580159
9.108                0.960114267      -79.284316
9.109                0.960016933     -79.4109399
9.11                 0.959919319     -79.5378886
9.111                0.959821423     -79.6651629
9.112                0.959723245      -79.792764
9.113                0.959624784     -79.9206927
9.114                0.959526041     -80.0489501
9.115                0.959427014     -80.1775372
9.116                0.959327704     -80.3064548
9.117                0.959228109     -80.4357041
9.118                 0.95912823     -80.5652859
9.119                0.959028065     -80.6952014
9.12                 0.958927615     -80.8254514
9.121                0.958826879     -80.9560369
9.122                0.958725857      -81.086959
9.123                0.958624547     -81.2182187
9.124                 0.95852295     -81.3498169
9.125                0.958421066     -81.4817547
9.126                0.958318893     -81.6140331
9.127                0.958216432      -81.746653
9.128                0.958113682     -81.8796154
9.129                0.958010643     -82.0129215
9.13                 0.957907314     -82.1465721
9.131                0.957803695     -82.2805683
9.132                0.957699786     -82.4149111
9.133                0.957595585     -82.5496015
9.134                0.957491094     -82.6846406
9.135                0.957386311     -82.8200293
9.136                0.957281237     -82.9557687
9.137                 0.95717587     -83.0918598
9.138                0.957070211     -83.2283036
9.139                0.956964259     -83.3651011
9.14                 0.956858014     -83.5022534
9.141                0.956751475     -83.6397614
9.142                0.956644643     -83.7776263
9.143                0.956537516      -83.915849
9.144                0.956430096     -84.0544306
9.145                0.956322381     -84.1933721
9.146                0.956214371     -84.3326746
9.147                0.956106066      -84.472339
9.148                0.955997465     -84.6123664
9.149                0.955888569     -84.7527579
9.15                 0.955779377     -84.8935144
9.151                 0.95566989     -85.0346371
9.152                0.955560106     -85.1761269
9.153                0.955450025      -85.317985
9.154                0.955339648     -85.4602123
9.155                0.955228974     -85.6028099
9.156                0.955118003     -85.7457788
9.157                0.955006735     -85.8891201
9.158                 0.95489517     -86.0328349
9.159                0.954783307     -86.1769241
9.16                 0.954671146     -86.3213889
9.161                0.954558688     -86.4662303
9.162                0.954445932     -86.6114492
9.163                0.954332877     -86.7570469
9.164                0.954219525     -86.9030243
9.165                0.954105875     -87.0493825
9.166                0.953991926     -87.1961226
9.167                0.953877679     -87.3432455
9.168                0.953763134     -87.4907524
9.169                 0.95364829     -87.6386444
9.17                 0.953533148     -87.7869223
9.171                0.953417708     -87.9355875
9.172                0.953301969     -88.0846408
9.173                0.953185931     -88.2340834
9.174                0.953069595     -88.3839162
9.175                0.952952961     -88.5341405
9.176                0.952836028     -88.6847571
9.177                0.952718797     -88.8357673
9.178                0.952601268      -88.987172
9.179                 0.95248344     -89.1389723
9.18                 0.952365315     -89.2911693
9.181                0.952246891      -89.443764
9.182                 0.95212817     -89.5967575
9.183                 0.95200915     -89.7501508
9.184                0.951889833     -89.9039451
9.185                0.951770219     -90.0581414
9.186                0.951650308     -90.2127407
9.187                0.951530099     -90.3677441
9.188                0.951409593     -90.5231527
9.189                0.951288791     -90.6789675
9.19                 0.951167693     -90.8351896
9.191                0.951046298     -90.9918201
9.192                0.950924607     -91.1488599
9.193                 0.95080262     -91.3063103
9.194                0.950680338     -91.4641722
9.195                0.950557761     -91.6224466
9.196                 0.95043489     -91.7811348
9.197                0.950311724     -91.9402376
9.198                0.950188263     -92.0997562
9.199                0.950064509     -92.2596917
9.2                  0.949940462      -92.420045
9.201                0.949816122     -92.5808172
9.202                0.949691489     -92.7420095
9.203                0.949566564     -92.9036228
9.204                0.949441347     -93.0656582
9.205                 0.94931584     -93.2281168
9.206                0.949190041     -93.3909996
9.207                0.949063953     -93.5543076
9.208                0.948937575      -93.718042
9.209                0.948810907     -93.8822037
9.21                 0.948683951     -94.0467938
9.211                0.948556707     -94.2118134
9.212                0.948429176     -94.3772634
9.213                0.948301358      -94.543145
9.214                0.948173254     -94.7094592
9.215                0.948044864      -94.876207
9.216                0.947916189     -95.0433894
9.217                0.947787231     -95.2110076
9.218                0.947657988     -95.3790624
9.219                0.947528463      -95.547555
9.22                 0.947398657     -95.7164864
9.221                0.947268569     -95.8858577
9.222                  0.9471382     -96.0556697
9.223                0.947007552     -96.2259237
9.224                0.946876625     -96.3966205
9.225                0.946745421     -96.5677612
9.226                0.946613939     -96.7393469
9.227                0.946482181     -96.9113785
9.228                0.946350148     -97.0838571
9.229                0.946217841     -97.2567836
9.23                  0.94608526     -97.4301591
9.231                0.945952408     -97.6039846
9.232                0.945819283     -97.7782611
9.233                0.945685889     -97.9529895
9.234                0.945552225      -98.128171
9.235                0.945418293     -98.3038064
9.236                0.945284094     -98.4798967
9.237                 0.94514963      -98.656443
9.238                  0.9450149     -98.8334463
9.239                0.944879907     -99.0109075
9.24                 0.944744651     -99.1888275
9.241                0.944609135     -99.3672074
9.242                0.944473358     -99.5460482
9.243                0.944337323     -99.7253507
9.244                 0.94420103      -99.905116
9.245                0.944064481     -100.085345
9.246                0.943927678     -100.266039
9.247                0.943790621     -100.447198
9.248                0.943653313     -100.628824
9.249                0.943515754     -100.810917
9.25                 0.943377946     -100.993479
9.251                 0.94323989     -101.176511
9.252                0.943101589     -101.360012
9.253                0.942963043     -101.543985
9.254                0.942824254      -101.72843
9.255                0.942685223     -101.913348
9.256                0.942545953      -102.09874
9.257                0.942406445     -102.284607
9.258                  0.9422667      -102.47095
9.259                0.942126721     -102.657769
9.26                 0.941986509     -102.845067
9.261                0.941846065     -103.032842
9.262                0.941705393     -103.221097
9.263                0.941564492     -103.409832
9.264                0.941423366     -103.599048
9.265                0.941282016     -103.788746
9.266                0.941140444     -103.978927
9.267                0.940998652     -104.169592
9.268                0.940856642     -104.360741
9.269                0.940714417     -104.552375
9.27                 0.940571977     -104.744496
9.271                0.940429325     -104.937103
9.272                0.940286463     -105.130199
9.273                0.940143394     -105.323783
9.274                0.940000119     -105.517856
9.275                 0.93985664      -105.71242
9.276                0.939712961     -105.907474
9.277                0.939569083     -106.103021
9.278                0.939425008      -106.29906
9.279                0.939280739     -106.495592
9.28                 0.939136278     -106.692619
9.281                0.938991627      -106.89014
9.282                 0.93884679     -107.088157
9.283                0.938701767     -107.286671
9.284                0.938556563     -107.485681
9.285                0.938411179      -107.68519
9.286                0.938265618     -107.885196
9.287                0.938119883     -108.085702
9.288                0.937973975     -108.286708
9.289                0.937827899     -108.488215
9.29                 0.937681656     -108.690223
9.291                0.937535249     -108.892733
9.292                0.937388681     -109.095746
9.293                0.937241956     -109.299261
9.294                0.937095074     -109.503281
9.295                0.936948041     -109.707806
9.296                0.936800858     -109.912835
9.297                0.936653528     -110.118371
9.298                0.936506055     -110.324413
9.299                0.936358441     -110.530961
9.3                  0.936210689     -110.738018
9.301                0.936062803     -110.945583
9.302                0.935914786     -111.153656
9.303                0.935766641     -111.362239
9.304                 0.93561837     -111.571332
9.305                0.935469979     -111.780935
9.306                0.935321468     -111.991049
9.307                0.935172843     -112.201674
9.308                0.935024106     -112.412812
9.309                0.934875261     -112.624462
9.31                  0.93472631     -112.836625
9.311                0.934577259     -113.049301
9.312                0.934428109     -113.262491
9.313                0.934278865     -113.476195
9.314                0.934129531     -113.690414
9.315                0.933980109     -113.905149
9.316                0.933830604     -114.120398
9.317                0.933681019     -114.336164
9.318                0.933531358     -114.552446
9.319                0.933381625     -114.769245
9.32                 0.933231823     -114.986561
9.321                0.933081958     -115.204395
9.322                0.932932031     -115.422746
9.323                0.932782048     -115.641615
9.324                0.932632012     -115.861003
9.325                0.932481927     -116.080909
9.326                0.932331798     -116.301335
9.327                0.932181629     -116.522279
9.328                0.932031423     -116.743743
9.329                0.931881185     -116.965727
9.33                 0.931730919     -117.188231
9.331                0.931580629     -117.411255
9.332                 0.93143032     -117.634799
9.333                0.931279996     -117.858864
9.334                0.931129662      -118.08345
9.335                0.930979321     -118.308556
9.336                0.930828978     -118.534184
9.337                0.930678639     -118.760332
9.338                0.930528307     -118.987002
9.339                0.930377986     -119.214193
9.34                 0.930227682     -119.441906
9.341                  0.9300774      -119.67014
9.342                0.929927143     -119.898895
9.343                0.929776917     -120.128172
9.344                0.929626727     -120.357971
9.345                0.929476577     -120.588291
9.346                0.929326472     -120.819133
9.347                0.929176417     -121.050496
9.348                0.929026418      -121.28238
9.349                0.928876478     -121.514786
9.35                 0.928726603     -121.747713
9.351                0.928576799     -121.981161
9.352                 0.92842707     -122.215131
9.353                0.928277421     -122.449621
9.354                0.928127858     -122.684631
9.355                0.927978386     -122.920163
9.356                 0.92782901     -123.156214
9.357                0.927679735     -123.392786
9.358                0.927530568     -123.629878
9.359                0.927381512     -123.867489
9.36                 0.927232574      -124.10562
9.361                0.927083759     -124.344269
9.362                0.926935073     -124.583438
9.363                 0.92678652     -124.823125
9.364                0.926638108      -125.06333
9.365                 0.92648984     -125.304052
9.366                0.926341724     -125.545292
9.367                0.926193765     -125.787049
9.368                0.926045967     -126.029322
9.369                0.925898338     -126.272112
9.37                 0.925750883     -126.515417
9.371                0.925603608     -126.759237
9.372                0.925456519     -127.003571
9.373                0.925309621      -127.24842
9.374                 0.92516292     -127.493782
9.375                0.925016424     -127.739657
9.376                0.924870137     -127.986045
9.377                0.924724065     -128.232944
9.378                0.924578215     -128.480354
9.379                0.924432593     -128.728275
9.38                 0.924287205     -128.976705
9.381                0.924142058     -129.225645
9.382                0.923997157     -129.475092
9.383                0.923852508     -129.725048
9.384                0.923708118      -129.97551
9.385                0.923563994     -130.226478
9.386                0.923420142     -130.477951
9.387                0.923276567     -130.729929
9.388                0.923133277     -130.982411
9.389                0.922990278     -131.235395
9.39                 0.922847577      -131.48888
9.391                0.922705179     -131.742867
9.392                0.922563092     -131.997353
9.393                0.922421322     -132.252339
9.394                0.922279876     -132.507822
9.395                 0.92213876     -132.763802
9.396                0.921997981     -133.020278
