! TOUCHSTONE file generated by CST DESIGN STUDIO
! Date and time: Tue Feb  4 18:19:04 2025
! Project name: C:\Work\MatlabApps\UnitCellOptimizationMatlab\CST\unitcell.cst
! Tree item: Tasks\Sweep1\SPara1\S-Parameters
! Header version: 2024
! Port assignment regex: !\s*Touchstone port\s*([0-9]+)\s*=\s*(CST MWS port|CST DES external port|CST DES block port)\s*(.+)\s* \(\"(.*)\"\)(\s*mode\s*([0-9]+))?.*
! Touchstone port assignment:
! Touchstone port 1 = CST DES external port 1 ("")
# GHz S MA R 50
9                    0.967665938     -75.7544294
9.001                0.967584944     -75.8708041
9.002                0.967503704     -75.9874708
9.003                0.967422217     -76.1044307
9.004                0.967340483     -76.2216845
9.005                0.967258502     -76.3392331
9.006                0.967176273     -76.4570775
9.007                0.967093795     -76.5752185
9.008                0.967011068     -76.6936571
9.009                0.966928091     -76.8123941
9.01                 0.966844864     -76.9314304
9.011                0.966761386      -77.050767
9.012                0.966677656     -77.1704048
9.013                0.966593674     -77.2903447
9.014                 0.96650944     -77.4105875
9.015                0.966424952     -77.5311343
9.016                0.966340211     -77.6519858
9.017                0.966255216     -77.7731432
9.018                0.966169966     -77.8946072
9.019                 0.96608446     -78.0163787
9.02                 0.965998699     -78.1384588
9.021                0.965912681     -78.2608484
9.022                0.965826406     -78.3835483
9.023                0.965739874     -78.5065595
9.024                0.965653084      -78.629883
9.025                0.965566035     -78.7535196
9.026                0.965478727     -78.8774704
9.027                 0.96539116     -79.0017362
9.028                0.965303332      -79.126318
9.029                0.965215244     -79.2512168
9.03                 0.965126895     -79.3764334
9.031                0.965038284     -79.5019689
9.032                0.964949411     -79.6278242
9.033                0.964860276     -79.7540002
9.034                0.964770877     -79.8804979
9.035                0.964681215     -80.0073183
9.036                0.964591289     -80.1344622
9.037                0.964501098     -80.2619308
9.038                0.964410642     -80.3897248
9.039                 0.96431992     -80.5178454
9.04                 0.964228933     -80.6462934
9.041                0.964137679     -80.7750699
9.042                0.964046158     -80.9041757
9.043                0.963954369     -81.0336119
9.044                0.963862313     -81.1633795
9.045                0.963769989     -81.2934794
9.046                0.963677396     -81.4239125
9.047                0.963584533       -81.55468
9.048                0.963491401     -81.6857826
9.049                   0.963398     -81.8172216
9.05                 0.963304327     -81.9489977
9.051                0.963210384      -82.081112
9.052                0.963116169     -82.2135655
9.053                0.963021683     -82.3463592
9.054                0.962926925      -82.479494
9.055                0.962831894      -82.612971
9.056                 0.96273659     -82.7467912
9.057                0.962641013     -82.8809555
9.058                0.962545162     -83.0154649
9.059                0.962449037     -83.1503205
9.06                 0.962352638     -83.2855232
9.061                0.962255964      -83.421074
9.062                0.962159015      -83.556974
9.063                0.962061791     -83.6932241
9.064                0.961964291     -83.8298253
9.065                0.961866514     -83.9667787
9.066                0.961768461     -84.1040853
9.067                0.961670131     -84.2417461
9.068                0.961571525      -84.379762
9.069                 0.96147264     -84.5181341
9.07                 0.961373478     -84.6568634
9.071                0.961274038     -84.7959509
9.072                 0.96117432     -84.9353977
9.073                0.961074323     -85.0752047
9.074                0.960974047      -85.215373
9.075                0.960873492     -85.3559036
9.076                0.960772657     -85.4967975
9.077                0.960671543     -85.6380557
9.078                0.960570149     -85.7796793
9.079                0.960468475     -85.9216692
9.08                  0.96036652     -86.0640265
9.081                0.960264285     -86.2067523
9.082                0.960161769     -86.3498475
9.083                0.960058973     -86.4933132
9.084                0.959955895     -86.6371504
9.085                0.959852535     -86.7813601
9.086                0.959748894     -86.9259434
9.087                0.959644971     -87.0709013
9.088                0.959540767     -87.2162349
9.089                 0.95943628      -87.361945
9.09                 0.959331511     -87.5080329
9.091                 0.95922646     -87.6544995
9.092                0.959121127     -87.8013459
9.093                0.959015511      -87.948573
9.094                0.958909612      -88.096182
9.095                0.958803431     -88.2441739
9.096                0.958696967     -88.3925496
9.097                 0.95859022     -88.5413103
9.098                 0.95848319      -88.690457
9.099                0.958375877     -88.8399907
9.1                  0.958268282     -88.9899124
9.101                0.958160403     -89.1402233
9.102                0.958052241     -89.2909242
9.103                0.957943796     -89.4420164
9.104                0.957835068     -89.5935007
9.105                0.957726057     -89.7453783
9.106                0.957616763     -89.8976502
9.107                0.957507186     -90.0503174
9.108                0.957397326     -90.2033809
9.109                0.957287183     -90.3568419
9.11                 0.957176758     -90.5107013
9.111                 0.95706605     -90.6649602
9.112                0.956955059     -90.8196196
9.113                0.956843786     -90.9746806
9.114                0.956732231     -91.1301441
9.115                0.956620393     -91.2860113
9.116                0.956508273     -91.4422832
9.117                0.956395872     -91.5989608
9.118                0.956283189     -91.7560452
9.119                0.956170224     -91.9135373
9.12                 0.956056978     -92.0714383
9.121                0.955943451     -92.2297491
9.122                0.955829644     -92.3884708
9.123                0.955715555     -92.5476044
9.124                0.955601187      -92.707151
9.125                0.955486538     -92.8671116
9.126                 0.95537161     -93.0274872
9.127                0.955256402     -93.1882789
9.128                0.955140915     -93.3494877
9.129                0.955025149     -93.5111146
9.13                 0.954909106     -93.6731606
9.131                0.954792784     -93.8356268
9.132                0.954676184     -93.9985142
9.133                0.954559307     -94.1618238
9.134                0.954442153     -94.3255567
9.135                0.954324723     -94.4897138
9.136                0.954207017     -94.6542962
9.137                0.954089036     -94.8193049
9.138                 0.95397078      -94.984741
9.139                0.953852249     -95.1506054
9.14                 0.953733444     -95.3168991
9.141                0.953614366     -95.4836232
9.142                0.953495015     -95.6507787
9.143                0.953375392     -95.8183666
9.144                0.953255497     -95.9863878
9.145                0.953135331     -96.1548435
9.146                0.953014894     -96.3237345
9.147                0.952894188      -96.493062
9.148                0.952773212     -96.6628269
9.149                0.952651968     -96.8330301
9.15                 0.952530457     -97.0036728
9.151                0.952408678     -97.1747558
9.152                0.952286633     -97.3462802
9.153                0.952164323      -97.518247
9.154                0.952041747     -97.6906571
9.155                0.951918908     -97.8635115
9.156                0.951795806     -98.0368112
9.157                0.951672441     -98.2105572
9.158                0.951548815     -98.3847505
9.159                0.951424929      -98.559392
9.16                 0.951300783     -98.7344826
9.161                0.951176378     -98.9100234
9.162                0.951051715     -99.0860154
9.163                0.950926796     -99.2624594
9.164                0.950801621     -99.4393564
9.165                0.950676191     -99.6167074
9.166                0.950550507     -99.7945133
9.167                0.950424571     -99.9727751
9.168                0.950298383     -100.151494
9.169                0.950171944      -100.33067
9.17                 0.950045256     -100.510305
9.171                 0.94991832       -100.6904
9.172                0.949791137     -100.870955
9.173                0.949663708     -101.051971
9.174                0.949536035      -101.23345
9.175                0.949408118     -101.415392
9.176                0.949279959     -101.597799
9.177                0.949151559      -101.78067
9.178                0.949022919     -101.964007
9.179                0.948894042     -102.147812
9.18                 0.948764927     -102.332084
9.181                0.948635577     -102.516824
9.182                0.948505994     -102.702035
9.183                0.948376177     -102.887715
9.184                 0.94824613     -103.073867
9.185                0.948115853     -103.260491
9.186                0.947985348     -103.447588
9.187                0.947854617     -103.635159
9.188                 0.94772366     -103.823204
9.189                 0.94759248     -104.011725
9.19                 0.947461079     -104.200722
9.191                0.947329458     -104.390197
9.192                0.947197618     -104.580149
9.193                0.947065562      -104.77058
9.194                 0.94693329     -104.961491
9.195                0.946800806     -105.152883
9.196                 0.94666811     -105.344755
9.197                0.946535205      -105.53711
9.198                0.946402092     -105.729947
9.199                0.946268774     -105.923269
9.2                  0.946135252     -106.117074
9.201                0.946001527     -106.311364
9.202                0.945867603     -106.506141
9.203                0.945733481     -106.701404
9.204                0.945599163     -106.897154
9.205                0.945464651     -107.093393
9.206                0.945329948      -107.29012
9.207                0.945195055     -107.487337
9.208                0.945059974     -107.685045
9.209                0.944924709     -107.883243
9.21                  0.94478926     -108.081933
9.211                 0.94465363     -108.281115
9.212                0.944517822      -108.48079
9.213                0.944381838     -108.680959
9.214                0.944245679     -108.881623
9.215                 0.94410935     -109.082781
9.216                0.943972851     -109.284435
9.217                0.943836185     -109.486586
9.218                0.943699356     -109.689233
9.219                0.943562365     -109.892378
9.22                 0.943425214     -110.096022
9.221                0.943287907     -110.300164
9.222                0.943150446     -110.504805
9.223                0.943012834     -110.709946
9.224                0.942875073     -110.915588
9.225                0.942737166     -111.121731
9.226                0.942599116     -111.328376
9.227                0.942460925     -111.535523
9.228                0.942322597     -111.743172
9.229                0.942184134     -111.951325
9.23                 0.942045539     -112.159982
9.231                0.941906815     -112.369143
9.232                0.941767965     -112.578808
9.233                0.941628992     -112.788979
9.234                0.941489899     -112.999656
9.235                0.941350689     -113.210839
9.236                0.941211364     -113.422528
9.237                0.941071929     -113.634725
9.238                0.940932387     -113.847428
9.239                 0.94079274      -114.06064
9.24                 0.940652991      -114.27436
9.241                0.940513145     -114.488589
9.242                0.940373204     -114.703327
9.243                0.940233171     -114.918574
9.244                0.940093051     -115.134331
9.245                0.939952846     -115.350598
9.246                0.939812559     -115.567376
9.247                0.939672195     -115.784664
9.248                0.939531757     -116.002463
9.249                0.939391249     -116.220774
9.25                 0.939250673     -116.439596
9.251                0.939110034      -116.65893
9.252                0.938969335     -116.878777
9.253                0.938828581     -117.099135
9.254                0.938687774     -117.320006
9.255                0.938546918      -117.54139
9.256                0.938406018     -117.763287
9.257                0.938265077     -117.985697
9.258                0.938124099      -118.20862
9.259                0.937983088     -118.432057
9.26                 0.937842048     -118.656008
9.261                0.937700982     -118.880472
9.262                0.937559896      -119.10545
9.263                0.937418793     -119.330941
9.264                0.937277677     -119.556947
9.265                0.937136552     -119.783467
9.266                0.936995423     -120.010501
9.267                0.936854293     -120.238049
9.268                0.936713167     -120.466111
9.269                 0.93657205     -120.694687
9.27                 0.936430945     -120.923778
9.271                0.936289857     -121.153382
9.272                 0.93614879     -121.383501
9.273                0.936007749     -121.614133
9.274                0.935866739     -121.845279
9.275                0.935725763     -122.076939
9.276                0.935584827     -122.309113
9.277                0.935443935       -122.5418
9.278                0.935303091        -122.775
9.279                  0.9351623     -123.008714
9.28                 0.935021568      -123.24294
9.281                0.934880898     -123.477679
9.282                0.934740295     -123.712931
9.283                0.934599765     -123.948695
9.284                0.934459312     -124.184971
9.285                0.934318941     -124.421759
9.286                0.934178658     -124.659059
9.287                0.934038465     -124.896869
9.288                 0.93389837      -125.13519
9.289                0.933758377     -125.374022
9.29                 0.933618491     -125.613364
9.291                0.933478717     -125.853215
9.292                 0.93333906     -126.093576
9.293                0.933199526     -126.334445
9.294                0.933060119     -126.575823
9.295                0.932920845     -126.817709
9.296                0.932781709     -127.060102
9.297                0.932642717     -127.303002
9.298                0.932503873     -127.546409
9.299                0.932365184     -127.790321
9.3                  0.932226654     -128.034739
9.301                0.932088289     -128.279661
9.302                0.931950095     -128.525087
9.303                0.931812076     -128.771017
9.304                 0.93167424     -129.017449
9.305                 0.93153659     -129.264383
9.306                0.931399133     -129.511819
9.307                0.931261875     -129.759756
9.308                 0.93112482     -130.008192
9.309                0.930987976     -130.257128
9.31                 0.930851346     -130.506562
9.311                0.930714939     -130.756493
9.312                0.930578758     -131.006922
9.313                 0.93044281     -131.257846
9.314                  0.9303071     -131.509265
9.315                0.930171636     -131.761178
9.316                0.930036421     -132.013585
9.317                0.929901463     -132.266484
9.318                0.929766768     -132.519874
9.319                0.929632341     -132.773754
9.32                 0.929498189     -133.028124
9.321                0.929364316     -133.282982
9.322                0.929230731     -133.538327
9.323                0.929097438     -133.794158
9.324                0.928964444     -134.050475
9.325                0.928831754     -134.307275
9.326                0.928699376     -134.564558
9.327                0.928567315     -134.822323
9.328                0.928435578     -135.080568
9.329                 0.92830417     -135.339292
9.33                 0.928173099     -135.598495
9.331                0.928042369     -135.858174
9.332                0.927911988     -136.118328
9.333                0.927781963     -136.378956
9.334                0.927652298     -136.640058
9.335                0.927523001      -136.90163
9.336                0.927394078     -137.163673
9.337                0.927265536     -137.426184
9.338                 0.92713738     -137.689162
9.339                0.927009618     -137.952606
9.34                 0.926882256     -138.216514
9.341                  0.9267553     -138.480885
9.342                0.926628756     -138.745717
9.343                0.926502632     -139.011008
9.344                0.926376934     -139.276758
9.345                0.926251667     -139.542964
9.346                 0.92612684     -139.809624
9.347                0.926002458     -140.076738
9.348                0.925878529     -140.344303
9.349                0.925755057     -140.612318
9.35                 0.925632051      -140.88078
9.351                0.925509517     -141.149689
9.352                0.925387461     -141.419043
9.353                 0.92526589     -141.688838
9.354                0.925144811     -141.959075
9.355                 0.92502423      -142.22975
9.356                0.924904154     -142.500863
9.357                0.924784589      -142.77241
9.358                0.924665543     -143.044391
9.359                0.924547022     -143.316803
9.36                 0.924429032     -143.589643
9.361                 0.92431158     -143.862911
9.362                0.924194673     -144.136604
9.363                0.924078318     -144.410721
9.364                 0.92396252     -144.685258
9.365                0.923847288     -144.960213
9.366                0.923732627     -145.235586
9.367                0.923618545     -145.511373
9.368                0.923505047     -145.787572
9.369                 0.92339214     -146.064181
9.37                 0.923279832     -146.341199
9.371                0.923168128     -146.618621
9.372                0.923057036     -146.896447
9.373                0.922946562     -147.174674
9.374                0.922836713     -147.453299
9.375                0.922727494      -147.73232
9.376                0.922618914     -148.011736
9.377                0.922510978     -148.291542
9.378                0.922403693     -148.571737
9.379                0.922297065     -148.852319
9.38                 0.922191102     -149.133285
9.381                0.922085809     -149.414632
9.382                0.921981193     -149.696357
9.383                0.921877262     -149.978459
9.384                 0.92177402     -150.260935
9.385                0.921671475     -150.543781
9.386                0.921569632     -150.826996
9.387                  0.9214685     -151.110577
9.388                0.921368083      -151.39452
9.389                0.921268389     -151.678824
9.39                 0.921169423     -151.963485
9.391                0.921071192       -152.2485
9.392                0.920973702     -152.533868
9.393                0.920876961     -152.819584
9.394                0.920780972     -153.105647
9.395                0.920685744     -153.392053
9.396                0.920591283     -153.678799
