! TOUCHSTONE file generated by CST DESIGN STUDIO
! Date and time: Tue Feb  4 18:19:12 2025
! Project name: C:\Work\MatlabApps\UnitCellOptimizationMatlab\CST\unitcell.cst
! Tree item: Tasks\Sweep1\SPara1\S-Parameters
! Header version: 2024
! Port assignment regex: !\s*Touchstone port\s*([0-9]+)\s*=\s*(CST MWS port|CST DES external port|CST DES block port)\s*(.+)\s* \(\"(.*)\"\)(\s*mode\s*([0-9]+))?.*
! Touchstone port assignment:
! Touchstone port 1 = CST DES external port 1 ("")
# GHz S MA R 50
9                    0.970215294      -61.455841
9.001                0.970153081     -61.5403131
9.002                0.970090677     -61.6249804
9.003                0.970028082     -61.7098433
9.004                0.969965294     -61.7949027
9.005                0.969902314     -61.8801589
9.006                0.969839141     -61.9656127
9.007                0.969775774     -62.0512647
9.008                0.969712213     -62.1371156
9.009                0.969648456     -62.2231658
9.01                 0.969584504     -62.3094161
9.011                0.969520355     -62.3958671
9.012                 0.96945601     -62.4825193
9.013                0.969391467     -62.5693735
9.014                0.969326726     -62.6564303
9.015                0.969261786     -62.7436903
9.016                0.969196647     -62.8311541
9.017                0.969131308     -62.9188225
9.018                0.969065769     -63.0066959
9.019                0.969000028     -63.0947751
9.02                 0.968934085     -63.1830607
9.021                 0.96886794     -63.2715534
9.022                0.968801592     -63.3602538
9.023                0.968735041     -63.4491626
9.024                0.968668285     -63.5382803
9.025                0.968601324     -63.6276078
9.026                0.968534157     -63.7171456
9.027                0.968466785     -63.8068944
9.028                0.968399205     -63.8968548
9.029                0.968331418     -63.9870276
9.03                 0.968263423     -64.0774134
9.031                0.968195219     -64.1680128
9.032                0.968126806     -64.2588266
9.033                0.968058183     -64.3498554
9.034                 0.96798935     -64.4410998
9.035                0.967920305     -64.5325607
9.036                0.967851048     -64.6242386
9.037                0.967781579     -64.7161342
9.038                0.967711896     -64.8082482
9.039                   0.967642     -64.9005814
9.04                 0.967571889     -64.9931343
9.041                0.967501563     -65.0859077
9.042                0.967431021     -65.1789024
9.043                0.967360263     -65.2721189
9.044                0.967289288      -65.365558
9.045                0.967218096     -65.4592203
9.046                0.967146684     -65.5531067
9.047                0.967075054     -65.6472177
9.048                0.967003205     -65.7415542
9.049                0.966931135     -65.8361168
9.05                 0.966858844     -65.9309062
9.051                0.966786331     -66.0259231
9.052                0.966713597     -66.1211683
9.053                0.966640639     -66.2166425
9.054                0.966567458     -66.3123464
9.055                0.966494053     -66.4082808
9.056                0.966420423     -66.5044462
9.057                0.966346567     -66.6008436
9.058                0.966272485     -66.6974736
9.059                0.966198176      -66.794337
9.06                  0.96612364     -66.8914344
9.061                0.966048876     -66.9887667
9.062                0.965973883     -67.0863345
9.063                 0.96589866     -67.1841387
9.064                0.965823207     -67.2821799
9.065                0.965747524      -67.380459
9.066                0.965671609     -67.4789766
9.067                0.965595462     -67.5777335
9.068                0.965519082     -67.6767305
9.069                0.965442469     -67.7759683
9.07                 0.965365622     -67.8754477
9.071                 0.96528854     -67.9751695
9.072                0.965211222     -68.0751344
9.073                0.965133669     -68.1753431
9.074                0.965055878     -68.2757966
9.075                0.964977851     -68.3764954
9.076                0.964899585     -68.4774405
9.077                 0.96482108     -68.5786326
9.078                0.964742336     -68.6800724
9.079                0.964663352     -68.7817607
9.08                 0.964584128     -68.8836984
9.081                0.964504662     -68.9858863
9.082                0.964424953      -69.088325
9.083                0.964345002     -69.1910154
9.084                0.964264808     -69.2939583
9.085                 0.96418437     -69.3971545
9.086                0.964103687     -69.5006048
9.087                0.964022758       -69.60431
9.088                0.963941583     -69.7082709
9.089                0.963860162     -69.8124883
9.09                 0.963778493      -69.916963
9.091                0.963696577     -70.0216959
9.092                0.963614411     -70.1266876
9.093                0.963531996     -70.2319392
9.094                0.963449332     -70.3374513
9.095                0.963366416     -70.4432248
9.096                0.963283249     -70.5492605
9.097                 0.96319983     -70.6555593
9.098                0.963116158     -70.7621219
9.099                0.963032233     -70.8689493
9.1                  0.962948054     -70.9760422
9.101                0.962863621     -71.0834014
9.102                0.962778932     -71.1910279
9.103                0.962693987     -71.2989225
9.104                0.962608785     -71.4070859
9.105                0.962523326     -71.5155191
9.106                0.962437609     -71.6242229
9.107                0.962351633     -71.7331981
9.108                0.962265399     -71.8424456
9.109                0.962178904     -71.9519663
9.11                 0.962092149      -72.061761
9.111                0.962005132     -72.1718306
9.112                0.961917854     -72.2821759
9.113                0.961830313     -72.3927978
9.114                0.961742509     -72.5036972
9.115                0.961654441     -72.6148749
9.116                0.961566108     -72.7263319
9.117                0.961477511     -72.8380689
9.118                0.961388648     -72.9500869
9.119                0.961299518     -73.0623868
9.12                 0.961210121     -73.1749694
9.121                0.961120457     -73.2878356
9.122                0.961030524     -73.4009863
9.123                0.960940323     -73.5144224
9.124                0.960849852     -73.6281448
9.125                 0.96075911     -73.7421544
9.126                0.960668098      -73.856452
9.127                0.960576814     -73.9710387
9.128                0.960485259     -74.0859152
9.129                 0.96039343     -74.2010825
9.13                 0.960301329     -74.3165415
9.131                0.960208953     -74.4322931
9.132                0.960116303     -74.5483383
9.133                0.960023377     -74.6646778
9.134                0.959930176     -74.7813127
9.135                0.959836698     -74.8982439
9.136                0.959742944     -75.0154723
9.137                0.959648911     -75.1329988
9.138                0.959554601     -75.2508243
9.139                0.959460011     -75.3689498
9.14                 0.959365143     -75.4873762
9.141                0.959269994     -75.6061044
9.142                0.959174565     -75.7251354
9.143                0.959078854     -75.8444701
9.144                0.958982862     -75.9641095
9.145                0.958886587     -76.0840544
9.146                0.958790029     -76.2043059
9.147                0.958693188     -76.3248649
9.148                0.958596063     -76.4457323
9.149                0.958498653     -76.5669091
9.15                 0.958400957     -76.6883962
9.151                0.958302976     -76.8101946
9.152                0.958204709     -76.9323053
9.153                0.958106155     -77.0547292
9.154                0.958007313     -77.1774673
9.155                0.957908183     -77.3005205
9.156                0.957808765     -77.4238899
9.157                0.957709057     -77.5475763
9.158                 0.95760906     -77.6715808
9.159                0.957508773     -77.7959044
9.16                 0.957408195     -77.9205479
9.161                0.957307326     -78.0455125
9.162                0.957206165      -78.170799
9.163                0.957104711     -78.2964085
9.164                0.957002965     -78.4223419
9.165                0.956900926     -78.5486003
9.166                0.956798593     -78.6751845
9.167                0.956695965     -78.8020957
9.168                0.956593043     -78.9293348
9.169                0.956489825     -79.0569028
9.17                 0.956386312     -79.1848007
9.171                0.956282502     -79.3130296
9.172                0.956178396     -79.4415903
9.173                0.956073993     -79.5704839
9.174                0.955969292     -79.6997115
9.175                0.955864292      -79.829274
9.176                0.955758995     -79.9591724
9.177                0.955653398     -80.0894078
9.178                0.955547502     -80.2199812
9.179                0.955441305     -80.3508935
9.18                 0.955334809     -80.4821459
9.181                0.955228012     -80.6137393
9.182                0.955120914     -80.7456747
9.183                0.955013514     -80.8779532
9.184                0.954905812     -81.0105759
9.185                0.954797808     -81.1435436
9.186                0.954689501     -81.2768575
9.187                0.954580891     -81.4105186
9.188                0.954471978      -81.544528
9.189                0.954362761     -81.6788866
9.19                 0.954253239     -81.8135955
9.191                0.954143413     -81.9486557
9.192                0.954033282     -82.0840684
9.193                0.953922846     -82.2198345
9.194                0.953812104      -82.355955
9.195                0.953701056     -82.4924311
9.196                0.953589702     -82.6292637
9.197                0.953478041     -82.7664539
9.198                0.953366073     -82.9040029
9.199                0.953253799     -83.0419115
9.2                  0.953141217     -83.1801809
9.201                0.953028327     -83.3188122
9.202                0.952915129     -83.4578063
9.203                0.952801623     -83.5971644
9.204                0.952687808     -83.7368875
9.205                0.952573685     -83.8769767
9.206                0.952459253      -84.017433
9.207                0.952344512     -84.1582576
9.208                0.952229461     -84.2994514
9.209                  0.9521141     -84.4410155
9.21                  0.95199843      -84.582951
9.211                 0.95188245      -84.725259
9.212                 0.95176616     -84.8679406
9.213                0.951649559     -85.0109968
9.214                0.951532648     -85.1544287
9.215                0.951415426     -85.2982374
9.216                0.951297893     -85.4424239
9.217                 0.95118005     -85.5869893
9.218                0.951061895     -85.7319348
9.219                 0.95094343     -85.8772613
9.22                 0.950824653       -86.02297
9.221                0.950705565     -86.1690619
9.222                0.950586166     -86.3155382
9.223                0.950466455     -86.4623999
9.224                0.950346433     -86.6096481
9.225                0.950226099     -86.7572838
9.226                0.950105454     -86.9053083
9.227                0.949984498     -87.0537225
9.228                 0.94986323     -87.2025276
9.229                 0.94974165     -87.3517245
9.23                 0.949619759     -87.5013146
9.231                0.949497556     -87.6512987
9.232                0.949375043      -87.801678
9.233                0.949252217     -87.9524537
9.234                0.949129081     -88.1036267
9.235                0.949005634     -88.2551982
9.236                0.948881875     -88.4071693
9.237                0.948757806      -88.559541
9.238                0.948633425     -88.7123145
9.239                0.948508735     -88.8654909
9.24                 0.948383733     -89.0190712
9.241                0.948258422     -89.1730566
9.242                  0.9481328     -89.3274481
9.243                0.948006869     -89.4822468
9.244                0.947880628     -89.6374538
9.245                0.947754077     -89.7930703
9.246                0.947627218     -89.9490973
9.247                0.947500049     -90.1055359
9.248                0.947372572     -90.2623872
9.249                0.947244786     -90.4196523
9.25                 0.947116693     -90.5773323
9.251                0.946988292     -90.7354283
9.252                0.946859583     -90.8939414
9.253                0.946730568     -91.0528726
9.254                0.946601246     -91.2122232
9.255                0.946471618      -91.371994
9.256                0.946341684     -91.5321864
9.257                0.946211445     -91.6928013
9.258                0.946080901     -91.8538398
9.259                0.945950052     -92.0153031
9.26                   0.9458189     -92.1771922
9.261                0.945687444     -92.3395081
9.262                0.945555686     -92.5022521
9.263                0.945423625     -92.6654252
9.264                0.945291262     -92.8290284
9.265                0.945158598     -92.9930629
9.266                0.945025634     -93.1575298
9.267                 0.94489237       -93.32243
9.268                0.944758806     -93.4877648
9.269                0.944624944     -93.6535351
9.27                 0.944490783     -93.8197421
9.271                0.944356326     -93.9863869
9.272                0.944221571     -94.1534705
9.273                0.944086521     -94.3209939
9.274                0.943951176     -94.4889584
9.275                0.943815537     -94.6573649
9.276                0.943679604     -94.8262145
9.277                0.943543379     -94.9955083
9.278                0.943406862     -95.1652473
9.279                0.943270053     -95.3354326
9.28                 0.943132955     -95.5060654
9.281                0.942995568     -95.6771465
9.282                0.942857892     -95.8486772
9.283                 0.94271993     -96.0206584
9.284                0.942581681     -96.1930912
9.285                0.942443147     -96.3659767
9.286                0.942304329     -96.5393158
9.287                0.942165227     -96.7131098
9.288                0.942025844     -96.8873595
9.289                0.941886179     -97.0620661
9.29                 0.941746235     -97.2372305
9.291                0.941606012     -97.4128539
9.292                0.941465512     -97.5889372
9.293                0.941324735     -97.7654815
9.294                0.941183683     -97.9424879
9.295                0.941042358     -98.1199572
9.296                 0.94090076     -98.2978906
9.297                0.940758891     -98.4762891
9.298                0.940616751     -98.6551536
9.299                0.940474344     -98.8344853
9.3                  0.940331669     -99.0142851
9.301                0.940188729     -99.1945539
9.302                0.940045524     -99.3752929
9.303                0.939902056      -99.556503
9.304                0.939758328     -99.7381852
9.305                0.939614339     -99.9203405
9.306                0.939470092      -100.10297
9.307                0.939325589     -100.286074
9.308                 0.93918083     -100.469655
9.309                0.939035818     -100.653712
9.31                 0.938890555     -100.838247
9.311                0.938745041     -101.023262
9.312                0.938599279     -101.208756
9.313                0.938453271     -101.394731
9.314                0.938307017     -101.581188
9.315                0.938160521     -101.768127
9.316                0.938013784      -101.95555
9.317                0.937866808     -102.143458
9.318                0.937719594     -102.331852
9.319                0.937572145     -102.520731
9.32                 0.937424463     -102.710098
9.321                0.937276549     -102.899954
9.322                0.937128406     -103.090298
9.323                0.936980035     -103.281133
9.324                 0.93683144     -103.472459
9.325                0.936682621     -103.664276
9.326                0.936533582     -103.856586
9.327                0.936384324      -104.04939
9.328                 0.93623485     -104.242689
9.329                0.936085161     -104.436482
9.33                 0.935935261     -104.630772
9.331                0.935785151     -104.825559
9.332                0.935634834     -105.020844
9.333                0.935484312     -105.216628
9.334                0.935333588     -105.412911
9.335                0.935182664     -105.609694
9.336                0.935031543     -105.806979
9.337                0.934880228     -106.004766
9.338                 0.93472872     -106.203055
9.339                0.934577022     -106.401848
9.34                 0.934425138     -106.601146
9.341                 0.93427307     -106.800948
9.342                 0.93412082     -107.001257
9.343                0.933968391     -107.202072
9.344                0.933815787     -107.403395
9.345                0.933663009     -107.605226
9.346                0.933510061     -107.807565
9.347                0.933356947     -108.010415
9.348                0.933203667     -108.213774
9.349                0.933050227     -108.417645
9.35                 0.932896628     -108.622027
9.351                0.932742874     -108.826922
9.352                0.932588968      -109.03233
9.353                0.932434913     -109.238252
9.354                0.932280712     -109.444688
9.355                0.932126368      -109.65164
9.356                0.931971886     -109.859107
9.357                0.931817267      -110.06709
9.358                0.931662516     -110.275591
9.359                0.931507635     -110.484609
9.36                 0.931352629     -110.694145
9.361                  0.9311975       -110.9042
9.362                0.931042252     -111.114775
9.363                0.930886889     -111.325869
9.364                0.930731414     -111.537484
9.365                0.930575832      -111.74962
9.366                0.930420144     -111.962277
9.367                0.930264356     -112.175457
9.368                0.930108471     -112.389159
9.369                0.929952493     -112.603384
9.37                 0.929796425     -112.818133
9.371                0.929640272     -113.033406
9.372                0.929484037     -113.249204
9.373                0.929327725     -113.465526
9.374                0.929171339     -113.682374
9.375                0.929014883     -113.899748
9.376                0.928858362     -114.117648
9.377                0.928701779     -114.336075
9.378                0.928545139     -114.555029
9.379                0.928388447      -114.77451
9.38                 0.928231705     -114.994519
9.381                0.928074919     -115.215056
9.382                0.927918093     -115.436122
9.383                0.927761231     -115.657716
9.384                0.927604338      -115.87984
9.385                0.927447418     -116.102493
9.386                0.927290475     -116.325675
9.387                0.927133515     -116.549388
9.388                0.926976542      -116.77363
9.389                 0.92681956     -116.998404
9.39                 0.926662574     -117.223707
9.391                 0.92650559     -117.449542
9.392                 0.92634861     -117.675908
9.393                0.926191642     -117.902805
9.394                0.926034688     -118.130233
9.395                0.925877755     -118.358192
9.396                0.925720847     -118.586684
